Labgrid Console Logfile for main
Logfile started at 2025-02-11 11:48:50.146812
=== Log starts here ===

root@arm:~# run() { echo -n "$MARKER"; sh -c "$@"; echo "$MARKER $?"; }
root@arm:~# echo 'HTBN''PZEOTC'
HTBNPZEOTC
root@arm:~# MARKER='YAKB''WNEWWK' run 'grep -r -l rohm,bd71837 /proc/device-tree  | sed '"'"'s![^/]*$!!'"'"''
YAKBWNEWWK/proc/device-tree/ocp/interconnect@48000000/segment@100000/target-module@9c000/i2c@0/pmic@4b/
YAKBWNEWWK 0
root@arm:~# echo 'VXUK''TMSYJA'
VXUKTMSYJA
root@arm:~# MARKER='UAUE''BUAJNQ' run 'test -f /proc/device-tree/ocp/interconnectt\@48000000/segment\@100000/target-module\@9c000/i2c\@0/pmic\@4b/regulators/BUCK11/rohm,no-regulator-enable-control ;echo $?'
UAUEBUAJNQ1
UAUEBUAJNQ 0
root@arm:~# echo 'SFCQ''VALTVO'
SFCQVALTVO
root@arm:~# MARKER='ZVPS''XMNXQY' run 'echo 1 > /sys/kernel/mva_test/regulators/bbuck1_en'
ZVPSXMNXQYZVPSXMNXQY 0
root@arm:~# echo 'AEXE''WXMYQU'
AEXEWXMYQU
root@arm:~# MARKER='OOSC''TBKHCA' run 'i2cget -y -f 2 0x4b 0x5'
OOSCTBKHCA0x03
OOSCTBKHCA 0
root@arm:~# echo 'LXZH''QXTZZH'
LXZHQXTZZH
root@arm:~# MARKER='ZWAB''ZTPWYY' run 'grep -r -l rohm,bd71837 /proc/device-tree  | sed '"'"'s![^/]*$!!'"'"''
ZWABZTPWYY/proc/device-tree/ocp/interconnect@48000000/segment@100000/target-module@9c000/i2c@0/pmic@4b/
ZWABZTPWYY 0
root@arm:~# echo 'SZON''CXLGAE'
SZONCXLGAE
root@arm:~# MARKER='QSGJ''TVGJMN' run 'test -f /proc/device-tree/ocp/interconnectt\@48000000/segment\@100000/target-module\@9c000/i2c\@0/pmic\@4b/regulators/BUCK11/rohm,no-regulator-enable-control ;echo $?'
QSGJTVGJMN1
QSGJTVGJMN 0
root@arm:~# echo 'HHLK''ZZCVXC'
HHLKZZCVXC
root@arm:~# MARKER='WKSQ''ZPQGZU' run 'grep -r -l rohm,bd71837 /proc/device-tree  | sed '"'"'s![^/]*$!!'"'"''
WKSQZPQGZU/proc/device-tree/ocp/interconnect@48000000/segment@100000/target-module@9c000/i2c@0/pmic@4b/
WKSQZPQGZU 0
root@arm:~# echo 'LWHU''MEWSXA'
LWHUMEWSXA
root@arm:~# MARKER='QPMH''BYKEYS' run 'test -f /proc/device-tree/ocp/interconnectt\@48000000/segment\@100000/target-module\@9c000/i2c\@0/pmic\@4b/regulators/BUCK11/regulator-always-on ;echo $?'
QPMHBYKEYS1
QPMHBYKEYS 0
root@arm:~# echo 'VBSJ''HBYOUG'
VBSJHBYOUG
root@arm:~# MARKER='XAXG''EZEEXK' run 'echo 0 > /sys/kernel/mva_test/regulators/bbuck1_en'
XAXGEZEEXKXAXGEZEEXK 0
root@arm:~# echo 'GANV''NVSUOQ'
GANVNVSUOQ
root@arm:~# MARKER='QSUY''YGMHNT' run 'i2cget -y -f 2 0x4b 0x5'
QSUYYGMHNT0x02
QSUYYGMHNT 0
root@arm:~# echo 'VVOU''BQFVNK'
VVOUBQFVNK
root@arm:~# MARKER='PUGG''GWCWLM' run 'grep -r -l rohm,bd71837 /proc/device-tree  | sed '"'"'s![^/]*$!!'"'"''
PUGGGWCWLM/proc/device-tree/ocp/interconnect@48000000/segment@100000/target-module@9c000/i2c@0/pmic@4b/
PUGGGWCWLM 0
root@arm:~# echo 'KNPJ''NGQLLP'
KNPJNGQLLP
root@arm:~# MARKER='KQGC''HCMZHH' run 'test -f /proc/device-tree/ocp/interconnectt\@48000000/segment\@100000/target-module\@9c000/i2c\@0/pmic\@4b/regulators/BUCK22/rohm,no-regulator-enable-control ;echo $?'
KQGCHCMZHH1
KQGCHCMZHH 0
root@arm:~# echo 'KZVS''UWMJYE'
KZVSUWMJYE
root@arm:~# MARKER='VVBP''TMWBZQ' run 'echo 1 > /sys/kernel/mva_test/regulators/bbuck2_en'
VVBPTMWBZQVVBPTMWBZQ 0
root@arm:~# echo 'JXVA''UOGLHO'
JXVAUOGLHO
root@arm:~# MARKER='EPSJ''UEGGHQ' run 'i2cget -y -f 2 0x4b 0x6'
EPSJUEGGHQ0x43
EPSJUEGGHQ 0
root@arm:~# echo 'ZUQL''XCMVZC'
ZUQLXCMVZC
root@arm:~# MARKER='LOSN''QQYSOG' run 'grep -r -l rohm,bd71837 /proc/device-tree  | sed '"'"'s![^/]*$!!'"'"''
LOSNQQYSOG/proc/device-tree/ocp/interconnect@48000000/segment@100000/target-module@9c000/i2c@0/pmic@4b/
LOSNQQYSOG 0
root@arm:~# echo 'FZQZ''SACFJS'
FZQZSACFJS
root@arm:~# MARKER='KABS''ZJVNPG' run 'test -f /proc/device-tree/ocp/interconnectt\@48000000/segment\@100000/target-module\@9c000/i2c\@0/pmic\@4b/regulators/BUCK22/rohm,no-regulator-enable-control ;echo $?'
KABSZJVNPG1
KABSZJVNPG 0
root@arm:~# echo 'ETNV''ACNQHH'
ETNVACNQHH
root@arm:~# MARKER='NBZH''JJTVJK' run 'grep -r -l rohm,bd71837 /proc/device-tree  | sed '"'"'s![^/]*$!!'"'"''
NBZHJJTVJK/proc/device-tree/ocp/interconnect@48000000/segment@100000/target-module@9c000/i2c@0/pmic@4b/
NBZHJJTVJK 0
root@arm:~# echo 'QZJG''LSCBBN'
QZJGLSCBBN
root@arm:~# MARKER='FHXS''KUMWWN' run 'test -f /proc/device-tree/ocp/interconnectt\@48000000/segment\@100000/target-module\@9c000/i2c\@0/pmic\@4b/regulators/BUCK22/regulator-always-on ;echo $?'
FHXSKUMWWN0
FHXSKUMWWN 0
root@arm:~# echo 'HZSG''NVLGGN'
HZSGNVLGGN
root@arm:~# MARKER='AHJX''NHLGEH' run 'grep -r -l rohm,bd71837 /proc/device-tree  | sed '"'"'s![^/]*$!!'"'"''
AHJXNHLGEH/proc/device-tree/ocp/interconnect@48000000/segment@100000/target-module@9c000/i2c@0/pmic@4b/
AHJXNHLGEH 0
root@arm:~# echo 'BPQT''NMLAEL'
BPQTNMLAEL
root@arm:~# MARKER='FGCZ''OJAOFG' run 'test -f /proc/device-tree/ocp/interconnectt\@48000000/segment\@100000/target-module\@9c000/i2c\@0/pmic\@4b/regulators/BUCK33/rohm,no-regulator-enable-control ;echo $?'
FGCZOJAOFG0
FGCZOJAOFG 0
root@arm:~# echo 'EYXM''OHAFWG'
EYXMOHAFWG
root@arm:~# MARKER='JLBY''FYWOJM' run 'grep -r -l rohm,bd71837 /proc/device-tree  | sed '"'"'s![^/]*$!!'"'"''
JLBYFYWOJM/proc/device-tree/ocp/interconnect@48000000/segment@100000/target-module@9c000/i2c@0/pmic@4b/
JLBYFYWOJM 0
root@arm:~# echo 'NSSN''FQVEEZ'
NSSNFQVEEZ
root@arm:~# MARKER='YLAY''KJLUUJ' run 'test -f /proc/device-tree/ocp/interconnectt\@48000000/segment\@100000/target-module\@9c000/i2c\@0/pmic\@4b/regulators/BUCK 3/rohm,no-regulator-enable-control ;echo $?'
YLAYKJLUUJ0
YLAYKJLUUJ 0
root@arm:~# echo 'FNPQ''JPSVKA'
FNPQJPSVKA
root@arm:~# MARKER='OZKY''HQFXVN' run 'grep -r -l rohm,bd71837 /proc/device-tree  | sed '"'"'s![^/]*$!!'"'"''
OZKYHQFXVN/proc/device-tree/ocp/interconnect@48000000/segment@100000/target-module@9c000/i2c@0/pmic@4b/
OZKYHQFXVN 0
root@arm:~# echo 'WWSS''VJVTUP'
WWSSVJVTUP
root@arm:~# MARKER='SABZ''ZAHCGA' run 'test -f /proc/device-tree/ocp/interconnectt\@48000000/segment\@100000/target-module\@9c000/i2c\@0/pmic\@4b/regulators/BUCK 4/rohm,no-regulator-enable-control ;echo $?'
SABZZAHCGA1
SABZZAHCGA 0
root@arm:~# echo 'WYHW''CYKCOZ'
WYHWCYKCOZ
root@arm:~# MARKER='HTZA''OUMEWC' run 'echo 1 > /sys/kernel/mva_test/regulators/bbuck4_en'
HTZAOUMEWCHTZAOUMEWC 0
root@arm:~# echo 'PMVF''OJXOPO'
PMVFOJXOPO
root@arm:~# MARKER='FAEQ''NGOXKK' run 'i2cget -y -f 2 0x4b 0x8'
FAEQNGOXKK0xc7
FAEQNGOXKK 0
root@arm:~# echo 'OXGS''OVEJMU'
OXGSOVEJMU
root@arm:~# MARKER='BVTK''GPALHM' run 'grep -r -l rohm,bd71837 /proc/device-tree  | sed '"'"'s![^/]*$!!'"'"''
BVTKGPALHM/proc/device-tree/ocp/interconnect@48000000/segment@100000/target-module@9c000/i2c@0/pmic@4b/
BVTKGPALHM 0
root@arm:~# echo 'JFGW''YBWLFZ'
JFGWYBWLFZ
root@arm:~# MARKER='JVNU''WJFWLN' run 'test -f /proc/device-tree/ocp/interconnectt\@48000000/segment\@100000/target-module\@9c000/i2c\@0/pmic\@4b/regulators/BUCK44/rohm,no-regulator-enable-control ;echo $?'
JVNUWJFWLN1
JVNUWJFWLN 0
root@arm:~# echo 'XYGU''YNEOML'
XYGUYNEOML
root@arm:~# MARKER='PZEK''WTAJGL' run 'grep -r -l rohm,bd71837 /proc/device-tree  | sed '"'"'s![^/]*$!!'"'"''
PZEKWTAJGL/proc/device-tree/ocp/interconnect@48000000/segment@100000/target-module@9c000/i2c@0/pmic@4b/
PZEKWTAJGL 0
root@arm:~# echo 'ZGHA''EUCHBU'
ZGHAEUCHBU
root@arm:~# MARKER='NPUG''MCTUTM' run 'test -f /proc/device-tree/ocp/interconnectt\@48000000/segment\@100000/target-module\@9c000/i2c\@0/pmic\@4b/regulators/BUCK44/regulator-always-on ;echo $?'
NPUGMCTUTM1
NPUGMCTUTM 0
root@arm:~# echo 'SAWW''UWKJVJ'
SAWWUWKJVJ
root@arm:~# MARKER='WUEL''CHJBSS' run 'echo 0 > /sys/kernel/mva_test/regulators/bbuck4_en'
WUELCHJBSSWUELCHJBSS 0
root@arm:~# echo 'HJOG''WMSSGH'
HJOGWMSSGH
root@arm:~# MARKER='ZJTQ''OLYZTT' run 'i2cget -y -f 2 0x4b 0x8'
ZJTQOLYZTT0xc6
ZJTQOLYZTT 0
root@arm:~# echo 'QGTE''JPUOBH'
QGTEJPUOBH
root@arm:~# MARKER='MNFU''GJYHVL' run 'grep -r -l rohm,bd71837 /proc/device-tree  | sed '"'"'s![^/]*$!!'"'"''
MNFUGJYHVL/proc/device-tree/ocp/interconnect@48000000/segment@100000/target-module@9c000/i2c@0/pmic@4b/
MNFUGJYHVL 0
root@arm:~# echo 'XMKJ''VXQASP'
XMKJVXQASP
root@arm:~# MARKER='LWMQ''TZOEJW' run 'test -f /proc/device-tree/ocp/interconnectt\@48000000/segment\@100000/target-module\@9c000/i2c\@0/pmic\@4b/regulators/BUCK 5/rohm,no-regulator-enable-control ;echo $?'
LWMQTZOEJW1
LWMQTZOEJW 0
root@arm:~# echo 'FYBE''NABYKV'
FYBENABYKV
root@arm:~# MARKER='GCFF''GOSHXJ' run 'echo 1 > /sys/kernel/mva_test/regulators/bbuck5_en'
GCFFGOSHXJGCFFGOSHXJ 0
root@arm:~# echo 'YLWW''PXQSBU'
YLWWPXQSBU
root@arm:~# MARKER='BZTS''TNTVGZ' run 'i2cget -y -f 2 0x4b 0x9'
BZTSTNTVGZ0x03
BZTSTNTVGZ 0
root@arm:~# echo 'LEFE''EEVWQZ'
LEFEEEVWQZ
root@arm:~# MARKER='AUWS''GQHASH' run 'grep -r -l rohm,bd71837 /proc/device-tree  | sed '"'"'s![^/]*$!!'"'"''
AUWSGQHASH/proc/device-tree/ocp/interconnect@48000000/segment@100000/target-module@9c000/i2c@0/pmic@4b/
AUWSGQHASH 0
root@arm:~# echo 'ZJSL''KXWEUO'
ZJSLKXWEUO
root@arm:~# MARKER='EKHF''YEQXAN' run 'test -f /proc/device-tree/ocp/interconnectt\@48000000/segment\@100000/target-module\@9c000/i2c\@0/pmic\@4b/regulators/BUCK55/rohm,no-regulator-enable-control ;echo $?'
EKHFYEQXAN1
EKHFYEQXAN 0
root@arm:~# echo 'QJTW''SUVFUG'
QJTWSUVFUG
root@arm:~# MARKER='CUOG''AQACGN' run 'grep -r -l rohm,bd71837 /proc/device-tree  | sed '"'"'s![^/]*$!!'"'"''
CUOGAQACGN/proc/device-tree/ocp/interconnect@48000000/segment@100000/target-module@9c000/i2c@0/pmic@4b/
CUOGAQACGN 0
root@arm:~# echo 'KUHE''FFQZUZ'
KUHEFFQZUZ
root@arm:~# MARKER='BWCL''JXOMUC' run 'test -f /proc/device-tree/ocp/interconnectt\@48000000/segment\@100000/target-module\@9c000/i2c\@0/pmic\@4b/regulators/BUCK55/regulator-always-on ;echo $?'
BWCLJXOMUC1
BWCLJXOMUC 0
root@arm:~# echo 'ZXGN''EKYTEO'
ZXGNEKYTEO
root@arm:~# MARKER='PZGO''SJLEHL' run 'echo 0 > /sys/kernel/mva_test/regulators/bbuck5_en'
PZGOSJLEHLPZGOSJLEHL 0
root@arm:~# echo 'NKZV''VNLXJK'
NKZVVNLXJK
root@arm:~# MARKER='OLCV''VSASQO' run 'i2cget -y -f 2 0x4b 0x9'
OLCVVSASQO0x02
OLCVVSASQO 0
root@arm:~# echo 'QONF''YKHWFX'
QONFYKHWFX
root@arm:~# MARKER='KOWS''UHGQXP' run 'grep -r -l rohm,bd71837 /proc/device-tree  | sed '"'"'s![^/]*$!!'"'"''
KOWSUHGQXP/proc/device-tree/ocp/interconnect@48000000/segment@100000/target-module@9c000/i2c@0/pmic@4b/
KOWSUHGQXP 0
root@arm:~# echo 'EYVO''SBVUXY'
EYVOSBVUXY
root@arm:~# MARKER='MHQO''GZAWXB' run 'test -f /proc/device-tree/ocp/interconnectt\@48000000/segment\@100000/target-module\@9c000/i2c\@0/pmic\@4b/regulators/BUCK66/rohm,no-regulator-enable-control ;echo $?'
MHQOGZAWXB1
MHQOGZAWXB 0
root@arm:~# echo 'AAJH''CTQNMC'
AAJHCTQNMC
root@arm:~# MARKER='UVJW''MUBUWH' run 'echo 1 > /sys/kernel/mva_test/regulators/bbuck6_en'
UVJWMUBUWHUVJWMUBUWH 0
root@arm:~# echo 'ELHB''KFKUGJ'
ELHBKFKUGJ
root@arm:~# MARKER='PMTX''OTKVHP' run 'i2cget -y -f 2 0x4b 0xa'
PMTXOTKVHP0x03
PMTXOTKVHP 0
root@arm:~# echo 'FVTQ''KJMNBW'
FVTQKJMNBW
root@arm:~# MARKER='BVQE''WAMJAX' run 'grep -r -l rohm,bd71837 /proc/device-tree  | sed '"'"'s![^/]*$!!'"'"''
BVQEWAMJAX/proc/device-tree/ocp/interconnect@48000000/segment@100000/target-module@9c000/i2c@0/pmic@4b/
BVQEWAMJAX 0
root@arm:~# echo 'WBSE''JYYMZT'
WBSEJYYMZT
root@arm:~# MARKER='NFGQ''SSAVET' run 'test -f /proc/device-tree/ocp/interconnectt\@48000000/segment\@100000/target-module\@9c000/i2c\@0/pmic\@4b/regulators/BUCK66/rohm,no-regulator-enable-control ;echo $?'
NFGQSSAVET1
NFGQSSAVET 0
root@arm:~# echo 'WJVT''ZOHUJU'
WJVTZOHUJU
root@arm:~# MARKER='EATS''AKKKOW' run 'grep -r -l rohm,bd71837 /proc/device-tree  | sed '"'"'s![^/]*$!!'"'"''
EATSAKKKOW/proc/device-tree/ocp/interconnect@48000000/segment@100000/target-module@9c000/i2c@0/pmic@4b/
EATSAKKKOW 0
root@arm:~# echo 'MQGQ''QQEGYQ'
MQGQQQEGYQ
root@arm:~# MARKER='BHPU''VXBOCH' run 'test -f /proc/device-tree/ocp/interconnectt\@48000000/segment\@100000/target-module\@9c000/i2c\@0/pmic\@4b/regulators/BUCK66/regulator-always-on ;echo $?'
BHPUVXBOCH1
BHPUVXBOCH 0
root@arm:~# echo 'NGGS''QTBTQS'
NGGSQTBTQS
root@arm:~# MARKER='JUTC''CJYWGG' run 'echo 0 > /sys/kernel/mva_test/regulators/bbuck6_en'
JUTCCJYWGGJUTCCJYWGG 0
root@arm:~# echo 'GKEA''WCPTTM'
GKEAWCPTTM
root@arm:~# MARKER='PNVJ''JZFFJB' run 'i2cget -y -f 2 0x4b 0xa'
PNVJJZFFJB0x02
PNVJJZFFJB 0
root@arm:~# echo 'JYEV''QFHLCF'
JYEVQFHLCF
root@arm:~# MARKER='XNCZ''NEWNXE' run 'grep -r -l rohm,bd71837 /proc/device-tree  | sed '"'"'s![^/]*$!!'"'"''
XNCZNEWNXE/proc/device-tree/ocp/interconnect@48000000/segment@100000/target-module@9c000/i2c@0/pmic@4b/
XNCZNEWNXE 0
root@arm:~# echo 'AMNJ''SPNJXT'
AMNJSPNJXT
root@arm:~# MARKER='AGXZ''MFCXWU' run 'test -f /proc/device-tree/ocp/interconnectt\@48000000/segment\@100000/target-module\@9c000/i2c\@0/pmic\@4b/regulators/BUCK77/rohm,no-regulator-enable-control ;echo $?'
AGXZMFCXWU1
AGXZMFCXWU 0
root@arm:~# echo 'FNME''PGFQQY'
FNMEPGFQQY
root@arm:~# MARKER='LAAH''KHBJMK' run 'echo 1 > /sys/kernel/mva_test/regulators/bbuck7_en'
LAAHKHBJMKLAAHKHBJMK 0
root@arm:~# echo 'SMMG''EMQYUX'
SMMGEMQYUX
root@arm:~# MARKER='SKPY''BKJKBU' run 'i2cget -y -f 2 0x4b 0xb'
SKPYBKJKBU0x03
SKPYBKJKBU 0
root@arm:~# echo 'YTVF''LQBJUO'
YTVFLQBJUO
root@arm:~# MARKER='GLLS''ZJWMTU' run 'grep -r -l rohm,bd71837 /proc/device-tree  | sed '"'"'s![^/]*$!!'"'"''
GLLSZJWMTU/proc/device-tree/ocp/interconnect@48000000/segment@100000/target-module@9c000/i2c@0/pmic@4b/
GLLSZJWMTU 0
root@arm:~# echo 'MMVQ''ZUAUXC'
MMVQZUAUXC
root@arm:~# MARKER='FHKB''UOOJWX' run 'test -f /proc/device-tree/ocp/interconnectt\@48000000/segment\@100000/target-module\@9c000/i2c\@0/pmic\@4b/regulators/BUCK 7/rohm,no-regulator-enable-control ;echo $?'
FHKBUOOJWX1
FHKBUOOJWX 0
root@arm:~# echo 'UTOJ''LQXHKH'
UTOJLQXHKH
root@arm:~# MARKER='TWXB''FJKYFF' run 'grep -r -l rohm,bd71837 /proc/device-tree  | sed '"'"'s![^/]*$!!'"'"''
TWXBFJKYFF/proc/device-tree/ocp/interconnect@48000000/segment@100000/target-module@9c000/i2c@0/pmic@4b/
TWXBFJKYFF 0
root@arm:~# echo 'HAKM''YJNVSY'
HAKMYJNVSY
root@arm:~# MARKER='YMCX''QQCBBN' run 'test -f /proc/device-tree/ocp/interconnectt\@48000000/segment\@100000/target-module\@9c000/i2c\@0/pmic\@4b/regulators/BUCK77/regulator-always-on ;echo $?'
YMCXQQCBBN1
YMCXQQCBBN 0
root@arm:~# echo 'ZTYL''ELUTOW'
ZTYLELUTOW
root@arm:~# MARKER='PJWH''NFULHM' run 'echo 0 > /sys/kernel/mva_test/regulators/bbuck7_en'
PJWHNFULHMPJWHNFULHM 0
root@arm:~# echo 'EUQZ''LGXTZV'
EUQZLGXTZV
root@arm:~# MARKER='UALY''NAOWXL' run 'i2cget -y -f 2 0x4b 0xb'
UALYNAOWXL0x02
UALYNAOWXL 0
root@arm:~# echo 'KCAV''SOFXGS'
KCAVSOFXGS
root@arm:~# MARKER='OFUP''PSPPLU' run 'grep -r -l rohm,bd71837 /proc/device-tree  | sed '"'"'s![^/]*$!!'"'"''
OFUPPSPPLU/proc/device-tree/ocp/interconnect@48000000/segment@100000/target-module@9c000/i2c@0/pmic@4b/
OFUPPSPPLU 0
root@arm:~# echo 'YHGM''JBOCTX'
YHGMJBOCTX
root@arm:~# MARKER='AEMU''BEXUPB' run 'test -f /proc/device-tree/ocp/interconnectt\@48000000/segment\@100000/target-module\@9c000/i2c\@0/pmic\@4b/regulators/BUCK88/rohm,no-regulator-enable-control ;echo $?'
AEMUBEXUPB1
AEMUBEXUPB 0
root@arm:~# echo 'QVBW''WBVQBL'
QVBWWBVQBL
root@arm:~# MARKER='GLBW''JJNKBO' run 'echo 1 > /sys/kernel/mva_test/regulators/bbuck8_en'
GLBWJJNKBOGLBWJJNKBO 0
root@arm:~# echo 'OXBZ''JMSGEV'
OXBZJMSGEV
root@arm:~# MARKER='XTZF''AMQOQM' run 'i2cget -y -f 2 0x4b 0xc'
XTZFAMQOQM0x03
XTZFAMQOQM 0
root@arm:~# echo 'CSON''YVNVLS'
CSONYVNVLS
root@arm:~# MARKER='FOAJ''PWTBUO' run 'grep -r -l rohm,bd71837 /proc/device-tree  | sed '"'"'s![^/]*$!!'"'"''
FOAJPWTBUO/proc/device-tree/ocp/interconnect@48000000/segment@100000/target-module@9c000/i2c@0/pmic@4b/
FOAJPWTBUO 0
root@arm:~# echo 'UEBX''BXUZWK'
UEBXBXUZWK
root@arm:~# MARKER='VFFQ''XUSJNN' run 'test -f /proc/device-tree/ocp/interconnectt\@48000000/segment\@100000/target-module\@9c000/i2c\@0/pmic\@4b/regulators/BUCK88/rohm,no-regulator-enable-control ;echo $?'
VFFQXUSJNN1
VFFQXUSJNN 0
root@arm:~# echo 'AUJY''QEVBUM'
AUJYQEVBUM
root@arm:~# MARKER='VVYO''FEXJYO' run 'grep -r -l rohm,bd71837 /proc/device-tree  | sed '"'"'s![^/]*$!!'"'"''
VVYOFEXJYO/proc/device-tree/ocp/interconnect@48000000/segment@100000/target-module@9c000/i2c@0/pmic@4b/
VVYOFEXJYO 0
root@arm:~# echo 'BLPO''XZMHOF'
BLPOXZMHOF
root@arm:~# MARKER='MJAZ''GTTBYG' run 'test -f /proc/device-tree/ocp/interconnectt\@48000000/segment\@100000/target-module\@9c000/i2c\@0/pmic\@4b/regulators/BUCK88/regulator-always-on ;echo $?'
MJAZGTTBYG1
MJAZGTTBYG 0
root@arm:~# echo 'EJMC''AZQYWM'
EJMCAZQYWM
root@arm:~# MARKER='GPWJ''HCVZLQ' run 'echo 0 > /sys/kernel/mva_test/regulators/bbuck8_en'
GPWJHCVZLQGPWJHCVZLQ 0
root@arm:~# echo 'FGKY''OFFPGP'
FGKYOFFPGP
root@arm:~# MARKER='AEFK''AYFOHU' run 'i2cget -y -f 2 0x4b 0xc'
AEFKAYFOHU0x02
AEFKAYFOHU 0
root@arm:~# echo 'BWHB''XQXHQK'
BWHBXQXHQK
root@arm:~# MARKER='CPFM''LAMOYT' run 'grep -r -l rohm,bd71837 /proc/device-tree  | sed '"'"'s![^/]*$!!'"'"''
CPFMLAMOYT/proc/device-tree/ocp/interconnect@48000000/segment@100000/target-module@9c000/i2c@0/pmic@4b/
CPFMLAMOYT 0
root@arm:~# echo 'YMFN''TBTTPZ'
YMFNTBTTPZ
root@arm:~# MARKER='PZOY''FYAUBV' run 'test -f /proc/device-tree/ocp/interconnectt\@48000000/segment\@100000/target-module\@9c000/i2c\@0/pmic\@4b/regulators/LDO1//rohm,no-regulator-enable-control ;echo $?'
PZOYFYAUBV1
PZOYFYAUBV 0
root@arm:~# echo 'LGTS''CVNHVT'
LGTSCVNHVT
root@arm:~# MARKER='BMGB''WFSBQJ' run 'echo 1 > /sys/kernel/mva_test/regulators/bbuck9_en'
BMGBWFSBQJBMGBWFSBQJ 0
root@arm:~# echo 'JYCX''UMVHJM'
JYCXUMVHJM
root@arm:~# MARKER='JNUV''WPTGAU' run 'i2cget -y -f 2 0x4b 0x18'
JNUVWPTGAU0xc3
JNUVWPTGAU 0
root@arm:~# echo 'XQQC''KPNMYO'
XQQCKPNMYO
root@arm:~# MARKER='UBLG''ZOMMCK' run 'grep -r -l rohm,bd71837 /proc/device-tree  | sed '"'"'s![^/]*$!!'"'"''
UBLGZOMMCK/proc/device-tree/ocp/interconnect@48000000/segment@100000/target-module@9c000/i2c@0/pmic@4b/
UBLGZOMMCK 0
root@arm:~# echo 'PSSG''OGTXVQ'
PSSGOGTXVQ
root@arm:~# MARKER='OOCW''EJFBFV' run 'test -f /proc/device-tree/ocp/interconnectt\@48000000/segment\@100000/target-module\@9c000/i2c\@0/pmic\@4b/regulators/LDO1//rohm,no-regulator-enable-control ;echo $?'
OOCWEJFBFV1
OOCWEJFBFV 0
root@arm:~# echo 'QEGW''XLMCJJ'
QEGWXLMCJJ
root@arm:~# MARKER='TOPE''TBKAGH' run 'grep -r -l rohm,bd71837 /proc/device-tree  | sed '"'"'s![^/]*$!!'"'"''
TOPETBKAGH/proc/device-tree/ocp/interconnect@48000000/segment@100000/target-module@9c000/i2c@0/pmic@4b/
TOPETBKAGH 0
root@arm:~# echo 'FUAS''WYUUSZ'
FUASWYUUSZ
root@arm:~# MARKER='GKSX''HSCJPS' run 'test -f /proc/device-tree/ocp/interconnectt\@48000000/segment\@100000/target-module\@9c000/i2c\@0/pmic\@4b/regulators/LDO1//regulator-always-on ;echo $?'
GKSXHSCJPS1
GKSXHSCJPS 0
root@arm:~# echo 'POPL''ZATGVM'
POPLZATGVM
root@arm:~# MARKER='SUAF''NGHYAZ' run 'echo 0 > /sys/kernel/mva_test/regulators/bbuck9_en'
SUAFNGHYAZSUAFNGHYAZ 0
root@arm:~# echo 'QUTY''OUTGCY'
QUTYOUTGCY
root@arm:~# MARKER='KHPV''BOSCLG' run 'i2cget -y -f 2 0x4b 0x18'
KHPVBOSCLG0x83
KHPVBOSCLG 0
root@arm:~# echo 'PAUA''NSLOQE'
PAUANSLOQE
root@arm:~# MARKER='JYXA''MJXSVH' run 'grep -r -l rohm,bd71837 /proc/device-tree  | sed '"'"'s![^/]*$!!'"'"''
JYXAMJXSVH/proc/device-tree/ocp/interconnect@48000000/segment@100000/target-module@9c000/i2c@0/pmic@4b/
JYXAMJXSVH 0
root@arm:~# echo 'FFHV''CGMLQU'
FFHVCGMLQU
root@arm:~# MARKER='ECCT''NKOUOM' run 'test -f /proc/device-tree/ocp/interconnectt\@48000000/segment\@100000/target-module\@9c000/i2c\@0/pmic\@4b/regulators/LDO2//rohm,no-regulator-enable-control ;echo $?'
ECCTNKOUOM1
ECCTNKOUOM 0
root@arm:~# echo 'BOGW''UHEFJU'
BOGWUHEFJU
root@arm:~# MARKER='HPKA''EFHGXN' run 'echo 1 > /sys/kernel/mva_test/regulators/bbuck10_en'
HPKAEFHGXNHPKAEFHGXN 0
root@arm:~# echo 'TPAC''NEXCFV'
TPACNEXCFV
root@arm:~# MARKER='QANE''GNSMZT' run 'i2cget -y -f 2 0x4b 0x19'
QANEGNSMZT0xc0
QANEGNSMZT 0
root@arm:~# echo 'KVVJ''ECATHT'
KVVJECATHT
root@arm:~# MARKER='YSWQ''XNAVPY' run 'grep -r -l rohm,bd71837 /proc/device-tree  | sed '"'"'s![^/]*$!!'"'"''
YSWQXNAVPY/proc/device-tree/ocp/interconnect@48000000/segment@100000/target-module@9c000/i2c@0/pmic@4b/
YSWQXNAVPY 0
root@arm:~# echo 'GUWF''PMBMNK'
GUWFPMBMNK
root@arm:~# MARKER='ETZC''SGSNXO' run 'test -f /proc/device-tree/ocp/interconnectt\@48000000/segment\@100000/target-module\@9c000/i2c\@0/pmic\@4b/regulators/LDO2//rohm,no-regulator-enable-control ;echo $?'
ETZCSGSNXO1
ETZCSGSNXO 0
root@arm:~# echo 'QNKN''CQCECO'
QNKNCQCECO
root@arm:~# MARKER='FSKO''FAUBWO' run 'grep -r -l rohm,bd71837 /proc/device-tree  | sed '"'"'s![^/]*$!!'"'"''
FSKOFAUBWO/proc/device-tree/ocp/interconnect@48000000/segment@100000/target-module@9c000/i2c@0/pmic@4b/
FSKOFAUBWO 0
root@arm:~# echo 'HWKK''LYJHZS'
HWKKLYJHZS
root@arm:~# MARKER='ZOSO''QSFXSK' run 'test -f /proc/device-tree/ocp/interconnectt\@48000000/segment\@100000/target-module\@9c000/i2c\@0/pmic\@4b/regulators/LDO2//regulator-always-on ;echo $?'
ZOSOQSFXSK1
ZOSOQSFXSK 0
root@arm:~# echo 'PTWC''KGNZBQ'
PTWCKGNZBQ
root@arm:~# MARKER='HAKC''KLVEAU' run 'echo 0 > /sys/kernel/mva_test/regulators/bbuck10_en'
HAKCKLVEAUHAKCKLVEAU 0
root@arm:~# echo 'ZBYG''ZVCTSU'
ZBYGZVCTSU
root@arm:~# MARKER='PQHF''AHNCZZ' run 'i2cget -y -f 2 0x4b 0x19'
PQHFAHNCZZ0x80
PQHFAHNCZZ 0
root@arm:~# echo 'GVPL''MWUHLE'
GVPLMWUHLE
root@arm:~# MARKER='KAQU''HNYJBA' run 'grep -r -l rohm,bd71837 /proc/device-tree  | sed '"'"'s![^/]*$!!'"'"''
KAQUHNYJBA/proc/device-tree/ocp/interconnect@48000000/segment@100000/target-module@9c000/i2c@0/pmic@4b/
KAQUHNYJBA 0
root@arm:~# echo 'SZTM''BNKQGK'
SZTMBNKQGK
root@arm:~# MARKER='ZTUE''LZLTYX' run 'test -f /proc/device-tree/ocp/interconnectt\@48000000/segment\@100000/target-module\@9c000/i2c\@0/pmic\@4b/regulators/LDO3//rohm,no-regulator-enable-control ;echo $?'
ZTUELZLTYX1
ZTUELZLTYX 0
root@arm:~# echo 'AXVA''KPGTXM'
AXVAKPGTXM
root@arm:~# MARKER='ZNWJ''AVGBUO' run 'echo 1 > /sys/kernel/mva_test/regulators/bbuck11_en'
ZNWJAVGBUOZNWJAVGBUO 0
root@arm:~# echo 'EZOW''XVZYKH'
EZOWXVZYKH
root@arm:~# MARKER='VULU''JXPZUQ' run 'i2cget -y -f 2 0x4b 0x1a'
VULUJXPZUQ0xc0
VULUJXPZUQ 0
root@arm:~# echo 'XPJE''XVVLUU'
XPJEXVVLUU
root@arm:~# MARKER='NPOM''TBWQNC' run 'grep -r -l rohm,bd71837 /proc/device-tree  | sed '"'"'s![^/]*$!!'"'"''
NPOMTBWQNC/proc/device-tree/ocp/interconnect@48000000/segment@100000/target-module@9c000/i2c@0/pmic@4b/
NPOMTBWQNC 0
root@arm:~# echo 'FSLX''XKZCWP'
FSLXXKZCWP
root@arm:~# MARKER='LZCM''BVXKQA' run 'test -f /proc/device-tree/ocp/interconnectt\@48000000/segment\@100000/target-module\@9c000/i2c\@0/pmic\@4b/regulators/LDO3//rohm,no-regulator-enable-control ;echo $?'
LZCMBVXKQA1
LZCMBVXKQA 0
root@arm:~# echo 'QAHX''HZYEBA'
QAHXHZYEBA
root@arm:~# MARKER='VHEH''TFGGQG' run 'grep -r -l rohm,bd71837 /proc/device-tree  | sed '"'"'s![^/]*$!!'"'"''
VHEHTFGGQG/proc/device-tree/ocp/interconnect@48000000/segment@100000/target-module@9c000/i2c@0/pmic@4b/
VHEHTFGGQG 0
root@arm:~# echo 'SYNO''QQNWXB'
SYNOQQNWXB
root@arm:~# MARKER='PFPY''LLQXJM' run 'test -f /proc/device-tree/ocp/interconnectt\@48000000/segment\@100000/target-module\@9c000/i2c\@0/pmic\@4b/regulators/LDO3//regulator-always-on ;echo $?'
PFPYLLQXJM1
PFPYLLQXJM 0
root@arm:~# echo 'ECML''HBWPMV'
ECMLHBWPMV
root@arm:~# MARKER='SMVB''AQHTKP' run 'echo 0 > /sys/kernel/mva_test/regulators/bbuck11_en'
SMVBAQHTKPSMVBAQHTKP 0
root@arm:~# echo 'EXTO''PZHCCB'
EXTOPZHCCB
root@arm:~# MARKER='YFYB''WAWHEZ' run 'i2cget -y -f 2 0x4b 0x1a'
YFYBWAWHEZ0x80
YFYBWAWHEZ 0
root@arm:~# echo 'JVWN''AHAWGX'
JVWNAHAWGX
root@arm:~# MARKER='BEYB''LCWXSE' run 'grep -r -l rohm,bd71837 /proc/device-tree  | sed '"'"'s![^/]*$!!'"'"''
BEYBLCWXSE/proc/device-tree/ocp/interconnect@48000000/segment@100000/target-module@9c000/i2c@0/pmic@4b/
BEYBLCWXSE 0
root@arm:~# echo 'YNPV''GOMYMN'
YNPVGOMYMN
root@arm:~# MARKER='LXKF''VNOSZX' run 'test -f /proc/device-tree/ocp/interconnectt\@48000000/segment\@100000/target-module\@9c000/i2c\@0/pmic\@4b/regulators/LDO4//rohm,no-regulator-enable-control ;echo $?'
LXKFVNOSZX1
LXKFVNOSZX 0
root@arm:~# echo 'CKPP''OGOGLE'
CKPPOGOGLE
root@arm:~# MARKER='LLXW''AGHJWJ' run 'echo 1 > /sys/kernel/mva_test/regulators/bbuck12_en'
LLXWAGHJWJLLXWAGHJWJ 0
root@arm:~# echo 'ECML''AZNKYU'
ECMLAZNKYU
root@arm:~# MARKER='TMWE''VXXVJU' run 'i2cget -y -f 2 0x4b 0x1b'
TMWEVXXVJU0xc0
TMWEVXXVJU 0
root@arm:~# echo 'SWWT''JHYNWT'
SWWTJHYNWT
root@arm:~# MARKER='FFWL''BSXUJV' run 'grep -r -l rohm,bd71837 /proc/device-tree  | sed '"'"'s![^/]*$!!'"'"''
FFWLBSXUJV/proc/device-tree/ocp/interconnect@48000000/segment@100000/target-module@9c000/i2c@0/pmic@4b/
FFWLBSXUJV 0
root@arm:~# echo 'QTLO''NNTZZT'
QTLONNTZZT
root@arm:~# MARKER='JLPV''PECLST' run 'test -f /proc/device-tree/ocp/interconnectt\@48000000/segment\@100000/target-module\@9c000/i2c\@0/pmic\@4b/regulators/LDO4//rohm,no-regulator-enable-control ;echo $?'
JLPVPECLST1
JLPVPECLST 0
root@arm:~# echo 'JGBC''LXXWNU'
JGBCLXXWNU
root@arm:~# MARKER='SNKJ''VEKEHU' run 'grep -r -l rohm,bd71837 /proc/device-tree  | sed '"'"'s![^/]*$!!'"'"''
SNKJVEKEHU/proc/device-tree/ocp/interconnect@48000000/segment@100000/target-module@9c000/i2c@0/pmic@4b/
SNKJVEKEHU 0
root@arm:~# echo 'EZTC''LKMQHL'
EZTCLKMQHL
root@arm:~# MARKER='HZPO''QGXFJK' run 'test -f /proc/device-tree/ocp/interconnectt\@48000000/segment\@100000/target-module\@9c000/i2c\@0/pmic\@4b/regulators/LDO4//regulator-always-on ;echo $?'
HZPOQGXFJK1
HZPOQGXFJK 0
root@arm:~# echo 'BEOB''ESHVWB'
BEOBESHVWB
root@arm:~# MARKER='GSGE''YKKXEH' run 'echo 0 > /sys/kernel/mva_test/regulators/bbuck12_en'
GSGEYKKXEHGSGEYKKXEH 0
root@arm:~# echo 'VFHT''XZYVCG'
VFHTXZYVCG
root@arm:~# MARKER='OTTM''YWZUAP' run 'i2cget -y -f 2 0x4b 0x1b'
OTTMYWZUAP0x80
OTTMYWZUAP 0
root@arm:~# echo 'QMTK''MMVSCB'
QMTKMMVSCB
root@arm:~# MARKER='HABY''ZTALVK' run 'grep -r -l rohm,bd71837 /proc/device-tree  | sed '"'"'s![^/]*$!!'"'"''
HABYZTALVK/proc/device-tree/ocp/interconnect@48000000/segment@100000/target-module@9c000/i2c@0/pmic@4b/
HABYZTALVK 0
root@arm:~# echo 'WGCC''QQAHYC'
WGCCQQAHYC
root@arm:~# MARKER='GLTJ''AEFCMY' run 'test -f /proc/device-tree/ocp/interconnectt\@48000000/segment\@100000/target-module\@9c000/i2c\@0/pmic\@4b/regulators/LDO5//rohm,no-regulator-enable-control ;echo $?'
GLTJAEFCMY0
GLTJAEFCMY 0
root@arm:~# echo 'OTEL''FWGACY'
OTELFWGACY
root@arm:~# MARKER='UONB''STWXSQ' run 'grep -r -l rohm,bd71837 /proc/device-tree  | sed '"'"'s![^/]*$!!'"'"''
UONBSTWXSQ/proc/device-tree/ocp/interconnect@48000000/segment@100000/target-module@9c000/i2c@0/pmic@4b/
UONBSTWXSQ 0
root@arm:~# echo 'TVUZ''OMAKVN'
TVUZOMAKVN
root@arm:~# MARKER='KESZ''SMESJH' run 'test -f /proc/device-tree/ocp/interconnectt\@48000000/segment\@100000/target-module\@9c000/i2c\@0/pmic\@4b/regulators/LDO5//rohm,no-regulator-enable-control ;echo $?'
KESZSMESJH0
KESZSMESJH 0
root@arm:~# echo 'EPQK''BGTZKK'
EPQKBGTZKK
root@arm:~# MARKER='MYGW''JTVKAJ' run 'grep -r -l rohm,bd71837 /proc/device-tree  | sed '"'"'s![^/]*$!!'"'"''
MYGWJTVKAJ/proc/device-tree/ocp/interconnect@48000000/segment@100000/target-module@9c000/i2c@0/pmic@4b/
MYGWJTVKAJ 0
root@arm:~# echo 'PUOB''PEUCCK'
PUOBPEUCCK
root@arm:~# MARKER='AWZM''XGBKYN' run 'test -f /proc/device-tree/ocp/interconnectt\@48000000/segment\@100000/target-module\@9c000/i2c\@0/pmic\@4b/regulators/LDO6//rohm,no-regulator-enable-control ;echo $?'
AWZMXGBKYN1
AWZMXGBKYN 0
root@arm:~# echo 'AWBC''CHQQPX'
AWBCCHQQPX
root@arm:~# MARKER='QUWF''UBMPNK' run 'echo 1 > /sys/kernel/mva_test/regulators/bbuck14_en'
QUWFUBMPNKQUWFUBMPNK 0
root@arm:~# echo 'EWMY''UPXCQH'
EWMYUPXCQH
root@arm:~# MARKER='FZAO''XSWSYM' run 'i2cget -y -f 2 0x4b 0x1d'
FZAOXSWSYM0xc0
FZAOXSWSYM 0
root@arm:~# echo 'LTNZ''HMKGST'
LTNZHMKGST
root@arm:~# MARKER='MUBZ''BPWKAW' run 'grep -r -l rohm,bd71837 /proc/device-tree  | sed '"'"'s![^/]*$!!'"'"''
MUBZBPWKAW/proc/device-tree/ocp/interconnect@48000000/segment@100000/target-module@9c000/i2c@0/pmic@4b/
MUBZBPWKAW 0
root@arm:~# echo 'OJUQ''ALVUUC'
OJUQALVUUC
root@arm:~# MARKER='EVTE''MLUUNN' run 'test -f /proc/device-tree/ocp/interconnectt\@48000000/segment\@100000/target-module\@9c000/i2c\@0/pmic\@4b/regulators/LDO6//rohm,no-regulator-enable-control ;echo $?'
EVTEMLUUNN1
EVTEMLUUNN 0
root@arm:~# echo 'YZUH''HQPTWU'
YZUHHQPTWU
root@arm:~# MARKER='KJLK''SPQEKK' run 'grep -r -l rohm,bd71837 /proc/device-tree  | sed '"'"'s![^/]*$!!'"'"''
KJLKSPQEKK/proc/device-tree/ocp/interconnect@48000000/segment@100000/target-module@9c000/i2c@0/pmic@4b/
KJLKSPQEKK 0
root@arm:~# echo 'QFPL''HEVSXF'
QFPLHEVSXF
root@arm:~# MARKER='PTTU''TOLHSU' run 'test -f /proc/device-tree/ocp/interconnectt\@48000000/segment\@100000/target-module\@9c000/i2c\@0/pmic\@4b/regulators/LDO6//regulator-always-on ;echo $?'
PTTUTOLHSU1
PTTUTOLHSU 0
root@arm:~# echo 'GTZH''JVQCVK'
GTZHJVQCVK
root@arm:~# MARKER='EUUM''PMPCUN' run 'echo 0 > /sys/kernel/mva_test/regulators/bbuck14_en'
EUUMPMPCUNEUUMPMPCUN 0
root@arm:~# echo 'XVNS''PUYMOY'
XVNSPUYMOY
root@arm:~# MARKER='SQSZ''LUAGNV' run 'i2cget -y -f 2 0x4b 0x1d'
SQSZLUAGNV0x80
SQSZLUAGNV 0
root@arm:~# echo 'YBTY''UZCTOW'
YBTYUZCTOW
root@arm:~# MARKER='UWZP''HVTYYQ' run 'grep -r -l rohm,bd71837 /proc/device-tree  | sed '"'"'s![^/]*$!!'"'"''
UWZPHVTYYQ/proc/device-tree/ocp/interconnect@48000000/segment@100000/target-module@9c000/i2c@0/pmic@4b/
UWZPHVTYYQ 0
root@arm:~# echo 'ULTK''GZNBSV'
ULTKGZNBSV
root@arm:~# MARKER='VTXK''UENAYK' run 'test -f /proc/device-tree/ocp/interconnectt\@48000000/segment\@100000/target-module\@9c000/i2c\@0/pmic\@4b/regulators/LDO7//rohm,no-regulator-enable-control ;echo $?'
VTXKUENAYK1
VTXKUENAYK 0
root@arm:~# echo 'YFLC''YAPCFM'
YFLCYAPCFM
root@arm:~# MARKER='ZQMG''YHNOHW' run 'echo 1 > /sys/kernel/mva_test/regulators/bbuck15_en'
ZQMGYHNOHWZQMGYHNOHW 0
root@arm:~# echo 'JWWO''OWFUOJ'
JWWOOWFUOJ
root@arm:~# MARKER='QZPU''LXXQTL' run 'i2cget -y -f 2 0x4b 0x1e'
QZPULXXQTL0xcf
QZPULXXQTL 0
root@arm:~# echo 'TUOM''MTYULA'
TUOMMTYULA
root@arm:~# MARKER='PGWX''LCWGXY' run 'grep -r -l rohm,bd71837 /proc/device-tree  | sed '"'"'s![^/]*$!!'"'"''
PGWXLCWGXY/proc/device-tree/ocp/interconnect@48000000/segment@100000/target-module@9c000/i2c@0/pmic@4b/
PGWXLCWGXY 0
root@arm:~# echo 'ELFQ''MTJTWT'
ELFQMTJTWT
root@arm:~# MARKER='ZCLF''OQSFTU' run 'test -f /proc/device-tree/ocp/interconnectt\@48000000/segment\@100000/target-module\@9c000/i2c\@0/pmic\@4b/regulators/LDO7//rohm,no-regulator-enable-control ;echo $?'
ZCLFOQSFTU1
ZCLFOQSFTU 0
root@arm:~# echo 'TXKM''SOYCPG'
TXKMSOYCPG
root@arm:~# MARKER='UNGH''HZEWVL' run 'grep -r -l rohm,bd71837 /proc/device-tree  | sed '"'"'s![^/]*$!!'"'"''
UNGHHZEWVL/proc/device-tree/ocp/interconnect@48000000/segment@100000/target-module@9c000/i2c@0/pmic@4b/
UNGHHZEWVL 0
root@arm:~# echo 'PXCY''NGGAPX'
PXCYNGGAPX
root@arm:~# MARKER='LBSW''HHJNNH' run 'test -f /proc/device-tree/ocp/interconnectt\@48000000/segment\@100000/target-module\@9c000/i2c\@0/pmic\@4b/regulators/LDO7//regulator-always-on ;echo $?'
LBSWHHJNNH1
LBSWHHJNNH 0
root@arm:~# echo 'KHEO''HKCFLX'
KHEOHKCFLX
root@arm:~# MARKER='JLNC''MHSVPC' run 'echo 0 > /sys/kernel/mva_test/regulators/bbuck15_en'
JLNCMHSVPCJLNCMHSVPC 0
root@arm:~# echo 'SNHC''KSCQKO'
SNHCKSCQKO
root@arm:~# MARKER='HOXL''CZLUAS' run 'i2cget -y -f 2 0x4b 0x1e'
HOXLCZLUAS0x8f
HOXLCZLUAS 0
root@arm:~# Labgrid Console Logfile for main
Logfile started at 2025-02-11 11:49:32.135927
=== Log starts here ===

root@arm:~# run() { echo -n "$MARKER"; sh -c "$@"; echo "$MARKER $?"; }
root@arm:~# echo 'OWQW''FYKVLX'
OWQWFYKVLX
root@arm:~# MARKER='TPWS''HLUAPC' run 'grep -r -l rohm,bd71837 /proc/device-tree  | sed '"'"'s![^/]*$!!'"'"''
TPWSHLUAPC/proc/device-tree/ocp/interconnect@48000000/segment@100000/target-module@9c000/i2c@0/pmic@4b/
TPWSHLUAPC 0
root@arm:~# echo 'LHGF''SACHCC'
LHGFSACHCC
root@arm:~# MARKER='SLAQ''EYYBHS' run 'test -f /proc/device-tree/ocp/interconnectt\@48000000/segment\@100000/target-module\@9c000/i2c\@0/pmic\@4b/regulators/BUCK11/rohm,no-regulator-enable-control ;echo $?'
SLAQEYYBHS1
SLAQEYYBHS 0
root@arm:~# echo 'EJVM''NHGFQX'
EJVMNHGFQX
root@arm:~# MARKER='CLTS''KYBMUW' run 'i2cget -y -f 2 0x4b 0x5'
CLTSKYBMUW0x02
CLTSKYBMUW 0
root@arm:~# echo 'EPYA''JUXEQS'
EPYAJUXEQS
root@arm:~# MARKER='YMKA''CMZOEL' run 'echo 700000 700000 > /sys/kernel/mva_test//regulators/buck1_set'
YMKACMZOELYMKACMZOEL 0
root@arm:~# echo 'VKFT''CXPHTT'
VKFTCXPHTT
root@arm:~# MARKER='CQHA''YYYXGN' run 'i2cget -y -f 2 0x4b 0xd'
CQHAYYYXGN0x00
CQHAYYYXGN 0
root@arm:~# echo 'FCSO''LSCWKM'
FCSOLSCWKM
root@arm:~# MARKER='TEWN''GWOVHM' run 'echo 710000 710000 > /sys/kernel/mva_test//regulators/buck1_set'
TEWNGWOVHMTEWNGWOVHM 0
root@arm:~# echo 'JEAA''EHSHKL'
JEAAEHSHKL
root@arm:~# MARKER='USUM''YHYFVL' run 'i2cget -y -f 2 0x4b 0xd'
USUMYHYFVL0x01
USUMYHYFVL 0
root@arm:~# echo 'SGAV''XEZPBG'
SGAVXEZPBG
root@arm:~# MARKER='ACZE''PKCLCU' run 'echo 720000 720000 > /sys/kernel/mva_test//regulators/buck1_set'
ACZEPKCLCUACZEPKCLCU 0
root@arm:~# echo 'EVCZ''BBUHCP'
EVCZBBUHCP
root@arm:~# MARKER='LOYG''LNOHFE' run 'i2cget -y -f 2 0x4b 0xd'
LOYGLNOHFE0x02
LOYGLNOHFE 0
root@arm:~# echo 'VQGO''JFTPYO'
VQGOJFTPYO
root@arm:~# MARKER='VQJH''KPNHFP' run 'echo 730000 730000 > /sys/kernel/mva_test//regulators/buck1_set'
VQJHKPNHFPVQJHKPNHFP 0
root@arm:~# echo 'AKNT''CCAKON'
AKNTCCAKON
root@arm:~# MARKER='AOYJ''LPVLXW' run 'i2cget -y -f 2 0x4b 0xd'
AOYJLPVLXW0x03
AOYJLPVLXW 0
root@arm:~# echo 'SXQW''AFWEJC'
SXQWAFWEJC
root@arm:~# MARKER='BHMV''OMQONB' run 'echo 740000 740000 > /sys/kernel/mva_test//regulators/buck1_set'
BHMVOMQONBBHMVOMQONB 0
root@arm:~# echo 'CANK''FEZUCX'
CANKFEZUCX
root@arm:~# MARKER='EZHH''NWFCZB' run 'i2cget -y -f 2 0x4b 0xd'
EZHHNWFCZB0x04
EZHHNWFCZB 0
root@arm:~# echo 'ZAOJ''FPKCLV'
ZAOJFPKCLV
root@arm:~# MARKER='YZJY''FFXBJM' run 'echo 750000 750000 > /sys/kernel/mva_test//regulators/buck1_set'
YZJYFFXBJMYZJYFFXBJM 0
root@arm:~# echo 'OPBE''FWNGGX'
OPBEFWNGGX
root@arm:~# MARKER='PGVZ''VAVLJS' run 'i2cget -y -f 2 0x4b 0xd'
PGVZVAVLJS0x05
PGVZVAVLJS 0
root@arm:~# echo 'EAXW''PJTBGA'
EAXWPJTBGA
root@arm:~# MARKER='SQVK''GWYNAJ' run 'echo 760000 760000 > /sys/kernel/mva_test//regulators/buck1_set'
SQVKGWYNAJSQVKGWYNAJ 0
root@arm:~# echo 'EYVV''UNTZGB'
EYVVUNTZGB
root@arm:~# MARKER='GEFM''MLASTJ' run 'i2cget -y -f 2 0x4b 0xd'
GEFMMLASTJ0x06
GEFMMLASTJ 0
root@arm:~# echo 'EMYW''BSTKQT'
EMYWBSTKQT
root@arm:~# MARKER='NZGX''VVJFNY' run 'echo 770000 770000 > /sys/kernel/mva_test//regulators/buck1_set'
NZGXVVJFNYNZGXVVJFNY 0
root@arm:~# echo 'QYAL''GQKVJE'
QYALGQKVJE
root@arm:~# MARKER='FNNJ''HPOQJC' run 'i2cget -y -f 2 0x4b 0xd'
FNNJHPOQJC0x07
FNNJHPOQJC 0
root@arm:~# echo 'UHNL''UAWFZK'
UHNLUAWFZK
root@arm:~# MARKER='MZGQ''XGVOMO' run 'echo 780000 780000 > /sys/kernel/mva_test//regulators/buck1_set'
MZGQXGVOMOMZGQXGVOMO 0
root@arm:~# echo 'YYXG''TQVNLW'
YYXGTQVNLW
root@arm:~# MARKER='NUWF''QYEGNK' run 'i2cget -y -f 2 0x4b 0xd'
NUWFQYEGNK0x08
NUWFQYEGNK 0
root@arm:~# echo 'QFHS''SPEQNC'
QFHSSPEQNC
root@arm:~# MARKER='CBEF''HSVYYB' run 'echo 790000 790000 > /sys/kernel/mva_test//regulators/buck1_set'
CBEFHSVYYBCBEFHSVYYB 0
root@arm:~# echo 'YQGN''FWYXME'
YQGNFWYXME
root@arm:~# MARKER='TTXH''JFUQGW' run 'i2cget -y -f 2 0x4b 0xd'
TTXHJFUQGW0x09
TTXHJFUQGW 0
root@arm:~# echo 'BCFJ''SPPNBA'
BCFJSPPNBA
root@arm:~# MARKER='XEBW''LMOPYK' run 'echo 800000 800000 > /sys/kernel/mva_test//regulators/buck1_set'
XEBWLMOPYKXEBWLMOPYK 0
root@arm:~# echo 'GZUH''OOHCCQ'
GZUHOOHCCQ
root@arm:~# MARKER='UKLT''SUUOPS' run 'i2cget -y -f 2 0x4b 0xd'
UKLTSUUOPS0x0a
UKLTSUUOPS 0
root@arm:~# echo 'NWEL''ZPYBCE'
NWELZPYBCE
root@arm:~# MARKER='SGVO''EOSXOV' run 'echo 810000 810000 > /sys/kernel/mva_test//regulators/buck1_set'
SGVOEOSXOVSGVOEOSXOV 0
root@arm:~# echo 'XYXT''MQYKYK'
XYXTMQYKYK
root@arm:~# MARKER='GYUH''CKVNTJ' run 'i2cget -y -f 2 0x4b 0xd'
GYUHCKVNTJ0x0b
GYUHCKVNTJ 0
root@arm:~# echo 'UNZP''CTHEUT'
UNZPCTHEUT
root@arm:~# MARKER='OUPF''BLBFYV' run 'echo 820000 820000 > /sys/kernel/mva_test//regulators/buck1_set'
OUPFBLBFYVOUPFBLBFYV 0
root@arm:~# echo 'SSOQ''MHCMPF'
SSOQMHCMPF
root@arm:~# MARKER='UTMK''MGVFEU' run 'i2cget -y -f 2 0x4b 0xd'
UTMKMGVFEU0x0c
UTMKMGVFEU 0
root@arm:~# echo 'YUNL''LCWKUL'
YUNLLCWKUL
root@arm:~# MARKER='EKQO''PJOJCC' run 'echo 830000 830000 > /sys/kernel/mva_test//regulators/buck1_set'
EKQOPJOJCCEKQOPJOJCC 0
root@arm:~# echo 'PUJJ''HOMMBU'
PUJJHOMMBU
root@arm:~# MARKER='XHJG''YLWUWP' run 'i2cget -y -f 2 0x4b 0xd'
XHJGYLWUWP0x0d
XHJGYLWUWP 0
root@arm:~# echo 'STLL''XWCZJA'
STLLXWCZJA
root@arm:~# MARKER='QSFX''QBCJLE' run 'echo 840000 840000 > /sys/kernel/mva_test//regulators/buck1_set'
QSFXQBCJLEQSFXQBCJLE 0
root@arm:~# echo 'UMBW''FYLWGM'
UMBWFYLWGM
root@arm:~# MARKER='LBHH''ZPCUOJ' run 'i2cget -y -f 2 0x4b 0xd'
LBHHZPCUOJ0x0e
LBHHZPCUOJ 0
root@arm:~# echo 'ECUP''WNMCSZ'
ECUPWNMCSZ
root@arm:~# MARKER='OUNS''TWPGMF' run 'echo 850000 850000 > /sys/kernel/mva_test//regulators/buck1_set'
OUNSTWPGMFOUNSTWPGMF 0
root@arm:~# echo 'VYAP''GXSJVJ'
VYAPGXSJVJ
root@arm:~# MARKER='ZOZY''UCKZPU' run 'i2cget -y -f 2 0x4b 0xd'
ZOZYUCKZPU0x0f
ZOZYUCKZPU 0
root@arm:~# echo 'KQHY''ASUQJL'
KQHYASUQJL
root@arm:~# MARKER='QWEV''VHFOAK' run 'echo 860000 860000 > /sys/kernel/mva_test//regulators/buck1_set'
QWEVVHFOAKQWEVVHFOAK 0
root@arm:~# echo 'GLYE''LLUAZT'
GLYELLUAZT
root@arm:~# MARKER='LSBU''ABTYVO' run 'i2cget -y -f 2 0x4b 0xd'
LSBUABTYVO0x10
LSBUABTYVO 0
root@arm:~# echo 'HBPM''SFTUUA'
HBPMSFTUUA
root@arm:~# MARKER='UAQM''WXEQBM' run 'echo 870000 870000 > /sys/kernel/mva_test//regulators/buck1_set'
UAQMWXEQBMUAQMWXEQBM 0
root@arm:~# echo 'JBXQ''PEVOMB'
JBXQPEVOMB
root@arm:~# MARKER='LXCY''QQACXO' run 'i2cget -y -f 2 0x4b 0xd'
LXCYQQACXO0x11
LXCYQQACXO 0
root@arm:~# echo 'PBQE''GSKTWE'
PBQEGSKTWE
root@arm:~# MARKER='CFWL''CPYHZA' run 'echo 880000 880000 > /sys/kernel/mva_test//regulators/buck1_set'
CFWLCPYHZACFWLCPYHZA 0
root@arm:~# echo 'CUQM''NAQAOK'
CUQMNAQAOK
root@arm:~# MARKER='ACMJ''ELQFMQ' run 'i2cget -y -f 2 0x4b 0xd'
ACMJELQFMQ0x12
ACMJELQFMQ 0
root@arm:~# echo 'OONX''JEYOPT'
OONXJEYOPT
root@arm:~# MARKER='UATY''OHYJOX' run 'echo 890000 890000 > /sys/kernel/mva_test//regulators/buck1_set'
UATYOHYJOXUATYOHYJOX 0
root@arm:~# echo 'BTOO''SHGBBC'
BTOOSHGBBC
root@arm:~# MARKER='ZXCN''TFCLLV' run 'i2cget -y -f 2 0x4b 0xd'
ZXCNTFCLLV0x13
ZXCNTFCLLV 0
root@arm:~# echo 'PSVV''QOPPEF'
PSVVQOPPEF
root@arm:~# MARKER='PBPF''SKCAQV' run 'echo 900000 900000 > /sys/kernel/mva_test//regulators/buck1_set'
PBPFSKCAQVPBPFSKCAQV 0
root@arm:~# echo 'KLJV''HUZPXX'
KLJVHUZPXX
root@arm:~# MARKER='MZFS''FAWPVO' run 'i2cget -y -f 2 0x4b 0xd'
MZFSFAWPVO0x14
MZFSFAWPVO 0
root@arm:~# echo 'CFXJ''NJETUV'
CFXJNJETUV
root@arm:~# MARKER='WWHJ''FNPSCP' run 'echo 910000 910000 > /sys/kernel/mva_test//regulators/buck1_set'
WWHJFNPSCPWWHJFNPSCP 0
root@arm:~# echo 'CJLE''OBTXSA'
CJLEOBTXSA
root@arm:~# MARKER='XYLE''SAHYBO' run 'i2cget -y -f 2 0x4b 0xd'
XYLESAHYBO0x15
XYLESAHYBO 0
root@arm:~# echo 'YAEA''BUMCET'
YAEABUMCET
root@arm:~# MARKER='UYGN''PGGXWX' run 'echo 920000 920000 > /sys/kernel/mva_test//regulators/buck1_set'
UYGNPGGXWXUYGNPGGXWX 0
root@arm:~# echo 'BAVG''KUPMGU'
BAVGKUPMGU
root@arm:~# MARKER='ZHCO''TVZQAG' run 'i2cget -y -f 2 0x4b 0xd'
ZHCOTVZQAG0x16
ZHCOTVZQAG 0
root@arm:~# echo 'KUNU''XNJYZN'
KUNUXNJYZN
root@arm:~# MARKER='KOYL''CFXOHZ' run 'echo 930000 930000 > /sys/kernel/mva_test//regulators/buck1_set'
KOYLCFXOHZKOYLCFXOHZ 0
root@arm:~# echo 'JKAB''VWMLEL'
JKABVWMLEL
root@arm:~# MARKER='MKBK''BUBBPF' run 'i2cget -y -f 2 0x4b 0xd'
MKBKBUBBPF0x17
MKBKBUBBPF 0
root@arm:~# echo 'NLSC''ZHLMLP'
NLSCZHLMLP
root@arm:~# MARKER='AWVU''SHLAZF' run 'echo 940000 940000 > /sys/kernel/mva_test//regulators/buck1_set'
AWVUSHLAZFAWVUSHLAZF 0
root@arm:~# echo 'KVQP''QJCQKE'
KVQPQJCQKE
root@arm:~# MARKER='CMLM''HLKVET' run 'i2cget -y -f 2 0x4b 0xd'
CMLMHLKVET0x18
CMLMHLKVET 0
root@arm:~# echo 'PGYZ''OWHJPH'
PGYZOWHJPH
root@arm:~# MARKER='BSOH''CZNKGF' run 'echo 950000 950000 > /sys/kernel/mva_test//regulators/buck1_set'
BSOHCZNKGFBSOHCZNKGF 0
root@arm:~# echo 'CZZM''FBVYBF'
CZZMFBVYBF
root@arm:~# MARKER='YZEC''VMSEMV' run 'i2cget -y -f 2 0x4b 0xd'
YZECVMSEMV0x19
YZECVMSEMV 0
root@arm:~# echo 'WQUZ''SBGHJJ'
WQUZSBGHJJ
root@arm:~# MARKER='BZAP''QHWJNC' run 'echo 960000 960000 > /sys/kernel/mva_test//regulators/buck1_set'
BZAPQHWJNCBZAPQHWJNC 0
root@arm:~# echo 'NCSP''QLEKYX'
NCSPQLEKYX
root@arm:~# MARKER='AJUY''WVQTUV' run 'i2cget -y -f 2 0x4b 0xd'
AJUYWVQTUV0x1a
AJUYWVQTUV 0
root@arm:~# echo 'THMM''XNETKF'
THMMXNETKF
root@arm:~# MARKER='FPLT''OCENMX' run 'echo 970000 970000 > /sys/kernel/mva_test//regulators/buck1_set'
FPLTOCENMXFPLTOCENMX 0
root@arm:~# echo 'NFFC''KXNNMP'
NFFCKXNNMP
root@arm:~# MARKER='BJPV''AGSAAW' run 'i2cget -y -f 2 0x4b 0xd'
BJPVAGSAAW0x1b
BJPVAGSAAW 0
root@arm:~# echo 'TPCX''KUEYZB'
TPCXKUEYZB
root@arm:~# MARKER='EPJZ''OEWEBA' run 'echo 980000 980000 > /sys/kernel/mva_test//regulators/buck1_set'
EPJZOEWEBAEPJZOEWEBA 0
root@arm:~# echo 'BKVJ''AXKSPN'
BKVJAXKSPN
root@arm:~# MARKER='YKLK''FELKUZ' run 'i2cget -y -f 2 0x4b 0xd'
YKLKFELKUZ0x1c
YKLKFELKUZ 0
root@arm:~# echo 'SFFF''SKAMCU'
SFFFSKAMCU
root@arm:~# MARKER='UKAT''CCBFBX' run 'echo 990000 990000 > /sys/kernel/mva_test//regulators/buck1_set'
UKATCCBFBXUKATCCBFBX 0
root@arm:~# echo 'XPAK''BLESZY'
XPAKBLESZY
root@arm:~# MARKER='BAOO''TJCCCQ' run 'i2cget -y -f 2 0x4b 0xd'
BAOOTJCCCQ0x1d
BAOOTJCCCQ 0
root@arm:~# echo 'CWYZ''WZLAVP'
CWYZWZLAVP
root@arm:~# MARKER='TBSU''OTFNVL' run 'echo 1000000 1000000 > /sys/kernel/mva_tesst/regulators/buck1_set'
TBSUOTFNVLTBSUOTFNVL 0
root@arm:~# echo 'VNLZ''KUTWKB'
VNLZKUTWKB
root@arm:~# MARKER='OKKE''MJTVAN' run 'i2cget -y -f 2 0x4b 0xd'
OKKEMJTVAN0x1e
OKKEMJTVAN 0
root@arm:~# echo 'FQNA''MHLKHS'
FQNAMHLKHS
root@arm:~# MARKER='WEWS''EHPKLA' run 'echo 1010000 1010000 > /sys/kernel/mva_tesst/regulators/buck1_set'
WEWSEHPKLAWEWSEHPKLA 0
root@arm:~# echo 'BWBT''TKZVVZ'
BWBTTKZVVZ
root@arm:~# MARKER='CXUW''AYMJMA' run 'i2cget -y -f 2 0x4b 0xd'
CXUWAYMJMA0x1f
CXUWAYMJMA 0
root@arm:~# echo 'OVCB''BFBZQH'
OVCBBFBZQH
root@arm:~# MARKER='FOAN''MGSEVG' run 'echo 1020000 1020000 > /sys/kernel/mva_tesst/regulators/buck1_set'
FOANMGSEVGFOANMGSEVG 0
root@arm:~# echo 'TXXL''VPBGUN'
TXXLVPBGUN
root@arm:~# MARKER='ZGXC''KQEKJN' run 'i2cget -y -f 2 0x4b 0xd'
ZGXCKQEKJN0x20
ZGXCKQEKJN 0
root@arm:~# echo 'ZKAE''GSWZWS'
ZKAEGSWZWS
root@arm:~# MARKER='ZLLK''VKHFGG' run 'echo 1030000 1030000 > /sys/kernel/mva_tesst/regulators/buck1_set'
ZLLKVKHFGGZLLKVKHFGG 0
root@arm:~# echo 'JYST''LJHBPP'
JYSTLJHBPP
root@arm:~# MARKER='CYWW''MZKVAH' run 'i2cget -y -f 2 0x4b 0xd'
CYWWMZKVAH0x21
CYWWMZKVAH 0
root@arm:~# echo 'YPEX''ELMUAF'
YPEXELMUAF
root@arm:~# MARKER='OTGJ''PMYXFE' run 'echo 1040000 1040000 > /sys/kernel/mva_tesst/regulators/buck1_set'
OTGJPMYXFEOTGJPMYXFE 0
root@arm:~# echo 'GPXY''EXYXWK'
GPXYEXYXWK
root@arm:~# MARKER='AXTM''HVSPPY' run 'i2cget -y -f 2 0x4b 0xd'
AXTMHVSPPY0x22
AXTMHVSPPY 0
root@arm:~# echo 'UTWG''EZSZVB'
UTWGEZSZVB
root@arm:~# MARKER='PLVX''CACLQQ' run 'echo 1050000 1050000 > /sys/kernel/mva_tesst/regulators/buck1_set'
PLVXCACLQQPLVXCACLQQ 0
root@arm:~# echo 'PHQW''WTLZYG'
PHQWWTLZYG
root@arm:~# MARKER='FTTX''QPVPOL' run 'i2cget -y -f 2 0x4b 0xd'
FTTXQPVPOL0x23
FTTXQPVPOL 0
root@arm:~# echo 'PXPM''JWLTPO'
PXPMJWLTPO
root@arm:~# MARKER='XUGB''YZTSZH' run 'echo 1060000 1060000 > /sys/kernel/mva_tesst/regulators/buck1_set'
XUGBYZTSZHXUGBYZTSZH 0
root@arm:~# echo 'OUTP''BFHTXB'
OUTPBFHTXB
root@arm:~# MARKER='JQYU''EXAOTH' run 'i2cget -y -f 2 0x4b 0xd'
JQYUEXAOTH0x24
JQYUEXAOTH 0
root@arm:~# echo 'YJCX''FSEJAQ'
YJCXFSEJAQ
root@arm:~# MARKER='GJKP''FLBPHA' run 'echo 1070000 1070000 > /sys/kernel/mva_tesst/regulators/buck1_set'
GJKPFLBPHAGJKPFLBPHA 0
root@arm:~# echo 'WKYU''VGSTJP'
WKYUVGSTJP
root@arm:~# MARKER='ZQOZ''WMOEJE' run 'i2cget -y -f 2 0x4b 0xd'
ZQOZWMOEJE0x25
ZQOZWMOEJE 0
root@arm:~# echo 'AQPL''KTJEQT'
AQPLKTJEQT
root@arm:~# MARKER='VSPW''YSHAKG' run 'echo 1080000 1080000 > /sys/kernel/mva_tesst/regulators/buck1_set'
VSPWYSHAKGVSPWYSHAKG 0
root@arm:~# echo 'VJTN''NFLXHX'
VJTNNFLXHX
root@arm:~# MARKER='JOCF''FCYXQP' run 'i2cget -y -f 2 0x4b 0xd'
JOCFFCYXQP0x26
JOCFFCYXQP 0
root@arm:~# echo 'WSLQ''HBKZJO'
WSLQHBKZJO
root@arm:~# MARKER='POOW''QLXHCV' run 'echo 1090000 1090000 > /sys/kernel/mva_tesst/regulators/buck1_set'
POOWQLXHCVPOOWQLXHCV 0
root@arm:~# echo 'STXS''PLHXAK'
STXSPLHXAK
root@arm:~# MARKER='WPPG''LXCOYZ' run 'i2cget -y -f 2 0x4b 0xd'
WPPGLXCOYZ0x27
WPPGLXCOYZ 0
root@arm:~# echo 'VJLL''FKPQAE'
VJLLFKPQAE
root@arm:~# MARKER='GAHN''EGWLLC' run 'echo 1100000 1100000 > /sys/kernel/mva_tesst/regulators/buck1_set'
GAHNEGWLLCGAHNEGWLLC 0
root@arm:~# echo 'UVXF''QMHFZE'
UVXFQMHFZE
root@arm:~# MARKER='HSWF''AJWFKH' run 'i2cget -y -f 2 0x4b 0xd'
HSWFAJWFKH0x28
HSWFAJWFKH 0
root@arm:~# echo 'KVUZ''PBKJMT'
KVUZPBKJMT
root@arm:~# MARKER='NXJY''BLUHCA' run 'echo 1110000 1110000 > /sys/kernel/mva_tesst/regulators/buck1_set'
NXJYBLUHCANXJYBLUHCA 0
root@arm:~# echo 'ENOT''BXNLFT'
ENOTBXNLFT
root@arm:~# MARKER='BNTZ''SEBFKC' run 'i2cget -y -f 2 0x4b 0xd'
BNTZSEBFKC0x29
BNTZSEBFKC 0
root@arm:~# echo 'NZUN''NWCOGU'
NZUNNWCOGU
root@arm:~# MARKER='JNZF''EEJVBG' run 'echo 1120000 1120000 > /sys/kernel/mva_tesst/regulators/buck1_set'
JNZFEEJVBGJNZFEEJVBG 0
root@arm:~# echo 'BUWG''EBNNWH'
BUWGEBNNWH
root@arm:~# MARKER='THQU''AXNTNG' run 'i2cget -y -f 2 0x4b 0xd'
THQUAXNTNG0x2a
THQUAXNTNG 0
root@arm:~# echo 'TTHO''UOHFSF'
TTHOUOHFSF
root@arm:~# MARKER='EHEL''NFWJSL' run 'echo 1130000 1130000 > /sys/kernel/mva_tesst/regulators/buck1_set'
EHELNFWJSLEHELNFWJSL 0
root@arm:~# echo 'MCAX''ZUCCLO'
MCAXZUCCLO
root@arm:~# MARKER='ZYFO''QEGGYM' run 'i2cget -y -f 2 0x4b 0xd'
ZYFOQEGGYM0x2b
ZYFOQEGGYM 0
root@arm:~# echo 'ZFSA''XQMUST'
ZFSAXQMUST
root@arm:~# MARKER='UZAG''XMXAAB' run 'echo 1140000 1140000 > /sys/kernel/mva_tesst/regulators/buck1_set'
UZAGXMXAABUZAGXMXAAB 0
root@arm:~# echo 'APYC''EFABMQ'
APYCEFABMQ
root@arm:~# MARKER='PCSA''OPAYZW' run 'i2cget -y -f 2 0x4b 0xd'
PCSAOPAYZW0x2c
PCSAOPAYZW 0
root@arm:~# echo 'SUVO''XCMOSG'
SUVOXCMOSG
root@arm:~# MARKER='GMEO''PNWNMP' run 'echo 1150000 1150000 > /sys/kernel/mva_tesst/regulators/buck1_set'
GMEOPNWNMPGMEOPNWNMP 0
root@arm:~# echo 'XTWV''PBWWSZ'
XTWVPBWWSZ
root@arm:~# MARKER='OPCB''UEUNUH' run 'i2cget -y -f 2 0x4b 0xd'
OPCBUEUNUH0x2d
OPCBUEUNUH 0
root@arm:~# echo 'ECVB''TBFQMY'
ECVBTBFQMY
root@arm:~# MARKER='JEEG''HVNSWS' run 'echo 1160000 1160000 > /sys/kernel/mva_tesst/regulators/buck1_set'
JEEGHVNSWSJEEGHVNSWS 0
root@arm:~# echo 'AMTS''SBTHAC'
AMTSSBTHAC
root@arm:~# MARKER='UQPP''XOBUTK' run 'i2cget -y -f 2 0x4b 0xd'
UQPPXOBUTK0x2e
UQPPXOBUTK 0
root@arm:~# echo 'NBFH''WSECFS'
NBFHWSECFS
root@arm:~# MARKER='TNLP''BZUBMO' run 'echo 1170000 1170000 > /sys/kernel/mva_tesst/regulators/buck1_set'
TNLPBZUBMOTNLPBZUBMO 0
root@arm:~# echo 'KGCH''PQQXEW'
KGCHPQQXEW
root@arm:~# MARKER='CMMC''MKZUXC' run 'i2cget -y -f 2 0x4b 0xd'
CMMCMKZUXC0x2f
CMMCMKZUXC 0
root@arm:~# echo 'NFNL''VMSCPG'
NFNLVMSCPG
root@arm:~# MARKER='PQCN''BXUYNY' run 'echo 1180000 1180000 > /sys/kernel/mva_tesst/regulators/buck1_set'
PQCNBXUYNYPQCNBXUYNY 0
root@arm:~# echo 'NNEL''FVXQUO'
NNELFVXQUO
root@arm:~# MARKER='FHVB''LEFZNK' run 'i2cget -y -f 2 0x4b 0xd'
FHVBLEFZNK0x30
FHVBLEFZNK 0
root@arm:~# echo 'QPAM''HVJHQO'
QPAMHVJHQO
root@arm:~# MARKER='QTKT''TGJMQV' run 'echo 1190000 1190000 > /sys/kernel/mva_tesst/regulators/buck1_set'
QTKTTGJMQVQTKTTGJMQV 0
root@arm:~# echo 'GEAS''KOJWXJ'
GEASKOJWXJ
root@arm:~# MARKER='QXZG''QNUZVT' run 'i2cget -y -f 2 0x4b 0xd'
QXZGQNUZVT0x31
QXZGQNUZVT 0
root@arm:~# echo 'KUXS''CAPNLJ'
KUXSCAPNLJ
root@arm:~# MARKER='FTZB''GWCLGK' run 'echo 1200000 1200000 > /sys/kernel/mva_tesst/regulators/buck1_set'
FTZBGWCLGKFTZBGWCLGK 0
root@arm:~# echo 'VHYM''PNJHJV'
VHYMPNJHJV
root@arm:~# MARKER='EPWP''LGWAYH' run 'i2cget -y -f 2 0x4b 0xd'
EPWPLGWAYH0x32
EPWPLGWAYH 0
root@arm:~# echo 'POFJ''AMXPYF'
POFJAMXPYF
root@arm:~# MARKER='XTKZ''MWKTZQ' run 'echo 1210000 1210000 > /sys/kernel/mva_tesst/regulators/buck1_set'
XTKZMWKTZQXTKZMWKTZQ 0
root@arm:~# echo 'SKCQ''OOUTSS'
SKCQOOUTSS
root@arm:~# MARKER='JQQG''PXTNTY' run 'i2cget -y -f 2 0x4b 0xd'
JQQGPXTNTY0x33
JQQGPXTNTY 0
root@arm:~# echo 'UGVS''CQEWZP'
UGVSCQEWZP
root@arm:~# MARKER='QGFP''OGVUZH' run 'echo 1220000 1220000 > /sys/kernel/mva_tesst/regulators/buck1_set'
QGFPOGVUZHQGFPOGVUZH 0
root@arm:~# echo 'AFFP''OFQPSO'
AFFPOFQPSO
root@arm:~# MARKER='UKHA''ABAUAO' run 'i2cget -y -f 2 0x4b 0xd'
UKHAABAUAO0x34
UKHAABAUAO 0
root@arm:~# echo 'WFKP''HBUNYG'
WFKPHBUNYG
root@arm:~# MARKER='WBHY''ZVZMFT' run 'echo 1230000 1230000 > /sys/kernel/mva_tesst/regulators/buck1_set'
WBHYZVZMFTWBHYZVZMFT 0
root@arm:~# echo 'CYSJ''ANHUHA'
CYSJANHUHA
root@arm:~# MARKER='PNXF''EKVFNV' run 'i2cget -y -f 2 0x4b 0xd'
PNXFEKVFNV0x35
PNXFEKVFNV 0
root@arm:~# echo 'TXNW''BHPXTE'
TXNWBHPXTE
root@arm:~# MARKER='GYYP''AKYQOP' run 'echo 1240000 1240000 > /sys/kernel/mva_tesst/regulators/buck1_set'
GYYPAKYQOPGYYPAKYQOP 0
root@arm:~# echo 'PJVS''GHMNVT'
PJVSGHMNVT
root@arm:~# MARKER='MZVG''GHACME' run 'i2cget -y -f 2 0x4b 0xd'
MZVGGHACME0x36
MZVGGHACME 0
root@arm:~# echo 'PTUB''JBMEMC'
PTUBJBMEMC
root@arm:~# MARKER='PGHV''HJBWML' run 'echo 1250000 1250000 > /sys/kernel/mva_tesst/regulators/buck1_set'
PGHVHJBWMLPGHVHJBWML 0
root@arm:~# echo 'CCBK''KJUHLZ'
CCBKKJUHLZ
root@arm:~# MARKER='VFUQ''WUXKKF' run 'i2cget -y -f 2 0x4b 0xd'
VFUQWUXKKF0x37
VFUQWUXKKF 0
root@arm:~# echo 'EAQP''ZGTEPU'
EAQPZGTEPU
root@arm:~# MARKER='QPGQ''SMAWMH' run 'echo 1260000 1260000 > /sys/kernel/mva_tesst/regulators/buck1_set'
QPGQSMAWMHQPGQSMAWMH 0
root@arm:~# echo 'SLPQ''TLZZUC'
SLPQTLZZUC
root@arm:~# MARKER='TSTV''QWXNYF' run 'i2cget -y -f 2 0x4b 0xd'
TSTVQWXNYF0x38
TSTVQWXNYF 0
root@arm:~# echo 'UNLO''LHGSUF'
UNLOLHGSUF
root@arm:~# MARKER='LTWG''EENQQN' run 'echo 1270000 1270000 > /sys/kernel/mva_tesst/regulators/buck1_set'
LTWGEENQQNLTWGEENQQN 0
root@arm:~# echo 'ZVBU''OLPEYE'
ZVBUOLPEYE
root@arm:~# MARKER='QZJA''BSKJYM' run 'i2cget -y -f 2 0x4b 0xd'
QZJABSKJYM0x39
QZJABSKJYM 0
root@arm:~# echo 'NSWB''OMVUUX'
NSWBOMVUUX
root@arm:~# MARKER='YXLW''YZBJJA' run 'echo 1280000 1280000 > /sys/kernel/mva_tesst/regulators/buck1_set'
YXLWYZBJJAYXLWYZBJJA 0
root@arm:~# echo 'LMFM''FKJSSZ'
LMFMFKJSSZ
root@arm:~# MARKER='OBQZ''EHBCLT' run 'i2cget -y -f 2 0x4b 0xd'
OBQZEHBCLT0x3a
OBQZEHBCLT 0
root@arm:~# echo 'AHZX''TSXWBU'
AHZXTSXWBU
root@arm:~# MARKER='HZWK''VSVJHK' run 'echo 1290000 1290000 > /sys/kernel/mva_tesst/regulators/buck1_set'
HZWKVSVJHKHZWKVSVJHK 0
root@arm:~# echo 'SWSS''ECZEFV'
SWSSECZEFV
root@arm:~# MARKER='MXJJ''CLCXCY' run 'i2cget -y -f 2 0x4b 0xd'
MXJJCLCXCY0x3b
MXJJCLCXCY 0
root@arm:~# echo 'PJCY''KZGGUG'
PJCYKZGGUG
root@arm:~# MARKER='BYHM''TKTMNH' run 'echo 1300000 1300000 > /sys/kernel/mva_tesst/regulators/buck1_set'
BYHMTKTMNHBYHMTKTMNH 0
root@arm:~# echo 'PPOM''LPYHAM'
PPOMLPYHAM
root@arm:~# MARKER='QCNQ''JQLOEL' run 'i2cget -y -f 2 0x4b 0xd'
QCNQJQLOEL0x3c
QCNQJQLOEL 0
root@arm:~# echo 'YNEM''FPZMHM'
YNEMFPZMHM
root@arm:~# MARKER='FKKF''MZGEGV' run 'grep -r -l rohm,bd71837 /proc/device-tree  | sed '"'"'s![^/]*$!!'"'"''
FKKFMZGEGV/proc/device-tree/ocp/interconnect@48000000/segment@100000/target-module@9c000/i2c@0/pmic@4b/
FKKFMZGEGV 0
root@arm:~# echo 'TEAH''VMZQBB'
TEAHVMZQBB
root@arm:~# MARKER='HOQV''TQGNLW' run 'test -f /proc/device-tree/ocp/interconnectt\@48000000/segment\@100000/target-module\@9c000/i2c\@0/pmic\@4b/regulators/BUCK22/rohm,no-regulator-enable-control ;echo $?'
HOQVTQGNLW1
HOQVTQGNLW 0
root@arm:~# echo 'UWUC''NNEJQZ'
UWUCNNEJQZ
root@arm:~# MARKER='ELBF''MUNBEA' run 'i2cget -y -f 2 0x4b 0x6'
ELBFMUNBEA0x43
ELBFMUNBEA 0
root@arm:~# echo 'SZLJ''YLUZFA'
SZLJYLUZFA
root@arm:~# MARKER='YSBM''UUCVFH' run 'echo 700000 700000 > /sys/kernel/mva_test//regulators/buck2_set'
YSBMUUCVFHYSBMUUCVFH 0
root@arm:~# echo 'OCMJ''LXUEYG'
OCMJLXUEYG
root@arm:~# MARKER='TPEO''KYOPJJ' run 'i2cget -y -f 2 0x4b 0x10'
TPEOKYOPJJ0x00
TPEOKYOPJJ 0
root@arm:~# echo 'ZXYN''ZMLPQV'
ZXYNZMLPQV
root@arm:~# MARKER='QUVS''QAONMA' run 'echo 710000 710000 > /sys/kernel/mva_test//regulators/buck2_set'
QUVSQAONMAQUVSQAONMA 0
root@arm:~# echo 'CQUC''FEQNQG'
CQUCFEQNQG
root@arm:~# MARKER='LUHS''HXBGQL' run 'i2cget -y -f 2 0x4b 0x10'
LUHSHXBGQL0x01
LUHSHXBGQL 0
root@arm:~# echo 'HVUX''JPXJNY'
HVUXJPXJNY
root@arm:~# MARKER='OELY''MFBGKF' run 'echo 720000 720000 > /sys/kernel/mva_test//regulators/buck2_set'
OELYMFBGKFOELYMFBGKF 0
root@arm:~# echo 'SUSM''VAEKHM'
SUSMVAEKHM
root@arm:~# MARKER='YJMV''SMPGXW' run 'i2cget -y -f 2 0x4b 0x10'
YJMVSMPGXW0x02
YJMVSMPGXW 0
root@arm:~# echo 'FJXX''TMLXZH'
FJXXTMLXZH
root@arm:~# MARKER='WGEL''EGTOAQ' run 'echo 730000 730000 > /sys/kernel/mva_test//regulators/buck2_set'
WGELEGTOAQWGELEGTOAQ 0
root@arm:~# echo 'ZQCG''XEVTQV'
ZQCGXEVTQV
root@arm:~# MARKER='BWLE''OZVLAY' run 'i2cget -y -f 2 0x4b 0x10'
BWLEOZVLAY0x03
BWLEOZVLAY 0
root@arm:~# echo 'TSOK''CQVZNY'
TSOKCQVZNY
root@arm:~# MARKER='KAOX''EPVKCZ' run 'echo 740000 740000 > /sys/kernel/mva_test//regulators/buck2_set'
KAOXEPVKCZKAOXEPVKCZ 0
root@arm:~# echo 'QULE''UAMHGL'
QULEUAMHGL
root@arm:~# MARKER='SFLY''UBYGNF' run 'i2cget -y -f 2 0x4b 0x10'
SFLYUBYGNF0x04
SFLYUBYGNF 0
root@arm:~# echo 'KYAL''TOUEAX'
KYALTOUEAX
root@arm:~# MARKER='GSWY''FCZVZT' run 'echo 750000 750000 > /sys/kernel/mva_test//regulators/buck2_set'
GSWYFCZVZTGSWYFCZVZT 0
root@arm:~# echo 'VHSX''JCKXVO'
VHSXJCKXVO
root@arm:~# MARKER='QJEJ''FCSTPC' run 'i2cget -y -f 2 0x4b 0x10'
QJEJFCSTPC0x05
QJEJFCSTPC 0
root@arm:~# echo 'LHOX''EAKMCQ'
LHOXEAKMCQ
root@arm:~# MARKER='SABC''XXLOFX' run 'echo 760000 760000 > /sys/kernel/mva_test//regulators/buck2_set'
SABCXXLOFXSABCXXLOFX 0
root@arm:~# echo 'BSVE''NGTMKN'
BSVENGTMKN
root@arm:~# MARKER='SEYJ''VCLPMF' run 'i2cget -y -f 2 0x4b 0x10'
SEYJVCLPMF0x06
SEYJVCLPMF 0
root@arm:~# echo 'ULOG''UGZBKG'
ULOGUGZBKG
root@arm:~# MARKER='KWYO''YCLSFM' run 'echo 770000 770000 > /sys/kernel/mva_test//regulators/buck2_set'
KWYOYCLSFMKWYOYCLSFM 0
root@arm:~# echo 'EOSH''QZZVPE'
EOSHQZZVPE
root@arm:~# MARKER='BJNN''LVELZT' run 'i2cget -y -f 2 0x4b 0x10'
BJNNLVELZT0x07
BJNNLVELZT 0
root@arm:~# echo 'UBGB''POOMLE'
UBGBPOOMLE
root@arm:~# MARKER='QKQT''CALJHX' run 'echo 780000 780000 > /sys/kernel/mva_test//regulators/buck2_set'
QKQTCALJHXQKQTCALJHX 0
root@arm:~# echo 'NJZV''ZXJOYX'
NJZVZXJOYX
root@arm:~# MARKER='NNMP''OKSMAQ' run 'i2cget -y -f 2 0x4b 0x10'
NNMPOKSMAQ0x08
NNMPOKSMAQ 0
root@arm:~# echo 'BLVN''VZYJSB'
BLVNVZYJSB
root@arm:~# MARKER='LXVV''CLYEUT' run 'echo 790000 790000 > /sys/kernel/mva_test//regulators/buck2_set'
LXVVCLYEUTLXVVCLYEUT 0
root@arm:~# echo 'QZVN''OVOJGZ'
QZVNOVOJGZ
root@arm:~# MARKER='LVUX''VKVSWS' run 'i2cget -y -f 2 0x4b 0x10'
LVUXVKVSWS0x09
LVUXVKVSWS 0
root@arm:~# echo 'TJQB''TGFLPB'
TJQBTGFLPB
root@arm:~# MARKER='BGLT''TYFOUG' run 'echo 800000 800000 > /sys/kernel/mva_test//regulators/buck2_set'
BGLTTYFOUGBGLTTYFOUG 0
root@arm:~# echo 'GBHO''HJYUXN'
GBHOHJYUXN
root@arm:~# MARKER='BZZL''COCEYS' run 'i2cget -y -f 2 0x4b 0x10'
BZZLCOCEYS0x0a
BZZLCOCEYS 0
root@arm:~# echo 'OYEA''TABBMN'
OYEATABBMN
root@arm:~# MARKER='PZQK''CJSBGF' run 'echo 810000 810000 > /sys/kernel/mva_test//regulators/buck2_set'
PZQKCJSBGFPZQKCJSBGF 0
root@arm:~# echo 'ENBH''NESJVM'
ENBHNESJVM
root@arm:~# MARKER='FSFA''BKCYUO' run 'i2cget -y -f 2 0x4b 0x10'
FSFABKCYUO0x0b
FSFABKCYUO 0
root@arm:~# echo 'SNKM''HCXTZE'
SNKMHCXTZE
root@arm:~# MARKER='TZBB''ZMEYFH' run 'echo 820000 820000 > /sys/kernel/mva_test//regulators/buck2_set'
TZBBZMEYFHTZBBZMEYFH 0
root@arm:~# echo 'VTYB''JCBOUS'
VTYBJCBOUS
root@arm:~# MARKER='WBFO''XYBACG' run 'i2cget -y -f 2 0x4b 0x10'
WBFOXYBACG0x0c
WBFOXYBACG 0
root@arm:~# echo 'LAWX''JKJLXC'
LAWXJKJLXC
root@arm:~# MARKER='UVSZ''VJGSOG' run 'echo 830000 830000 > /sys/kernel/mva_test//regulators/buck2_set'
UVSZVJGSOGUVSZVJGSOG 0
root@arm:~# echo 'KGVN''LYJFUM'
KGVNLYJFUM
root@arm:~# MARKER='LULQ''JXFFGT' run 'i2cget -y -f 2 0x4b 0x10'
LULQJXFFGT0x0d
LULQJXFFGT 0
root@arm:~# echo 'AJEH''EAJBYU'
AJEHEAJBYU
root@arm:~# MARKER='WMES''ETBCGV' run 'echo 840000 840000 > /sys/kernel/mva_test//regulators/buck2_set'
WMESETBCGVWMESETBCGV 0
root@arm:~# echo 'UNCK''SVAFFT'
UNCKSVAFFT
root@arm:~# MARKER='WQNW''KKCTVX' run 'i2cget -y -f 2 0x4b 0x10'
WQNWKKCTVX0x0e
WQNWKKCTVX 0
root@arm:~# echo 'YVVE''JCJSVG'
YVVEJCJSVG
root@arm:~# MARKER='FVHZ''THYQHK' run 'echo 850000 850000 > /sys/kernel/mva_test//regulators/buck2_set'
FVHZTHYQHKFVHZTHYQHK 0
root@arm:~# echo 'UHHE''AAAUEJ'
UHHEAAAUEJ
root@arm:~# MARKER='HSQY''OBZJFY' run 'i2cget -y -f 2 0x4b 0x10'
HSQYOBZJFY0x0f
HSQYOBZJFY 0
root@arm:~# echo 'HQMT''JXLNQE'
HQMTJXLNQE
root@arm:~# MARKER='NJXO''UNWNCJ' run 'echo 860000 860000 > /sys/kernel/mva_test//regulators/buck2_set'
NJXOUNWNCJNJXOUNWNCJ 0
root@arm:~# echo 'YBSJ''HJUEUS'
YBSJHJUEUS
root@arm:~# MARKER='WLBJ''YBZYQX' run 'i2cget -y -f 2 0x4b 0x10'
WLBJYBZYQX0x10
WLBJYBZYQX 0
root@arm:~# echo 'KGEJ''FMLJEL'
KGEJFMLJEL
root@arm:~# MARKER='MOSK''AWPGCN' run 'echo 870000 870000 > /sys/kernel/mva_test//regulators/buck2_set'
MOSKAWPGCNMOSKAWPGCN 0
root@arm:~# echo 'NGLF''AHXYWV'
NGLFAHXYWV
root@arm:~# MARKER='OAKV''NFOYMW' run 'i2cget -y -f 2 0x4b 0x10'
OAKVNFOYMW0x11
OAKVNFOYMW 0
root@arm:~# echo 'UWVO''AHPBPH'
UWVOAHPBPH
root@arm:~# MARKER='YVGZ''LKZHMN' run 'echo 880000 880000 > /sys/kernel/mva_test//regulators/buck2_set'
YVGZLKZHMNYVGZLKZHMN 0
root@arm:~# echo 'MXTQ''XLLQJK'
MXTQXLLQJK
root@arm:~# MARKER='AGSN''QELQMS' run 'i2cget -y -f 2 0x4b 0x10'
AGSNQELQMS0x12
AGSNQELQMS 0
root@arm:~# echo 'HQAC''HTHOEP'
HQACHTHOEP
root@arm:~# MARKER='HJVQ''GGEZCJ' run 'echo 890000 890000 > /sys/kernel/mva_test//regulators/buck2_set'
HJVQGGEZCJHJVQGGEZCJ 0
root@arm:~# echo 'HOOH''ACEGQC'
HOOHACEGQC
root@arm:~# MARKER='JYWW''YMCMXQ' run 'i2cget -y -f 2 0x4b 0x10'
JYWWYMCMXQ0x13
JYWWYMCMXQ 0
root@arm:~# echo 'UXXQ''GTHYAT'
UXXQGTHYAT
root@arm:~# MARKER='FOQB''TKNGAF' run 'echo 900000 900000 > /sys/kernel/mva_test//regulators/buck2_set'
FOQBTKNGAFFOQBTKNGAF 0
root@arm:~# echo 'GKEP''LTEYBB'
GKEPLTEYBB
root@arm:~# MARKER='HXCP''JQNXLA' run 'i2cget -y -f 2 0x4b 0x10'
HXCPJQNXLA0x14
HXCPJQNXLA 0
root@arm:~# echo 'EKQX''MEPPHA'
EKQXMEPPHA
root@arm:~# MARKER='UJPE''VMVAYX' run 'echo 910000 910000 > /sys/kernel/mva_test//regulators/buck2_set'
UJPEVMVAYXUJPEVMVAYX 0
root@arm:~# echo 'PQSZ''HEQEBG'
PQSZHEQEBG
root@arm:~# MARKER='AEXP''EUAFEV' run 'i2cget -y -f 2 0x4b 0x10'
AEXPEUAFEV0x15
AEXPEUAFEV 0
root@arm:~# echo 'BKLW''CTGUCM'
BKLWCTGUCM
root@arm:~# MARKER='PKVJ''MFNZOS' run 'echo 920000 920000 > /sys/kernel/mva_test//regulators/buck2_set'
PKVJMFNZOSPKVJMFNZOS 0
root@arm:~# echo 'NGHC''AAVGAM'
NGHCAAVGAM
root@arm:~# MARKER='GHVW''AXVYAC' run 'i2cget -y -f 2 0x4b 0x10'
GHVWAXVYAC0x16
GHVWAXVYAC 0
root@arm:~# echo 'MLWY''ZHULAU'
MLWYZHULAU
root@arm:~# MARKER='PCFU''OBPVNJ' run 'echo 930000 930000 > /sys/kernel/mva_test//regulators/buck2_set'
PCFUOBPVNJPCFUOBPVNJ 0
root@arm:~# echo 'QKZY''FQCUAP'
QKZYFQCUAP
root@arm:~# MARKER='GOYV''UOHQSQ' run 'i2cget -y -f 2 0x4b 0x10'
GOYVUOHQSQ0x17
GOYVUOHQSQ 0
root@arm:~# echo 'NKPQ''APHUQU'
NKPQAPHUQU
root@arm:~# MARKER='TEOO''MNCOZP' run 'echo 940000 940000 > /sys/kernel/mva_test//regulators/buck2_set'
TEOOMNCOZPTEOOMNCOZP 0
root@arm:~# echo 'OTSZ''AMZNGT'
OTSZAMZNGT
root@arm:~# MARKER='QLZB''FLEAJC' run 'i2cget -y -f 2 0x4b 0x10'
QLZBFLEAJC0x18
QLZBFLEAJC 0
root@arm:~# echo 'BAYV''JZCNEK'
BAYVJZCNEK
root@arm:~# MARKER='QBHS''HSCAEL' run 'echo 950000 950000 > /sys/kernel/mva_test//regulators/buck2_set'
QBHSHSCAELQBHSHSCAEL 0
root@arm:~# echo 'CCEC''GSUEWH'
CCECGSUEWH
root@arm:~# MARKER='XPKY''KXZALE' run 'i2cget -y -f 2 0x4b 0x10'
XPKYKXZALE0x19
XPKYKXZALE 0
root@arm:~# echo 'LJVL''BXFAVX'
LJVLBXFAVX
root@arm:~# MARKER='GKME''SPYFBH' run 'echo 960000 960000 > /sys/kernel/mva_test//regulators/buck2_set'
GKMESPYFBHGKMESPYFBH 0
root@arm:~# echo 'MPQP''MEXENF'
MPQPMEXENF
root@arm:~# MARKER='BLQC''WATJEL' run 'i2cget -y -f 2 0x4b 0x10'
BLQCWATJEL0x1a
BLQCWATJEL 0
root@arm:~# echo 'ZPXH''OPLQCY'
ZPXHOPLQCY
root@arm:~# MARKER='QVMW''JENYJU' run 'echo 970000 970000 > /sys/kernel/mva_test//regulators/buck2_set'
QVMWJENYJUQVMWJENYJU 0
root@arm:~# echo 'TKJZ''PGEUWB'
TKJZPGEUWB
root@arm:~# MARKER='LASJ''VFKYCC' run 'i2cget -y -f 2 0x4b 0x10'
LASJVFKYCC0x1b
LASJVFKYCC 0
root@arm:~# echo 'LBPY''VXBUJP'
LBPYVXBUJP
root@arm:~# MARKER='EVAP''ELCPQP' run 'echo 980000 980000 > /sys/kernel/mva_test//regulators/buck2_set'
EVAPELCPQPEVAPELCPQP 0
root@arm:~# echo 'UAVM''BVPBMP'
UAVMBVPBMP
root@arm:~# MARKER='XOJY''EWEPZB' run 'i2cget -y -f 2 0x4b 0x10'
XOJYEWEPZB0x1c
XOJYEWEPZB 0
root@arm:~# echo 'ASVM''APBEBM'
ASVMAPBEBM
root@arm:~# MARKER='LPYQ''MUEQOK' run 'echo 990000 990000 > /sys/kernel/mva_test//regulators/buck2_set'
LPYQMUEQOKLPYQMUEQOK 0
root@arm:~# echo 'JMKG''XOTEEH'
JMKGXOTEEH
root@arm:~# MARKER='FFVA''HKTMCH' run 'i2cget -y -f 2 0x4b 0x10'
FFVAHKTMCH0x1d
FFVAHKTMCH 0
root@arm:~# echo 'HFOJ''TVVMYJ'
HFOJTVVMYJ
root@arm:~# MARKER='OGVA''QLUSWO' run 'echo 1000000 1000000 > /sys/kernel/mva_tesst/regulators/buck2_set'
OGVAQLUSWOOGVAQLUSWO 0
root@arm:~# echo 'LEMW''JVLMJL'
LEMWJVLMJL
root@arm:~# MARKER='MSNC''ZFNPVG' run 'i2cget -y -f 2 0x4b 0x10'
MSNCZFNPVG0x1e
MSNCZFNPVG 0
root@arm:~# echo 'WETU''XBPTBF'
WETUXBPTBF
root@arm:~# MARKER='NVXJ''YHJAZG' run 'echo 1010000 1010000 > /sys/kernel/mva_tesst/regulators/buck2_set'
NVXJYHJAZGNVXJYHJAZG 0
root@arm:~# echo 'FCVM''AMMXEB'
FCVMAMMXEB
root@arm:~# MARKER='OFOU''BNXPEG' run 'i2cget -y -f 2 0x4b 0x10'
OFOUBNXPEG0x1f
OFOUBNXPEG 0
root@arm:~# echo 'SGMJ''UHLMCN'
SGMJUHLMCN
root@arm:~# MARKER='VXAY''YVOALW' run 'echo 1020000 1020000 > /sys/kernel/mva_tesst/regulators/buck2_set'
VXAYYVOALWVXAYYVOALW 0
root@arm:~# echo 'ZEEC''ZBSNQB'
ZEECZBSNQB
root@arm:~# MARKER='AOLO''NEMPBV' run 'i2cget -y -f 2 0x4b 0x10'
AOLONEMPBV0x20
AOLONEMPBV 0
root@arm:~# echo 'TEKQ''KYMMPB'
TEKQKYMMPB
root@arm:~# MARKER='SMCU''HTWLUE' run 'echo 1030000 1030000 > /sys/kernel/mva_tesst/regulators/buck2_set'
SMCUHTWLUESMCUHTWLUE 0
root@arm:~# echo 'UQCN''BWPOMF'
UQCNBWPOMF
root@arm:~# MARKER='ZUNK''SWOZFZ' run 'i2cget -y -f 2 0x4b 0x10'
ZUNKSWOZFZ0x21
ZUNKSWOZFZ 0
root@arm:~# echo 'YCCY''TMYGHV'
YCCYTMYGHV
root@arm:~# MARKER='KCJA''SULTWJ' run 'echo 1040000 1040000 > /sys/kernel/mva_tesst/regulators/buck2_set'
KCJASULTWJKCJASULTWJ 0
root@arm:~# echo 'NHNL''BJXZAZ'
NHNLBJXZAZ
root@arm:~# MARKER='WBQL''BHNKMA' run 'i2cget -y -f 2 0x4b 0x10'
WBQLBHNKMA0x22
WBQLBHNKMA 0
root@arm:~# echo 'ZYSB''BOGOTH'
ZYSBBOGOTH
root@arm:~# MARKER='BNZK''ZCENAE' run 'echo 1050000 1050000 > /sys/kernel/mva_tesst/regulators/buck2_set'
BNZKZCENAEBNZKZCENAE 0
root@arm:~# echo 'BHCW''OALYKV'
BHCWOALYKV
root@arm:~# MARKER='QCVP''KZYJQV' run 'i2cget -y -f 2 0x4b 0x10'
QCVPKZYJQV0x23
QCVPKZYJQV 0
root@arm:~# echo 'MMPC''JHNZBS'
MMPCJHNZBS
root@arm:~# MARKER='PYVL''TXQAMU' run 'echo 1060000 1060000 > /sys/kernel/mva_tesst/regulators/buck2_set'
PYVLTXQAMUPYVLTXQAMU 0
root@arm:~# echo 'LFSU''APJVNT'
LFSUAPJVNT
root@arm:~# MARKER='YNEW''WQPQMM' run 'i2cget -y -f 2 0x4b 0x10'
YNEWWQPQMM0x24
YNEWWQPQMM 0
root@arm:~# echo 'VNNX''MQKSAK'
VNNXMQKSAK
root@arm:~# MARKER='QGJM''ASGNMZ' run 'echo 1070000 1070000 > /sys/kernel/mva_tesst/regulators/buck2_set'
QGJMASGNMZQGJMASGNMZ 0
root@arm:~# echo 'MTNH''VSJWGY'
MTNHVSJWGY
root@arm:~# MARKER='NEOL''PYTPOB' run 'i2cget -y -f 2 0x4b 0x10'
NEOLPYTPOB0x25
NEOLPYTPOB 0
root@arm:~# echo 'UNKA''CVBHWQ'
UNKACVBHWQ
root@arm:~# MARKER='OJFW''EWQTLC' run 'echo 1080000 1080000 > /sys/kernel/mva_tesst/regulators/buck2_set'
OJFWEWQTLCOJFWEWQTLC 0
root@arm:~# echo 'KYFX''AHQUFY'
KYFXAHQUFY
root@arm:~# MARKER='HFWS''YCKQWK' run 'i2cget -y -f 2 0x4b 0x10'
HFWSYCKQWK0x26
HFWSYCKQWK 0
root@arm:~# echo 'ZNFV''JFNWQG'
ZNFVJFNWQG
root@arm:~# MARKER='UOBK''FEQHZM' run 'echo 1090000 1090000 > /sys/kernel/mva_tesst/regulators/buck2_set'
UOBKFEQHZMUOBKFEQHZM 0
root@arm:~# echo 'PKEM''WUTOXP'
PKEMWUTOXP
root@arm:~# MARKER='ZXKE''SSOLNO' run 'i2cget -y -f 2 0x4b 0x10'
ZXKESSOLNO0x27
ZXKESSOLNO 0
root@arm:~# echo 'VBCO''EAGJNZ'
VBCOEAGJNZ
root@arm:~# MARKER='GEJJ''JHMEUL' run 'echo 1100000 1100000 > /sys/kernel/mva_tesst/regulators/buck2_set'
GEJJJHMEULGEJJJHMEUL 0
root@arm:~# echo 'OZTQ''GAOQNB'
OZTQGAOQNB
root@arm:~# MARKER='FXCC''AOESYH' run 'i2cget -y -f 2 0x4b 0x10'
FXCCAOESYH0x28
FXCCAOESYH 0
root@arm:~# echo 'ZAGT''OTCZTX'
ZAGTOTCZTX
root@arm:~# MARKER='AZAH''PZPNKK' run 'echo 1110000 1110000 > /sys/kernel/mva_tesst/regulators/buck2_set'
AZAHPZPNKKAZAHPZPNKK 0
root@arm:~# echo 'QYVQ''MYUOLW'
QYVQMYUOLW
root@arm:~# MARKER='ASXY''NOPPHP' run 'i2cget -y -f 2 0x4b 0x10'
ASXYNOPPHP0x29
ASXYNOPPHP 0
root@arm:~# echo 'ZUUK''OLCBBE'
ZUUKOLCBBE
root@arm:~# MARKER='WFQJ''THQUSG' run 'echo 1120000 1120000 > /sys/kernel/mva_tesst/regulators/buck2_set'
WFQJTHQUSGWFQJTHQUSG 0
root@arm:~# echo 'WAFM''LGMVMT'
WAFMLGMVMT
root@arm:~# MARKER='WSBL''CYOQTE' run 'i2cget -y -f 2 0x4b 0x10'
WSBLCYOQTE0x2a
WSBLCYOQTE 0
root@arm:~# echo 'HYOY''XOBUFE'
HYOYXOBUFE
root@arm:~# MARKER='EFFM''VHTKYC' run 'echo 1130000 1130000 > /sys/kernel/mva_tesst/regulators/buck2_set'
EFFMVHTKYCEFFMVHTKYC 0
root@arm:~# echo 'EAOF''BEAVUO'
EAOFBEAVUO
root@arm:~# MARKER='TABK''LYEFVY' run 'i2cget -y -f 2 0x4b 0x10'
TABKLYEFVY0x2b
TABKLYEFVY 0
root@arm:~# echo 'SVLW''JHJFCP'
SVLWJHJFCP
root@arm:~# MARKER='XELW''QTCLQP' run 'echo 1140000 1140000 > /sys/kernel/mva_tesst/regulators/buck2_set'
XELWQTCLQPXELWQTCLQP 0
root@arm:~# echo 'EUXW''AXFCBK'
EUXWAXFCBK
root@arm:~# MARKER='OONC''QUFXHQ' run 'i2cget -y -f 2 0x4b 0x10'
OONCQUFXHQ0x2c
OONCQUFXHQ 0
root@arm:~# echo 'GXHB''UFPPFE'
GXHBUFPPFE
root@arm:~# MARKER='TZKS''MWPOCU' run 'echo 1150000 1150000 > /sys/kernel/mva_tesst/regulators/buck2_set'
TZKSMWPOCUTZKSMWPOCU 0
root@arm:~# echo 'QXQF''SMLOMJ'
QXQFSMLOMJ
root@arm:~# MARKER='UVUU''WTAFGT' run 'i2cget -y -f 2 0x4b 0x10'
UVUUWTAFGT0x2d
UVUUWTAFGT 0
root@arm:~# echo 'MJOT''KKGGYE'
MJOTKKGGYE
root@arm:~# MARKER='ZBMF''MXAMMF' run 'echo 1160000 1160000 > /sys/kernel/mva_tesst/regulators/buck2_set'
ZBMFMXAMMFZBMFMXAMMF 0
root@arm:~# echo 'LAWO''MSZAGW'
LAWOMSZAGW
root@arm:~# MARKER='XHZV''FKFBPY' run 'i2cget -y -f 2 0x4b 0x10'
XHZVFKFBPY0x2e
XHZVFKFBPY 0
root@arm:~# echo 'QWQH''TNAHUX'
QWQHTNAHUX
root@arm:~# MARKER='HJZQ''UNLECZ' run 'echo 1170000 1170000 > /sys/kernel/mva_tesst/regulators/buck2_set'
HJZQUNLECZHJZQUNLECZ 0
root@arm:~# echo 'QABP''BBXSKU'
QABPBBXSKU
root@arm:~# MARKER='OXOX''ULSBHP' run 'i2cget -y -f 2 0x4b 0x10'
OXOXULSBHP0x2f
OXOXULSBHP 0
root@arm:~# echo 'ZMAW''NHVKGZ'
ZMAWNHVKGZ
root@arm:~# MARKER='ZEAA''JLYXMY' run 'echo 1180000 1180000 > /sys/kernel/mva_tesst/regulators/buck2_set'
ZEAAJLYXMYZEAAJLYXMY 0
root@arm:~# echo 'MHSN''EQHZYE'
MHSNEQHZYE
root@arm:~# MARKER='MUSY''YOXBVA' run 'i2cget -y -f 2 0x4b 0x10'
MUSYYOXBVA0x30
MUSYYOXBVA 0
root@arm:~# echo 'UPTH''ZNSQLS'
UPTHZNSQLS
root@arm:~# MARKER='YLJF''HKZGMA' run 'echo 1190000 1190000 > /sys/kernel/mva_tesst/regulators/buck2_set'
YLJFHKZGMAYLJFHKZGMA 0
root@arm:~# echo 'LVUG''PXYCYB'
LVUGPXYCYB
root@arm:~# MARKER='BUSY''OMNWNS' run 'i2cget -y -f 2 0x4b 0x10'
BUSYOMNWNS0x31
BUSYOMNWNS 0
root@arm:~# echo 'HYFV''HVXFBU'
HYFVHVXFBU
root@arm:~# MARKER='SZYO''TNHPVX' run 'echo 1200000 1200000 > /sys/kernel/mva_tesst/regulators/buck2_set'
SZYOTNHPVXSZYOTNHPVX 0
root@arm:~# echo 'FTVM''VNHELH'
FTVMVNHELH
root@arm:~# MARKER='NYEA''YOFHJL' run 'i2cget -y -f 2 0x4b 0x10'
NYEAYOFHJL0x32
NYEAYOFHJL 0
root@arm:~# echo 'VZXC''QHAFXL'
VZXCQHAFXL
root@arm:~# MARKER='TMSO''SVNONE' run 'echo 1210000 1210000 > /sys/kernel/mva_tesst/regulators/buck2_set'
TMSOSVNONETMSOSVNONE 0
root@arm:~# echo 'NKPT''YCYZUY'
NKPTYCYZUY
root@arm:~# MARKER='OCMO''WTEVFS' run 'i2cget -y -f 2 0x4b 0x10'
OCMOWTEVFS0x33
OCMOWTEVFS 0
root@arm:~# echo 'YSHZ''KOGABX'
YSHZKOGABX
root@arm:~# MARKER='QPMV''KCQAYA' run 'echo 1220000 1220000 > /sys/kernel/mva_tesst/regulators/buck2_set'
QPMVKCQAYAQPMVKCQAYA 0
root@arm:~# echo 'LOBT''BYJXZH'
LOBTBYJXZH
root@arm:~# MARKER='LTMS''SZGOVF' run 'i2cget -y -f 2 0x4b 0x10'
LTMSSZGOVF0x34
LTMSSZGOVF 0
root@arm:~# echo 'HWWO''BMBNCT'
HWWOBMBNCT
root@arm:~# MARKER='BACB''BENUYB' run 'echo 1230000 1230000 > /sys/kernel/mva_tesst/regulators/buck2_set'
BACBBENUYBBACBBENUYB 0
root@arm:~# echo 'MWXH''CBPXFW'
MWXHCBPXFW
root@arm:~# MARKER='LNYK''MVGYPS' run 'i2cget -y -f 2 0x4b 0x10'
LNYKMVGYPS0x35
LNYKMVGYPS 0
root@arm:~# echo 'KEZE''WBCPOX'
KEZEWBCPOX
root@arm:~# MARKER='ZJVC''YGUXOX' run 'echo 1240000 1240000 > /sys/kernel/mva_tesst/regulators/buck2_set'
ZJVCYGUXOXZJVCYGUXOX 0
root@arm:~# echo 'UEQN''HFHJCG'
UEQNHFHJCG
root@arm:~# MARKER='CTYU''BQMUTN' run 'i2cget -y -f 2 0x4b 0x10'
CTYUBQMUTN0x36
CTYUBQMUTN 0
root@arm:~# echo 'HCHK''KCSUBZ'
HCHKKCSUBZ
root@arm:~# MARKER='HKXM''MKKSZA' run 'echo 1250000 1250000 > /sys/kernel/mva_tesst/regulators/buck2_set'
HKXMMKKSZAHKXMMKKSZA 0
root@arm:~# echo 'GBPH''VTZQYA'
GBPHVTZQYA
root@arm:~# MARKER='VMVN''BQTYWC' run 'i2cget -y -f 2 0x4b 0x10'
VMVNBQTYWC0x37
VMVNBQTYWC 0
root@arm:~# echo 'KMMX''ZWOUCC'
KMMXZWOUCC
root@arm:~# MARKER='KAHT''XAJPCG' run 'echo 1260000 1260000 > /sys/kernel/mva_tesst/regulators/buck2_set'
KAHTXAJPCGKAHTXAJPCG 0
root@arm:~# echo 'JVOA''ZYMEAZ'
JVOAZYMEAZ
root@arm:~# MARKER='TETN''LBKMHN' run 'i2cget -y -f 2 0x4b 0x10'
TETNLBKMHN0x38
TETNLBKMHN 0
root@arm:~# echo 'JYFS''NTZKVV'
JYFSNTZKVV
root@arm:~# MARKER='QSHC''JWHNMY' run 'echo 1270000 1270000 > /sys/kernel/mva_tesst/regulators/buck2_set'
QSHCJWHNMYQSHCJWHNMY 0
root@arm:~# echo 'WUYX''GLVCAC'
WUYXGLVCAC
root@arm:~# MARKER='GFBA''KUCVTP' run 'i2cget -y -f 2 0x4b 0x10'
GFBAKUCVTP0x39
GFBAKUCVTP 0
root@arm:~# echo 'LBAK''UGYMSQ'
LBAKUGYMSQ
root@arm:~# MARKER='SUBK''CSTPVX' run 'echo 1280000 1280000 > /sys/kernel/mva_tesst/regulators/buck2_set'
SUBKCSTPVXSUBKCSTPVX 0
root@arm:~# echo 'YFNS''SMSPMN'
YFNSSMSPMN
root@arm:~# MARKER='PEKP''ZVNXJX' run 'i2cget -y -f 2 0x4b 0x10'
PEKPZVNXJX0x3a
PEKPZVNXJX 0
root@arm:~# echo 'TYQV''EGWKVE'
TYQVEGWKVE
root@arm:~# MARKER='XCMN''ZXHUKM' run 'echo 1290000 1290000 > /sys/kernel/mva_tesst/regulators/buck2_set'
XCMNZXHUKMXCMNZXHUKM 0
root@arm:~# echo 'ZYNS''WVHLLO'
ZYNSWVHLLO
root@arm:~# MARKER='WJSO''OKGVPT' run 'i2cget -y -f 2 0x4b 0x10'
WJSOOKGVPT0x3b
WJSOOKGVPT 0
root@arm:~# echo 'MBOC''SCAYXQ'
MBOCSCAYXQ
root@arm:~# MARKER='FCGL''WOBFAK' run 'echo 1300000 1300000 > /sys/kernel/mva_tesst/regulators/buck2_set'
FCGLWOBFAKFCGLWOBFAK 0
root@arm:~# echo 'SNEN''GLZMVL'
SNENGLZMVL
root@arm:~# MARKER='UCZC''NXZOMG' run 'i2cget -y -f 2 0x4b 0x10'
UCZCNXZOMG0x3c
UCZCNXZOMG 0
root@arm:~# echo 'PYBM''ESHGHS'
PYBMESHGHS
root@arm:~# MARKER='KLCE''WUVQGB' run 'grep -r -l rohm,bd71837 /proc/device-tree  | sed '"'"'s![^/]*$!!'"'"''
KLCEWUVQGB/proc/device-tree/ocp/interconnect@48000000/segment@100000/target-module@9c000/i2c@0/pmic@4b/
KLCEWUVQGB 0
root@arm:~# echo 'VKJB''MVTGTO'
VKJBMVTGTO
root@arm:~# MARKER='KMZJ''AQJACE' run 'test -f /proc/device-tree/ocp/interconnectt\@48000000/segment\@100000/target-module\@9c000/i2c\@0/pmic\@4b/regulators/BUCK33/rohm,no-regulator-enable-control ;echo $?'
KMZJAQJACE0
KMZJAQJACE 0
root@arm:~# echo 'LOZU''BEGJNU'
LOZUBEGJNU
root@arm:~# MARKER='KMQS''ZSKNGM' run 'echo 700000 700000 > /sys/kernel/mva_test//regulators/buck3_set'
KMQSZSKNGMKMQSZSKNGM 0
root@arm:~# echo 'WMOU''KAHQXG'
WMOUKAHQXG
root@arm:~# MARKER='KXJY''VZPFUS' run 'i2cget -y -f 2 0x4b 0x12'
KXJYVZPFUS0x00
KXJYVZPFUS 0
root@arm:~# echo 'HKFC''VLCMON'
HKFCVLCMON
root@arm:~# MARKER='OMVO''TJKAJF' run 'echo 710000 710000 > /sys/kernel/mva_test//regulators/buck3_set'
OMVOTJKAJFOMVOTJKAJF 0
root@arm:~# echo 'KLYE''TPJXVS'
KLYETPJXVS
root@arm:~# MARKER='GWCP''GVSFKP' run 'i2cget -y -f 2 0x4b 0x12'
GWCPGVSFKP0x01
GWCPGVSFKP 0
root@arm:~# echo 'NYZK''ZZAZZF'
NYZKZZAZZF
root@arm:~# MARKER='SPUE''JXFPFW' run 'echo 720000 720000 > /sys/kernel/mva_test//regulators/buck3_set'
SPUEJXFPFWSPUEJXFPFW 0
root@arm:~# echo 'AKWT''TGWTNC'
AKWTTGWTNC
root@arm:~# MARKER='FYVU''BVNAYZ' run 'i2cget -y -f 2 0x4b 0x12'
FYVUBVNAYZ0x02
FYVUBVNAYZ 0
root@arm:~# echo 'LZOY''UXKHJF'
LZOYUXKHJF
root@arm:~# MARKER='PFBC''HWFEHN' run 'echo 730000 730000 > /sys/kernel/mva_test//regulators/buck3_set'
PFBCHWFEHNPFBCHWFEHN 0
root@arm:~# echo 'ATNU''QHXNYS'
ATNUQHXNYS
root@arm:~# MARKER='SBAF''JMQKJL' run 'i2cget -y -f 2 0x4b 0x12'
SBAFJMQKJL0x03
SBAFJMQKJL 0
root@arm:~# echo 'UTMZ''LOPQJN'
UTMZLOPQJN
root@arm:~# MARKER='GFUG''TTTSFW' run 'echo 740000 740000 > /sys/kernel/mva_test//regulators/buck3_set'
GFUGTTTSFWGFUGTTTSFW 0
root@arm:~# echo 'SPWQ''XHLTJN'
SPWQXHLTJN
root@arm:~# MARKER='CTBY''WSEPWU' run 'i2cget -y -f 2 0x4b 0x12'
CTBYWSEPWU0x04
CTBYWSEPWU 0
root@arm:~# echo 'OJHW''YJEHEJ'
OJHWYJEHEJ
root@arm:~# MARKER='QEML''TQSBUH' run 'echo 750000 750000 > /sys/kernel/mva_test//regulators/buck3_set'
QEMLTQSBUHQEMLTQSBUH 0
root@arm:~# echo 'OQOE''EABJBO'
OQOEEABJBO
root@arm:~# MARKER='HUVN''GHHYTG' run 'i2cget -y -f 2 0x4b 0x12'
HUVNGHHYTG0x05
HUVNGHHYTG 0
root@arm:~# echo 'NMXV''ZFNBEV'
NMXVZFNBEV
root@arm:~# MARKER='JZKM''ACTKZT' run 'echo 760000 760000 > /sys/kernel/mva_test//regulators/buck3_set'
JZKMACTKZTJZKMACTKZT 0
root@arm:~# echo 'WAOQ''PNSKUM'
WAOQPNSKUM
root@arm:~# MARKER='WOTG''SJSBNL' run 'i2cget -y -f 2 0x4b 0x12'
WOTGSJSBNL0x06
WOTGSJSBNL 0
root@arm:~# echo 'VUYQ''EGWBFQ'
VUYQEGWBFQ
root@arm:~# MARKER='ZGSP''AFKMGQ' run 'echo 770000 770000 > /sys/kernel/mva_test//regulators/buck3_set'
ZGSPAFKMGQZGSPAFKMGQ 0
root@arm:~# echo 'GOZO''XPYVKW'
GOZOXPYVKW
root@arm:~# MARKER='KYWJ''KQTKBF' run 'i2cget -y -f 2 0x4b 0x12'
KYWJKQTKBF0x07
KYWJKQTKBF 0
root@arm:~# echo 'OSOX''BTQFWB'
OSOXBTQFWB
root@arm:~# MARKER='CHPJ''MGXFFV' run 'echo 780000 780000 > /sys/kernel/mva_test//regulators/buck3_set'
CHPJMGXFFVCHPJMGXFFV 0
root@arm:~# echo 'VKSO''JGFHUX'
VKSOJGFHUX
root@arm:~# MARKER='TMYV''QNMFLA' run 'i2cget -y -f 2 0x4b 0x12'
TMYVQNMFLA0x08
TMYVQNMFLA 0
root@arm:~# echo 'SATW''KUEWVP'
SATWKUEWVP
root@arm:~# MARKER='WBXZ''FNLWSW' run 'echo 790000 790000 > /sys/kernel/mva_test//regulators/buck3_set'
WBXZFNLWSWWBXZFNLWSW 0
root@arm:~# echo 'BEVZ''BOUCBE'
BEVZBOUCBE
root@arm:~# MARKER='UPSE''NKEUZH' run 'i2cget -y -f 2 0x4b 0x12'
UPSENKEUZH0x09
UPSENKEUZH 0
root@arm:~# echo 'KZMQ''NBJNTC'
KZMQNBJNTC
root@arm:~# MARKER='WSGQ''FLNASK' run 'echo 800000 800000 > /sys/kernel/mva_test//regulators/buck3_set'
WSGQFLNASKWSGQFLNASK 0
root@arm:~# echo 'GQHC''YEOPPQ'
GQHCYEOPPQ
root@arm:~# MARKER='AUXZ''JYQETY' run 'i2cget -y -f 2 0x4b 0x12'
AUXZJYQETY0x0a
AUXZJYQETY 0
root@arm:~# echo 'YQMS''UYQASK'
YQMSUYQASK
root@arm:~# MARKER='UGZU''FSKFYP' run 'echo 810000 810000 > /sys/kernel/mva_test//regulators/buck3_set'
UGZUFSKFYPUGZUFSKFYP 0
root@arm:~# echo 'GNVG''YSVXWQ'
GNVGYSVXWQ
root@arm:~# MARKER='PBZN''FBLWUY' run 'i2cget -y -f 2 0x4b 0x12'
PBZNFBLWUY0x0b
PBZNFBLWUY 0
root@arm:~# echo 'QPOH''VKYGCJ'
QPOHVKYGCJ
root@arm:~# MARKER='WZQV''FKGYUV' run 'echo 820000 820000 > /sys/kernel/mva_test//regulators/buck3_set'
WZQVFKGYUVWZQVFKGYUV 0
root@arm:~# echo 'GZFS''CKXZVW'
GZFSCKXZVW
root@arm:~# MARKER='YMWV''JHZAGF' run 'i2cget -y -f 2 0x4b 0x12'
YMWVJHZAGF0x0c
YMWVJHZAGF 0
root@arm:~# echo 'BYLP''QFKFUL'
BYLPQFKFUL
root@arm:~# MARKER='NKUV''WMJOFC' run 'echo 830000 830000 > /sys/kernel/mva_test//regulators/buck3_set'
NKUVWMJOFCNKUVWMJOFC 0
root@arm:~# echo 'BLCN''BMBNHQ'
BLCNBMBNHQ
root@arm:~# MARKER='CUEY''MVEVVE' run 'i2cget -y -f 2 0x4b 0x12'
CUEYMVEVVE0x0d
CUEYMVEVVE 0
root@arm:~# echo 'ZOPW''EAJLBC'
ZOPWEAJLBC
root@arm:~# MARKER='FPCB''ZSZLAQ' run 'echo 840000 840000 > /sys/kernel/mva_test//regulators/buck3_set'
FPCBZSZLAQFPCBZSZLAQ 0
root@arm:~# echo 'KUJL''ALNZLA'
KUJLALNZLA
root@arm:~# MARKER='ZPFO''JPSBFA' run 'i2cget -y -f 2 0x4b 0x12'
ZPFOJPSBFA0x0e
ZPFOJPSBFA 0
root@arm:~# echo 'GNLA''VFSMAX'
GNLAVFSMAX
root@arm:~# MARKER='QMLG''BEVKHX' run 'echo 850000 850000 > /sys/kernel/mva_test//regulators/buck3_set'
QMLGBEVKHXQMLGBEVKHX 0
root@arm:~# echo 'UMCB''BOEYOC'
UMCBBOEYOC
root@arm:~# MARKER='OBJJ''NXPYTV' run 'i2cget -y -f 2 0x4b 0x12'
OBJJNXPYTV0x0f
OBJJNXPYTV 0
root@arm:~# echo 'SKKY''GNYHWJ'
SKKYGNYHWJ
root@arm:~# MARKER='GUNJ''XJSVWC' run 'echo 860000 860000 > /sys/kernel/mva_test//regulators/buck3_set'
GUNJXJSVWCGUNJXJSVWC 0
root@arm:~# echo 'JYVB''USNTYJ'
JYVBUSNTYJ
root@arm:~# MARKER='KJVB''XSHZTH' run 'i2cget -y -f 2 0x4b 0x12'
KJVBXSHZTH0x10
KJVBXSHZTH 0
root@arm:~# echo 'AYXQ''PVYEMJ'
AYXQPVYEMJ
root@arm:~# MARKER='NLCQ''WHQQBE' run 'echo 870000 870000 > /sys/kernel/mva_test//regulators/buck3_set'
NLCQWHQQBENLCQWHQQBE 0
root@arm:~# echo 'QAZM''LYNYEU'
QAZMLYNYEU
root@arm:~# MARKER='MOLC''HGOCXC' run 'i2cget -y -f 2 0x4b 0x12'
MOLCHGOCXC0x11
MOLCHGOCXC 0
root@arm:~# echo 'QAVA''FYNVMK'
QAVAFYNVMK
root@arm:~# MARKER='VTKN''GPHWAL' run 'echo 880000 880000 > /sys/kernel/mva_test//regulators/buck3_set'
VTKNGPHWALVTKNGPHWAL 0
root@arm:~# echo 'PNZF''YNUNUF'
PNZFYNUNUF
root@arm:~# MARKER='VTQE''YZMXJQ' run 'i2cget -y -f 2 0x4b 0x12'
VTQEYZMXJQ0x12
VTQEYZMXJQ 0
root@arm:~# echo 'BWYL''ZYWOAT'
BWYLZYWOAT
root@arm:~# MARKER='NEAK''XOVFMO' run 'echo 890000 890000 > /sys/kernel/mva_test//regulators/buck3_set'
NEAKXOVFMONEAKXOVFMO 0
root@arm:~# echo 'KEPA''ESFWUW'
KEPAESFWUW
root@arm:~# MARKER='WWNE''TCZTUS' run 'i2cget -y -f 2 0x4b 0x12'
WWNETCZTUS0x13
WWNETCZTUS 0
root@arm:~# echo 'EEQJ''XMJGEE'
EEQJXMJGEE
root@arm:~# MARKER='QUHJ''MTKGCS' run 'echo 900000 900000 > /sys/kernel/mva_test//regulators/buck3_set'
QUHJMTKGCSQUHJMTKGCS 0
root@arm:~# echo 'QSTY''UMOFLC'
QSTYUMOFLC
root@arm:~# MARKER='OJZA''OUANAM' run 'i2cget -y -f 2 0x4b 0x12'
OJZAOUANAM0x14
OJZAOUANAM 0
root@arm:~# echo 'CAKF''SXWWUW'
CAKFSXWWUW
root@arm:~# MARKER='NONX''GBOWLZ' run 'echo 910000 910000 > /sys/kernel/mva_test//regulators/buck3_set'
NONXGBOWLZNONXGBOWLZ 0
root@arm:~# echo 'ZSMT''TPZUYS'
ZSMTTPZUYS
root@arm:~# MARKER='LGXO''GPPGFE' run 'i2cget -y -f 2 0x4b 0x12'
LGXOGPPGFE0x15
LGXOGPPGFE 0
root@arm:~# echo 'LOEB''BLUHPN'
LOEBBLUHPN
root@arm:~# MARKER='CMWY''LTHTOQ' run 'echo 920000 920000 > /sys/kernel/mva_test//regulators/buck3_set'
CMWYLTHTOQCMWYLTHTOQ 0
root@arm:~# echo 'WCQS''EZTFSK'
WCQSEZTFSK
root@arm:~# MARKER='PXHF''LFBYBT' run 'i2cget -y -f 2 0x4b 0x12'
PXHFLFBYBT0x16
PXHFLFBYBT 0
root@arm:~# echo 'YZAK''ULYHVC'
YZAKULYHVC
root@arm:~# MARKER='AOVG''PJCYFS' run 'echo 930000 930000 > /sys/kernel/mva_test//regulators/buck3_set'
AOVGPJCYFSAOVGPJCYFS 0
root@arm:~# echo 'LYQA''JAAJZA'
LYQAJAAJZA
root@arm:~# MARKER='WCUZ''WOXTVF' run 'i2cget -y -f 2 0x4b 0x12'
WCUZWOXTVF0x17
WCUZWOXTVF 0
root@arm:~# echo 'HCQV''SAJHHO'
HCQVSAJHHO
root@arm:~# MARKER='XTKV''CBOGVH' run 'echo 940000 940000 > /sys/kernel/mva_test//regulators/buck3_set'
XTKVCBOGVHXTKVCBOGVH 0
root@arm:~# echo 'BYOG''CEKWBN'
BYOGCEKWBN
root@arm:~# MARKER='OFBV''GNVSJP' run 'i2cget -y -f 2 0x4b 0x12'
OFBVGNVSJP0x18
OFBVGNVSJP 0
root@arm:~# echo 'WXNX''MSNGXW'
WXNXMSNGXW
root@arm:~# MARKER='WHZU''LFXKPF' run 'echo 950000 950000 > /sys/kernel/mva_test//regulators/buck3_set'
WHZULFXKPFWHZULFXKPF 0
root@arm:~# echo 'EGKN''MUJLJF'
EGKNMUJLJF
root@arm:~# MARKER='LNZT''ESGXWX' run 'i2cget -y -f 2 0x4b 0x12'
LNZTESGXWX0x19
LNZTESGXWX 0
root@arm:~# echo 'EWKH''AQJEME'
EWKHAQJEME
root@arm:~# MARKER='AVHZ''CXEFWP' run 'echo 960000 960000 > /sys/kernel/mva_test//regulators/buck3_set'
AVHZCXEFWPAVHZCXEFWP 0
root@arm:~# echo 'BHBH''QWGUUC'
BHBHQWGUUC
root@arm:~# MARKER='XYMA''JAHGWF' run 'i2cget -y -f 2 0x4b 0x12'
XYMAJAHGWF0x1a
XYMAJAHGWF 0
root@arm:~# echo 'JGJY''TJPTAH'
JGJYTJPTAH
root@arm:~# MARKER='KCMH''PFACBQ' run 'echo 970000 970000 > /sys/kernel/mva_test//regulators/buck3_set'
KCMHPFACBQKCMHPFACBQ 0
root@arm:~# echo 'MGEB''HOJHLL'
MGEBHOJHLL
root@arm:~# MARKER='SZCU''HXLZTT' run 'i2cget -y -f 2 0x4b 0x12'
SZCUHXLZTT0x1b
SZCUHXLZTT 0
root@arm:~# echo 'CPTF''SPWOAZ'
CPTFSPWOAZ
root@arm:~# MARKER='VBOQ''UAVOXS' run 'echo 980000 980000 > /sys/kernel/mva_test//regulators/buck3_set'
VBOQUAVOXSVBOQUAVOXS 0
root@arm:~# echo 'TEEA''CSCEAY'
TEEACSCEAY
root@arm:~# MARKER='GYEL''WYQGGS' run 'i2cget -y -f 2 0x4b 0x12'
GYELWYQGGS0x1c
GYELWYQGGS 0
root@arm:~# echo 'NQOP''WGUBCC'
NQOPWGUBCC
root@arm:~# MARKER='KHCC''XKMTKV' run 'echo 990000 990000 > /sys/kernel/mva_test//regulators/buck3_set'
KHCCXKMTKVKHCCXKMTKV 0
root@arm:~# echo 'PUBL''EHLBAN'
PUBLEHLBAN
root@arm:~# MARKER='BCNS''JXBVAF' run 'i2cget -y -f 2 0x4b 0x12'
BCNSJXBVAF0x1d
BCNSJXBVAF 0
root@arm:~# echo 'BCXO''OVMFOK'
BCXOOVMFOK
root@arm:~# MARKER='YSYP''OOYNKU' run 'echo 1000000 1000000 > /sys/kernel/mva_tesst/regulators/buck3_set'
YSYPOOYNKUYSYPOOYNKU 0
root@arm:~# echo 'BMAZ''WPYGHJ'
BMAZWPYGHJ
root@arm:~# MARKER='BTZE''XUBXXY' run 'i2cget -y -f 2 0x4b 0x12'
BTZEXUBXXY0x1e
BTZEXUBXXY 0
root@arm:~# echo 'JNQY''QFOYBY'
JNQYQFOYBY
root@arm:~# MARKER='ZLTO''OJWSAK' run 'echo 1010000 1010000 > /sys/kernel/mva_tesst/regulators/buck3_set'
ZLTOOJWSAKZLTOOJWSAK 0
root@arm:~# echo 'TVHA''CFBHAW'
TVHACFBHAW
root@arm:~# MARKER='WAYW''XAJYAO' run 'i2cget -y -f 2 0x4b 0x12'
WAYWXAJYAO0x1f
WAYWXAJYAO 0
root@arm:~# echo 'NPKC''EEKMUH'
NPKCEEKMUH
root@arm:~# MARKER='CMTU''QMFQEN' run 'echo 1020000 1020000 > /sys/kernel/mva_tesst/regulators/buck3_set'
CMTUQMFQENCMTUQMFQEN 0
root@arm:~# echo 'ZXPF''EYZBJO'
ZXPFEYZBJO
root@arm:~# MARKER='CCKL''QOSTYG' run 'i2cget -y -f 2 0x4b 0x12'
CCKLQOSTYG0x20
CCKLQOSTYG 0
root@arm:~# echo 'UYMH''QXCYFX'
UYMHQXCYFX
root@arm:~# MARKER='NEQT''UKHBBA' run 'echo 1030000 1030000 > /sys/kernel/mva_tesst/regulators/buck3_set'
NEQTUKHBBANEQTUKHBBA 0
root@arm:~# echo 'GSNT''WGAAPF'
GSNTWGAAPF
root@arm:~# MARKER='AAJB''VXYNJJ' run 'i2cget -y -f 2 0x4b 0x12'
AAJBVXYNJJ0x21
AAJBVXYNJJ 0
root@arm:~# echo 'PCBF''AUYCMF'
PCBFAUYCMF
root@arm:~# MARKER='JOWL''OJMFGM' run 'echo 1040000 1040000 > /sys/kernel/mva_tesst/regulators/buck3_set'
JOWLOJMFGMJOWLOJMFGM 0
root@arm:~# echo 'LVGS''NXEKMU'
LVGSNXEKMU
root@arm:~# MARKER='TLWA''UUFGUX' run 'i2cget -y -f 2 0x4b 0x12'
TLWAUUFGUX0x22
TLWAUUFGUX 0
root@arm:~# echo 'LLYC''FTVZAH'
LLYCFTVZAH
root@arm:~# MARKER='PPMS''WUBSWM' run 'echo 1050000 1050000 > /sys/kernel/mva_tesst/regulators/buck3_set'
PPMSWUBSWMPPMSWUBSWM 0
root@arm:~# echo 'QWKA''KCFNXA'
QWKAKCFNXA
root@arm:~# MARKER='XBXC''AQJZJB' run 'i2cget -y -f 2 0x4b 0x12'
XBXCAQJZJB0x23
XBXCAQJZJB 0
root@arm:~# echo 'LQJH''GSZCOB'
LQJHGSZCOB
root@arm:~# MARKER='NFVU''YTXPXP' run 'echo 1060000 1060000 > /sys/kernel/mva_tesst/regulators/buck3_set'
NFVUYTXPXPNFVUYTXPXP 0
root@arm:~# echo 'BVCU''YNTKNX'
BVCUYNTKNX
root@arm:~# MARKER='UHSU''ZNWFYS' run 'i2cget -y -f 2 0x4b 0x12'
UHSUZNWFYS0x24
UHSUZNWFYS 0
root@arm:~# echo 'UUKU''LSCWBC'
UUKULSCWBC
root@arm:~# MARKER='UOXB''OYUWMV' run 'echo 1070000 1070000 > /sys/kernel/mva_tesst/regulators/buck3_set'
UOXBOYUWMVUOXBOYUWMV 0
root@arm:~# echo 'COTA''SMXABS'
COTASMXABS
root@arm:~# MARKER='XJZG''PCQYFE' run 'i2cget -y -f 2 0x4b 0x12'
XJZGPCQYFE0x25
XJZGPCQYFE 0
root@arm:~# echo 'QSTC''YVMMJJ'
QSTCYVMMJJ
root@arm:~# MARKER='LEHJ''CJSQSU' run 'echo 1080000 1080000 > /sys/kernel/mva_tesst/regulators/buck3_set'
LEHJCJSQSULEHJCJSQSU 0
root@arm:~# echo 'GMAG''BYSFLQ'
GMAGBYSFLQ
root@arm:~# MARKER='AWXA''KLQJLJ' run 'i2cget -y -f 2 0x4b 0x12'
AWXAKLQJLJ0x26
AWXAKLQJLJ 0
root@arm:~# echo 'SZQP''YHTKPQ'
SZQPYHTKPQ
root@arm:~# MARKER='ONTT''BVTAOQ' run 'echo 1090000 1090000 > /sys/kernel/mva_tesst/regulators/buck3_set'
ONTTBVTAOQONTTBVTAOQ 0
root@arm:~# echo 'NPOG''FZYWAU'
NPOGFZYWAU
root@arm:~# MARKER='BOJM''NBXJKS' run 'i2cget -y -f 2 0x4b 0x12'
BOJMNBXJKS0x27
BOJMNBXJKS 0
root@arm:~# echo 'PPZL''SSCJWJ'
PPZLSSCJWJ
root@arm:~# MARKER='EOZX''VZHSTU' run 'echo 1100000 1100000 > /sys/kernel/mva_tesst/regulators/buck3_set'
EOZXVZHSTUEOZXVZHSTU 0
root@arm:~# echo 'OYTU''PBZKPT'
OYTUPBZKPT
root@arm:~# MARKER='HFBE''TUTPNC' run 'i2cget -y -f 2 0x4b 0x12'
HFBETUTPNC0x28
HFBETUTPNC 0
root@arm:~# echo 'TNWY''GPKMMQ'
TNWYGPKMMQ
root@arm:~# MARKER='JHJZ''EHUXWJ' run 'echo 1110000 1110000 > /sys/kernel/mva_tesst/regulators/buck3_set'
JHJZEHUXWJJHJZEHUXWJ 0
root@arm:~# echo 'VOXM''XYQTTW'
VOXMXYQTTW
root@arm:~# MARKER='HOQB''FHJMTH' run 'i2cget -y -f 2 0x4b 0x12'
HOQBFHJMTH0x29
HOQBFHJMTH 0
root@arm:~# echo 'YZQM''MLACWL'
YZQMMLACWL
root@arm:~# MARKER='EPSH''FNNCYB' run 'echo 1120000 1120000 > /sys/kernel/mva_tesst/regulators/buck3_set'
EPSHFNNCYBEPSHFNNCYB 0
root@arm:~# echo 'BBBT''KGENKB'
BBBTKGENKB
root@arm:~# MARKER='JUYS''LEGPBC' run 'i2cget -y -f 2 0x4b 0x12'
JUYSLEGPBC0x2a
JUYSLEGPBC 0
root@arm:~# echo 'NZXL''WJPFMJ'
NZXLWJPFMJ
root@arm:~# MARKER='NLHC''ELSAFO' run 'echo 1130000 1130000 > /sys/kernel/mva_tesst/regulators/buck3_set'
NLHCELSAFONLHCELSAFO 0
root@arm:~# echo 'NFUG''OTLKEB'
NFUGOTLKEB
root@arm:~# MARKER='KKFO''QALXMU' run 'i2cget -y -f 2 0x4b 0x12'
KKFOQALXMU0x2b
KKFOQALXMU 0
root@arm:~# echo 'NBNM''EBKMYV'
NBNMEBKMYV
root@arm:~# MARKER='ENYC''VFLNJK' run 'echo 1140000 1140000 > /sys/kernel/mva_tesst/regulators/buck3_set'
ENYCVFLNJKENYCVFLNJK 0
root@arm:~# echo 'ZKOC''MNQALQ'
ZKOCMNQALQ
root@arm:~# MARKER='CJAE''TYNGPK' run 'i2cget -y -f 2 0x4b 0x12'
CJAETYNGPK0x2c
CJAETYNGPK 0
root@arm:~# echo 'GAHZ''AHAXCJ'
GAHZAHAXCJ
root@arm:~# MARKER='KYZW''GXLUCN' run 'echo 1150000 1150000 > /sys/kernel/mva_tesst/regulators/buck3_set'
KYZWGXLUCNKYZWGXLUCN 0
root@arm:~# echo 'OAYB''LKBOYW'
OAYBLKBOYW
root@arm:~# MARKER='XLTZ''NXANKV' run 'i2cget -y -f 2 0x4b 0x12'
XLTZNXANKV0x2d
XLTZNXANKV 0
root@arm:~# echo 'LHLN''MEXEWT'
LHLNMEXEWT
root@arm:~# MARKER='VVTO''GTSLPT' run 'echo 1160000 1160000 > /sys/kernel/mva_tesst/regulators/buck3_set'
VVTOGTSLPTVVTOGTSLPT 0
root@arm:~# echo 'ZBLJ''TXMPGS'
ZBLJTXMPGS
root@arm:~# MARKER='YPMB''UNNVKM' run 'i2cget -y -f 2 0x4b 0x12'
YPMBUNNVKM0x2e
YPMBUNNVKM 0
root@arm:~# echo 'LKQY''GABQNG'
LKQYGABQNG
root@arm:~# MARKER='PSXP''MTBUKK' run 'echo 1170000 1170000 > /sys/kernel/mva_tesst/regulators/buck3_set'
PSXPMTBUKKPSXPMTBUKK 0
root@arm:~# echo 'VENC''MCWTNH'
VENCMCWTNH
root@arm:~# MARKER='JEVM''ELOKZS' run 'i2cget -y -f 2 0x4b 0x12'
JEVMELOKZS0x2f
JEVMELOKZS 0
root@arm:~# echo 'CAEN''CLCZKU'
CAENCLCZKU
root@arm:~# MARKER='TNOP''AHNGUC' run 'echo 1180000 1180000 > /sys/kernel/mva_tesst/regulators/buck3_set'
TNOPAHNGUCTNOPAHNGUC 0
root@arm:~# echo 'HZFN''BPEXOU'
HZFNBPEXOU
root@arm:~# MARKER='UEJC''PCZMHE' run 'i2cget -y -f 2 0x4b 0x12'
UEJCPCZMHE0x30
UEJCPCZMHE 0
root@arm:~# echo 'MVYX''CPUTCC'
MVYXCPUTCC
root@arm:~# MARKER='PXJX''LHGAZW' run 'echo 1190000 1190000 > /sys/kernel/mva_tesst/regulators/buck3_set'
PXJXLHGAZWPXJXLHGAZW 0
root@arm:~# echo 'TPUA''MOWZSN'
TPUAMOWZSN
root@arm:~# MARKER='SVHK''YOLZBT' run 'i2cget -y -f 2 0x4b 0x12'
SVHKYOLZBT0x31
SVHKYOLZBT 0
root@arm:~# echo 'MOBW''BFWUON'
MOBWBFWUON
root@arm:~# MARKER='VAEE''NPBYJY' run 'echo 1200000 1200000 > /sys/kernel/mva_tesst/regulators/buck3_set'
VAEENPBYJYVAEENPBYJY 0
root@arm:~# echo 'QKNN''TQWHGP'
QKNNTQWHGP
root@arm:~# MARKER='CNPM''BLZNUT' run 'i2cget -y -f 2 0x4b 0x12'
CNPMBLZNUT0x32
CNPMBLZNUT 0
root@arm:~# echo 'SEPH''ZVPWCS'
SEPHZVPWCS
root@arm:~# MARKER='YGVK''FFNLWX' run 'echo 1210000 1210000 > /sys/kernel/mva_tesst/regulators/buck3_set'
YGVKFFNLWXYGVKFFNLWX 0
root@arm:~# echo 'EWCU''XBGXYA'
EWCUXBGXYA
root@arm:~# MARKER='UEPM''USJWGS' run 'i2cget -y -f 2 0x4b 0x12'
UEPMUSJWGS0x33
UEPMUSJWGS 0
root@arm:~# echo 'QHYJ''HMUYBE'
QHYJHMUYBE
root@arm:~# MARKER='SZWZ''GSPCFF' run 'echo 1220000 1220000 > /sys/kernel/mva_tesst/regulators/buck3_set'
SZWZGSPCFFSZWZGSPCFF 0
root@arm:~# echo 'YAAX''GAAJAQ'
YAAXGAAJAQ
root@arm:~# MARKER='QXQE''NNAKUS' run 'i2cget -y -f 2 0x4b 0x12'
QXQENNAKUS0x34
QXQENNAKUS 0
root@arm:~# echo 'TMEO''SCFWNM'
TMEOSCFWNM
root@arm:~# MARKER='KWLO''CPUGXP' run 'echo 1230000 1230000 > /sys/kernel/mva_tesst/regulators/buck3_set'
KWLOCPUGXPKWLOCPUGXP 0
root@arm:~# echo 'BFXS''CVGNNE'
BFXSCVGNNE
root@arm:~# MARKER='TVOS''YFSEXE' run 'i2cget -y -f 2 0x4b 0x12'
TVOSYFSEXE0x35
TVOSYFSEXE 0
root@arm:~# echo 'ACSW''TVOQNQ'
ACSWTVOQNQ
root@arm:~# MARKER='ONEB''JYYKEA' run 'echo 1240000 1240000 > /sys/kernel/mva_tesst/regulators/buck3_set'
ONEBJYYKEAONEBJYYKEA 0
root@arm:~# echo 'OYHC''CWNVNP'
OYHCCWNVNP
root@arm:~# MARKER='GSVM''OLVGBH' run 'i2cget -y -f 2 0x4b 0x12'
GSVMOLVGBH0x36
GSVMOLVGBH 0
root@arm:~# echo 'AUVY''BXYNME'
AUVYBXYNME
root@arm:~# MARKER='YQBG''BXQXQC' run 'echo 1250000 1250000 > /sys/kernel/mva_tesst/regulators/buck3_set'
YQBGBXQXQCYQBGBXQXQC 0
root@arm:~# echo 'YQKP''UHYQWZ'
YQKPUHYQWZ
root@arm:~# MARKER='FYKW''ANSBMA' run 'i2cget -y -f 2 0x4b 0x12'
FYKWANSBMA0x37
FYKWANSBMA 0
root@arm:~# echo 'GACZ''WWYWQY'
GACZWWYWQY
root@arm:~# MARKER='UTSM''VKOMMK' run 'echo 1260000 1260000 > /sys/kernel/mva_tesst/regulators/buck3_set'
UTSMVKOMMKUTSMVKOMMK 0
root@arm:~# echo 'FXQA''XYFBQL'
FXQAXYFBQL
root@arm:~# MARKER='JWVZ''HOABME' run 'i2cget -y -f 2 0x4b 0x12'
JWVZHOABME0x38
JWVZHOABME 0
root@arm:~# echo 'TLQE''EUVUBB'
TLQEEUVUBB
root@arm:~# MARKER='KWMU''HNAQYC' run 'echo 1270000 1270000 > /sys/kernel/mva_tesst/regulators/buck3_set'
KWMUHNAQYCKWMUHNAQYC 0
root@arm:~# echo 'JCNK''XMETGK'
JCNKXMETGK
root@arm:~# MARKER='JMUW''LOCYYT' run 'i2cget -y -f 2 0x4b 0x12'
JMUWLOCYYT0x39
JMUWLOCYYT 0
root@arm:~# echo 'QVWS''UOLXPM'
QVWSUOLXPM
root@arm:~# MARKER='WVMA''HQMEGU' run 'echo 1280000 1280000 > /sys/kernel/mva_tesst/regulators/buck3_set'
WVMAHQMEGUWVMAHQMEGU 0
root@arm:~# echo 'HKWB''GCOJCT'
HKWBGCOJCT
root@arm:~# MARKER='GBXX''WMLNLK' run 'i2cget -y -f 2 0x4b 0x12'
GBXXWMLNLK0x3a
GBXXWMLNLK 0
root@arm:~# echo 'NXMP''UZZWZA'
NXMPUZZWZA
root@arm:~# MARKER='LJTM''UEBJWA' run 'echo 1290000 1290000 > /sys/kernel/mva_tesst/regulators/buck3_set'
LJTMUEBJWALJTMUEBJWA 0
root@arm:~# echo 'BPJM''NWCWKH'
BPJMNWCWKH
root@arm:~# MARKER='HKTY''FHYJMF' run 'i2cget -y -f 2 0x4b 0x12'
HKTYFHYJMF0x3b
HKTYFHYJMF 0
root@arm:~# echo 'VFOM''VKAQBP'
VFOMVKAQBP
root@arm:~# MARKER='LCMX''UAPBNQ' run 'echo 1300000 1300000 > /sys/kernel/mva_tesst/regulators/buck3_set'
LCMXUAPBNQLCMXUAPBNQ 0
root@arm:~# echo 'KXBG''HPAGCV'
KXBGHPAGCV
root@arm:~# MARKER='SMCE''LQUVLC' run 'i2cget -y -f 2 0x4b 0x12'
SMCELQUVLC0x3c
SMCELQUVLC 0
root@arm:~# echo 'TBNV''BZXLHL'
TBNVBZXLHL
root@arm:~# MARKER='EJMC''FNQOZS' run 'grep -r -l rohm,bd71837 /proc/device-tree  | sed '"'"'s![^/]*$!!'"'"''
EJMCFNQOZS/proc/device-tree/ocp/interconnect@48000000/segment@100000/target-module@9c000/i2c@0/pmic@4b/
EJMCFNQOZS 0
root@arm:~# echo 'PYQK''PXBVZN'
PYQKPXBVZN
root@arm:~# MARKER='JUTT''QGYVTV' run 'test -f /proc/device-tree/ocp/interconnectt\@48000000/segment\@100000/target-module\@9c000/i2c\@0/pmic\@4b/regulators/BUCK44/rohm,no-regulator-enable-control ;echo $?'
JUTTQGYVTV1
JUTTQGYVTV 0
root@arm:~# echo 'PUHQ''ZHTLPP'
PUHQZHTLPP
root@arm:~# MARKER='ZYAU''LNGKBN' run 'i2cget -y -f 2 0x4b 0x8'
ZYAULNGKBN0xc6
ZYAULNGKBN 0
root@arm:~# echo 'SYXE''OUCOEV'
SYXEOUCOEV
root@arm:~# MARKER='OVSO''MZGXHO' run 'echo 700000 700000 > /sys/kernel/mva_test//regulators/buck4_set'
OVSOMZGXHOOVSOMZGXHO 0
root@arm:~# echo 'YNTQ''PKMEQO'
YNTQPKMEQO
root@arm:~# MARKER='VKVN''TFVWPT' run 'i2cget -y -f 2 0x4b 0x13'
VKVNTFVWPT0x00
VKVNTFVWPT 0
root@arm:~# echo 'XGXK''GSUEJE'
XGXKGSUEJE
root@arm:~# MARKER='MMGS''SKYZPH' run 'echo 710000 710000 > /sys/kernel/mva_test//regulators/buck4_set'
MMGSSKYZPHMMGSSKYZPH 0
root@arm:~# echo 'PBME''NHTJUF'
PBMENHTJUF
root@arm:~# MARKER='ESUL''QJLBKW' run 'i2cget -y -f 2 0x4b 0x13'
ESULQJLBKW0x01
ESULQJLBKW 0
root@arm:~# echo 'WSWX''NGWBPW'
WSWXNGWBPW
root@arm:~# MARKER='LHQM''VSNQZU' run 'echo 720000 720000 > /sys/kernel/mva_test//regulators/buck4_set'
LHQMVSNQZULHQMVSNQZU 0
root@arm:~# echo 'TECA''VVKFNE'
TECAVVKFNE
root@arm:~# MARKER='CMXQ''EYUXEB' run 'i2cget -y -f 2 0x4b 0x13'
CMXQEYUXEB0x02
CMXQEYUXEB 0
root@arm:~# echo 'APPB''VELEZK'
APPBVELEZK
root@arm:~# MARKER='HEVE''UUVPYA' run 'echo 730000 730000 > /sys/kernel/mva_test//regulators/buck4_set'
HEVEUUVPYAHEVEUUVPYA 0
root@arm:~# echo 'LQFH''SQNQSN'
LQFHSQNQSN
root@arm:~# MARKER='NLFH''BPZHJP' run 'i2cget -y -f 2 0x4b 0x13'
NLFHBPZHJP0x03
NLFHBPZHJP 0
root@arm:~# echo 'ZMPT''BUUSJU'
ZMPTBUUSJU
root@arm:~# MARKER='YKZX''PZNUSJ' run 'echo 740000 740000 > /sys/kernel/mva_test//regulators/buck4_set'
YKZXPZNUSJYKZXPZNUSJ 0
root@arm:~# echo 'FJKZ''SWVAXS'
FJKZSWVAXS
root@arm:~# MARKER='GCCZ''YMLJKF' run 'i2cget -y -f 2 0x4b 0x13'
GCCZYMLJKF0x04
GCCZYMLJKF 0
root@arm:~# echo 'LXHY''YZLLPV'
LXHYYZLLPV
root@arm:~# MARKER='XFSV''JEUELJ' run 'echo 750000 750000 > /sys/kernel/mva_test//regulators/buck4_set'
XFSVJEUELJXFSVJEUELJ 0
root@arm:~# echo 'ACYK''SWOPYU'
ACYKSWOPYU
root@arm:~# MARKER='AHOP''FCHGWH' run 'i2cget -y -f 2 0x4b 0x13'
AHOPFCHGWH0x05
AHOPFCHGWH 0
root@arm:~# echo 'YVPV''HGYCEV'
YVPVHGYCEV
root@arm:~# MARKER='VEEQ''HSALFB' run 'echo 760000 760000 > /sys/kernel/mva_test//regulators/buck4_set'
VEEQHSALFBVEEQHSALFB 0
root@arm:~# echo 'LWGA''QBHWTL'
LWGAQBHWTL
root@arm:~# MARKER='GOVZ''HYNJHY' run 'i2cget -y -f 2 0x4b 0x13'
GOVZHYNJHY0x06
GOVZHYNJHY 0
root@arm:~# echo 'FJYE''THYSPM'
FJYETHYSPM
root@arm:~# MARKER='LZOW''JAYAHF' run 'echo 770000 770000 > /sys/kernel/mva_test//regulators/buck4_set'
LZOWJAYAHFLZOWJAYAHF 0
root@arm:~# echo 'OGYL''YLLAPP'
OGYLYLLAPP
root@arm:~# MARKER='ZOSN''HQEGYF' run 'i2cget -y -f 2 0x4b 0x13'
ZOSNHQEGYF0x07
ZOSNHQEGYF 0
root@arm:~# echo 'ESKK''QXVQAT'
ESKKQXVQAT
root@arm:~# MARKER='ANJS''KTKSGZ' run 'echo 780000 780000 > /sys/kernel/mva_test//regulators/buck4_set'
ANJSKTKSGZANJSKTKSGZ 0
root@arm:~# echo 'SSNL''QZSHAE'
SSNLQZSHAE
root@arm:~# MARKER='CXBH''XXJPJV' run 'i2cget -y -f 2 0x4b 0x13'
CXBHXXJPJV0x08
CXBHXXJPJV 0
root@arm:~# echo 'CLVY''UKNBJF'
CLVYUKNBJF
root@arm:~# MARKER='BXHC''GELWOG' run 'echo 790000 790000 > /sys/kernel/mva_test//regulators/buck4_set'
BXHCGELWOGBXHCGELWOG 0
root@arm:~# echo 'BFBE''TECCKV'
BFBETECCKV
root@arm:~# MARKER='LUTM''CTFOCF' run 'i2cget -y -f 2 0x4b 0x13'
LUTMCTFOCF0x09
LUTMCTFOCF 0
root@arm:~# echo 'GUJA''JVVCFK'
GUJAJVVCFK
root@arm:~# MARKER='TAQM''YCFMYV' run 'echo 800000 800000 > /sys/kernel/mva_test//regulators/buck4_set'
TAQMYCFMYVTAQMYCFMYV 0
root@arm:~# echo 'CZAB''TQQEJQ'
CZABTQQEJQ
root@arm:~# MARKER='EOLH''ONJFMY' run 'i2cget -y -f 2 0x4b 0x13'
EOLHONJFMY0x0a
EOLHONJFMY 0
root@arm:~# echo 'NQXP''QXJSGN'
NQXPQXJSGN
root@arm:~# MARKER='JEOW''LPEKAW' run 'echo 810000 810000 > /sys/kernel/mva_test//regulators/buck4_set'
JEOWLPEKAWJEOWLPEKAW 0
root@arm:~# echo 'FGKB''SAKOXO'
FGKBSAKOXO
root@arm:~# MARKER='PXFW''MVPTPC' run 'i2cget -y -f 2 0x4b 0x13'
PXFWMVPTPC0x0b
PXFWMVPTPC 0
root@arm:~# echo 'HGOG''KNNVSV'
HGOGKNNVSV
root@arm:~# MARKER='LFPV''MKBCNQ' run 'echo 820000 820000 > /sys/kernel/mva_test//regulators/buck4_set'
LFPVMKBCNQLFPVMKBCNQ 0
root@arm:~# echo 'OEQE''ASWLZV'
OEQEASWLZV
root@arm:~# MARKER='ZSLC''POBUQH' run 'i2cget -y -f 2 0x4b 0x13'
ZSLCPOBUQH0x0c
ZSLCPOBUQH 0
root@arm:~# echo 'OPHN''NKAWNC'
OPHNNKAWNC
root@arm:~# MARKER='WBAJ''GVJGEV' run 'echo 830000 830000 > /sys/kernel/mva_test//regulators/buck4_set'
WBAJGVJGEVWBAJGVJGEV 0
root@arm:~# echo 'AYSC''EYLWHA'
AYSCEYLWHA
root@arm:~# MARKER='TKQY''WUXEOB' run 'i2cget -y -f 2 0x4b 0x13'
TKQYWUXEOB0x0d
TKQYWUXEOB 0
root@arm:~# echo 'TMNX''FSFEUB'
TMNXFSFEUB
root@arm:~# MARKER='XJPM''UNWNNL' run 'echo 840000 840000 > /sys/kernel/mva_test//regulators/buck4_set'
XJPMUNWNNLXJPMUNWNNL 0
root@arm:~# echo 'XLAU''HZPJJP'
XLAUHZPJJP
root@arm:~# MARKER='FQKS''HOBZAL' run 'i2cget -y -f 2 0x4b 0x13'
FQKSHOBZAL0x0e
FQKSHOBZAL 0
root@arm:~# echo 'AMEC''XPCWEQ'
AMECXPCWEQ
root@arm:~# MARKER='GYBT''HEATTS' run 'echo 850000 850000 > /sys/kernel/mva_test//regulators/buck4_set'
GYBTHEATTSGYBTHEATTS 0
root@arm:~# echo 'STBG''CWQWTG'
STBGCWQWTG
root@arm:~# MARKER='HFJN''NBEBZB' run 'i2cget -y -f 2 0x4b 0x13'
HFJNNBEBZB0x0f
HFJNNBEBZB 0
root@arm:~# echo 'OWGG''BMLOQJ'
OWGGBMLOQJ
root@arm:~# MARKER='VKXQ''PQHOGB' run 'echo 860000 860000 > /sys/kernel/mva_test//regulators/buck4_set'
VKXQPQHOGBVKXQPQHOGB 0
root@arm:~# echo 'PEYN''FUNVQA'
PEYNFUNVQA
root@arm:~# MARKER='MOTX''EBBJBW' run 'i2cget -y -f 2 0x4b 0x13'
MOTXEBBJBW0x10
MOTXEBBJBW 0
root@arm:~# echo 'ZPNL''BAQTCX'
ZPNLBAQTCX
root@arm:~# MARKER='VQZJ''AQVWOX' run 'echo 870000 870000 > /sys/kernel/mva_test//regulators/buck4_set'
VQZJAQVWOXVQZJAQVWOX 0
root@arm:~# echo 'XUVP''GJSSYC'
XUVPGJSSYC
root@arm:~# MARKER='ONYC''FYHUCN' run 'i2cget -y -f 2 0x4b 0x13'
ONYCFYHUCN0x11
ONYCFYHUCN 0
root@arm:~# echo 'AOSX''NVYPTU'
AOSXNVYPTU
root@arm:~# MARKER='TQQG''GGSZXU' run 'echo 880000 880000 > /sys/kernel/mva_test//regulators/buck4_set'
TQQGGGSZXUTQQGGGSZXU 0
root@arm:~# echo 'VNKL''OEMSZO'
VNKLOEMSZO
root@arm:~# MARKER='EOLF''QLXONA' run 'i2cget -y -f 2 0x4b 0x13'
EOLFQLXONA0x12
EOLFQLXONA 0
root@arm:~# echo 'FVCN''EXVKWT'
FVCNEXVKWT
root@arm:~# MARKER='SBWK''WTHNAZ' run 'echo 890000 890000 > /sys/kernel/mva_test//regulators/buck4_set'
SBWKWTHNAZSBWKWTHNAZ 0
root@arm:~# echo 'GWCU''MTGMTK'
GWCUMTGMTK
root@arm:~# MARKER='TTVW''PSCWJE' run 'i2cget -y -f 2 0x4b 0x13'
TTVWPSCWJE0x13
TTVWPSCWJE 0
root@arm:~# echo 'MUOL''UXMBUN'
MUOLUXMBUN
root@arm:~# MARKER='MQMK''TLQFOE' run 'echo 900000 900000 > /sys/kernel/mva_test//regulators/buck4_set'
MQMKTLQFOEMQMKTLQFOE 0
root@arm:~# echo 'KZAS''EMKEOJ'
KZASEMKEOJ
root@arm:~# MARKER='NKYS''PXLGBV' run 'i2cget -y -f 2 0x4b 0x13'
NKYSPXLGBV0x14
NKYSPXLGBV 0
root@arm:~# echo 'PKVH''XVKSQE'
PKVHXVKSQE
root@arm:~# MARKER='TGFO''XWKGCH' run 'echo 910000 910000 > /sys/kernel/mva_test//regulators/buck4_set'
TGFOXWKGCHTGFOXWKGCH 0
root@arm:~# echo 'PFKH''OYMAJS'
PFKHOYMAJS
root@arm:~# MARKER='QEZX''UONXEJ' run 'i2cget -y -f 2 0x4b 0x13'
QEZXUONXEJ0x15
QEZXUONXEJ 0
root@arm:~# echo 'NXLF''FEKLYN'
NXLFFEKLYN
root@arm:~# MARKER='FOCF''EMHLKU' run 'echo 920000 920000 > /sys/kernel/mva_test//regulators/buck4_set'
FOCFEMHLKUFOCFEMHLKU 0
root@arm:~# echo 'TCCF''UZOHAL'
TCCFUZOHAL
root@arm:~# MARKER='XNHK''GGWVAO' run 'i2cget -y -f 2 0x4b 0x13'
XNHKGGWVAO0x16
XNHKGGWVAO 0
root@arm:~# echo 'YGNK''WTGUGV'
YGNKWTGUGV
root@arm:~# MARKER='WTLH''MXUAYM' run 'echo 930000 930000 > /sys/kernel/mva_test//regulators/buck4_set'
WTLHMXUAYMWTLHMXUAYM 0
root@arm:~# echo 'HNJQ''MWYGCF'
HNJQMWYGCF
root@arm:~# MARKER='TWHG''JWHZUA' run 'i2cget -y -f 2 0x4b 0x13'
TWHGJWHZUA0x17
TWHGJWHZUA 0
root@arm:~# echo 'TPGW''ZPOMMO'
TPGWZPOMMO
