Labgrid Console Logfile for main
Logfile started at 2026-01-27 20:44:54.055246
=== Log starts here ===

root@arm:~# run() { echo -n "$MARKER"; sh -c "$@"; echo "$MARKER $?"; }
root@arm:~# echo 'YQSL''BVNSUZ'
YQSLBVNSUZ
root@arm:~# MARKER='FHTJ''PYYZEV' run 'grep -r -l rohm,bd71837 /proc/device-tree  | sed '"'"'s![^/]*$!!'"'"''
FHTJPYYZEV/proc/device-tree/ocp/interconnect@48000000/segment@100000/target-module@9c000/i2c@0/pmic@4b/
FHTJPYYZEV 0
root@arm:~# echo 'PEPY''NCHYNM'
PEPYNCHYNM
root@arm:~# MARKER='ZXML''HBFXKE' run 'test -f /proc/device-tree/ocp/interconnectt\@48000000/segment\@100000/target-module\@9c000/i2c\@0/pmic\@4b/regulators/BUCK11/rohm,no-regulator-enable-control ;echo $?'
ZXMLHBFXKE1
ZXMLHBFXKE 0
root@arm:~# echo 'VUAO''CCLGGN'
VUAOCCLGGN
root@arm:~# MARKER='YOOV''AOYVGU' run 'echo 1 > /sys/kernel/mva_test/regulators/bbuck1_en'
YOOVAOYVGUYOOVAOYVGU 0
root@arm:~# echo 'MHUC''OCFSWM'
MHUCOCFSWM
root@arm:~# MARKER='AUBV''AFBSXC' run 'i2cget -y -f 2 0x4b 0x5'
AUBVAFBSXC0x03
AUBVAFBSXC 0
root@arm:~# echo 'ENJT''YSZTSK'
ENJTYSZTSK
root@arm:~# MARKER='LGBW''WBBSWM' run 'grep -r -l rohm,bd71837 /proc/device-tree  | sed '"'"'s![^/]*$!!'"'"''
LGBWWBBSWM/proc/device-tree/ocp/interconnect@48000000/segment@100000/target-module@9c000/i2c@0/pmic@4b/
LGBWWBBSWM 0
root@arm:~# echo 'XSOX''WQWLPP'
XSOXWQWLPP
root@arm:~# MARKER='WNCO''GEFCUG' run 'test -f /proc/device-tree/ocp/interconnectt\@48000000/segment\@100000/target-module\@9c000/i2c\@0/pmic\@4b/regulators/BUCK11/rohm,no-regulator-enable-control ;echo $?'
WNCOGEFCUG1
WNCOGEFCUG 0
root@arm:~# echo 'EUWY''ZNYAGF'
EUWYZNYAGF
root@arm:~# MARKER='LEBC''KQQYML' run 'grep -r -l rohm,bd71837 /proc/device-tree  | sed '"'"'s![^/]*$!!'"'"''
LEBCKQQYML/proc/device-tree/ocp/interconnect@48000000/segment@100000/target-module@9c000/i2c@0/pmic@4b/
LEBCKQQYML 0
root@arm:~# echo 'FKQP''QJCUEN'
FKQPQJCUEN
root@arm:~# MARKER='EZLM''SHYQZC' run 'test -f /proc/device-tree/ocp/interconnectt\@48000000/segment\@100000/target-module\@9c000/i2c\@0/pmic\@4b/regulators/BUCK11/regulator-always-on ;echo $?'
EZLMSHYQZC1
EZLMSHYQZC 0
root@arm:~# echo 'OVPG''EOYNSH'
OVPGEOYNSH
root@arm:~# MARKER='JMES''TSFNJV' run 'echo 0 > /sys/kernel/mva_test/regulators/bbuck1_en'
JMESTSFNJVJMESTSFNJV 0
root@arm:~# echo 'WTJV''FZMGOX'
WTJVFZMGOX
root@arm:~# MARKER='QCTS''AYBSSY' run 'i2cget -y -f 2 0x4b 0x5'
QCTSAYBSSY0x02
QCTSAYBSSY 0
root@arm:~# echo 'VOXY''ZKMJTF'
VOXYZKMJTF
root@arm:~# MARKER='XKOA''JEFGWG' run 'grep -r -l rohm,bd71837 /proc/device-tree  | sed '"'"'s![^/]*$!!'"'"''
XKOAJEFGWG/proc/device-tree/ocp/interconnect@48000000/segment@100000/target-module@9c000/i2c@0/pmic@4b/
XKOAJEFGWG 0
root@arm:~# echo 'QVZG''EVHSOT'
QVZGEVHSOT
root@arm:~# MARKER='MEVW''SFGWNT' run 'test -f /proc/device-tree/ocp/interconnectt\@48000000/segment\@100000/target-module\@9c000/i2c\@0/pmic\@4b/regulators/BUCK22/rohm,no-regulator-enable-control ;echo $?'
MEVWSFGWNT1
MEVWSFGWNT 0
root@arm:~# echo 'EGTO''TTKLQS'
EGTOTTKLQS
root@arm:~# MARKER='BETO''MBQTZG' run 'echo 1 > /sys/kernel/mva_test/regulators/bbuck2_en'
BETOMBQTZGBETOMBQTZG 0
root@arm:~# echo 'LKWG''QSVVCL'
LKWGQSVVCL
root@arm:~# MARKER='FKGT''GCVPAO' run 'i2cget -y -f 2 0x4b 0x6'
FKGTGCVPAO0x43
FKGTGCVPAO 0
root@arm:~# echo 'JKBM''HUVGUM'
JKBMHUVGUM
root@arm:~# MARKER='NJWF''WFUFOB' run 'grep -r -l rohm,bd71837 /proc/device-tree  | sed '"'"'s![^/]*$!!'"'"''
NJWFWFUFOB/proc/device-tree/ocp/interconnect@48000000/segment@100000/target-module@9c000/i2c@0/pmic@4b/
NJWFWFUFOB 0
root@arm:~# echo 'KQXV''YTXEBZ'
KQXVYTXEBZ
root@arm:~# MARKER='QNNO''CHOSLX' run 'test -f /proc/device-tree/ocp/interconnectt\@48000000/segment\@100000/target-module\@9c000/i2c\@0/pmic\@4b/regulators/BUCK22/rohm,no-regulator-enable-control ;echo $?'
QNNOCHOSLX1
QNNOCHOSLX 0
root@arm:~# echo 'FVYY''GBGNNH'
FVYYGBGNNH
root@arm:~# MARKER='UUAF''ASWNUB' run 'grep -r -l rohm,bd71837 /proc/device-tree  | sed '"'"'s![^/]*$!!'"'"''
UUAFASWNUB/proc/device-tree/ocp/interconnect@48000000/segment@100000/target-module@9c000/i2c@0/pmic@4b/
UUAFASWNUB 0
root@arm:~# echo 'UPKO''PYSTOQ'
UPKOPYSTOQ
root@arm:~# MARKER='GOWS''FMAGNF' run 'test -f /proc/device-tree/ocp/interconnectt\@48000000/segment\@100000/target-module\@9c000/i2c\@0/pmic\@4b/regulators/BUCK22/regulator-always-on ;echo $?'
GOWSFMAGNF0
GOWSFMAGNF 0
root@arm:~# echo 'FHUW''ZANVVU'
FHUWZANVVU
root@arm:~# MARKER='TOYN''LSGGZN' run 'grep -r -l rohm,bd71837 /proc/device-tree  | sed '"'"'s![^/]*$!!'"'"''
TOYNLSGGZN/proc/device-tree/ocp/interconnect@48000000/segment@100000/target-module@9c000/i2c@0/pmic@4b/
TOYNLSGGZN 0
root@arm:~# echo 'MEES''UEVTES'
MEESUEVTES
root@arm:~# MARKER='XEOS''FEBCNB' run 'test -f /proc/device-tree/ocp/interconnectt\@48000000/segment\@100000/target-module\@9c000/i2c\@0/pmic\@4b/regulators/BUCK33/rohm,no-regulator-enable-control ;echo $?'
XEOSFEBCNB0
XEOSFEBCNB 0
root@arm:~# echo 'QYLQ''WYYMPM'
QYLQWYYMPM
root@arm:~# MARKER='WUCN''ZSXLWS' run 'grep -r -l rohm,bd71837 /proc/device-tree  | sed '"'"'s![^/]*$!!'"'"''
WUCNZSXLWS/proc/device-tree/ocp/interconnect@48000000/segment@100000/target-module@9c000/i2c@0/pmic@4b/
WUCNZSXLWS 0
root@arm:~# echo 'YQJT''BZLQJY'
YQJTBZLQJY
root@arm:~# MARKER='AWEG''SEHTCF' run 'test -f /proc/device-tree/ocp/interconnectt\@48000000/segment\@100000/target-module\@9c000/i2c\@0/pmic\@4b/regulators/BUCK33/rohm,no-regulator-enable-control ;echo $?'
AWEGSEHTCF0
AWEGSEHTCF 0
root@arm:~# echo 'WHHE''KESSMA'
WHHEKESSMA
root@arm:~# MARKER='SNPG''XMSASH' run 'grep -r -l rohm,bd71837 /proc/device-tree  | sed '"'"'s![^/]*$!!'"'"''
SNPGXMSASH/proc/device-tree/ocp/interconnect@48000000/segment@100000/target-module@9c000/i2c@0/pmic@4b/
SNPGXMSASH 0
root@arm:~# echo 'TCZQ''VBNUSU'
TCZQVBNUSU
root@arm:~# MARKER='VQQA''CLYOVG' run 'test -f /proc/device-tree/ocp/interconnectt\@48000000/segment\@100000/target-module\@9c000/i2c\@0/pmic\@4b/regulators/BUCK44/rohm,no-regulator-enable-control ;echo $?'
VQQACLYOVG1
VQQACLYOVG 0
root@arm:~# echo 'LXNQ''TGTLHC'
LXNQTGTLHC
root@arm:~# MARKER='JJPJ''KZSPNG' run 'echo 1 > /sys/kernel/mva_test/regulators/bbuck4_en'
JJPJKZSPNGJJPJKZSPNG 0
root@arm:~# echo 'KUNU''FLWPFM'
KUNUFLWPFM
root@arm:~# MARKER='HUJL''AKTZEL' run 'i2cget -y -f 2 0x4b 0x8'
HUJLAKTZEL0xc7
HUJLAKTZEL 0
root@arm:~# echo 'YMJB''CASTXO'
YMJBCASTXO
root@arm:~# MARKER='XQHZ''VJEEXB' run 'grep -r -l rohm,bd71837 /proc/device-tree  | sed '"'"'s![^/]*$!!'"'"''
XQHZVJEEXB/proc/device-tree/ocp/interconnect@48000000/segment@100000/target-module@9c000/i2c@0/pmic@4b/
XQHZVJEEXB 0
root@arm:~# echo 'BUKK''GGLKAK'
BUKKGGLKAK
root@arm:~# MARKER='TQSL''AYHPTU' run 'test -f /proc/device-tree/ocp/interconnectt\@48000000/segment\@100000/target-module\@9c000/i2c\@0/pmic\@4b/regulators/BUCK44/rohm,no-regulator-enable-control ;echo $?'
TQSLAYHPTU1
TQSLAYHPTU 0
root@arm:~# echo 'EAAF''ECPSWB'
EAAFECPSWB
root@arm:~# MARKER='KFLV''FFECFJ' run 'grep -r -l rohm,bd71837 /proc/device-tree  | sed '"'"'s![^/]*$!!'"'"''
KFLVFFECFJ/proc/device-tree/ocp/interconnect@48000000/segment@100000/target-module@9c000/i2c@0/pmic@4b/
KFLVFFECFJ 0
root@arm:~# echo 'XVSP''SNZZXQ'
XVSPSNZZXQ
root@arm:~# MARKER='XMXV''SMWSOM' run 'test -f /proc/device-tree/ocp/interconnectt\@48000000/segment\@100000/target-module\@9c000/i2c\@0/pmic\@4b/regulators/BUCK44/regulator-always-on ;echo $?'
XMXVSMWSOM1
XMXVSMWSOM 0
root@arm:~# echo 'YLEJ''WAGVVV'
YLEJWAGVVV
root@arm:~# MARKER='PBLO''HEYYOV' run 'echo 0 > /sys/kernel/mva_test/regulators/bbuck4_en'
PBLOHEYYOVPBLOHEYYOV 0
root@arm:~# echo 'AWCL''BKLKSZ'
AWCLBKLKSZ
root@arm:~# MARKER='TMGF''YKPAVK' run 'i2cget -y -f 2 0x4b 0x8'
TMGFYKPAVK0xc6
TMGFYKPAVK 0
root@arm:~# echo 'XYVU''WSZHBG'
XYVUWSZHBG
root@arm:~# MARKER='KPLZ''HEMETB' run 'grep -r -l rohm,bd71837 /proc/device-tree  | sed '"'"'s![^/]*$!!'"'"''
KPLZHEMETB/proc/device-tree/ocp/interconnect@48000000/segment@100000/target-module@9c000/i2c@0/pmic@4b/
KPLZHEMETB 0
root@arm:~# echo 'WLOT''YYBOFA'
WLOTYYBOFA
root@arm:~# MARKER='WNVK''GVNAWS' run 'test -f /proc/device-tree/ocp/interconnectt\@48000000/segment\@100000/target-module\@9c000/i2c\@0/pmic\@4b/regulators/BUCK55/rohm,no-regulator-enable-control ;echo $?'
WNVKGVNAWS1
WNVKGVNAWS 0
root@arm:~# echo 'PKYU''ZNFPSV'
PKYUZNFPSV
root@arm:~# MARKER='TQOB''HZMTQL' run 'echo 1 > /sys/kernel/mva_test/regulators/bbuck5_en'
TQOBHZMTQLTQOBHZMTQL 0
root@arm:~# echo 'FBUA''VJPXQU'
FBUAVJPXQU
root@arm:~# MARKER='MKKG''TKNWMB' run 'i2cget -y -f 2 0x4b 0x9'
MKKGTKNWMB0x03
MKKGTKNWMB 0
root@arm:~# echo 'BFGK''YWNHBO'
BFGKYWNHBO
root@arm:~# MARKER='AOOK''YLSWZQ' run 'grep -r -l rohm,bd71837 /proc/device-tree  | sed '"'"'s![^/]*$!!'"'"''
AOOKYLSWZQ/proc/device-tree/ocp/interconnect@48000000/segment@100000/target-module@9c000/i2c@0/pmic@4b/
AOOKYLSWZQ 0
root@arm:~# echo 'XGOX''WBYMSE'
XGOXWBYMSE
root@arm:~# MARKER='QPHJ''YKUNPX' run 'test -f /proc/device-tree/ocp/interconnectt\@48000000/segment\@100000/target-module\@9c000/i2c\@0/pmic\@4b/regulators/BUCK55/rohm,no-regulator-enable-control ;echo $?'
QPHJYKUNPX1
QPHJYKUNPX 0
root@arm:~# echo 'EVAK''NJOTXK'
EVAKNJOTXK
root@arm:~# MARKER='JPNO''ZUHZMP' run 'grep -r -l rohm,bd71837 /proc/device-tree  | sed '"'"'s![^/]*$!!'"'"''
JPNOZUHZMP/proc/device-tree/ocp/interconnect@48000000/segment@100000/target-module@9c000/i2c@0/pmic@4b/
JPNOZUHZMP 0
root@arm:~# echo 'KLQZ''WMTQCT'
KLQZWMTQCT
root@arm:~# MARKER='VFSA''JPPXLF' run 'test -f /proc/device-tree/ocp/interconnectt\@48000000/segment\@100000/target-module\@9c000/i2c\@0/pmic\@4b/regulators/BUCK55/regulator-always-on ;echo $?'
VFSAJPPXLF1
VFSAJPPXLF 0
root@arm:~# echo 'BBAE''CYSGWB'
BBAECYSGWB
root@arm:~# MARKER='WWQE''VXWSKP' run 'echo 0 > /sys/kernel/mva_test/regulators/bbuck5_en'
WWQEVXWSKPWWQEVXWSKP 0
root@arm:~# echo 'GSBA''UYFUAZ'
GSBAUYFUAZ
root@arm:~# MARKER='OHGV''JESCVK' run 'i2cget -y -f 2 0x4b 0x9'
OHGVJESCVK0x02
OHGVJESCVK 0
root@arm:~# echo 'JUEB''HXOCBS'
JUEBHXOCBS
root@arm:~# MARKER='WUFA''CQUJSL' run 'grep -r -l rohm,bd71837 /proc/device-tree  | sed '"'"'s![^/]*$!!'"'"''
WUFACQUJSL/proc/device-tree/ocp/interconnect@48000000/segment@100000/target-module@9c000/i2c@0/pmic@4b/
WUFACQUJSL 0
root@arm:~# echo 'UVJJ''YOHCVA'
UVJJYOHCVA
root@arm:~# MARKER='UHXZ''NAKKAO' run 'test -f /proc/device-tree/ocp/interconnectt\@48000000/segment\@100000/target-module\@9c000/i2c\@0/pmic\@4b/regulators/BUCK66/rohm,no-regulator-enable-control ;echo $?'
UHXZNAKKAO1
UHXZNAKKAO 0
root@arm:~# echo 'BBPU''NXPVHV'
BBPUNXPVHV
root@arm:~# MARKER='FFOH''SKYYHE' run 'echo 1 > /sys/kernel/mva_test/regulators/bbuck6_en'
FFOHSKYYHEFFOHSKYYHE 0
root@arm:~# echo 'XHUP''PAFPEJ'
XHUPPAFPEJ
root@arm:~# MARKER='MAHL''BQYKWC' run 'i2cget -y -f 2 0x4b 0xa'
MAHLBQYKWC0x03
MAHLBQYKWC 0
root@arm:~# echo 'JFTY''CBBGTM'
JFTYCBBGTM
root@arm:~# MARKER='VNZO''VOVUEL' run 'grep -r -l rohm,bd71837 /proc/device-tree  | sed '"'"'s![^/]*$!!'"'"''
VNZOVOVUEL/proc/device-tree/ocp/interconnect@48000000/segment@100000/target-module@9c000/i2c@0/pmic@4b/
VNZOVOVUEL 0
root@arm:~# echo 'KNNW''PNAHZN'
KNNWPNAHZN
root@arm:~# MARKER='SGSF''GBSWNX' run 'test -f /proc/device-tree/ocp/interconnectt\@48000000/segment\@100000/target-module\@9c000/i2c\@0/pmic\@4b/regulators/BUCK66/rohm,no-regulator-enable-control ;echo $?'
SGSFGBSWNX1
SGSFGBSWNX 0
root@arm:~# echo 'TAWV''BJBLNZ'
TAWVBJBLNZ
root@arm:~# MARKER='LLNO''CSOFAN' run 'grep -r -l rohm,bd71837 /proc/device-tree  | sed '"'"'s![^/]*$!!'"'"''
LLNOCSOFAN/proc/device-tree/ocp/interconnect@48000000/segment@100000/target-module@9c000/i2c@0/pmic@4b/
LLNOCSOFAN 0
root@arm:~# echo 'SYAX''HGASUF'
SYAXHGASUF
root@arm:~# MARKER='JGAA''SXHCYJ' run 'test -f /proc/device-tree/ocp/interconnectt\@48000000/segment\@100000/target-module\@9c000/i2c\@0/pmic\@4b/regulators/BUCK66/regulator-always-on ;echo $?'
JGAASXHCYJ1
JGAASXHCYJ 0
root@arm:~# echo 'YTMN''AVOVPP'
YTMNAVOVPP
root@arm:~# MARKER='TWQU''GQBQOH' run 'echo 0 > /sys/kernel/mva_test/regulators/bbuck6_en'
TWQUGQBQOHTWQUGQBQOH 0
root@arm:~# echo 'EQVS''YSSXPM'
EQVSYSSXPM
root@arm:~# MARKER='MWZE''CFGYOS' run 'i2cget -y -f 2 0x4b 0xa'
MWZECFGYOS0x02
MWZECFGYOS 0
root@arm:~# echo 'HVZK''ZOYUKK'
HVZKZOYUKK
root@arm:~# MARKER='KFZC''TWHJCJ' run 'grep -r -l rohm,bd71837 /proc/device-tree  | sed '"'"'s![^/]*$!!'"'"''
KFZCTWHJCJ/proc/device-tree/ocp/interconnect@48000000/segment@100000/target-module@9c000/i2c@0/pmic@4b/
KFZCTWHJCJ 0
root@arm:~# echo 'HQCM''AAONAY'
HQCMAAONAY
root@arm:~# MARKER='WVXM''FOBHJS' run 'test -f /proc/device-tree/ocp/interconnectt\@48000000/segment\@100000/target-module\@9c000/i2c\@0/pmic\@4b/regulators/BUCK77/rohm,no-regulator-enable-control ;echo $?'
WVXMFOBHJS1
WVXMFOBHJS 0
root@arm:~# echo 'SXCC''XUMBTY'
SXCCXUMBTY
root@arm:~# MARKER='SCKZ''AUTXMP' run 'echo 1 > /sys/kernel/mva_test/regulators/bbuck7_en'
SCKZAUTXMPSCKZAUTXMP 0
root@arm:~# echo 'NXTM''EJPSCJ'
NXTMEJPSCJ
root@arm:~# MARKER='KGTP''AZXJAC' run 'i2cget -y -f 2 0x4b 0xb'
KGTPAZXJAC0x03
KGTPAZXJAC 0
root@arm:~# echo 'LZMT''NCBFGC'
LZMTNCBFGC
root@arm:~# MARKER='CKKL''NKMPXN' run 'grep -r -l rohm,bd71837 /proc/device-tree  | sed '"'"'s![^/]*$!!'"'"''
CKKLNKMPXN/proc/device-tree/ocp/interconnect@48000000/segment@100000/target-module@9c000/i2c@0/pmic@4b/
CKKLNKMPXN 0
root@arm:~# echo 'OTCE''SZPMPB'
OTCESZPMPB
root@arm:~# MARKER='OSFE''UUHMSZ' run 'test -f /proc/device-tree/ocp/interconnectt\@48000000/segment\@100000/target-module\@9c000/i2c\@0/pmic\@4b/regulators/BUCK77/rohm,no-regulator-enable-control ;echo $?'
OSFEUUHMSZ1
OSFEUUHMSZ 0
root@arm:~# echo 'AFHC''SVWEHN'
AFHCSVWEHN
root@arm:~# MARKER='OQVX''NJTVWL' run 'grep -r -l rohm,bd71837 /proc/device-tree  | sed '"'"'s![^/]*$!!'"'"''
OQVXNJTVWL/proc/device-tree/ocp/interconnect@48000000/segment@100000/target-module@9c000/i2c@0/pmic@4b/
OQVXNJTVWL 0
root@arm:~# echo 'QCLN''OMTNHG'
QCLNOMTNHG
root@arm:~# MARKER='AXZP''VZQXFQ' run 'test -f /proc/device-tree/ocp/interconnectt\@48000000/segment\@100000/target-module\@9c000/i2c\@0/pmic\@4b/regulators/BUCK77/regulator-always-on ;echo $?'
AXZPVZQXFQ1
AXZPVZQXFQ 0
root@arm:~# echo 'FCVT''KAPKUF'
FCVTKAPKUF
root@arm:~# MARKER='BCEC''XBNJAL' run 'echo 0 > /sys/kernel/mva_test/regulators/bbuck7_en'
BCECXBNJALBCECXBNJAL 0
root@arm:~# echo 'JJFO''TQJUCO'
JJFOTQJUCO
root@arm:~# MARKER='MNJJ''FOGBMC' run 'i2cget -y -f 2 0x4b 0xb'
MNJJFOGBMC0x02
MNJJFOGBMC 0
root@arm:~# echo 'LYNL''VHNACS'
LYNLVHNACS
root@arm:~# MARKER='ELKM''PUPQOF' run 'grep -r -l rohm,bd71837 /proc/device-tree  | sed '"'"'s![^/]*$!!'"'"''
ELKMPUPQOF/proc/device-tree/ocp/interconnect@48000000/segment@100000/target-module@9c000/i2c@0/pmic@4b/
ELKMPUPQOF 0
root@arm:~# echo 'QSPA''YPWGLZ'
QSPAYPWGLZ
root@arm:~# MARKER='ZBPS''AUXELC' run 'test -f /proc/device-tree/ocp/interconnectt\@48000000/segment\@100000/target-module\@9c000/i2c\@0/pmic\@4b/regulators/BUCK88/rohm,no-regulator-enable-control ;echo $?'
ZBPSAUXELC1
ZBPSAUXELC 0
root@arm:~# echo 'VFCG''SEQBUN'
VFCGSEQBUN
root@arm:~# MARKER='KNSG''XCOUTP' run 'echo 1 > /sys/kernel/mva_test/regulators/bbuck8_en'
KNSGXCOUTPKNSGXCOUTP 0
root@arm:~# echo 'GEJJ''BXKJHX'
GEJJBXKJHX
root@arm:~# MARKER='HTUZ''AUMKCG' run 'i2cget -y -f 2 0x4b 0xc'
HTUZAUMKCG0x03
HTUZAUMKCG 0
root@arm:~# echo 'CJJM''EWMKNP'
CJJMEWMKNP
root@arm:~# MARKER='PGTB''CZKOSM' run 'grep -r -l rohm,bd71837 /proc/device-tree  | sed '"'"'s![^/]*$!!'"'"''
PGTBCZKOSM/proc/device-tree/ocp/interconnect@48000000/segment@100000/target-module@9c000/i2c@0/pmic@4b/
PGTBCZKOSM 0
root@arm:~# echo 'PHAT''ZSNWPC'
PHATZSNWPC
root@arm:~# MARKER='MEWW''LAJYTT' run 'test -f /proc/device-tree/ocp/interconnectt\@48000000/segment\@100000/target-module\@9c000/i2c\@0/pmic\@4b/regulators/BUCK88/rohm,no-regulator-enable-control ;echo $?'
MEWWLAJYTT1
MEWWLAJYTT 0
root@arm:~# echo 'XWSB''FCEWNP'
XWSBFCEWNP
root@arm:~# MARKER='HCLA''BGZJYY' run 'grep -r -l rohm,bd71837 /proc/device-tree  | sed '"'"'s![^/]*$!!'"'"''
HCLABGZJYY/proc/device-tree/ocp/interconnect@48000000/segment@100000/target-module@9c000/i2c@0/pmic@4b/
HCLABGZJYY 0
root@arm:~# echo 'SLZE''PSJWPA'
SLZEPSJWPA
root@arm:~# MARKER='XLYC''JPMUQS' run 'test -f /proc/device-tree/ocp/interconnectt\@48000000/segment\@100000/target-module\@9c000/i2c\@0/pmic\@4b/regulators/BUCK88/regulator-always-on ;echo $?'
XLYCJPMUQS1
XLYCJPMUQS 0
root@arm:~# echo 'XSJL''NXEKLU'
XSJLNXEKLU
root@arm:~# MARKER='HVKU''KSWHEP' run 'echo 0 > /sys/kernel/mva_test/regulators/bbuck8_en'
HVKUKSWHEPHVKUKSWHEP 0
root@arm:~# echo 'JMJP''JYXJQA'
JMJPJYXJQA
root@arm:~# MARKER='AXUG''ZGYJMS' run 'i2cget -y -f 2 0x4b 0xc'
AXUGZGYJMS0x02
AXUGZGYJMS 0
root@arm:~# echo 'FFQH''NPXYMB'
FFQHNPXYMB
root@arm:~# MARKER='ALWB''UMCKNS' run 'grep -r -l rohm,bd71837 /proc/device-tree  | sed '"'"'s![^/]*$!!'"'"''
ALWBUMCKNS/proc/device-tree/ocp/interconnect@48000000/segment@100000/target-module@9c000/i2c@0/pmic@4b/
ALWBUMCKNS 0
root@arm:~# echo 'ZAGS''KFXBEY'
ZAGSKFXBEY
root@arm:~# MARKER='TCJO''AVJPMJ' run 'test -f /proc/device-tree/ocp/interconnectt\@48000000/segment\@100000/target-module\@9c000/i2c\@0/pmic\@4b/regulators/LDO1//rohm,no-regulator-enable-control ;echo $?'
TCJOAVJPMJ1
TCJOAVJPMJ 0
root@arm:~# echo 'QMCV''ZJPEPL'
QMCVZJPEPL
root@arm:~# MARKER='GUCL''JPUZCG' run 'echo 1 > /sys/kernel/mva_test/regulators/bbuck9_en'
GUCLJPUZCGGUCLJPUZCG 0
root@arm:~# echo 'AAZL''KVULAA'
AAZLKVULAA
root@arm:~# MARKER='NJQN''SNQZEV' run 'i2cget -y -f 2 0x4b 0x18'
NJQNSNQZEV0xc3
NJQNSNQZEV 0
root@arm:~# echo 'CUMK''GAZCLQ'
CUMKGAZCLQ
root@arm:~# MARKER='UZJQ''LYBZVY' run 'grep -r -l rohm,bd71837 /proc/device-tree  | sed '"'"'s![^/]*$!!'"'"''
UZJQLYBZVY/proc/device-tree/ocp/interconnect@48000000/segment@100000/target-module@9c000/i2c@0/pmic@4b/
UZJQLYBZVY 0
root@arm:~# echo 'MGQE''GKWZFT'
MGQEGKWZFT
root@arm:~# MARKER='LOJP''SXUMQT' run 'test -f /proc/device-tree/ocp/interconnectt\@48000000/segment\@100000/target-module\@9c000/i2c\@0/pmic\@4b/regulators/LDO1//rohm,no-regulator-enable-control ;echo $?'
LOJPSXUMQT1
LOJPSXUMQT 0
root@arm:~# echo 'UTBU''FCHJCH'
UTBUFCHJCH
root@arm:~# MARKER='LYJV''OEKMXJ' run 'grep -r -l rohm,bd71837 /proc/device-tree  | sed '"'"'s![^/]*$!!'"'"''
LYJVOEKMXJ/proc/device-tree/ocp/interconnect@48000000/segment@100000/target-module@9c000/i2c@0/pmic@4b/
LYJVOEKMXJ 0
root@arm:~# echo 'GWGQ''GZHOYL'
GWGQGZHOYL
root@arm:~# MARKER='TCBT''EFPJXE' run 'test -f /proc/device-tree/ocp/interconnectt\@48000000/segment\@100000/target-module\@9c000/i2c\@0/pmic\@4b/regulators/LDO1//regulator-always-on ;echo $?'
TCBTEFPJXE1
TCBTEFPJXE 0
root@arm:~# echo 'HJAY''FNJSUP'
HJAYFNJSUP
root@arm:~# MARKER='WHUV''NCSXAZ' run 'echo 0 > /sys/kernel/mva_test/regulators/bbuck9_en'
WHUVNCSXAZWHUVNCSXAZ 0
root@arm:~# echo 'PKTB''LPFCSY'
PKTBLPFCSY
root@arm:~# MARKER='KPWJ''CVPCKW' run 'i2cget -y -f 2 0x4b 0x18'
KPWJCVPCKW0x83
KPWJCVPCKW 0
root@arm:~# echo 'GXQA''AQEGES'
GXQAAQEGES
root@arm:~# MARKER='KQAV''PKPEHZ' run 'grep -r -l rohm,bd71837 /proc/device-tree  | sed '"'"'s![^/]*$!!'"'"''
KQAVPKPEHZ/proc/device-tree/ocp/interconnect@48000000/segment@100000/target-module@9c000/i2c@0/pmic@4b/
KQAVPKPEHZ 0
root@arm:~# echo 'JKCZ''KACHAY'
JKCZKACHAY
root@arm:~# MARKER='SEOY''QGWLXK' run 'test -f /proc/device-tree/ocp/interconnectt\@48000000/segment\@100000/target-module\@9c000/i2c\@0/pmic\@4b/regulators/LDO2//rohm,no-regulator-enable-control ;echo $?'
SEOYQGWLXK1
SEOYQGWLXK 0
root@arm:~# echo 'UAOU''WQFYZT'
UAOUWQFYZT
root@arm:~# MARKER='MZMO''OAUJGP' run 'echo 1 > /sys/kernel/mva_test/regulators/bbuck10_en'
MZMOOAUJGPMZMOOAUJGP 0
root@arm:~# echo 'GUVU''AOKKVU'
GUVUAOKKVU
root@arm:~# MARKER='PTXK''BFUSZL' run 'i2cget -y -f 2 0x4b 0x19'
PTXKBFUSZL0xc0
PTXKBFUSZL 0
root@arm:~# echo 'NNBH''XWZXHE'
NNBHXWZXHE
root@arm:~# MARKER='FQBE''QSAAGO' run 'grep -r -l rohm,bd71837 /proc/device-tree  | sed '"'"'s![^/]*$!!'"'"''
FQBEQSAAGO/proc/device-tree/ocp/interconnect@48000000/segment@100000/target-module@9c000/i2c@0/pmic@4b/
FQBEQSAAGO 0
root@arm:~# echo 'GUTQ''EFTLTB'
GUTQEFTLTB
root@arm:~# MARKER='XTOF''EEJCVG' run 'test -f /proc/device-tree/ocp/interconnectt\@48000000/segment\@100000/target-module\@9c000/i2c\@0/pmic\@4b/regulators/LDO2 /rohm,no-regulator-enable-control ;echo $?'
XTOFEEJCVG1
XTOFEEJCVG 0
root@arm:~# echo 'YMSB''ZSTXWL'
YMSBZSTXWL
root@arm:~# MARKER='SWSO''VVTSBT' run 'grep -r -l rohm,bd71837 /proc/device-tree  | sed '"'"'s![^/]*$!!'"'"''
SWSOVVTSBT/proc/device-tree/ocp/interconnect@48000000/segment@100000/target-module@9c000/i2c@0/pmic@4b/
SWSOVVTSBT 0
root@arm:~# echo 'FBWE''PCPLHA'
FBWEPCPLHA
root@arm:~# MARKER='XWQN''MKZCOE' run 'test -f /proc/device-tree/ocp/interconnectt\@48000000/segment\@100000/target-module\@9c000/i2c\@0/pmic\@4b/regulators/LDO2//regulator-always-on ;echo $?'
XWQNMKZCOE1
XWQNMKZCOE 0
root@arm:~# echo 'TABY''PEMYLH'
TABYPEMYLH
root@arm:~# MARKER='BWLZ''QMNEBP' run 'echo 0 > /sys/kernel/mva_test/regulators/bbuck10_en'
BWLZQMNEBPBWLZQMNEBP 0
root@arm:~# echo 'CNUU''MHVTHV'
CNUUMHVTHV
root@arm:~# MARKER='AFXS''OXJGSH' run 'i2cget -y -f 2 0x4b 0x19'
AFXSOXJGSH0x80
AFXSOXJGSH 0
root@arm:~# echo 'PMFY''YSUXTL'
PMFYYSUXTL
root@arm:~# MARKER='TTQL''GTFPYK' run 'grep -r -l rohm,bd71837 /proc/device-tree  | sed '"'"'s![^/]*$!!'"'"''
TTQLGTFPYK/proc/device-tree/ocp/interconnect@48000000/segment@100000/target-module@9c000/i2c@0/pmic@4b/
TTQLGTFPYK 0
root@arm:~# echo 'HWEK''LKTYXK'
HWEKLKTYXK
root@arm:~# MARKER='QSOT''VCALBV' run 'test -f /proc/device-tree/ocp/interconnectt\@48000000/segment\@100000/target-module\@9c000/i2c\@0/pmic\@4b/regulators/LDO3 /rohm,no-regulator-enable-control ;echo $?'
QSOTVCALBV1
QSOTVCALBV 0
root@arm:~# echo 'GPSF''KOMYEH'
GPSFKOMYEH
root@arm:~# MARKER='ZSPB''LUYZXT' run 'echo 1 > /sys/kernel/mva_test/regulators/bbuck11_en'
ZSPBLUYZXTZSPBLUYZXT 0
root@arm:~# echo 'VHFO''WAJPHH'
VHFOWAJPHH
root@arm:~# MARKER='TXUB''OGXKGS' run 'i2cget -y -f 2 0x4b 0x1a'
TXUBOGXKGS0xc0
TXUBOGXKGS 0
root@arm:~# echo 'WGNA''KKMPXT'
WGNAKKMPXT
root@arm:~# MARKER='VZHV''HBFNJW' run 'grep -r -l rohm,bd71837 /proc/device-tree  | sed '"'"'s![^/]*$!!'"'"''
VZHVHBFNJW/proc/device-tree/ocp/interconnect@48000000/segment@100000/target-module@9c000/i2c@0/pmic@4b/
VZHVHBFNJW 0
root@arm:~# echo 'YUNT''ZOJYGO'
YUNTZOJYGO
root@arm:~# MARKER='KVOY''YSFCQA' run 'test -f /proc/device-tree/ocp/interconnectt\@48000000/segment\@100000/target-module\@9c000/i2c\@0/pmic\@4b/regulators/LDO3//rohm,no-regulator-enable-control ;echo $?'
KVOYYSFCQA1
KVOYYSFCQA 0
root@arm:~# echo 'AJBJ''EMGJGZ'
AJBJEMGJGZ
root@arm:~# MARKER='JZVM''TKZFGT' run 'grep -r -l rohm,bd71837 /proc/device-tree  | sed '"'"'s![^/]*$!!'"'"''
JZVMTKZFGT/proc/device-tree/ocp/interconnect@48000000/segment@100000/target-module@9c000/i2c@0/pmic@4b/
JZVMTKZFGT 0
root@arm:~# echo 'BKFM''TTZNNZ'
BKFMTTZNNZ
root@arm:~# MARKER='VTSN''LPGHAV' run 'test -f /proc/device-tree/ocp/interconnectt\@48000000/segment\@100000/target-module\@9c000/i2c\@0/pmic\@4b/regulators/LDO3//regulator-always-on ;echo $?'
VTSNLPGHAV1
VTSNLPGHAV 0
root@arm:~# echo 'UHFV''QYLZLB'
UHFVQYLZLB
root@arm:~# MARKER='SHBM''XVFEWY' run 'echo 0 > /sys/kernel/mva_test/regulators/bbuck11_en'
SHBMXVFEWYSHBMXVFEWY 0
root@arm:~# echo 'XWYS''ZZFUVW'
XWYSZZFUVW
root@arm:~# MARKER='QZAB''BAEQEU' run 'i2cget -y -f 2 0x4b 0x1a'
QZABBAEQEU0x80
QZABBAEQEU 0
root@arm:~# echo 'OOEQ''SPHTQY'
OOEQSPHTQY
root@arm:~# MARKER='ENPJ''AWAAHY' run 'grep -r -l rohm,bd71837 /proc/device-tree  | sed '"'"'s![^/]*$!!'"'"''
ENPJAWAAHY/proc/device-tree/ocp/interconnect@48000000/segment@100000/target-module@9c000/i2c@0/pmic@4b/
ENPJAWAAHY 0
root@arm:~# echo 'KXZT''VFXKCZ'
KXZTVFXKCZ
root@arm:~# MARKER='LOMA''JHVVKL' run 'test -f /proc/device-tree/ocp/interconnectt\@48000000/segment\@100000/target-module\@9c000/i2c\@0/pmic\@4b/regulators/LDO4//rohm,no-regulator-enable-control ;echo $?'
LOMAJHVVKL1
LOMAJHVVKL 0
root@arm:~# echo 'TSCY''UUTVTY'
TSCYUUTVTY
root@arm:~# MARKER='VCUP''FYKFPW' run 'echo 1 > /sys/kernel/mva_test/regulators/bbuck12_en'
VCUPFYKFPWVCUPFYKFPW 0
root@arm:~# echo 'ZJNX''KSSXPJ'
ZJNXKSSXPJ
root@arm:~# MARKER='MQPQ''PPNFXE' run 'i2cget -y -f 2 0x4b 0x1b'
MQPQPPNFXE0xc0
MQPQPPNFXE 0
root@arm:~# echo 'SFLL''JTTTZB'
SFLLJTTTZB
root@arm:~# MARKER='FNKY''FCVGNJ' run 'grep -r -l rohm,bd71837 /proc/device-tree  | sed '"'"'s![^/]*$!!'"'"''
FNKYFCVGNJ/proc/device-tree/ocp/interconnect@48000000/segment@100000/target-module@9c000/i2c@0/pmic@4b/
FNKYFCVGNJ 0
root@arm:~# echo 'XUHO''YHXBWT'
XUHOYHXBWT
root@arm:~# MARKER='BBVE''JNFBKH' run 'test -f /proc/device-tree/ocp/interconnectt\@48000000/segment\@100000/target-module\@9c000/i2c\@0/pmic\@4b/regulators/LDO4//rohm,no-regulator-enable-control ;echo $?'
BBVEJNFBKH1
BBVEJNFBKH 0
root@arm:~# echo 'MBPM''LKUJAF'
MBPMLKUJAF
root@arm:~# MARKER='SSYT''TZHMFV' run 'grep -r -l rohm,bd71837 /proc/device-tree  | sed '"'"'s![^/]*$!!'"'"''
SSYTTZHMFV/proc/device-tree/ocp/interconnect@48000000/segment@100000/target-module@9c000/i2c@0/pmic@4b/
SSYTTZHMFV 0
root@arm:~# echo 'JECK''ENPEKT'
JECKENPEKT
root@arm:~# MARKER='KKZY''JEYFCQ' run 'test -f /proc/device-tree/ocp/interconnectt\@48000000/segment\@100000/target-module\@9c000/i2c\@0/pmic\@4b/regulators/LDO4//regulator-always-on ;echo $?'
KKZYJEYFCQ1
KKZYJEYFCQ 0
root@arm:~# echo 'LTNW''ZFQUEU'
LTNWZFQUEU
root@arm:~# MARKER='SWYF''TKOBKG' run 'echo 0 > /sys/kernel/mva_test/regulators/bbuck12_en'
SWYFTKOBKGSWYFTKOBKG 0
root@arm:~# echo 'CTAC''SKQLVS'
CTACSKQLVS
root@arm:~# MARKER='HVFE''WOHXMP' run 'i2cget -y -f 2 0x4b 0x1b'
HVFEWOHXMP0x80
HVFEWOHXMP 0
root@arm:~# echo 'UNMT''XVYUSZ'
UNMTXVYUSZ
root@arm:~# MARKER='AQWC''CHWHVW' run 'grep -r -l rohm,bd71837 /proc/device-tree  | sed '"'"'s![^/]*$!!'"'"''
AQWCCHWHVW/proc/device-tree/ocp/interconnect@48000000/segment@100000/target-module@9c000/i2c@0/pmic@4b/
AQWCCHWHVW 0
root@arm:~# echo 'XYJV''MWFQYZ'
XYJVMWFQYZ
root@arm:~# MARKER='HEUA''PJFFGH' run 'test -f /proc/device-tree/ocp/interconnectt\@48000000/segment\@100000/target-module\@9c000/i2c\@0/pmic\@4b/regulators/LDO5//rohm,no-regulator-enable-control ;echo $?'
HEUAPJFFGH0
HEUAPJFFGH 0
root@arm:~# echo 'GVVW''QEWMTQ'
GVVWQEWMTQ
root@arm:~# MARKER='NYNH''WMTAOW' run 'grep -r -l rohm,bd71837 /proc/device-tree  | sed '"'"'s![^/]*$!!'"'"''
NYNHWMTAOW/proc/device-tree/ocp/interconnect@48000000/segment@100000/target-module@9c000/i2c@0/pmic@4b/
NYNHWMTAOW 0
root@arm:~# echo 'VGMZ''EQQFGC'
VGMZEQQFGC
root@arm:~# MARKER='YUOO''ZVLOJY' run 'test -f /proc/device-tree/ocp/interconnectt\@48000000/segment\@100000/target-module\@9c000/i2c\@0/pmic\@4b/regulators/LDO5//rohm,no-regulator-enable-control ;echo $?'
YUOOZVLOJY0
YUOOZVLOJY 0
root@arm:~# echo 'OGLG''ZHHQCH'
OGLGZHHQCH
root@arm:~# MARKER='TWLW''YEESZZ' run 'grep -r -l rohm,bd71837 /proc/device-tree  | sed '"'"'s![^/]*$!!'"'"''
TWLWYEESZZ/proc/device-tree/ocp/interconnect@48000000/segment@100000/target-module@9c000/i2c@0/pmic@4b/
TWLWYEESZZ 0
root@arm:~# echo 'CFKH''NZEAET'
CFKHNZEAET
root@arm:~# MARKER='WTHG''EWVXOV' run 'test -f /proc/device-tree/ocp/interconnectt\@48000000/segment\@100000/target-module\@9c000/i2c\@0/pmic\@4b/regulators/LDO6//rohm,no-regulator-enable-control ;echo $?'
WTHGEWVXOV1
WTHGEWVXOV 0
root@arm:~# echo 'EWMU''EMJBCJ'
EWMUEMJBCJ
root@arm:~# MARKER='BMWH''HQCSXL' run 'echo 1 > /sys/kernel/mva_test/regulators/bbuck14_en'
BMWHHQCSXLBMWHHQCSXL 0
root@arm:~# echo 'NSNJ''FAWOPN'
NSNJFAWOPN
root@arm:~# MARKER='TKXW''AAVNHP' run 'i2cget -y -f 2 0x4b 0x1d'
TKXWAAVNHP0xc0
TKXWAAVNHP 0
root@arm:~# echo 'LAWE''EKZAEL'
LAWEEKZAEL
root@arm:~# MARKER='ZSMA''EGMEZF' run 'grep -r -l rohm,bd71837 /proc/device-tree  | sed '"'"'s![^/]*$!!'"'"''
ZSMAEGMEZF/proc/device-tree/ocp/interconnect@48000000/segment@100000/target-module@9c000/i2c@0/pmic@4b/
ZSMAEGMEZF 0
root@arm:~# echo 'XQYN''CMMCZB'
XQYNCMMCZB
root@arm:~# MARKER='YUMG''USHHUJ' run 'test -f /proc/device-tree/ocp/interconnectt\@48000000/segment\@100000/target-module\@9c000/i2c\@0/pmic\@4b/regulators/LDO6//rohm,no-regulator-enable-control ;echo $?'
YUMGUSHHUJ1
YUMGUSHHUJ 0
root@arm:~# echo 'QTOQ''OSULNJ'
QTOQOSULNJ
root@arm:~# MARKER='UCFS''GGCTOP' run 'grep -r -l rohm,bd71837 /proc/device-tree  | sed '"'"'s![^/]*$!!'"'"''
UCFSGGCTOP/proc/device-tree/ocp/interconnect@48000000/segment@100000/target-module@9c000/i2c@0/pmic@4b/
UCFSGGCTOP 0
root@arm:~# echo 'KSMC''BJLTTO'
KSMCBJLTTO
root@arm:~# MARKER='TWCH''VYKYQW' run 'test -f /proc/device-tree/ocp/interconnectt\@48000000/segment\@100000/target-module\@9c000/i2c\@0/pmic\@4b/regulators/LDO6//regulator-always-on ;echo $?'
TWCHVYKYQW1
TWCHVYKYQW 0
root@arm:~# echo 'TPKZ''FQTHXT'
TPKZFQTHXT
root@arm:~# MARKER='UXBV''FSMLJV' run 'echo 0 > /sys/kernel/mva_test/regulators/bbuck14_en'
UXBVFSMLJVUXBVFSMLJV 0
root@arm:~# echo 'YVQF''SQPUUW'
YVQFSQPUUW
root@arm:~# MARKER='WSEO''UCTOAV' run 'i2cget -y -f 2 0x4b 0x1d'
WSEOUCTOAV0x80
WSEOUCTOAV 0
root@arm:~# echo 'ACXZ''PVZXAY'
ACXZPVZXAY
root@arm:~# MARKER='WLLN''HNQTHE' run 'grep -r -l rohm,bd71837 /proc/device-tree  | sed '"'"'s![^/]*$!!'"'"''
WLLNHNQTHE/proc/device-tree/ocp/interconnect@48000000/segment@100000/target-module@9c000/i2c@0/pmic@4b/
WLLNHNQTHE 0
root@arm:~# echo 'GAKK''WHXZMG'
GAKKWHXZMG
root@arm:~# MARKER='QUUE''MGYBZE' run 'test -f /proc/device-tree/ocp/interconnectt\@48000000/segment\@100000/target-module\@9c000/i2c\@0/pmic\@4b/regulators/LDO7//rohm,no-regulator-enable-control ;echo $?'
QUUEMGYBZE1
QUUEMGYBZE 0
root@arm:~# echo 'HXKY''OSGXUH'
HXKYOSGXUH
root@arm:~# MARKER='VJZF''AHSBTZ' run 'echo 1 > /sys/kernel/mva_test/regulators/bbuck15_en'
VJZFAHSBTZVJZFAHSBTZ 0
root@arm:~# echo 'EAEN''LXAJGE'
EAENLXAJGE
root@arm:~# MARKER='XQVA''HTWCNB' run 'i2cget -y -f 2 0x4b 0x1e'
XQVAHTWCNB0xcf
XQVAHTWCNB 0
root@arm:~# echo 'VZQZ''QGOJJL'
VZQZQGOJJL
root@arm:~# MARKER='NWPN''FWPNJB' run 'grep -r -l rohm,bd71837 /proc/device-tree  | sed '"'"'s![^/]*$!!'"'"''
NWPNFWPNJB/proc/device-tree/ocp/interconnect@48000000/segment@100000/target-module@9c000/i2c@0/pmic@4b/
NWPNFWPNJB 0
root@arm:~# echo 'EYXK''JJSZVF'
EYXKJJSZVF
root@arm:~# MARKER='EHGQ''YFKEWZ' run 'test -f /proc/device-tree/ocp/interconnectt\@48000000/segment\@100000/target-module\@9c000/i2c\@0/pmic\@4b/regulators/LDO7//rohm,no-regulator-enable-control ;echo $?'
EHGQYFKEWZ1
EHGQYFKEWZ 0
root@arm:~# echo 'NYJU''MLMUPS'
NYJUMLMUPS
root@arm:~# MARKER='QLSF''PMMFSB' run 'grep -r -l rohm,bd71837 /proc/device-tree  | sed '"'"'s![^/]*$!!'"'"''
QLSFPMMFSB/proc/device-tree/ocp/interconnect@48000000/segment@100000/target-module@9c000/i2c@0/pmic@4b/
QLSFPMMFSB 0
root@arm:~# echo 'BXOZ''ZUAPJA'
BXOZZUAPJA
root@arm:~# MARKER='BMYG''MOZNQP' run 'test -f /proc/device-tree/ocp/interconnectt\@48000000/segment\@100000/target-module\@9c000/i2c\@0/pmic\@4b/regulators/LDO7//regulator-always-on ;echo $?'
BMYGMOZNQP1
BMYGMOZNQP 0
root@arm:~# echo 'KOOA''PSSTQA'
KOOAPSSTQA
root@arm:~# MARKER='KPBT''LJYCGE' run 'echo 0 > /sys/kernel/mva_test/regulators/bbuck15_en'
KPBTLJYCGEKPBTLJYCGE 0
root@arm:~# echo 'HCXO''SOMLYQ'
HCXOSOMLYQ
root@arm:~# MARKER='WFCW''ATJYWF' run 'i2cget -y -f 2 0x4b 0x1e'
WFCWATJYWF0x8f
WFCWATJYWF 0
root@arm:~# Labgrid Console Logfile for main
Logfile started at 2026-01-27 20:45:28.778560
=== Log starts here ===

root@arm:~# run() { echo -n "$MARKER"; sh -c "$@"; echo "$MARKER $?"; }
root@arm:~# echo 'USBQ''LJGWFX'
USBQLJGWFX
root@arm:~# MARKER='OJBT''GVXWSB' run 'grep -r -l rohm,bd71837 /proc/device-tree  | sed '"'"'s![^/]*$!!'"'"''
OJBTGVXWSB/proc/device-tree/ocp/interconnect@48000000/segment@100000/target-module@9c000/i2c@0/pmic@4b/
OJBTGVXWSB 0
root@arm:~# echo 'WUHJ''WWQNQZ'
WUHJWWQNQZ
root@arm:~# MARKER='BTLB''OMMPMP' run 'test -f /proc/device-tree/ocp/interconnectt\@48000000/segment\@100000/target-module\@9c000/i2c\@0/pmic\@4b/regulators/BUCK11/rohm,no-regulator-enable-control ;echo $?'
BTLBOMMPMP1
BTLBOMMPMP 0
root@arm:~# echo 'BAOP''POXUKL'
BAOPPOXUKL
root@arm:~# MARKER='BHCN''ZZYKPE' run 'i2cget -y -f 2 0x4b 0x5'
BHCNZZYKPE0x02
BHCNZZYKPE 0
root@arm:~# echo 'WYEA''VMLBZO'
WYEAVMLBZO
root@arm:~# MARKER='VTPG''PXLQHF' run 'echo 700000 700000 > /sys/kernel/mva_test//regulators/buck1_set'
VTPGPXLQHFVTPGPXLQHF 0
root@arm:~# echo 'HLBT''BXPGVT'
HLBTBXPGVT
root@arm:~# MARKER='TZSA''YTGFXC' run 'i2cget -y -f 2 0x4b 0xd'
TZSAYTGFXC0x00
TZSAYTGFXC 0
root@arm:~# echo 'XTFF''ZXQMUL'
XTFFZXQMUL
root@arm:~# MARKER='WBCP''WUBTTH' run 'echo 710000 710000 > /sys/kernel/mva_test//regulators/buck1_set'
WBCPWUBTTHWBCPWUBTTH 0
root@arm:~# echo 'VHGF''OUZFGW'
VHGFOUZFGW
root@arm:~# MARKER='BBKK''ZBLVME' run 'i2cget -y -f 2 0x4b 0xd'
BBKKZBLVME0x01
BBKKZBLVME 0
root@arm:~# echo 'ELHY''GSXAVO'
ELHYGSXAVO
root@arm:~# MARKER='FNCQ''FKCQNM' run 'echo 720000 720000 > /sys/kernel/mva_test//regulators/buck1_set'
FNCQFKCQNMFNCQFKCQNM 0
root@arm:~# echo 'HFST''PMUTAB'
HFSTPMUTAB
root@arm:~# MARKER='AUUY''OQPTPN' run 'i2cget -y -f 2 0x4b 0xd'
AUUYOQPTPN0x02
AUUYOQPTPN 0
root@arm:~# echo 'FKWJ''XWHVKH'
FKWJXWHVKH
root@arm:~# MARKER='HPKP''NTXOXK' run 'echo 730000 730000 > /sys/kernel/mva_test//regulators/buck1_set'
HPKPNTXOXKHPKPNTXOXK 0
root@arm:~# echo 'JHEU''LMOOHX'
JHEULMOOHX
root@arm:~# MARKER='JXEM''FXNGML' run 'i2cget -y -f 2 0x4b 0xd'
JXEMFXNGML0x03
JXEMFXNGML 0
root@arm:~# echo 'STAJ''WJBMAL'
STAJWJBMAL
root@arm:~# MARKER='KMUB''OYSQZE' run 'echo 740000 740000 > /sys/kernel/mva_test//regulators/buck1_set'
KMUBOYSQZEKMUBOYSQZE 0
root@arm:~# echo 'CGSA''SFJVHS'
CGSASFJVHS
root@arm:~# MARKER='MENX''FVEVKU' run 'i2cget -y -f 2 0x4b 0xd'
MENXFVEVKU0x04
MENXFVEVKU 0
root@arm:~# echo 'MYPL''PCVNOK'
MYPLPCVNOK
root@arm:~# MARKER='ZEVX''NJNAYM' run 'echo 750000 750000 > /sys/kernel/mva_test//regulators/buck1_set'
ZEVXNJNAYMZEVXNJNAYM 0
root@arm:~# echo 'FHJU''NNUSMG'
FHJUNNUSMG
root@arm:~# MARKER='VUNF''PKSFQQ' run 'i2cget -y -f 2 0x4b 0xd'
VUNFPKSFQQ0x05
VUNFPKSFQQ 0
root@arm:~# echo 'EQUJ''ZWKULC'
EQUJZWKULC
root@arm:~# MARKER='AOAA''CSHPYX' run 'echo 760000 760000 > /sys/kernel/mva_test//regulators/buck1_set'
AOAACSHPYXAOAACSHPYX 0
root@arm:~# echo 'THEK''GJUGZZ'
THEKGJUGZZ
root@arm:~# MARKER='WTZN''VPBANS' run 'i2cget -y -f 2 0x4b 0xd'
WTZNVPBANS0x06
WTZNVPBANS 0
root@arm:~# echo 'LEYZ''NPJKLQ'
LEYZNPJKLQ
root@arm:~# MARKER='VCEL''GQFMYH' run 'echo 770000 770000 > /sys/kernel/mva_test//regulators/buck1_set'
VCELGQFMYHVCELGQFMYH 0
root@arm:~# echo 'PJLH''AQXXLG'
PJLHAQXXLG
root@arm:~# MARKER='TLMA''SJMYNS' run 'i2cget -y -f 2 0x4b 0xd'
TLMASJMYNS0x07
TLMASJMYNS 0
root@arm:~# echo 'TYWH''ENQUMV'
TYWHENQUMV
root@arm:~# MARKER='WZES''UXGONW' run 'echo 780000 780000 > /sys/kernel/mva_test//regulators/buck1_set'
WZESUXGONWWZESUXGONW 0
root@arm:~# echo 'EYXP''MALUYU'
EYXPMALUYU
root@arm:~# MARKER='FNJK''QSBVUP' run 'i2cget -y -f 2 0x4b 0xd'
FNJKQSBVUP0x08
FNJKQSBVUP 0
root@arm:~# echo 'VGEF''NWPYVX'
VGEFNWPYVX
root@arm:~# MARKER='TQEG''TQVZXL' run 'echo 790000 790000 > /sys/kernel/mva_test//regulators/buck1_set'
TQEGTQVZXLTQEGTQVZXL 0
root@arm:~# echo 'UZSO''HVUBML'
UZSOHVUBML
root@arm:~# MARKER='EPTG''BEKAUS' run 'i2cget -y -f 2 0x4b 0xd'
EPTGBEKAUS0x09
EPTGBEKAUS 0
root@arm:~# echo 'PVTN''OKFULJ'
PVTNOKFULJ
root@arm:~# MARKER='POZL''CZZQKN' run 'echo 800000 800000 > /sys/kernel/mva_test//regulators/buck1_set'
POZLCZZQKNPOZLCZZQKN 0
root@arm:~# echo 'JYFE''TZHSHE'
JYFETZHSHE
root@arm:~# MARKER='WGVG''COCGSQ' run 'i2cget -y -f 2 0x4b 0xd'
WGVGCOCGSQ0x0a
WGVGCOCGSQ 0
root@arm:~# echo 'VGKG''LMWHBL'
VGKGLMWHBL
root@arm:~# MARKER='HYBK''UAGPBH' run 'echo 810000 810000 > /sys/kernel/mva_test//regulators/buck1_set'
HYBKUAGPBHHYBKUAGPBH 0
root@arm:~# echo 'APFB''MJKGKA'
APFBMJKGKA
root@arm:~# MARKER='CVNX''JZHYVG' run 'i2cget -y -f 2 0x4b 0xd'
CVNXJZHYVG0x0b
CVNXJZHYVG 0
root@arm:~# echo 'LCFY''TGSQLQ'
LCFYTGSQLQ
root@arm:~# MARKER='LEGN''BWCSSM' run 'echo 820000 820000 > /sys/kernel/mva_test//regulators/buck1_set'
LEGNBWCSSMLEGNBWCSSM 0
root@arm:~# echo 'BLVM''YWNBOA'
BLVMYWNBOA
root@arm:~# MARKER='NSHB''JXOWWJ' run 'i2cget -y -f 2 0x4b 0xd'
NSHBJXOWWJ0x0c
NSHBJXOWWJ 0
root@arm:~# echo 'VHUN''LWPJVY'
VHUNLWPJVY
root@arm:~# MARKER='KBGB''LGSJNU' run 'echo 830000 830000 > /sys/kernel/mva_test//regulators/buck1_set'
KBGBLGSJNUKBGBLGSJNU 0
root@arm:~# echo 'KBNN''GXQQPB'
KBNNGXQQPB
root@arm:~# MARKER='SKBS''ECGNNQ' run 'i2cget -y -f 2 0x4b 0xd'
SKBSECGNNQ0x0d
SKBSECGNNQ 0
root@arm:~# echo 'PZEJ''KYPQVF'
PZEJKYPQVF
root@arm:~# MARKER='OBWK''LBKANA' run 'echo 840000 840000 > /sys/kernel/mva_test//regulators/buck1_set'
OBWKLBKANAOBWKLBKANA 0
root@arm:~# echo 'MNOM''KQWHBQ'
MNOMKQWHBQ
root@arm:~# MARKER='BAWX''BFBAGW' run 'i2cget -y -f 2 0x4b 0xd'
BAWXBFBAGW0x0e
BAWXBFBAGW 0
root@arm:~# echo 'PJTA''NGPOZT'
PJTANGPOZT
root@arm:~# MARKER='MSLU''SXNBSJ' run 'echo 850000 850000 > /sys/kernel/mva_test//regulators/buck1_set'
MSLUSXNBSJMSLUSXNBSJ 0
root@arm:~# echo 'AHSQ''NGMOQL'
AHSQNGMOQL
root@arm:~# MARKER='UYKJ''BSPYUB' run 'i2cget -y -f 2 0x4b 0xd'
UYKJBSPYUB0x0f
UYKJBSPYUB 0
root@arm:~# echo 'AFQY''GSBEVT'
AFQYGSBEVT
root@arm:~# MARKER='SHEV''BEGZMM' run 'echo 860000 860000 > /sys/kernel/mva_test//regulators/buck1_set'
SHEVBEGZMMSHEVBEGZMM 0
root@arm:~# echo 'SQJY''YKNEXB'
SQJYYKNEXB
root@arm:~# MARKER='XTMB''FLNEVG' run 'i2cget -y -f 2 0x4b 0xd'
XTMBFLNEVG0x10
XTMBFLNEVG 0
root@arm:~# echo 'NBZG''UYPXAK'
NBZGUYPXAK
root@arm:~# MARKER='FYOU''BGZFQQ' run 'echo 870000 870000 > /sys/kernel/mva_test//regulators/buck1_set'
FYOUBGZFQQFYOUBGZFQQ 0
root@arm:~# echo 'TVMK''EKWYMJ'
TVMKEKWYMJ
root@arm:~# MARKER='WTKH''MMBWTE' run 'i2cget -y -f 2 0x4b 0xd'
WTKHMMBWTE0x11
WTKHMMBWTE 0
root@arm:~# echo 'GVHT''WXWAWF'
GVHTWXWAWF
root@arm:~# MARKER='XTFJ''EVOPQW' run 'echo 880000 880000 > /sys/kernel/mva_test//regulators/buck1_set'
XTFJEVOPQWXTFJEVOPQW 0
root@arm:~# echo 'QLBX''MXVEMS'
QLBXMXVEMS
root@arm:~# MARKER='PXFA''LGANSW' run 'i2cget -y -f 2 0x4b 0xd'
PXFALGANSW0x12
PXFALGANSW 0
root@arm:~# echo 'HXXP''KTWCVT'
HXXPKTWCVT
root@arm:~# MARKER='KTLH''SFBGZY' run 'echo 890000 890000 > /sys/kernel/mva_test//regulators/buck1_set'
KTLHSFBGZYKTLHSFBGZY 0
root@arm:~# echo 'ZXTY''BGFMQY'
ZXTYBGFMQY
root@arm:~# MARKER='JVGB''ZBCTKO' run 'i2cget -y -f 2 0x4b 0xd'
JVGBZBCTKO0x13
JVGBZBCTKO 0
root@arm:~# echo 'UHTG''JVSXUQ'
UHTGJVSXUQ
root@arm:~# MARKER='EGLO''GHOOAX' run 'echo 900000 900000 > /sys/kernel/mva_test//regulators/buck1_set'
EGLOGHOOAXEGLOGHOOAX 0
root@arm:~# echo 'MSCA''WVGLVO'
MSCAWVGLVO
root@arm:~# MARKER='QAGG''MMTYZH' run 'i2cget -y -f 2 0x4b 0xd'
QAGGMMTYZH0x14
QAGGMMTYZH 0
root@arm:~# echo 'KTTZ''WGSZYW'
KTTZWGSZYW
root@arm:~# MARKER='XMSU''CMCWLM' run 'echo 910000 910000 > /sys/kernel/mva_test//regulators/buck1_set'
XMSUCMCWLMXMSUCMCWLM 0
root@arm:~# echo 'GTHF''NPAQJE'
GTHFNPAQJE
root@arm:~# MARKER='YWET''CUGAYX' run 'i2cget -y -f 2 0x4b 0xd'
YWETCUGAYX0x15
YWETCUGAYX 0
root@arm:~# echo 'JATB''NSECOH'
JATBNSECOH
root@arm:~# MARKER='BZWX''OAUJHP' run 'echo 920000 920000 > /sys/kernel/mva_test//regulators/buck1_set'
BZWXOAUJHPBZWXOAUJHP 0
root@arm:~# echo 'UMTH''VCBACX'
UMTHVCBACX
root@arm:~# MARKER='SPFM''SQUXCG' run 'i2cget -y -f 2 0x4b 0xd'
SPFMSQUXCG0x16
SPFMSQUXCG 0
root@arm:~# echo 'EAZJ''ZNELCK'
EAZJZNELCK
root@arm:~# MARKER='BNUS''TYZWGW' run 'echo 930000 930000 > /sys/kernel/mva_test//regulators/buck1_set'
BNUSTYZWGWBNUSTYZWGW 0
root@arm:~# echo 'KUOA''FVJSQW'
KUOAFVJSQW
root@arm:~# MARKER='KGFB''PAXMVA' run 'i2cget -y -f 2 0x4b 0xd'
KGFBPAXMVA0x17
KGFBPAXMVA 0
root@arm:~# echo 'JVZQ''TLEAFO'
JVZQTLEAFO
root@arm:~# MARKER='XXZU''KLOCKM' run 'echo 940000 940000 > /sys/kernel/mva_test//regulators/buck1_set'
XXZUKLOCKMXXZUKLOCKM 0
root@arm:~# echo 'XOXJ''UZOBGN'
XOXJUZOBGN
root@arm:~# MARKER='PBYG''NYFACM' run 'i2cget -y -f 2 0x4b 0xd'
PBYGNYFACM0x18
PBYGNYFACM 0
root@arm:~# echo 'XHOY''QMBTCO'
XHOYQMBTCO
root@arm:~# MARKER='OXJC''HSZOSB' run 'echo 950000 950000 > /sys/kernel/mva_test//regulators/buck1_set'
OXJCHSZOSBOXJCHSZOSB 0
root@arm:~# echo 'QALB''MZOBMZ'
QALBMZOBMZ
root@arm:~# MARKER='QMEB''XELVKZ' run 'i2cget -y -f 2 0x4b 0xd'
QMEBXELVKZ0x19
QMEBXELVKZ 0
root@arm:~# echo 'OKTM''WYHHNC'
OKTMWYHHNC
root@arm:~# MARKER='ANYO''MPUPLX' run 'echo 960000 960000 > /sys/kernel/mva_test//regulators/buck1_set'
ANYOMPUPLXANYOMPUPLX 0
root@arm:~# echo 'UEBZ''HGQWYB'
UEBZHGQWYB
root@arm:~# MARKER='JANZ''QNAWHM' run 'i2cget -y -f 2 0x4b 0xd'
JANZQNAWHM0x1a
JANZQNAWHM 0
root@arm:~# echo 'UYVY''QVMCHU'
UYVYQVMCHU
root@arm:~# MARKER='SOCX''GPSZKQ' run 'echo 970000 970000 > /sys/kernel/mva_test//regulators/buck1_set'
SOCXGPSZKQSOCXGPSZKQ 0
root@arm:~# echo 'SUWQ''BXSUFT'
SUWQBXSUFT
root@arm:~# MARKER='VKHM''CVGSQY' run 'i2cget -y -f 2 0x4b 0xd'
VKHMCVGSQY0x1b
VKHMCVGSQY 0
root@arm:~# echo 'ZKFL''AVWNFN'
ZKFLAVWNFN
root@arm:~# MARKER='UCGP''WBCBGE' run 'echo 980000 980000 > /sys/kernel/mva_test//regulators/buck1_set'
UCGPWBCBGEUCGPWBCBGE 0
root@arm:~# echo 'LEOH''HTQXQM'
LEOHHTQXQM
root@arm:~# MARKER='ZNKE''XNTXMP' run 'i2cget -y -f 2 0x4b 0xd'
ZNKEXNTXMP0x1c
ZNKEXNTXMP 0
root@arm:~# echo 'SCTM''XKJEFH'
SCTMXKJEFH
root@arm:~# MARKER='YOAY''MUBGYA' run 'echo 990000 990000 > /sys/kernel/mva_test//regulators/buck1_set'
YOAYMUBGYAYOAYMUBGYA 0
root@arm:~# echo 'WGWJ''PPQMLL'
WGWJPPQMLL
root@arm:~# MARKER='QSGJ''HAGCAA' run 'i2cget -y -f 2 0x4b 0xd'
QSGJHAGCAA0x1d
QSGJHAGCAA 0
root@arm:~# echo 'ZJSO''CPOOHJ'
ZJSOCPOOHJ
root@arm:~# MARKER='FGGZ''MGOOGN' run 'echo 1000000 1000000 > /sys/kernel/mva_tesst/regulators/buck1_set'
FGGZMGOOGNFGGZMGOOGN 0
root@arm:~# echo 'PZTJ''MMXHEM'
PZTJMMXHEM
root@arm:~# MARKER='UKOM''VZGCFK' run 'i2cget -y -f 2 0x4b 0xd'
UKOMVZGCFK0x1e
UKOMVZGCFK 0
root@arm:~# echo 'LSXF''UQMWXK'
LSXFUQMWXK
root@arm:~# MARKER='NKSG''COGKUZ' run 'echo 1010000 1010000 > /sys/kernel/mva_tesst/regulators/buck1_set'
NKSGCOGKUZNKSGCOGKUZ 0
root@arm:~# echo 'BAGY''KWCWYK'
BAGYKWCWYK
root@arm:~# MARKER='MUAY''WHFPGN' run 'i2cget -y -f 2 0x4b 0xd'
MUAYWHFPGN0x1f
MUAYWHFPGN 0
root@arm:~# echo 'XUZO''BJXXCN'
XUZOBJXXCN
root@arm:~# MARKER='PNFP''KMSXYF' run 'echo 1020000 1020000 > /sys/kernel/mva_tesst/regulators/buck1_set'
PNFPKMSXYFPNFPKMSXYF 0
root@arm:~# echo 'CBHN''OOYQFG'
CBHNOOYQFG
root@arm:~# MARKER='PCOT''VEJBOY' run 'i2cget -y -f 2 0x4b 0xd'
PCOTVEJBOY0x20
PCOTVEJBOY 0
root@arm:~# echo 'SYSP''WKEQVX'
SYSPWKEQVX
root@arm:~# MARKER='HTYC''NMMMMO' run 'echo 1030000 1030000 > /sys/kernel/mva_tesst/regulators/buck1_set'
HTYCNMMMMOHTYCNMMMMO 0
root@arm:~# echo 'EEXZ''JJEXHS'
EEXZJJEXHS
root@arm:~# MARKER='TLGL''XWOMYM' run 'i2cget -y -f 2 0x4b 0xd'
TLGLXWOMYM0x21
TLGLXWOMYM 0
root@arm:~# echo 'ELBW''KGVWUW'
ELBWKGVWUW
root@arm:~# MARKER='MFWP''PNLKXH' run 'echo 1040000 1040000 > /sys/kernel/mva_tesst/regulators/buck1_set'
MFWPPNLKXHMFWPPNLKXH 0
root@arm:~# echo 'FPNQ''QMWXNT'
FPNQQMWXNT
root@arm:~# MARKER='JPSW''GAGMTS' run 'i2cget -y -f 2 0x4b 0xd'
JPSWGAGMTS0x22
JPSWGAGMTS 0
root@arm:~# echo 'ALEL''QSTVUZ'
ALELQSTVUZ
root@arm:~# MARKER='EMFS''MZLKZG' run 'echo 1050000 1050000 > /sys/kernel/mva_tesst/regulators/buck1_set'
EMFSMZLKZGEMFSMZLKZG 0
root@arm:~# echo 'UAEC''GZXTWQ'
UAECGZXTWQ
root@arm:~# MARKER='VHXW''WKPMFO' run 'i2cget -y -f 2 0x4b 0xd'
VHXWWKPMFO0x23
VHXWWKPMFO 0
root@arm:~# echo 'FMEB''JEALJZ'
FMEBJEALJZ
root@arm:~# MARKER='EECN''HBFECN' run 'echo 1060000 1060000 > /sys/kernel/mva_tesst/regulators/buck1_set'
EECNHBFECNEECNHBFECN 0
root@arm:~# echo 'YAGM''UNWNFF'
YAGMUNWNFF
root@arm:~# MARKER='OFFF''UWBKAL' run 'i2cget -y -f 2 0x4b 0xd'
OFFFUWBKAL0x24
OFFFUWBKAL 0
root@arm:~# echo 'GABX''YAHQYF'
GABXYAHQYF
root@arm:~# MARKER='NOJM''MXQUGK' run 'echo 1070000 1070000 > /sys/kernel/mva_tesst/regulators/buck1_set'
NOJMMXQUGKNOJMMXQUGK 0
root@arm:~# echo 'LCNE''OWJPOH'
LCNEOWJPOH
root@arm:~# MARKER='YGEQ''BHAFYZ' run 'i2cget -y -f 2 0x4b 0xd'
YGEQBHAFYZ0x25
YGEQBHAFYZ 0
root@arm:~# echo 'QHMY''HKGVCM'
QHMYHKGVCM
root@arm:~# MARKER='EMKM''KCTGKF' run 'echo 1080000 1080000 > /sys/kernel/mva_tesst/regulators/buck1_set'
EMKMKCTGKFEMKMKCTGKF 0
root@arm:~# echo 'NNVJ''TVBOVN'
NNVJTVBOVN
root@arm:~# MARKER='FPJW''ELESKK' run 'i2cget -y -f 2 0x4b 0xd'
FPJWELESKK0x26
FPJWELESKK 0
root@arm:~# echo 'WQEZ''YYTLCP'
WQEZYYTLCP
root@arm:~# MARKER='SYBE''HHKLTK' run 'echo 1090000 1090000 > /sys/kernel/mva_tesst/regulators/buck1_set'
SYBEHHKLTKSYBEHHKLTK 0
root@arm:~# echo 'MVWY''HNGNGK'
MVWYHNGNGK
root@arm:~# MARKER='SCHA''ZMCZBA' run 'i2cget -y -f 2 0x4b 0xd'
SCHAZMCZBA0x27
SCHAZMCZBA 0
root@arm:~# echo 'MOHM''CMHQKG'
MOHMCMHQKG
root@arm:~# MARKER='TTCG''EOYJVG' run 'echo 1100000 1100000 > /sys/kernel/mva_tesst/regulators/buck1_set'
TTCGEOYJVGTTCGEOYJVG 0
root@arm:~# echo 'CGCM''XQCHJS'
CGCMXQCHJS
root@arm:~# MARKER='WLMW''TLQUTC' run 'i2cget -y -f 2 0x4b 0xd'
WLMWTLQUTC0x28
WLMWTLQUTC 0
root@arm:~# echo 'JGLH''BJPFOZ'
JGLHBJPFOZ
root@arm:~# MARKER='GOXS''GJYKHY' run 'echo 1110000 1110000 > /sys/kernel/mva_tesst/regulators/buck1_set'
GOXSGJYKHYGOXSGJYKHY 0
root@arm:~# echo 'GEYG''NJKENQ'
GEYGNJKENQ
root@arm:~# MARKER='WWFM''EKVSEO' run 'i2cget -y -f 2 0x4b 0xd'
WWFMEKVSEO0x29
WWFMEKVSEO 0
root@arm:~# echo 'EJWC''ZCLYUT'
EJWCZCLYUT
root@arm:~# MARKER='WASP''OYYQZA' run 'echo 1120000 1120000 > /sys/kernel/mva_tesst/regulators/buck1_set'
WASPOYYQZAWASPOYYQZA 0
root@arm:~# echo 'OABS''TTLAQG'
OABSTTLAQG
root@arm:~# MARKER='GUVC''KBJNYZ' run 'i2cget -y -f 2 0x4b 0xd'
GUVCKBJNYZ0x2a
GUVCKBJNYZ 0
root@arm:~# echo 'CSTH''ZOELPL'
CSTHZOELPL
root@arm:~# MARKER='TPGQ''BSXSYU' run 'echo 1130000 1130000 > /sys/kernel/mva_tesst/regulators/buck1_set'
TPGQBSXSYUTPGQBSXSYU 0
root@arm:~# echo 'KYLX''TVUKXS'
KYLXTVUKXS
root@arm:~# MARKER='LCUH''FMMNPH' run 'i2cget -y -f 2 0x4b 0xd'
LCUHFMMNPH0x2b
LCUHFMMNPH 0
root@arm:~# echo 'YVPW''XQSHTO'
YVPWXQSHTO
root@arm:~# MARKER='HXFM''QHSNMY' run 'echo 1140000 1140000 > /sys/kernel/mva_tesst/regulators/buck1_set'
HXFMQHSNMYHXFMQHSNMY 0
root@arm:~# echo 'CMAG''FPCVQX'
CMAGFPCVQX
root@arm:~# MARKER='YYMH''WMEOWA' run 'i2cget -y -f 2 0x4b 0xd'
YYMHWMEOWA0x2c
YYMHWMEOWA 0
root@arm:~# echo 'XFJT''YGCWGP'
XFJTYGCWGP
root@arm:~# MARKER='YPWY''TMBEVG' run 'echo 1150000 1150000 > /sys/kernel/mva_tesst/regulators/buck1_set'
YPWYTMBEVGYPWYTMBEVG 0
root@arm:~# echo 'XQPP''KCQQGB'
XQPPKCQQGB
root@arm:~# MARKER='TPTU''CCZQWY' run 'i2cget -y -f 2 0x4b 0xd'
TPTUCCZQWY0x2d
TPTUCCZQWY 0
root@arm:~# echo 'PHJN''SJNVUZ'
PHJNSJNVUZ
root@arm:~# MARKER='NCWY''WOSZUB' run 'echo 1160000 1160000 > /sys/kernel/mva_tesst/regulators/buck1_set'
NCWYWOSZUBNCWYWOSZUB 0
root@arm:~# echo 'CMJH''FSXGZL'
CMJHFSXGZL
root@arm:~# MARKER='NMNT''MTPKCU' run 'i2cget -y -f 2 0x4b 0xd'
NMNTMTPKCU0x2e
NMNTMTPKCU 0
root@arm:~# echo 'QCUO''YUQZLB'
QCUOYUQZLB
root@arm:~# MARKER='AQXT''HBWVEN' run 'echo 1170000 1170000 > /sys/kernel/mva_tesst/regulators/buck1_set'
AQXTHBWVENAQXTHBWVEN 0
root@arm:~# echo 'BJCG''ZLTQTK'
BJCGZLTQTK
root@arm:~# MARKER='UKCJ''YJHYLU' run 'i2cget -y -f 2 0x4b 0xd'
UKCJYJHYLU0x2f
UKCJYJHYLU 0
root@arm:~# echo 'HECZ''HPEAVA'
HECZHPEAVA
root@arm:~# MARKER='HMYJ''MYSPGB' run 'echo 1180000 1180000 > /sys/kernel/mva_tesst/regulators/buck1_set'
HMYJMYSPGBHMYJMYSPGB 0
root@arm:~# echo 'PAGZ''FTQPEM'
PAGZFTQPEM
root@arm:~# MARKER='GEFE''KCNVBE' run 'i2cget -y -f 2 0x4b 0xd'
GEFEKCNVBE0x30
GEFEKCNVBE 0
root@arm:~# echo 'OFFN''SUAVGU'
OFFNSUAVGU
root@arm:~# MARKER='JBWA''FPUKWN' run 'echo 1190000 1190000 > /sys/kernel/mva_tesst/regulators/buck1_set'
JBWAFPUKWNJBWAFPUKWN 0
root@arm:~# echo 'CHCF''AMLJZA'
CHCFAMLJZA
root@arm:~# MARKER='KGLO''ENZFNW' run 'i2cget -y -f 2 0x4b 0xd'
KGLOENZFNW0x31
KGLOENZFNW 0
root@arm:~# echo 'BCPL''GPYALU'
BCPLGPYALU
root@arm:~# MARKER='NUHK''WCVOKT' run 'echo 1200000 1200000 > /sys/kernel/mva_tesst/regulators/buck1_set'
NUHKWCVOKTNUHKWCVOKT 0
root@arm:~# echo 'CEVE''TJBYGJ'
CEVETJBYGJ
root@arm:~# MARKER='QBHL''UJQTSH' run 'i2cget -y -f 2 0x4b 0xd'
QBHLUJQTSH0x32
QBHLUJQTSH 0
root@arm:~# echo 'HGBE''FOFFUX'
HGBEFOFFUX
root@arm:~# MARKER='JMEE''JGCYJE' run 'echo 1210000 1210000 > /sys/kernel/mva_tesst/regulators/buck1_set'
JMEEJGCYJEJMEEJGCYJE 0
root@arm:~# echo 'FKHF''UVHFJB'
FKHFUVHFJB
root@arm:~# MARKER='KYEA''QWSYKC' run 'i2cget -y -f 2 0x4b 0xd'
KYEAQWSYKC0x33
KYEAQWSYKC 0
root@arm:~# echo 'KNLH''GWSEXW'
KNLHGWSEXW
root@arm:~# MARKER='FLCS''TMELCZ' run 'echo 1220000 1220000 > /sys/kernel/mva_tesst/regulators/buck1_set'
FLCSTMELCZFLCSTMELCZ 0
root@arm:~# echo 'XXYX''TBLAAP'
XXYXTBLAAP
root@arm:~# MARKER='WZJM''VBFFBK' run 'i2cget -y -f 2 0x4b 0xd'
WZJMVBFFBK0x34
WZJMVBFFBK 0
root@arm:~# echo 'CULA''JSVMET'
CULAJSVMET
root@arm:~# MARKER='MGNE''ZTLPXV' run 'echo 1230000 1230000 > /sys/kernel/mva_tesst/regulators/buck1_set'
MGNEZTLPXVMGNEZTLPXV 0
root@arm:~# echo 'XCTW''WQFGMS'
XCTWWQFGMS
root@arm:~# MARKER='FHOQ''OEEZAC' run 'i2cget -y -f 2 0x4b 0xd'
FHOQOEEZAC0x35
FHOQOEEZAC 0
root@arm:~# echo 'CQWN''UCTLPJ'
CQWNUCTLPJ
root@arm:~# MARKER='BFNM''ZHWVSB' run 'echo 1240000 1240000 > /sys/kernel/mva_tesst/regulators/buck1_set'
BFNMZHWVSBBFNMZHWVSB 0
root@arm:~# echo 'XMSF''ZUSFHL'
XMSFZUSFHL
root@arm:~# MARKER='NBSG''HZCNUB' run 'i2cget -y -f 2 0x4b 0xd'
NBSGHZCNUB0x36
NBSGHZCNUB 0
root@arm:~# echo 'UEBA''VKSPBE'
UEBAVKSPBE
root@arm:~# MARKER='MLEU''YHVOTB' run 'echo 1250000 1250000 > /sys/kernel/mva_tesst/regulators/buck1_set'
MLEUYHVOTBMLEUYHVOTB 0
root@arm:~# echo 'OPMM''UXZPUH'
OPMMUXZPUH
root@arm:~# MARKER='XNYK''FCQUWQ' run 'i2cget -y -f 2 0x4b 0xd'
XNYKFCQUWQ0x37
XNYKFCQUWQ 0
root@arm:~# echo 'PNUC''ZUMWCL'
PNUCZUMWCL
root@arm:~# MARKER='ZBSM''NTWHOB' run 'echo 1260000 1260000 > /sys/kernel/mva_tesst/regulators/buck1_set'
ZBSMNTWHOBZBSMNTWHOB 0
root@arm:~# echo 'KZKU''KECZHJ'
KZKUKECZHJ
root@arm:~# MARKER='OLPL''PNNGFF' run 'i2cget -y -f 2 0x4b 0xd'
OLPLPNNGFF0x38
OLPLPNNGFF 0
root@arm:~# echo 'FLSO''YKTJJL'
FLSOYKTJJL
root@arm:~# MARKER='NTYK''BAAFUZ' run 'echo 1270000 1270000 > /sys/kernel/mva_tesst/regulators/buck1_set'
NTYKBAAFUZNTYKBAAFUZ 0
root@arm:~# echo 'YLYY''JPXFJM'
YLYYJPXFJM
root@arm:~# MARKER='XVMU''LGFCKA' run 'i2cget -y -f 2 0x4b 0xd'
XVMULGFCKA0x39
XVMULGFCKA 0
root@arm:~# echo 'WCMG''CQGFUM'
WCMGCQGFUM
root@arm:~# MARKER='FEBE''CUYZYG' run 'echo 1280000 1280000 > /sys/kernel/mva_tesst/regulators/buck1_set'
FEBECUYZYGFEBECUYZYG 0
root@arm:~# echo 'YWAT''HXZTYC'
YWATHXZTYC
root@arm:~# MARKER='JMPO''JEBHPM' run 'i2cget -y -f 2 0x4b 0xd'
JMPOJEBHPM0x3a
JMPOJEBHPM 0
root@arm:~# echo 'QNSH''LQTQTX'
QNSHLQTQTX
root@arm:~# MARKER='OJMY''JHGXAP' run 'echo 1290000 1290000 > /sys/kernel/mva_tesst/regulators/buck1_set'
OJMYJHGXAPOJMYJHGXAP 0
root@arm:~# echo 'ENFL''MQGMPP'
ENFLMQGMPP
root@arm:~# MARKER='OTKX''OQSWWH' run 'i2cget -y -f 2 0x4b 0xd'
OTKXOQSWWH0x3b
OTKXOQSWWH 0
root@arm:~# echo 'MMZH''FKHKFT'
MMZHFKHKFT
root@arm:~# MARKER='JAUF''XQBHTQ' run 'echo 1300000 1300000 > /sys/kernel/mva_tesst/regulators/buck1_set'
JAUFXQBHTQJAUFXQBHTQ 0
root@arm:~# echo 'EFKJ''LWZPEM'
EFKJLWZPEM
root@arm:~# MARKER='GCVK''CBGOOX' run 'i2cget -y -f 2 0x4b 0xd'
GCVKCBGOOX0x3c
GCVKCBGOOX 0
root@arm:~# echo 'FLHS''UJNVOP'
FLHSUJNVOP
root@arm:~# MARKER='VQOS''FWPGZH' run 'grep -r -l rohm,bd71837 /proc/device-tree  | sed '"'"'s![^/]*$!!'"'"''
VQOSFWPGZH/proc/device-tree/ocp/interconnect@48000000/segment@100000/target-module@9c000/i2c@0/pmic@4b/
VQOSFWPGZH 0
root@arm:~# echo 'EAHV''OBQTXH'
EAHVOBQTXH
root@arm:~# MARKER='UEVL''LXWGYF' run 'test -f /proc/device-tree/ocp/interconnectt\@48000000/segment\@100000/target-module\@9c000/i2c\@0/pmic\@4b/regulators/BUCK22/rohm,no-regulator-enable-control ;echo $?'
UEVLLXWGYF1
UEVLLXWGYF 0
root@arm:~# echo 'XTAH''ZPJYHQ'
XTAHZPJYHQ
root@arm:~# MARKER='YVWM''JVXFVK' run 'i2cget -y -f 2 0x4b 0x6'
YVWMJVXFVK0x43
YVWMJVXFVK 0
root@arm:~# echo 'WULL''GACYBF'
WULLGACYBF
root@arm:~# MARKER='XJXJ''WFOMHP' run 'echo 700000 700000 > /sys/kernel/mva_test//regulators/buck2_set'
XJXJWFOMHPXJXJWFOMHP 0
root@arm:~# echo 'KMKC''NTMLKW'
KMKCNTMLKW
root@arm:~# MARKER='ECAV''SASLQB' run 'i2cget -y -f 2 0x4b 0x10'
ECAVSASLQB0x00
ECAVSASLQB 0
root@arm:~# echo 'FYMT''FXYJJC'
FYMTFXYJJC
root@arm:~# MARKER='OJKZ''JGAHXJ' run 'echo 710000 710000 > /sys/kernel/mva_test//regulators/buck2_set'
OJKZJGAHXJOJKZJGAHXJ 0
root@arm:~# echo 'NBSO''PHJHLX'
NBSOPHJHLX
root@arm:~# MARKER='EOMV''QSMENA' run 'i2cget -y -f 2 0x4b 0x10'
EOMVQSMENA0x01
EOMVQSMENA 0
root@arm:~# echo 'OEFZ''JTSUAV'
OEFZJTSUAV
root@arm:~# MARKER='ZJKK''MXXOYU' run 'echo 720000 720000 > /sys/kernel/mva_test//regulators/buck2_set'
ZJKKMXXOYUZJKKMXXOYU 0
root@arm:~# echo 'LAVN''EJZSUY'
LAVNEJZSUY
root@arm:~# MARKER='YVEH''POBUQM' run 'i2cget -y -f 2 0x4b 0x10'
YVEHPOBUQM0x02
YVEHPOBUQM 0
root@arm:~# echo 'NSYC''XOQULB'
NSYCXOQULB
root@arm:~# MARKER='BEHX''FPNKCS' run 'echo 730000 730000 > /sys/kernel/mva_test//regulators/buck2_set'
BEHXFPNKCSBEHXFPNKCS 0
root@arm:~# echo 'AKSG''EEGONB'
AKSGEEGONB
root@arm:~# MARKER='ZXLJ''FVJATC' run 'i2cget -y -f 2 0x4b 0x10'
ZXLJFVJATC0x03
ZXLJFVJATC 0
root@arm:~# echo 'HXAC''OVCWVG'
HXACOVCWVG
root@arm:~# MARKER='PPFV''BJNYAE' run 'echo 740000 740000 > /sys/kernel/mva_test//regulators/buck2_set'
PPFVBJNYAEPPFVBJNYAE 0
root@arm:~# echo 'HBHE''CTJUCB'
HBHECTJUCB
root@arm:~# MARKER='QKYG''YTPKWC' run 'i2cget -y -f 2 0x4b 0x10'
QKYGYTPKWC0x04
QKYGYTPKWC 0
root@arm:~# echo 'FZKQ''EOTPUA'
FZKQEOTPUA
root@arm:~# MARKER='TBTB''GPTOWH' run 'echo 750000 750000 > /sys/kernel/mva_test//regulators/buck2_set'
TBTBGPTOWHTBTBGPTOWH 0
root@arm:~# echo 'STAV''EACQLV'
STAVEACQLV
root@arm:~# MARKER='XQSW''UPLTUN' run 'i2cget -y -f 2 0x4b 0x10'
XQSWUPLTUN0x05
XQSWUPLTUN 0
root@arm:~# echo 'TEOS''TUCWEK'
TEOSTUCWEK
root@arm:~# MARKER='AYHX''JGEACE' run 'echo 760000 760000 > /sys/kernel/mva_test//regulators/buck2_set'
AYHXJGEACEAYHXJGEACE 0
root@arm:~# echo 'FKFQ''VNCVZB'
FKFQVNCVZB
root@arm:~# MARKER='OUSB''MBYYNC' run 'i2cget -y -f 2 0x4b 0x10'
OUSBMBYYNC0x06
OUSBMBYYNC 0
root@arm:~# echo 'BJVJ''YOAYMY'
BJVJYOAYMY
root@arm:~# MARKER='PVFF''OYKZGX' run 'echo 770000 770000 > /sys/kernel/mva_test//regulators/buck2_set'
PVFFOYKZGXPVFFOYKZGX 0
root@arm:~# echo 'AJSU''YTXMFY'
AJSUYTXMFY
root@arm:~# MARKER='OSHJ''NJJGSL' run 'i2cget -y -f 2 0x4b 0x10'
OSHJNJJGSL0x07
OSHJNJJGSL 0
root@arm:~# echo 'VBJS''GBZXPL'
VBJSGBZXPL
root@arm:~# MARKER='JCBW''JLNVCC' run 'echo 780000 780000 > /sys/kernel/mva_test//regulators/buck2_set'
JCBWJLNVCCJCBWJLNVCC 0
root@arm:~# echo 'OVHO''XUFCWZ'
OVHOXUFCWZ
root@arm:~# MARKER='MZSC''WMMXAK' run 'i2cget -y -f 2 0x4b 0x10'
MZSCWMMXAK0x08
MZSCWMMXAK 0
root@arm:~# echo 'OYHW''BMHZSV'
OYHWBMHZSV
root@arm:~# MARKER='ZNMQ''HGEATW' run 'echo 790000 790000 > /sys/kernel/mva_test//regulators/buck2_set'
ZNMQHGEATWZNMQHGEATW 0
root@arm:~# echo 'VYGU''QLCXFX'
VYGUQLCXFX
root@arm:~# MARKER='GWFB''XOVEPO' run 'i2cget -y -f 2 0x4b 0x10'
GWFBXOVEPO0x09
GWFBXOVEPO 0
root@arm:~# echo 'XGZZ''VGYSZO'
XGZZVGYSZO
root@arm:~# MARKER='BOYC''FQCFFC' run 'echo 800000 800000 > /sys/kernel/mva_test//regulators/buck2_set'
BOYCFQCFFCBOYCFQCFFC 0
root@arm:~# echo 'ZNCB''ZMZPAK'
ZNCBZMZPAK
root@arm:~# MARKER='SQGW''KSPKQP' run 'i2cget -y -f 2 0x4b 0x10'
SQGWKSPKQP0x0a
SQGWKSPKQP 0
root@arm:~# echo 'JPBQ''YOAHMY'
JPBQYOAHMY
root@arm:~# MARKER='JAWV''OMKKWX' run 'echo 810000 810000 > /sys/kernel/mva_test//regulators/buck2_set'
JAWVOMKKWXJAWVOMKKWX 0
root@arm:~# echo 'SXPC''MBVFTW'
SXPCMBVFTW
root@arm:~# MARKER='NJLU''JVLYVX' run 'i2cget -y -f 2 0x4b 0x10'
NJLUJVLYVX0x0b
NJLUJVLYVX 0
root@arm:~# echo 'TKJM''EMKTOE'
TKJMEMKTOE
root@arm:~# MARKER='GUBO''UMJKZV' run 'echo 820000 820000 > /sys/kernel/mva_test//regulators/buck2_set'
GUBOUMJKZVGUBOUMJKZV 0
root@arm:~# echo 'YMJJ''FVFNOY'
YMJJFVFNOY
root@arm:~# MARKER='GOJA''JTNQUO' run 'i2cget -y -f 2 0x4b 0x10'
GOJAJTNQUO0x0c
GOJAJTNQUO 0
root@arm:~# echo 'HEJQ''NXEAEJ'
HEJQNXEAEJ
root@arm:~# MARKER='HCYZ''XNXESY' run 'echo 830000 830000 > /sys/kernel/mva_test//regulators/buck2_set'
HCYZXNXESYHCYZXNXESY 0
root@arm:~# echo 'NWZB''MLGHBQ'
NWZBMLGHBQ
root@arm:~# MARKER='SZEV''XYYMNO' run 'i2cget -y -f 2 0x4b 0x10'
SZEVXYYMNO0x0d
SZEVXYYMNO 0
root@arm:~# echo 'TGUJ''VBMOAY'
TGUJVBMOAY
root@arm:~# MARKER='STVQ''CCCHOC' run 'echo 840000 840000 > /sys/kernel/mva_test//regulators/buck2_set'
STVQCCCHOCSTVQCCCHOC 0
root@arm:~# echo 'VQHQ''FJGZQP'
VQHQFJGZQP
root@arm:~# MARKER='HLZT''THQKWV' run 'i2cget -y -f 2 0x4b 0x10'
HLZTTHQKWV0x0e
HLZTTHQKWV 0
root@arm:~# echo 'LWKK''UNFBQV'
LWKKUNFBQV
root@arm:~# MARKER='TYWT''OTGTPN' run 'echo 850000 850000 > /sys/kernel/mva_test /regulators/buck2_set'
TYWTOTGTPNTYWTOTGTPN 0
root@arm:~# echo 'FSUN''PFKYHS'
FSUNPFKYHS
root@arm:~# MARKER='MCHA''MXBTSA' run 'i2cget -y -f 2 0x4b 0x10'
MCHAMXBTSA0x0f
MCHAMXBTSA 0
root@arm:~# echo 'ZFHM''MCGTAZ'
ZFHMMCGTAZ
root@arm:~# MARKER='WHHW''KSMBQS' run 'echo 860000 860000 > /sys/kernel/mva_test//regulators/buck2_set'
WHHWKSMBQSWHHWKSMBQS 0
root@arm:~# echo 'TVCZ''UQCQGH'
TVCZUQCQGH
root@arm:~# MARKER='OPWL''FFUJFV' run 'i2cget -y -f 2 0x4b 0x10'
OPWLFFUJFV0x10
OPWLFFUJFV 0
root@arm:~# echo 'ONYY''AGZOJZ'
ONYYAGZOJZ
root@arm:~# MARKER='HALQ''VGGJQY' run 'echo 870000 870000 > /sys/kernel/mva_test//regulators/buck2_set'
HALQVGGJQYHALQVGGJQY 0
root@arm:~# echo 'NEBC''ACNFGJ'
NEBCACNFGJ
root@arm:~# MARKER='EJNU''WCNUFF' run 'i2cget -y -f 2 0x4b 0x10'
EJNUWCNUFF0x11
EJNUWCNUFF 0
root@arm:~# echo 'GLGU''JJACYE'
GLGUJJACYE
root@arm:~# MARKER='XETK''COMKTB' run 'echo 880000 880000 > /sys/kernel/mva_test//regulators/buck2_set'
XETKCOMKTBXETKCOMKTB 0
root@arm:~# echo 'CCPO''HMPAZF'
CCPOHMPAZF
root@arm:~# MARKER='OJFK''ESATAZ' run 'i2cget -y -f 2 0x4b 0x10'
OJFKESATAZ0x12
OJFKESATAZ 0
root@arm:~# echo 'CXLA''KGMZYF'
CXLAKGMZYF
root@arm:~# MARKER='VKSW''WNJHBO' run 'echo 890000 890000 > /sys/kernel/mva_test//regulators/buck2_set'
VKSWWNJHBOVKSWWNJHBO 0
root@arm:~# echo 'XMOG''KJAJKH'
XMOGKJAJKH
root@arm:~# MARKER='HXHT''BGYKLY' run 'i2cget -y -f 2 0x4b 0x10'
HXHTBGYKLY0x13
HXHTBGYKLY 0
root@arm:~# echo 'ANYG''ZQCZFE'
ANYGZQCZFE
root@arm:~# MARKER='KHHB''VJJAXF' run 'echo 900000 900000 > /sys/kernel/mva_test//regulators/buck2_set'
KHHBVJJAXFKHHBVJJAXF 0
root@arm:~# echo 'PGEL''XVKQWP'
PGELXVKQWP
root@arm:~# MARKER='HGPM''OKWTXE' run 'i2cget -y -f 2 0x4b 0x10'
HGPMOKWTXE0x14
HGPMOKWTXE 0
root@arm:~# echo 'MBEO''ZPTHOG'
MBEOZPTHOG
root@arm:~# MARKER='FVAB''TPBJMX' run 'echo 910000 910000 > /sys/kernel/mva_test//regulators/buck2_set'
FVABTPBJMXFVABTPBJMX 0
root@arm:~# echo 'FYPX''JJUQGT'
FYPXJJUQGT
root@arm:~# MARKER='XKFB''VVFMNM' run 'i2cget -y -f 2 0x4b 0x10'
XKFBVVFMNM0x15
XKFBVVFMNM 0
root@arm:~# echo 'UVEV''YWHPFA'
UVEVYWHPFA
root@arm:~# MARKER='LSBC''ABMJBN' run 'echo 920000 920000 > /sys/kernel/mva_test//regulators/buck2_set'
LSBCABMJBNLSBCABMJBN 0
root@arm:~# echo 'VSWO''YTZQOY'
VSWOYTZQOY
root@arm:~# MARKER='XHZN''TJXLCF' run 'i2cget -y -f 2 0x4b 0x10'
XHZNTJXLCF0x16
XHZNTJXLCF 0
root@arm:~# echo 'QHWO''PLPEQT'
QHWOPLPEQT
root@arm:~# MARKER='KXSS''AASMNJ' run 'echo 930000 930000 > /sys/kernel/mva_test//regulators/buck2_set'
KXSSAASMNJKXSSAASMNJ 0
root@arm:~# echo 'JAXL''JSKLNZ'
JAXLJSKLNZ
root@arm:~# MARKER='SNCX''KAGUOS' run 'i2cget -y -f 2 0x4b 0x10'
SNCXKAGUOS0x17
SNCXKAGUOS 0
root@arm:~# echo 'XLWW''VLESSQ'
XLWWVLESSQ
root@arm:~# MARKER='QQAZ''HKCYFC' run 'echo 940000 940000 > /sys/kernel/mva_test//regulators/buck2_set'
QQAZHKCYFCQQAZHKCYFC 0
root@arm:~# echo 'HAFZ''KYPLPN'
HAFZKYPLPN
root@arm:~# MARKER='GASO''SPWGEA' run 'i2cget -y -f 2 0x4b 0x10'
GASOSPWGEA0x18
GASOSPWGEA 0
root@arm:~# echo 'NXHG''JSUPUT'
NXHGJSUPUT
root@arm:~# MARKER='ZQGM''QTEEBZ' run 'echo 950000 950000 > /sys/kernel/mva_test//regulators/buck2_set'
ZQGMQTEEBZZQGMQTEEBZ 0
root@arm:~# echo 'WCHP''XYQUPO'
WCHPXYQUPO
root@arm:~# MARKER='SLSU''GKLLBW' run 'i2cget -y -f 2 0x4b 0x10'
SLSUGKLLBW0x19
SLSUGKLLBW 0
root@arm:~# echo 'SVYM''JLSQXZ'
SVYMJLSQXZ
root@arm:~# MARKER='TABY''LBGXUF' run 'echo 960000 960000 > /sys/kernel/mva_test//regulators/buck2_set'
TABYLBGXUFTABYLBGXUF 0
root@arm:~# echo 'LMBU''QGLBZZ'
LMBUQGLBZZ
root@arm:~# MARKER='MQUQ''CBVLSA' run 'i2cget -y -f 2 0x4b 0x10'
MQUQCBVLSA0x1a
MQUQCBVLSA 0
root@arm:~# echo 'LHSA''GCKPJV'
LHSAGCKPJV
root@arm:~# MARKER='ACUF''VPNEQO' run 'echo 970000 970000 > /sys/kernel/mva_test//regulators/buck2_set'
ACUFVPNEQOACUFVPNEQO 0
root@arm:~# echo 'CVSH''LJOLVJ'
CVSHLJOLVJ
root@arm:~# MARKER='QCXM''HUSVTN' run 'i2cget -y -f 2 0x4b 0x10'
QCXMHUSVTN0x1b
QCXMHUSVTN 0
root@arm:~# echo 'KEUP''FYSPTV'
KEUPFYSPTV
root@arm:~# MARKER='KGCJ''ZLPFBO' run 'echo 980000 980000 > /sys/kernel/mva_test//regulators/buck2_set'
KGCJZLPFBOKGCJZLPFBO 0
root@arm:~# echo 'CXGA''WMVVCX'
CXGAWMVVCX
root@arm:~# MARKER='QEUH''STGKPO' run 'i2cget -y -f 2 0x4b 0x10'
QEUHSTGKPO0x1c
QEUHSTGKPO 0
root@arm:~# echo 'EMHB''CVKPXX'
EMHBCVKPXX
root@arm:~# MARKER='GZJL''NNQQUC' run 'echo 990000 990000 > /sys/kernel/mva_test//regulators/buck2_set'
GZJLNNQQUCGZJLNNQQUC 0
root@arm:~# echo 'UQYO''ZUMBMF'
UQYOZUMBMF
root@arm:~# MARKER='JETT''TMNAAP' run 'i2cget -y -f 2 0x4b 0x10'
JETTTMNAAP0x1d
JETTTMNAAP 0
root@arm:~# echo 'HQGN''FWQZAH'
HQGNFWQZAH
root@arm:~# MARKER='GLEA''AQETKY' run 'echo 1000000 1000000 > /sys/kernel/mva_tesst/regulators/buck2_set'
GLEAAQETKYGLEAAQETKY 0
root@arm:~# echo 'KMFP''AWQBNN'
KMFPAWQBNN
root@arm:~# MARKER='OKWE''QBMGQA' run 'i2cget -y -f 2 0x4b 0x10'
OKWEQBMGQA0x1e
OKWEQBMGQA 0
root@arm:~# echo 'AAPK''XAXQCG'
AAPKXAXQCG
root@arm:~# MARKER='VGUC''CTAUWN' run 'echo 1010000 1010000 > /sys/kernel/mva_tesst/regulators/buck2_set'
VGUCCTAUWNVGUCCTAUWN 0
root@arm:~# echo 'YYTF''LWKGAC'
YYTFLWKGAC
root@arm:~# MARKER='XPPW''JKCKZP' run 'i2cget -y -f 2 0x4b 0x10'
XPPWJKCKZP0x1f
XPPWJKCKZP 0
root@arm:~# echo 'MKSA''EUJXWH'
MKSAEUJXWH
root@arm:~# MARKER='UZBK''HPWYPW' run 'echo 1020000 1020000 > /sys/kernel/mva_tesst/regulators/buck2_set'
UZBKHPWYPWUZBKHPWYPW 0
root@arm:~# echo 'ZHYQ''OSMKKA'
ZHYQOSMKKA
root@arm:~# MARKER='PGCL''BXKUTY' run 'i2cget -y -f 2 0x4b 0x10'
PGCLBXKUTY0x20
PGCLBXKUTY 0
root@arm:~# echo 'FQQC''LLKNPH'
FQQCLLKNPH
root@arm:~# MARKER='NNCP''CMPGCX' run 'echo 1030000 1030000 > /sys/kernel/mva_tesst/regulators/buck2_set'
NNCPCMPGCXNNCPCMPGCX 0
root@arm:~# echo 'GMHW''QBXQEX'
GMHWQBXQEX
root@arm:~# MARKER='UVQG''YEPLXT' run 'i2cget -y -f 2 0x4b 0x10'
UVQGYEPLXT0x21
UVQGYEPLXT 0
root@arm:~# echo 'UNCX''HWVPSE'
UNCXHWVPSE
root@arm:~# MARKER='YBAP''ZQLEKK' run 'echo 1040000 1040000 > /sys/kernel/mva_tesst/regulators/buck2_set'
YBAPZQLEKKYBAPZQLEKK 0
root@arm:~# echo 'JQMV''MAGCET'
JQMVMAGCET
root@arm:~# MARKER='FUMC''EJONTW' run 'i2cget -y -f 2 0x4b 0x10'
FUMCEJONTW0x22
FUMCEJONTW 0
root@arm:~# echo 'ENET''CYMUKP'
ENETCYMUKP
root@arm:~# MARKER='CBFK''GAMMXE' run 'echo 1050000 1050000 > /sys/kernel/mva_tesst/regulators/buck2_set'
CBFKGAMMXECBFKGAMMXE 0
root@arm:~# echo 'PHVS''VEZLPQ'
PHVSVEZLPQ
root@arm:~# MARKER='WQZV''VATESU' run 'i2cget -y -f 2 0x4b 0x10'
WQZVVATESU0x23
WQZVVATESU 0
root@arm:~# echo 'PQAF''EYFNGW'
PQAFEYFNGW
root@arm:~# MARKER='OGTF''EZNVXE' run 'echo 1060000 1060000 > /sys/kernel/mva_tesst/regulators/buck2_set'
OGTFEZNVXEOGTFEZNVXE 0
root@arm:~# echo 'ZFPN''HLCLKX'
ZFPNHLCLKX
root@arm:~# MARKER='TJFF''ACJTCF' run 'i2cget -y -f 2 0x4b 0x10'
TJFFACJTCF0x24
TJFFACJTCF 0
root@arm:~# echo 'OKBO''KCNGXL'
OKBOKCNGXL
root@arm:~# MARKER='KPET''JAAZQC' run 'echo 1070000 1070000 > /sys/kernel/mva_tesst/regulators/buck2_set'
KPETJAAZQCKPETJAAZQC 0
root@arm:~# echo 'JHUQ''BQPNYG'
JHUQBQPNYG
root@arm:~# MARKER='ULFF''FLCEEC' run 'i2cget -y -f 2 0x4b 0x10'
ULFFFLCEEC0x25
ULFFFLCEEC 0
root@arm:~# echo 'YJOT''TBMCVY'
YJOTTBMCVY
root@arm:~# MARKER='BCYO''BAXXMN' run 'echo 1080000 1080000 > /sys/kernel/mva_tesst/regulators/buck2_set'
BCYOBAXXMNBCYOBAXXMN 0
root@arm:~# echo 'KFQC''FNVFUJ'
KFQCFNVFUJ
root@arm:~# MARKER='GSLA''QXTYEV' run 'i2cget -y -f 2 0x4b 0x10'
GSLAQXTYEV0x26
GSLAQXTYEV 0
root@arm:~# echo 'XBJE''FBQQYV'
XBJEFBQQYV
root@arm:~# MARKER='HGWU''YBHNVH' run 'echo 1090000 1090000 > /sys/kernel/mva_tesst/regulators/buck2_set'
HGWUYBHNVHHGWUYBHNVH 0
root@arm:~# echo 'BXVU''AMSXMZ'
BXVUAMSXMZ
root@arm:~# MARKER='ETAU''MPEMYO' run 'i2cget -y -f 2 0x4b 0x10'
ETAUMPEMYO0x27
ETAUMPEMYO 0
root@arm:~# echo 'ELES''OTOWUF'
ELESOTOWUF
root@arm:~# MARKER='AAVU''EHHMJF' run 'echo 1100000 1100000 > /sys/kernel/mva_tesst/regulators/buck2_set'
AAVUEHHMJFAAVUEHHMJF 0
root@arm:~# echo 'ZZOS''LFXAFU'
ZZOSLFXAFU
root@arm:~# MARKER='NFNQ''XGBTLF' run 'i2cget -y -f 2 0x4b 0x10'
NFNQXGBTLF0x28
NFNQXGBTLF 0
root@arm:~# echo 'PACE''VVOQOC'
PACEVVOQOC
root@arm:~# MARKER='CUYG''OEBJJY' run 'echo 1110000 1110000 > /sys/kernel/mva_tesst/regulators/buck2_set'
CUYGOEBJJYCUYGOEBJJY 0
root@arm:~# echo 'OTCQ''ANBFVN'
OTCQANBFVN
root@arm:~# MARKER='GZXV''CBNUYM' run 'i2cget -y -f 2 0x4b 0x10'
GZXVCBNUYM0x29
GZXVCBNUYM 0
root@arm:~# echo 'ZMYG''YVBUNB'
ZMYGYVBUNB
root@arm:~# MARKER='VNMF''YYYPBA' run 'echo 1120000 1120000 > /sys/kernel/mva_tesst/regulators/buck2_set'
VNMFYYYPBAVNMFYYYPBA 0
root@arm:~# echo 'QPPH''NNKYZO'
QPPHNNKYZO
root@arm:~# MARKER='SVWS''CZMZAP' run 'i2cget -y -f 2 0x4b 0x10'
SVWSCZMZAP0x2a
SVWSCZMZAP 0
root@arm:~# echo 'TUMK''SCQOYH'
TUMKSCQOYH
root@arm:~# MARKER='KBUV''PXPOXN' run 'echo 1130000 1130000 > /sys/kernel/mva_tesst/regulators/buck2_set'
KBUVPXPOXNKBUVPXPOXN 0
root@arm:~# echo 'EBAA''QHFBCF'
EBAAQHFBCF
root@arm:~# MARKER='UMLC''XWZJWA' run 'i2cget -y -f 2 0x4b 0x10'
UMLCXWZJWA0x2b
UMLCXWZJWA 0
root@arm:~# echo 'TNYT''EAZLFF'
TNYTEAZLFF
root@arm:~# MARKER='TFNL''AFTSUS' run 'echo 1140000 1140000 > /sys/kernel/mva_tesst/regulators/buck2_set'
TFNLAFTSUSTFNLAFTSUS 0
root@arm:~# echo 'HWLO''UAVSNM'
HWLOUAVSNM
root@arm:~# MARKER='WHSU''LBWPFX' run 'i2cget -y -f 2 0x4b 0x10'
WHSULBWPFX0x2c
WHSULBWPFX 0
root@arm:~# echo 'JVMO''THZYUV'
JVMOTHZYUV
root@arm:~# MARKER='PSBW''CWBMTA' run 'echo 1150000 1150000 > /sys/kernel/mva_tesst/regulators/buck2_set'
PSBWCWBMTAPSBWCWBMTA 0
root@arm:~# echo 'OVES''SOXMQT'
OVESSOXMQT
root@arm:~# MARKER='EYSK''PPHTHQ' run 'i2cget -y -f 2 0x4b 0x10'
EYSKPPHTHQ0x2d
EYSKPPHTHQ 0
root@arm:~# echo 'QLEA''UVQNAT'
QLEAUVQNAT
root@arm:~# MARKER='LCAF''OSABOU' run 'echo 1160000 1160000 > /sys/kernel/mva_tesst/regulators/buck2_set'
LCAFOSABOULCAFOSABOU 0
root@arm:~# echo 'PPFT''XEZUOU'
PPFTXEZUOU
root@arm:~# MARKER='GFLO''YXKWEE' run 'i2cget -y -f 2 0x4b 0x10'
GFLOYXKWEE0x2e
GFLOYXKWEE 0
root@arm:~# echo 'KOHP''XBWPGN'
KOHPXBWPGN
root@arm:~# MARKER='JTHE''KLZGLH' run 'echo 1170000 1170000 > /sys/kernel/mva_tesst/regulators/buck2_set'
JTHEKLZGLHJTHEKLZGLH 0
root@arm:~# echo 'JQKA''JZVCKA'
JQKAJZVCKA
root@arm:~# MARKER='ATZP''VGXXYE' run 'i2cget -y -f 2 0x4b 0x10'
ATZPVGXXYE0x2f
ATZPVGXXYE 0
root@arm:~# echo 'SKWN''MFTAUB'
SKWNMFTAUB
root@arm:~# MARKER='HTAA''STVAAQ' run 'echo 1180000 1180000 > /sys/kernel/mva_tesst/regulators/buck2_set'
HTAASTVAAQHTAASTVAAQ 0
root@arm:~# echo 'BFSE''QXYUSC'
BFSEQXYUSC
root@arm:~# MARKER='HXFK''FJESAM' run 'i2cget -y -f 2 0x4b 0x10'
HXFKFJESAM0x30
HXFKFJESAM 0
root@arm:~# echo 'ZBAC''UYYAXH'
ZBACUYYAXH
root@arm:~# MARKER='TOTK''MJYTUL' run 'echo 1190000 1190000 > /sys/kernel/mva_tesst/regulators/buck2_set'
TOTKMJYTULTOTKMJYTUL 0
root@arm:~# echo 'SHAN''YWHZXB'
SHANYWHZXB
root@arm:~# MARKER='BJGA''CLVSHV' run 'i2cget -y -f 2 0x4b 0x10'
BJGACLVSHV0x31
BJGACLVSHV 0
root@arm:~# echo 'GMJE''KVAEQJ'
GMJEKVAEQJ
root@arm:~# MARKER='XGBG''FMLTQL' run 'echo 1200000 1200000 > /sys/kernel/mva_tesst/regulators/buck2_set'
XGBGFMLTQLXGBGFMLTQL 0
root@arm:~# echo 'AKFG''BHJKEA'
AKFGBHJKEA
root@arm:~# MARKER='VCWN''QJHZGW' run 'i2cget -y -f 2 0x4b 0x10'
VCWNQJHZGW0x32
VCWNQJHZGW 0
root@arm:~# echo 'SGXU''XLSPKY'
SGXUXLSPKY
root@arm:~# MARKER='MANE''AMNKOK' run 'echo 1210000 1210000 > /sys/kernel/mva_tesst/regulators/buck2_set'
MANEAMNKOKMANEAMNKOK 0
root@arm:~# echo 'UNHX''OZBUKZ'
UNHXOZBUKZ
root@arm:~# MARKER='YOLV''JUWOAW' run 'i2cget -y -f 2 0x4b 0x10'
YOLVJUWOAW0x33
YOLVJUWOAW 0
root@arm:~# echo 'QAHU''SPOLYA'
QAHUSPOLYA
root@arm:~# MARKER='UMMU''YMWSEA' run 'echo 1220000 1220000 > /sys/kernel/mva_tesst/regulators/buck2_set'
UMMUYMWSEAUMMUYMWSEA 0
root@arm:~# echo 'ZUYL''VEBHUU'
ZUYLVEBHUU
root@arm:~# MARKER='YXHN''AXWWOX' run 'i2cget -y -f 2 0x4b 0x10'
YXHNAXWWOX0x34
YXHNAXWWOX 0
root@arm:~# echo 'NLAW''YCEVEE'
NLAWYCEVEE
root@arm:~# MARKER='PMJM''UNOXEV' run 'echo 1230000 1230000 > /sys/kernel/mva_tesst/regulators/buck2_set'
PMJMUNOXEVPMJMUNOXEV 0
root@arm:~# echo 'MWLG''PCGFXH'
MWLGPCGFXH
root@arm:~# MARKER='GNGE''GBMOCQ' run 'i2cget -y -f 2 0x4b 0x10'
GNGEGBMOCQ0x35
GNGEGBMOCQ 0
root@arm:~# echo 'UKFT''WKTLJM'
UKFTWKTLJM
root@arm:~# MARKER='NMUE''SLKPYB' run 'echo 1240000 1240000 > /sys/kernel/mva_tesst/regulators/buck2_set'
NMUESLKPYBNMUESLKPYB 0
root@arm:~# echo 'XEQG''MLJQCB'
XEQGMLJQCB
root@arm:~# MARKER='GVXH''OLLXVT' run 'i2cget -y -f 2 0x4b 0x10'
GVXHOLLXVT0x36
GVXHOLLXVT 0
root@arm:~# echo 'ZAYH''JBJCZA'
ZAYHJBJCZA
root@arm:~# MARKER='MMOY''SCSSJN' run 'echo 1250000 1250000 > /sys/kernel/mva_tesst/regulators/buck2_set'
MMOYSCSSJNMMOYSCSSJN 0
root@arm:~# echo 'OKOZ''VLQNJK'
OKOZVLQNJK
root@arm:~# MARKER='KJQV''PFBEZM' run 'i2cget -y -f 2 0x4b 0x10'
KJQVPFBEZM0x37
KJQVPFBEZM 0
root@arm:~# echo 'SKXF''TSZEXX'
SKXFTSZEXX
root@arm:~# MARKER='CZSO''UCZONF' run 'echo 1260000 1260000 > /sys/kernel/mva_tesst/regulators/buck2_set'
CZSOUCZONFCZSOUCZONF 0
root@arm:~# echo 'WAYN''PVTMXY'
WAYNPVTMXY
root@arm:~# MARKER='TKLC''MTQESQ' run 'i2cget -y -f 2 0x4b 0x10'
TKLCMTQESQ0x38
TKLCMTQESQ 0
root@arm:~# echo 'TEYG''QGXONU'
TEYGQGXONU
root@arm:~# MARKER='QQCC''CJLUNP' run 'echo 1270000 1270000 > /sys/kernel/mva_tesst/regulators/buck2_set'
QQCCCJLUNPQQCCCJLUNP 0
root@arm:~# echo 'NATF''GCHLZB'
NATFGCHLZB
root@arm:~# MARKER='TFHN''ZWUKBO' run 'i2cget -y -f 2 0x4b 0x10'
TFHNZWUKBO0x39
TFHNZWUKBO 0
root@arm:~# echo 'NBHN''HHNYKP'
NBHNHHNYKP
root@arm:~# MARKER='TPZS''HXTBSL' run 'echo 1280000 1280000 > /sys/kernel/mva_tesst/regulators/buck2_set'
TPZSHXTBSLTPZSHXTBSL 0
root@arm:~# echo 'AUUY''EHHAAZ'
AUUYEHHAAZ
root@arm:~# MARKER='SVVE''WGBKMF' run 'i2cget -y -f 2 0x4b 0x10'
SVVEWGBKMF0x3a
SVVEWGBKMF 0
root@arm:~# echo 'MEAF''VJOAPB'
MEAFVJOAPB
root@arm:~# MARKER='TGJX''ZTJYSO' run 'echo 1290000 1290000 > /sys/kernel/mva_tesst/regulators/buck2_set'
TGJXZTJYSOTGJXZTJYSO 0
root@arm:~# echo 'LEBY''TYPOLV'
LEBYTYPOLV
root@arm:~# MARKER='WEXZ''NFGJTV' run 'i2cget -y -f 2 0x4b 0x10'
WEXZNFGJTV0x3b
WEXZNFGJTV 0
root@arm:~# echo 'ETQA''TMCWUH'
ETQATMCWUH
root@arm:~# MARKER='XSZU''BSTVYB' run 'echo 1300000 1300000 > /sys/kernel/mva_tesst/regulators/buck2_set'
XSZUBSTVYBXSZUBSTVYB 0
root@arm:~# echo 'PEQJ''TQMXML'
PEQJTQMXML
root@arm:~# MARKER='UKWE''UJUAGU' run 'i2cget -y -f 2 0x4b 0x10'
UKWEUJUAGU0x3c
UKWEUJUAGU 0
root@arm:~# echo 'GCVU''FPXJVZ'
GCVUFPXJVZ
root@arm:~# MARKER='HATB''LFAUBX' run 'grep -r -l rohm,bd71837 /proc/device-tree  | sed '"'"'s![^/]*$!!'"'"''
HATBLFAUBX/proc/device-tree/ocp/interconnect@48000000/segment@100000/target-module@9c000/i2c@0/pmic@4b/
HATBLFAUBX 0
root@arm:~# echo 'JXAY''EGEWSY'
JXAYEGEWSY
root@arm:~# MARKER='SOVB''TJNGZT' run 'test -f /proc/device-tree/ocp/interconnectt\@48000000/segment\@100000/target-module\@9c000/i2c\@0/pmic\@4b/regulators/BUCK33/rohm,no-regulator-enable-control ;echo $?'
SOVBTJNGZT0
SOVBTJNGZT 0
root@arm:~# echo 'YNGO''MLGSMA'
YNGOMLGSMA
root@arm:~# MARKER='LJEY''UMCHMY' run 'echo 700000 700000 > /sys/kernel/mva_test//regulators/buck3_set'
LJEYUMCHMYLJEYUMCHMY 0
root@arm:~# echo 'PGZH''VBXWGL'
PGZHVBXWGL
root@arm:~# MARKER='UFQL''MBPYTM' run 'i2cget -y -f 2 0x4b 0x12'
UFQLMBPYTM0x00
UFQLMBPYTM 0
root@arm:~# echo 'WKCH''WQXLFS'
WKCHWQXLFS
root@arm:~# MARKER='AZBV''HYTXKS' run 'echo 710000 710000 > /sys/kernel/mva_test//regulators/buck3_set'
AZBVHYTXKSAZBVHYTXKS 0
root@arm:~# echo 'TXQU''CTVVSE'
TXQUCTVVSE
root@arm:~# MARKER='KOVT''TLYYQG' run 'i2cget -y -f 2 0x4b 0x12'
KOVTTLYYQG0x01
KOVTTLYYQG 0
root@arm:~# echo 'EWUH''ZKMHWL'
EWUHZKMHWL
root@arm:~# MARKER='TPWN''GXXFHW' run 'echo 720000 720000 > /sys/kernel/mva_test//regulators/buck3_set'
TPWNGXXFHWTPWNGXXFHW 0
root@arm:~# echo 'UUSY''LGEGMS'
UUSYLGEGMS
root@arm:~# MARKER='UCFA''WPJTQL' run 'i2cget -y -f 2 0x4b 0x12'
UCFAWPJTQL0x02
UCFAWPJTQL 0
root@arm:~# echo 'QNKZ''NGNTOB'
QNKZNGNTOB
root@arm:~# MARKER='GBYN''EJAFGB' run 'echo 730000 730000 > /sys/kernel/mva_test//regulators/buck3_set'
GBYNEJAFGBGBYNEJAFGB 0
root@arm:~# echo 'VCPG''TMQJVB'
VCPGTMQJVB
root@arm:~# MARKER='ZJAB''BJVYVG' run 'i2cget -y -f 2 0x4b 0x12'
ZJABBJVYVG0x03
ZJABBJVYVG 0
root@arm:~# echo 'UKTU''FKVYGK'
UKTUFKVYGK
root@arm:~# MARKER='XPXV''MMPALU' run 'echo 740000 740000 > /sys/kernel/mva_test//regulators/buck3_set'
XPXVMMPALUXPXVMMPALU 0
root@arm:~# echo 'QMJY''BTCGGO'
QMJYBTCGGO
root@arm:~# MARKER='OKMT''ULAAKV' run 'i2cget -y -f 2 0x4b 0x12'
OKMTULAAKV0x04
OKMTULAAKV 0
root@arm:~# echo 'TAXN''BGOOHT'
TAXNBGOOHT
root@arm:~# MARKER='WXYZ''MOBATL' run 'echo 750000 750000 > /sys/kernel/mva_test//regulators/buck3_set'
WXYZMOBATLWXYZMOBATL 0
root@arm:~# echo 'APZQ''VVPZVQ'
APZQVVPZVQ
root@arm:~# MARKER='FBEE''SANUME' run 'i2cget -y -f 2 0x4b 0x12'
FBEESANUME0x05
FBEESANUME 0
root@arm:~# echo 'GJLN''NZAQWZ'
GJLNNZAQWZ
root@arm:~# MARKER='TTLY''CLJTBQ' run 'echo 760000 760000 > /sys/kernel/mva_test//regulators/buck3_set'
TTLYCLJTBQTTLYCLJTBQ 0
root@arm:~# echo 'KFUO''YSCJKB'
KFUOYSCJKB
root@arm:~# MARKER='AXHG''UYVMCM' run 'i2cget -y -f 2 0x4b 0x12'
AXHGUYVMCM0x06
AXHGUYVMCM 0
root@arm:~# echo 'MBPQ''PLTSVP'
MBPQPLTSVP
root@arm:~# MARKER='JBBJ''WECFPP' run 'echo 770000 770000 > /sys/kernel/mva_test//regulators/buck3_set'
JBBJWECFPPJBBJWECFPP 0
root@arm:~# echo 'GYKZ''GNGUVK'
GYKZGNGUVK
root@arm:~# MARKER='JGCU''OQXVNN' run 'i2cget -y -f 2 0x4b 0x12'
JGCUOQXVNN0x07
JGCUOQXVNN 0
root@arm:~# echo 'BGXO''UXWKBX'
BGXOUXWKBX
root@arm:~# MARKER='ELGV''OYKZJZ' run 'echo 780000 780000 > /sys/kernel/mva_test//regulators/buck3_set'
ELGVOYKZJZELGVOYKZJZ 0
root@arm:~# echo 'KBTV''GEXKQN'
KBTVGEXKQN
root@arm:~# MARKER='ZWEB''VSMNCK' run 'i2cget -y -f 2 0x4b 0x12'
ZWEBVSMNCK0x08
ZWEBVSMNCK 0
root@arm:~# echo 'YYYX''QXUWHG'
YYYXQXUWHG
root@arm:~# MARKER='QFLW''QZHCMT' run 'echo 790000 790000 > /sys/kernel/mva_test//regulators/buck3_set'
QFLWQZHCMTQFLWQZHCMT 0
root@arm:~# echo 'HYEJ''AGZKPQ'
HYEJAGZKPQ
root@arm:~# MARKER='UWBO''UMJZYW' run 'i2cget -y -f 2 0x4b 0x12'
UWBOUMJZYW0x09
UWBOUMJZYW 0
root@arm:~# echo 'TMHU''FVFOOL'
TMHUFVFOOL
root@arm:~# MARKER='QBXZ''MSLWWY' run 'echo 800000 800000 > /sys/kernel/mva_test//regulators/buck3_set'
QBXZMSLWWYQBXZMSLWWY 0
root@arm:~# echo 'QBEH''MWEASW'
QBEHMWEASW
root@arm:~# MARKER='AKBZ''EOEGMJ' run 'i2cget -y -f 2 0x4b 0x12'
AKBZEOEGMJ0x0a
AKBZEOEGMJ 0
root@arm:~# echo 'MGGJ''KEMETX'
MGGJKEMETX
root@arm:~# MARKER='GLMB''UXVHOT' run 'echo 810000 810000 > /sys/kernel/mva_test//regulators/buck3_set'
GLMBUXVHOTGLMBUXVHOT 0
root@arm:~# echo 'KKWP''OZPGCF'
KKWPOZPGCF
root@arm:~# MARKER='SOCY''KPXBUH' run 'i2cget -y -f 2 0x4b 0x12'
SOCYKPXBUH0x0b
SOCYKPXBUH 0
root@arm:~# echo 'OEXJ''EKWZSN'
OEXJEKWZSN
root@arm:~# MARKER='FUGU''ZSFSSQ' run 'echo 820000 820000 > /sys/kernel/mva_test//regulators/buck3_set'
FUGUZSFSSQFUGUZSFSSQ 0
root@arm:~# echo 'TVOB''CASVEG'
TVOBCASVEG
root@arm:~# MARKER='UJBU''KZABPB' run 'i2cget -y -f 2 0x4b 0x12'
UJBUKZABPB0x0c
UJBUKZABPB 0
root@arm:~# echo 'LHLN''KQBVYE'
LHLNKQBVYE
root@arm:~# MARKER='UQUT''PXBQTG' run 'echo 830000 830000 > /sys/kernel/mva_test//regulators/buck3_set'
UQUTPXBQTGUQUTPXBQTG 0
root@arm:~# echo 'GEEK''ZAKMOE'
GEEKZAKMOE
root@arm:~# MARKER='PZSF''NMYKQC' run 'i2cget -y -f 2 0x4b 0x12'
PZSFNMYKQC0x0d
PZSFNMYKQC 0
root@arm:~# echo 'UUJA''YBULMO'
UUJAYBULMO
root@arm:~# MARKER='JFEJ''EQXBQN' run 'echo 840000 840000 > /sys/kernel/mva_test//regulators/buck3_set'
JFEJEQXBQNJFEJEQXBQN 0
root@arm:~# echo 'HZUS''JQWFQT'
HZUSJQWFQT
root@arm:~# MARKER='BHPM''EQNMBY' run 'i2cget -y -f 2 0x4b 0x12'
BHPMEQNMBY0x0e
BHPMEQNMBY 0
root@arm:~# echo 'VEEW''QTMQNS'
VEEWQTMQNS
root@arm:~# MARKER='YAGV''FPZKGC' run 'echo 850000 850000 > /sys/kernel/mva_test//regulators/buck3_set'
YAGVFPZKGCYAGVFPZKGC 0
root@arm:~# echo 'ETYJ''MNLNWC'
ETYJMNLNWC
root@arm:~# MARKER='EMHL''LBLGXP' run 'i2cget -y -f 2 0x4b 0x12'
EMHLLBLGXP0x0f
EMHLLBLGXP 0
root@arm:~# echo 'MJWX''TVKSAE'
MJWXTVKSAE
root@arm:~# MARKER='OHBM''TNXGSN' run 'echo 860000 860000 > /sys/kernel/mva_test//regulators/buck3_set'
OHBMTNXGSNOHBMTNXGSN 0
root@arm:~# echo 'OYAQ''VLTHGB'
OYAQVLTHGB
root@arm:~# MARKER='QNCY''OAJPNP' run 'i2cget -y -f 2 0x4b 0x12'
QNCYOAJPNP0x10
QNCYOAJPNP 0
root@arm:~# echo 'JPJM''KATGFT'
JPJMKATGFT
root@arm:~# MARKER='CWNS''MSAAJA' run 'echo 870000 870000 > /sys/kernel/mva_test//regulators/buck3_set'
CWNSMSAAJACWNSMSAAJA 0
root@arm:~# echo 'GAOL''FKXSJC'
GAOLFKXSJC
root@arm:~# MARKER='BNEN''NOMBMV' run 'i2cget -y -f 2 0x4b 0x12'
BNENNOMBMV0x11
BNENNOMBMV 0
root@arm:~# echo 'AWKN''BQFKGG'
AWKNBQFKGG
root@arm:~# MARKER='VAZX''KPSNNL' run 'echo 880000 880000 > /sys/kernel/mva_test//regulators/buck3_set'
VAZXKPSNNLVAZXKPSNNL 0
root@arm:~# echo 'ALUF''NOMYGP'
ALUFNOMYGP
root@arm:~# MARKER='GJOP''UHBYHN' run 'i2cget -y -f 2 0x4b 0x12'
GJOPUHBYHN0x12
GJOPUHBYHN 0
root@arm:~# echo 'KOPT''SQEKTN'
KOPTSQEKTN
root@arm:~# MARKER='LHEE''PTQTGQ' run 'echo 890000 890000 > /sys/kernel/mva_test//regulators/buck3_set'
LHEEPTQTGQLHEEPTQTGQ 0
root@arm:~# echo 'NWBO''WMWLZQ'
NWBOWMWLZQ
root@arm:~# MARKER='KQFQ''MFZQPA' run 'i2cget -y -f 2 0x4b 0x12'
KQFQMFZQPA0x13
KQFQMFZQPA 0
root@arm:~# echo 'TTHY''TYJGBG'
TTHYTYJGBG
root@arm:~# MARKER='BQOT''LVHWXP' run 'echo 900000 900000 > /sys/kernel/mva_test//regulators/buck3_set'
BQOTLVHWXPBQOTLVHWXP 0
root@arm:~# echo 'KPAY''WBEECW'
KPAYWBEECW
root@arm:~# MARKER='HTOW''JCXHBW' run 'i2cget -y -f 2 0x4b 0x12'
HTOWJCXHBW0x14
HTOWJCXHBW 0
root@arm:~# echo 'SZXH''QMPEUE'
SZXHQMPEUE
root@arm:~# MARKER='ZWKJ''XXALEX' run 'echo 910000 910000 > /sys/kernel/mva_test//regulators/buck3_set'
ZWKJXXALEXZWKJXXALEX 0
root@arm:~# echo 'HNNM''PJAOSH'
HNNMPJAOSH
root@arm:~# MARKER='FNBO''QWCLYU' run 'i2cget -y -f 2 0x4b 0x12'
FNBOQWCLYU0x15
FNBOQWCLYU 0
root@arm:~# echo 'WPKA''LOFSAV'
WPKALOFSAV
root@arm:~# MARKER='BOZL''CHBWLN' run 'echo 920000 920000 > /sys/kernel/mva_test//regulators/buck3_set'
BOZLCHBWLNBOZLCHBWLN 0
root@arm:~# echo 'LUHF''WHVWMB'
LUHFWHVWMB
root@arm:~# MARKER='QLCY''MJFVNO' run 'i2cget -y -f 2 0x4b 0x12'
QLCYMJFVNO0x16
QLCYMJFVNO 0
root@arm:~# echo 'HONP''WJLYSN'
HONPWJLYSN
root@arm:~# MARKER='GOZY''SYBZLU' run 'echo 930000 930000 > /sys/kernel/mva_test//regulators/buck3_set'
GOZYSYBZLUGOZYSYBZLU 0
root@arm:~# echo 'NEZT''GPWPXP'
NEZTGPWPXP
root@arm:~# MARKER='LQXA''LQHGLX' run 'i2cget -y -f 2 0x4b 0x12'
LQXALQHGLX0x17
LQXALQHGLX 0
root@arm:~# echo 'OJWC''QPZJFW'
OJWCQPZJFW
root@arm:~# MARKER='JTXK''AWMCYU' run 'echo 940000 940000 > /sys/kernel/mva_test//regulators/buck3_set'
JTXKAWMCYUJTXKAWMCYU 0
root@arm:~# echo 'XOOU''MZWCFA'
XOOUMZWCFA
root@arm:~# MARKER='AULO''HSVTVA' run 'i2cget -y -f 2 0x4b 0x12'
AULOHSVTVA0x18
AULOHSVTVA 0
root@arm:~# echo 'LHZJ''VFGSLX'
LHZJVFGSLX
root@arm:~# MARKER='EOWT''JHQQSG' run 'echo 950000 950000 > /sys/kernel/mva_test//regulators/buck3_set'
EOWTJHQQSGEOWTJHQQSG 0
root@arm:~# echo 'BTBA''TXFKUQ'
BTBATXFKUQ
root@arm:~# MARKER='MQQS''VYYLTO' run 'i2cget -y -f 2 0x4b 0x12'
MQQSVYYLTO0x19
MQQSVYYLTO 0
root@arm:~# echo 'QFAW''WWJGEK'
QFAWWWJGEK
root@arm:~# MARKER='PNVA''GOLYPT' run 'echo 960000 960000 > /sys/kernel/mva_test//regulators/buck3_set'
PNVAGOLYPTPNVAGOLYPT 0
root@arm:~# echo 'YLOE''KLMBFO'
YLOEKLMBFO
root@arm:~# MARKER='MCQS''LBMUCM' run 'i2cget -y -f 2 0x4b 0x12'
MCQSLBMUCM0x1a
MCQSLBMUCM 0
root@arm:~# echo 'OUEO''ANKUMT'
OUEOANKUMT
root@arm:~# MARKER='OLAT''FBXYKN' run 'echo 970000 970000 > /sys/kernel/mva_test//regulators/buck3_set'
OLATFBXYKNOLATFBXYKN 0
root@arm:~# echo 'CJNS''TKSJVH'
CJNSTKSJVH
root@arm:~# MARKER='FGFC''UFYQUN' run 'i2cget -y -f 2 0x4b 0x12'
FGFCUFYQUN0x1b
FGFCUFYQUN 0
root@arm:~# echo 'CEMC''GGFLFZ'
CEMCGGFLFZ
root@arm:~# MARKER='BESN''LGSJAJ' run 'echo 980000 980000 > /sys/kernel/mva_test//regulators/buck3_set'
BESNLGSJAJBESNLGSJAJ 0
root@arm:~# echo 'HFAB''KSNCGS'
HFABKSNCGS
root@arm:~# MARKER='XXZQ''JOYCNK' run 'i2cget -y -f 2 0x4b 0x12'
XXZQJOYCNK0x1c
XXZQJOYCNK 0
root@arm:~# echo 'ZPST''ANOJXV'
ZPSTANOJXV
root@arm:~# MARKER='YJWP''BZBFMQ' run 'echo 990000 990000 > /sys/kernel/mva_test//regulators/buck3_set'
YJWPBZBFMQYJWPBZBFMQ 0
root@arm:~# echo 'KAZX''KECGBX'
KAZXKECGBX
root@arm:~# MARKER='CLWQ''AFXEBH' run 'i2cget -y -f 2 0x4b 0x12'
CLWQAFXEBH0x1d
CLWQAFXEBH 0
root@arm:~# echo 'BEUF''GCZNKX'
BEUFGCZNKX
root@arm:~# MARKER='EMPX''FVKVHG' run 'echo 1000000 1000000 > /sys/kernel/mva_tesst/regulators/buck3_set'
EMPXFVKVHGEMPXFVKVHG 0
root@arm:~# echo 'GVAO''HYELQF'
GVAOHYELQF
root@arm:~# MARKER='AFFO''YYNWAH' run 'i2cget -y -f 2 0x4b 0x12'
AFFOYYNWAH0x1e
AFFOYYNWAH 0
root@arm:~# echo 'SSQK''MUAMMZ'
SSQKMUAMMZ
root@arm:~# MARKER='QKLX''QZUEWW' run 'echo 1010000 1010000 > /sys/kernel/mva_tesst/regulators/buck3_set'
QKLXQZUEWWQKLXQZUEWW 0
root@arm:~# echo 'MEXN''GLUXYN'
MEXNGLUXYN
root@arm:~# MARKER='ZMQZ''YXCLST' run 'i2cget -y -f 2 0x4b 0x12'
ZMQZYXCLST0x1f
ZMQZYXCLST 0
root@arm:~# echo 'NYFF''CVYOVV'
NYFFCVYOVV
root@arm:~# MARKER='SUOV''KBLOSP' run 'echo 1020000 1020000 > /sys/kernel/mva_tesst/regulators/buck3_set'
SUOVKBLOSPSUOVKBLOSP 0
root@arm:~# echo 'SPZK''XEFKBC'
SPZKXEFKBC
root@arm:~# MARKER='JKNM''JQQYKV' run 'i2cget -y -f 2 0x4b 0x12'
JKNMJQQYKV0x20
JKNMJQQYKV 0
root@arm:~# echo 'YTNN''FXFTJZ'
YTNNFXFTJZ
root@arm:~# MARKER='SQGM''WYXYYB' run 'echo 1030000 1030000 > /sys/kernel/mva_tesst/regulators/buck3_set'
SQGMWYXYYBSQGMWYXYYB 0
root@arm:~# echo 'LSOS''BHMJEJ'
LSOSBHMJEJ
root@arm:~# MARKER='NNXH''HSXMVY' run 'i2cget -y -f 2 0x4b 0x12'
NNXHHSXMVY0x21
NNXHHSXMVY 0
root@arm:~# echo 'ZJWG''OLBLLA'
ZJWGOLBLLA
root@arm:~# MARKER='JNXW''ZXMEWX' run 'echo 1040000 1040000 > /sys/kernel/mva_tesst/regulators/buck3_set'
JNXWZXMEWXJNXWZXMEWX 0
root@arm:~# echo 'EVYN''QYWZGG'
EVYNQYWZGG
root@arm:~# MARKER='ELMW''GFJMYN' run 'i2cget -y -f 2 0x4b 0x12'
ELMWGFJMYN0x22
ELMWGFJMYN 0
root@arm:~# echo 'WAQV''BWJHXN'
WAQVBWJHXN
root@arm:~# MARKER='YJJB''MKOLZW' run 'echo 1050000 1050000 > /sys/kernel/mva_tesst/regulators/buck3_set'
YJJBMKOLZWYJJBMKOLZW 0
root@arm:~# echo 'HFTC''OOCBGM'
HFTCOOCBGM
root@arm:~# MARKER='VYPA''YZLVBV' run 'i2cget -y -f 2 0x4b 0x12'
VYPAYZLVBV0x23
VYPAYZLVBV 0
root@arm:~# echo 'VZFW''VFUAFC'
VZFWVFUAFC
root@arm:~# MARKER='BPOV''SNNHQU' run 'echo 1060000 1060000 > /sys/kernel/mva_tesst/regulators/buck3_set'
BPOVSNNHQUBPOVSNNHQU 0
root@arm:~# echo 'QCLL''VFUTPO'
QCLLVFUTPO
root@arm:~# MARKER='ZTAY''FQHCQO' run 'i2cget -y -f 2 0x4b 0x12'
ZTAYFQHCQO0x24
ZTAYFQHCQO 0
root@arm:~# echo 'TCMP''KTJJSF'
TCMPKTJJSF
root@arm:~# MARKER='KFUC''FKBPCC' run 'echo 1070000 1070000 > /sys/kernel/mva_tesst/regulators/buck3_set'
KFUCFKBPCCKFUCFKBPCC 0
root@arm:~# echo 'PBYC''CZPQZL'
PBYCCZPQZL
root@arm:~# MARKER='UQYQ''XLNMJT' run 'i2cget -y -f 2 0x4b 0x12'
UQYQXLNMJT0x25
UQYQXLNMJT 0
root@arm:~# echo 'STJW''YAAPHT'
STJWYAAPHT
root@arm:~# MARKER='QLZC''QLGMFW' run 'echo 1080000 1080000 > /sys/kernel/mva_tesst/regulators/buck3_set'
QLZCQLGMFWQLZCQLGMFW 0
root@arm:~# echo 'UQUG''WXEYJW'
UQUGWXEYJW
root@arm:~# MARKER='JTQU''ECHBKQ' run 'i2cget -y -f 2 0x4b 0x12'
JTQUECHBKQ0x26
JTQUECHBKQ 0
root@arm:~# echo 'EWMM''GYNLKC'
EWMMGYNLKC
root@arm:~# MARKER='NNQP''UKXOAA' run 'echo 1090000 1090000 > /sys/kernel/mva_tesst/regulators/buck3_set'
NNQPUKXOAANNQPUKXOAA 0
root@arm:~# echo 'AVCS''LKGUGB'
AVCSLKGUGB
root@arm:~# MARKER='EZXS''AZXVEA' run 'i2cget -y -f 2 0x4b 0x12'
EZXSAZXVEA0x27
EZXSAZXVEA 0
root@arm:~# echo 'FPNC''PQBMQG'
FPNCPQBMQG
root@arm:~# MARKER='WLFZ''GAZMQU' run 'echo 1100000 1100000 > /sys/kernel/mva_tesst/regulators/buck3_set'
WLFZGAZMQUWLFZGAZMQU 0
root@arm:~# echo 'WUSN''WXOWEZ'
WUSNWXOWEZ
root@arm:~# MARKER='FCFB''SJCPZK' run 'i2cget -y -f 2 0x4b 0x12'
FCFBSJCPZK0x28
FCFBSJCPZK 0
root@arm:~# echo 'HPEM''GGABVO'
HPEMGGABVO
root@arm:~# MARKER='SLVJ''OJAYOY' run 'echo 1110000 1110000 > /sys/kernel/mva_tesst/regulators/buck3_set'
SLVJOJAYOYSLVJOJAYOY 0
root@arm:~# echo 'AOZC''GZVOXU'
AOZCGZVOXU
root@arm:~# MARKER='TEBN''PUNVAM' run 'i2cget -y -f 2 0x4b 0x12'
TEBNPUNVAM0x29
TEBNPUNVAM 0
root@arm:~# echo 'JPLY''GHOVOL'
JPLYGHOVOL
root@arm:~# MARKER='HAOO''HYMCPJ' run 'echo 1120000 1120000 > /sys/kernel/mva_tesst/regulators/buck3_set'
HAOOHYMCPJHAOOHYMCPJ 0
root@arm:~# echo 'HHQZ''WQVQNP'
HHQZWQVQNP
root@arm:~# MARKER='TXKW''ZZEWYM' run 'i2cget -y -f 2 0x4b 0x12'
TXKWZZEWYM0x2a
TXKWZZEWYM 0
root@arm:~# echo 'AMQP''PKUMLE'
AMQPPKUMLE
root@arm:~# MARKER='YLMN''HFUZQN' run 'echo 1130000 1130000 > /sys/kernel/mva_tesst/regulators/buck3_set'
YLMNHFUZQNYLMNHFUZQN 0
root@arm:~# echo 'PJFJ''XPOUSP'
PJFJXPOUSP
root@arm:~# MARKER='ZMEW''AHTOWX' run 'i2cget -y -f 2 0x4b 0x12'
ZMEWAHTOWX0x2b
ZMEWAHTOWX 0
root@arm:~# echo 'KLZS''PVBGVQ'
KLZSPVBGVQ
root@arm:~# MARKER='KJNM''XFXTHF' run 'echo 1140000 1140000 > /sys/kernel/mva_tesst/regulators/buck3_set'
KJNMXFXTHFKJNMXFXTHF 0
root@arm:~# echo 'ESAA''WHXXWE'
ESAAWHXXWE
root@arm:~# MARKER='OAOL''KGMWOZ' run 'i2cget -y -f 2 0x4b 0x12'
OAOLKGMWOZ0x2c
OAOLKGMWOZ 0
root@arm:~# echo 'MJTA''SLNLXB'
MJTASLNLXB
root@arm:~# MARKER='YUZB''TKCKQF' run 'echo 1150000 1150000 > /sys/kernel/mva_tesst/regulators/buck3_set'
YUZBTKCKQFYUZBTKCKQF 0
root@arm:~# echo 'OGZG''OOUOPX'
OGZGOOUOPX
root@arm:~# MARKER='HGEN''MKHYNN' run 'i2cget -y -f 2 0x4b 0x12'
HGENMKHYNN0x2d
HGENMKHYNN 0
root@arm:~# echo 'JLUH''XWOZWU'
JLUHXWOZWU
root@arm:~# MARKER='ELES''HJXSEX' run 'echo 1160000 1160000 > /sys/kernel/mva_tesst/regulators/buck3_set'
ELESHJXSEXELESHJXSEX 0
root@arm:~# echo 'QSHN''NBFBBM'
QSHNNBFBBM
root@arm:~# MARKER='GQTL''KBVXNY' run 'i2cget -y -f 2 0x4b 0x12'
GQTLKBVXNY0x2e
GQTLKBVXNY 0
root@arm:~# echo 'XUHV''EWTVMM'
XUHVEWTVMM
root@arm:~# MARKER='SFJX''GHOPVW' run 'echo 1170000 1170000 > /sys/kernel/mva_tesst/regulators/buck3_set'
SFJXGHOPVWSFJXGHOPVW 0
root@arm:~# echo 'GLPY''MZXUTB'
GLPYMZXUTB
root@arm:~# MARKER='FCLG''YCQLKL' run 'i2cget -y -f 2 0x4b 0x12'
FCLGYCQLKL0x2f
FCLGYCQLKL 0
root@arm:~# echo 'HJAA''LWTEGQ'
HJAALWTEGQ
root@arm:~# MARKER='ABNH''XAMPTQ' run 'echo 1180000 1180000 > /sys/kernel/mva_tesst/regulators/buck3_set'
ABNHXAMPTQABNHXAMPTQ 0
root@arm:~# echo 'FCPW''QEBVKW'
FCPWQEBVKW
root@arm:~# MARKER='WSSG''YQNFCT' run 'i2cget -y -f 2 0x4b 0x12'
WSSGYQNFCT0x30
WSSGYQNFCT 0
root@arm:~# echo 'YOSL''GYZUYA'
YOSLGYZUYA
root@arm:~# MARKER='MQPC''YNLGMO' run 'echo 1190000 1190000 > /sys/kernel/mva_tesst/regulators/buck3_set'
MQPCYNLGMOMQPCYNLGMO 0
root@arm:~# echo 'TESA''XWFUFT'
TESAXWFUFT
root@arm:~# MARKER='EZFN''BZKMQP' run 'i2cget -y -f 2 0x4b 0x12'
EZFNBZKMQP0x31
EZFNBZKMQP 0
root@arm:~# echo 'SNCZ''EEEOPX'
SNCZEEEOPX
root@arm:~# MARKER='JGGC''TCPUXK' run 'echo 1200000 1200000 > /sys/kernel/mva_tesst/regulators/buck3_set'
JGGCTCPUXKJGGCTCPUXK 0
root@arm:~# echo 'YZKC''YTWYAO'
YZKCYTWYAO
root@arm:~# MARKER='YUZU''EBGEEW' run 'i2cget -y -f 2 0x4b 0x12'
YUZUEBGEEW0x32
YUZUEBGEEW 0
root@arm:~# echo 'UPNH''JJACAK'
UPNHJJACAK
root@arm:~# MARKER='ELZO''SXSZWS' run 'echo 1210000 1210000 > /sys/kernel/mva_tesst/regulators/buck3_set'
ELZOSXSZWSELZOSXSZWS 0
root@arm:~# echo 'OKBO''CHUHFT'
OKBOCHUHFT
root@arm:~# MARKER='SYLO''EENECM' run 'i2cget -y -f 2 0x4b 0x12'
SYLOEENECM0x33
SYLOEENECM 0
root@arm:~# echo 'HBEA''KJJNAA'
HBEAKJJNAA
root@arm:~# MARKER='EMVX''XLZLTT' run 'echo 1220000 1220000 > /sys/kernel/mva_tesst/regulators/buck3_set'
EMVXXLZLTTEMVXXLZLTT 0
root@arm:~# echo 'JMLK''GBUMQE'
JMLKGBUMQE
root@arm:~# MARKER='LYTH''MBZTGT' run 'i2cget -y -f 2 0x4b 0x12'
LYTHMBZTGT0x34
LYTHMBZTGT 0
root@arm:~# echo 'WWXH''QUMELP'
WWXHQUMELP
root@arm:~# MARKER='XXXE''TFBQEW' run 'echo 1230000 1230000 > /sys/kernel/mva_tesst/regulators/buck3_set'
XXXETFBQEWXXXETFBQEW 0
root@arm:~# echo 'MWFW''LQUHKZ'
MWFWLQUHKZ
root@arm:~# MARKER='JOYB''CLLPXK' run 'i2cget -y -f 2 0x4b 0x12'
JOYBCLLPXK0x35
JOYBCLLPXK 0
root@arm:~# echo 'AQGJ''BMWLGV'
AQGJBMWLGV
root@arm:~# MARKER='UTPQ''AJLJXZ' run 'echo 1240000 1240000 > /sys/kernel/mva_tesst/regulators/buck3_set'
UTPQAJLJXZUTPQAJLJXZ 0
root@arm:~# echo 'NVNT''FGOXKW'
NVNTFGOXKW
root@arm:~# MARKER='JXYL''SSPKPZ' run 'i2cget -y -f 2 0x4b 0x12'
JXYLSSPKPZ0x36
JXYLSSPKPZ 0
root@arm:~# echo 'HANQ''FLXHFC'
HANQFLXHFC
root@arm:~# MARKER='PMLC''OJWEMQ' run 'echo 1250000 1250000 > /sys/kernel/mva_tesst/regulators/buck3_set'
PMLCOJWEMQPMLCOJWEMQ 0
root@arm:~# echo 'NBJQ''PZPSWH'
NBJQPZPSWH
root@arm:~# MARKER='VEFN''YFNHXO' run 'i2cget -y -f 2 0x4b 0x12'
VEFNYFNHXO0x37
VEFNYFNHXO 0
root@arm:~# echo 'NKEV''OJMHSS'
NKEVOJMHSS
root@arm:~# MARKER='KSOK''LZUYAF' run 'echo 1260000 1260000 > /sys/kernel/mva_tesst/regulators/buck3_set'
KSOKLZUYAFKSOKLZUYAF 0
root@arm:~# echo 'FKOZ''NMQPBJ'
FKOZNMQPBJ
root@arm:~# MARKER='ASHK''BMKNEG' run 'i2cget -y -f 2 0x4b 0x12'
ASHKBMKNEG0x38
ASHKBMKNEG 0
root@arm:~# echo 'VXEB''VAEEAC'
VXEBVAEEAC
root@arm:~# MARKER='JJSC''ONFWTM' run 'echo 1270000 1270000 > /sys/kernel/mva_tesst/regulators/buck3_set'
JJSCONFWTMJJSCONFWTM 0
root@arm:~# echo 'VKPS''MUQQXS'
VKPSMUQQXS
root@arm:~# MARKER='TEXU''QBGLCM' run 'i2cget -y -f 2 0x4b 0x12'
TEXUQBGLCM0x39
TEXUQBGLCM 0
root@arm:~# echo 'YLLV''XMEOCH'
YLLVXMEOCH
root@arm:~# MARKER='WKUT''HAASAC' run 'echo 1280000 1280000 > /sys/kernel/mva_tesst/regulators/buck3_set'
WKUTHAASACWKUTHAASAC 0
root@arm:~# echo 'VWZQ''GYYZYM'
VWZQGYYZYM
root@arm:~# MARKER='TEGO''UKJVSC' run 'i2cget -y -f 2 0x4b 0x12'
TEGOUKJVSC0x3a
TEGOUKJVSC 0
root@arm:~# echo 'PLMA''OZVHAX'
PLMAOZVHAX
root@arm:~# MARKER='KFXX''TWXTTX' run 'echo 1290000 1290000 > /sys/kernel/mva_tesst/regulators/buck3_set'
KFXXTWXTTXKFXXTWXTTX 0
root@arm:~# echo 'SVFF''YHSQBS'
SVFFYHSQBS
root@arm:~# MARKER='NGSG''GOCLGN' run 'i2cget -y -f 2 0x4b 0x12'
NGSGGOCLGN0x3b
NGSGGOCLGN 0
root@arm:~# echo 'UJYA''JBYKYB'
UJYAJBYKYB
root@arm:~# MARKER='TEQJ''NEBLTZ' run 'echo 1300000 1300000 > /sys/kernel/mva_tesst/regulators/buck3_set'
TEQJNEBLTZTEQJNEBLTZ 0
root@arm:~# echo 'TZEA''OYVOBQ'
TZEAOYVOBQ
root@arm:~# MARKER='QJGU''MOZMAE' run 'i2cget -y -f 2 0x4b 0x12'
QJGUMOZMAE0x3c
QJGUMOZMAE 0
root@arm:~# echo 'JFOQ''QTPKLA'
JFOQQTPKLA
root@arm:~# MARKER='TMTJ''HPAXKS' run 'grep -r -l rohm,bd71837 /proc/device-tree  | sed '"'"'s![^/]*$!!'"'"''
TMTJHPAXKS/proc/device-tree/ocp/interconnect@48000000/segment@100000/target-module@9c000/i2c@0/pmic@4b/
TMTJHPAXKS 0
root@arm:~# echo 'FUFZ''OHTXXZ'
FUFZOHTXXZ
root@arm:~# MARKER='MKVX''EEHPFZ' run 'test -f /proc/device-tree/ocp/interconnectt\@48000000/segment\@100000/target-module\@9c000/i2c\@0/pmic\@4b/regulators/BUCK44/rohm,no-regulator-enable-control ;echo $?'
MKVXEEHPFZ1
MKVXEEHPFZ 0
root@arm:~# echo 'ABGM''KOXCZZ'
ABGMKOXCZZ
root@arm:~# MARKER='WNFE''TKMGUQ' run 'i2cget -y -f 2 0x4b 0x8'
WNFETKMGUQ0xc6
WNFETKMGUQ 0
root@arm:~# echo 'NWZT''AABPEH'
NWZTAABPEH
root@arm:~# MARKER='MLBV''BBWCGB' run 'echo 700000 700000 > /sys/kernel/mva_test//regulators/buck4_set'
MLBVBBWCGBMLBVBBWCGB 0
root@arm:~# echo 'GECV''ZMYGLW'
GECVZMYGLW
root@arm:~# MARKER='JTVB''GJEOAS' run 'i2cget -y -f 2 0x4b 0x13'
JTVBGJEOAS0x00
JTVBGJEOAS 0
root@arm:~# echo 'MJLH''FWHTWP'
MJLHFWHTWP
root@arm:~# MARKER='TAXZ''WSBQHH' run 'echo 710000 710000 > /sys/kernel/mva_test//regulators/buck4_set'
TAXZWSBQHHTAXZWSBQHH 0
root@arm:~# echo 'KEYX''XUTVTV'
KEYXXUTVTV
root@arm:~# MARKER='ZFVZ''JXGBEM' run 'i2cget -y -f 2 0x4b 0x13'
ZFVZJXGBEM0x01
ZFVZJXGBEM 0
root@arm:~# echo 'JSKC''SJZCEV'
JSKCSJZCEV
root@arm:~# MARKER='BBJZ''ULCNCA' run 'echo 720000 720000 > /sys/kernel/mva_test//regulators/buck4_set'
BBJZULCNCABBJZULCNCA 0
root@arm:~# echo 'OHOY''OZVPLU'
OHOYOZVPLU
root@arm:~# MARKER='OSEB''TQOVHS' run 'i2cget -y -f 2 0x4b 0x13'
OSEBTQOVHS0x02
OSEBTQOVHS 0
root@arm:~# echo 'NJCF''JSHYPY'
NJCFJSHYPY
root@arm:~# MARKER='QPKJ''FJJBLB' run 'echo 730000 730000 > /sys/kernel/mva_test//regulators/buck4_set'
QPKJFJJBLBQPKJFJJBLB 0
root@arm:~# echo 'NHWN''AYBEQT'
NHWNAYBEQT
root@arm:~# MARKER='VNUM''WCJNSO' run 'i2cget -y -f 2 0x4b 0x13'
VNUMWCJNSO0x03
VNUMWCJNSO 0
root@arm:~# echo 'JMHY''AXYXET'
JMHYAXYXET
root@arm:~# MARKER='GJYB''EVWHVV' run 'echo 740000 740000 > /sys/kernel/mva_test//regulators/buck4_set'
GJYBEVWHVVGJYBEVWHVV 0
root@arm:~# echo 'KJTJ''QQHXTJ'
KJTJQQHXTJ
root@arm:~# MARKER='HZYJ''WLTUMQ' run 'i2cget -y -f 2 0x4b 0x13'
HZYJWLTUMQ0x04
HZYJWLTUMQ 0
root@arm:~# echo 'MLMO''HFYUVX'
MLMOHFYUVX
root@arm:~# MARKER='EUCQ''BNYFUC' run 'echo 750000 750000 > /sys/kernel/mva_test//regulators/buck4_set'
EUCQBNYFUCEUCQBNYFUC 0
root@arm:~# echo 'KMJC''ZVVUZH'
KMJCZVVUZH
root@arm:~# MARKER='AQEF''QSSWOW' run 'i2cget -y -f 2 0x4b 0x13'
AQEFQSSWOW0x05
AQEFQSSWOW 0
root@arm:~# echo 'PUBW''TCNAFF'
PUBWTCNAFF
root@arm:~# MARKER='EJUP''JZXXCK' run 'echo 760000 760000 > /sys/kernel/mva_test//regulators/buck4_set'
EJUPJZXXCKEJUPJZXXCK 0
root@arm:~# echo 'TGEX''UTOSGE'
TGEXUTOSGE
root@arm:~# MARKER='HPJO''QQPBOA' run 'i2cget -y -f 2 0x4b 0x13'
HPJOQQPBOA0x06
HPJOQQPBOA 0
root@arm:~# echo 'OTMW''XEWKLS'
OTMWXEWKLS
root@arm:~# MARKER='WJAP''OJFPVO' run 'echo 770000 770000 > /sys/kernel/mva_test//regulators/buck4_set'
WJAPOJFPVOWJAPOJFPVO 0
root@arm:~# echo 'ACYU''QUZNJB'
ACYUQUZNJB
root@arm:~# MARKER='EVLY''YFASEG' run 'i2cget -y -f 2 0x4b 0x13'
EVLYYFASEG0x07
EVLYYFASEG 0
root@arm:~# echo 'ETKU''UCSGNG'
ETKUUCSGNG
root@arm:~# MARKER='LCGS''AFSAVH' run 'echo 780000 780000 > /sys/kernel/mva_test//regulators/buck4_set'
LCGSAFSAVHLCGSAFSAVH 0
root@arm:~# echo 'HOUB''TOZGNO'
HOUBTOZGNO
root@arm:~# MARKER='JKLP''TJUFUQ' run 'i2cget -y -f 2 0x4b 0x13'
JKLPTJUFUQ0x08
JKLPTJUFUQ 0
root@arm:~# echo 'NJVF''PNGETB'
NJVFPNGETB
root@arm:~# MARKER='MNWT''QBNUAC' run 'echo 790000 790000 > /sys/kernel/mva_test//regulators/buck4_set'
MNWTQBNUACMNWTQBNUAC 0
root@arm:~# echo 'EOGP''AUXLOG'
EOGPAUXLOG
root@arm:~# MARKER='SVUO''EBWNAQ' run 'i2cget -y -f 2 0x4b 0x13'
SVUOEBWNAQ0x09
SVUOEBWNAQ 0
root@arm:~# echo 'GFCN''COGLUH'
GFCNCOGLUH
root@arm:~# MARKER='VLPY''FCLNKH' run 'echo 800000 800000 > /sys/kernel/mva_test//regulators/buck4_set'
VLPYFCLNKHVLPYFCLNKH 0
root@arm:~# echo 'FWAB''YXWOZF'
FWABYXWOZF
root@arm:~# MARKER='MMYH''CUBFFB' run 'i2cget -y -f 2 0x4b 0x13'
MMYHCUBFFB0x0a
MMYHCUBFFB 0
root@arm:~# echo 'YTQO''ETWCGV'
YTQOETWCGV
root@arm:~# MARKER='TGLW''YKOWOL' run 'echo 810000 810000 > /sys/kernel/mva_test//regulators/buck4_set'
TGLWYKOWOLTGLWYKOWOL 0
root@arm:~# echo 'WVFT''JWBLJQ'
WVFTJWBLJQ
root@arm:~# MARKER='QBJU''YHZJFE' run 'i2cget -y -f 2 0x4b 0x13'
QBJUYHZJFE0x0b
QBJUYHZJFE 0
root@arm:~# echo 'EHFL''OHJVEK'
EHFLOHJVEK
root@arm:~# MARKER='QGYC''XMEWMO' run 'echo 820000 820000 > /sys/kernel/mva_test//regulators/buck4_set'
QGYCXMEWMOQGYCXMEWMO 0
root@arm:~# echo 'UHUG''UFZHBM'
UHUGUFZHBM
root@arm:~# MARKER='HZWF''QCSZAH' run 'i2cget -y -f 2 0x4b 0x13'
HZWFQCSZAH0x0c
HZWFQCSZAH 0
root@arm:~# echo 'GOGK''JTSCCO'
GOGKJTSCCO
root@arm:~# MARKER='OOMT''JWTJLN' run 'echo 830000 830000 > /sys/kernel/mva_test//regulators/buck4_set'
OOMTJWTJLNOOMTJWTJLN 0
root@arm:~# echo 'BQSU''PKQOHN'
BQSUPKQOHN
root@arm:~# MARKER='SJQV''LTMHMC' run 'i2cget -y -f 2 0x4b 0x13'
SJQVLTMHMC0x0d
SJQVLTMHMC 0
root@arm:~# echo 'TBON''YVGECZ'
TBONYVGECZ
root@arm:~# MARKER='EMNA''JBMOBL' run 'echo 840000 840000 > /sys/kernel/mva_test//regulators/buck4_set'
EMNAJBMOBLEMNAJBMOBL 0
root@arm:~# echo 'MGHZ''FKANAT'
MGHZFKANAT
root@arm:~# MARKER='TGQH''VQPOVO' run 'i2cget -y -f 2 0x4b 0x13'
TGQHVQPOVO0x0e
TGQHVQPOVO 0
root@arm:~# echo 'TSFE''NAYYMQ'
TSFENAYYMQ
root@arm:~# MARKER='PEAY''ZOBWQQ' run 'echo 850000 850000 > /sys/kernel/mva_test//regulators/buck4_set'
PEAYZOBWQQPEAYZOBWQQ 0
root@arm:~# echo 'SXCN''MFQBSH'
SXCNMFQBSH
root@arm:~# MARKER='FQVX''PVKHBL' run 'i2cget -y -f 2 0x4b 0x13'
FQVXPVKHBL0x0f
FQVXPVKHBL 0
root@arm:~# echo 'UQGT''JQYLVL'
UQGTJQYLVL
root@arm:~# MARKER='MLQY''GMHAUQ' run 'echo 860000 860000 > /sys/kernel/mva_test//regulators/buck4_set'
MLQYGMHAUQMLQYGMHAUQ 0
root@arm:~# echo 'VCXZ''XJXOET'
VCXZXJXOET
root@arm:~# MARKER='YGPW''MHUFAU' run 'i2cget -y -f 2 0x4b 0x13'
YGPWMHUFAU0x10
YGPWMHUFAU 0
root@arm:~# echo 'MASP''WSTXWV'
MASPWSTXWV
root@arm:~# MARKER='MSYT''VTSZTO' run 'echo 870000 870000 > /sys/kernel/mva_test//regulators/buck4_set'
MSYTVTSZTOMSYTVTSZTO 0
root@arm:~# echo 'JBOM''UPXWUK'
JBOMUPXWUK
root@arm:~# MARKER='ECGY''WAXVUE' run 'i2cget -y -f 2 0x4b 0x13'
ECGYWAXVUE0x11
ECGYWAXVUE 0
root@arm:~# echo 'WNLY''LAFGBZ'
WNLYLAFGBZ
root@arm:~# MARKER='NPEV''PACQSB' run 'echo 880000 880000 > /sys/kernel/mva_test//regulators/buck4_set'
NPEVPACQSBNPEVPACQSB 0
root@arm:~# echo 'NKZM''CLUNKZ'
NKZMCLUNKZ
root@arm:~# MARKER='NAXO''TXAJTH' run 'i2cget -y -f 2 0x4b 0x13'
NAXOTXAJTH0x12
NAXOTXAJTH 0
root@arm:~# echo 'XFWP''MJTMWJ'
XFWPMJTMWJ
root@arm:~# MARKER='NMAT''JBGBNQ' run 'echo 890000 890000 > /sys/kernel/mva_test//regulators/buck4_set'
NMATJBGBNQNMATJBGBNQ 0
root@arm:~# echo 'ZYMY''CFCGUW'
ZYMYCFCGUW
root@arm:~# MARKER='POZU''QKGUTE' run 'i2cget -y -f 2 0x4b 0x13'
POZUQKGUTE0x13
POZUQKGUTE 0
root@arm:~# echo 'XPSG''FPCAXH'
XPSGFPCAXH
root@arm:~# MARKER='KQGS''QVOFMS' run 'echo 900000 900000 > /sys/kernel/mva_test//regulators/buck4_set'
KQGSQVOFMSKQGSQVOFMS 0
root@arm:~# echo 'EFUF''BJKPLM'
EFUFBJKPLM
root@arm:~# MARKER='JWPG''BYFAZJ' run 'i2cget -y -f 2 0x4b 0x13'
JWPGBYFAZJ0x14
JWPGBYFAZJ 0
root@arm:~# echo 'BOPF''XJAMSX'
BOPFXJAMSX
root@arm:~# MARKER='EGJB''TEAMFV' run 'echo 910000 910000 > /sys/kernel/mva_test//regulators/buck4_set'
EGJBTEAMFVEGJBTEAMFV 0
root@arm:~# echo 'GGYX''ESPWWG'
GGYXESPWWG
root@arm:~# MARKER='KTYM''HOHULZ' run 'i2cget -y -f 2 0x4b 0x13'
KTYMHOHULZ0x15
KTYMHOHULZ 0
root@arm:~# echo 'LXEJ''TMGBQH'
LXEJTMGBQH
root@arm:~# MARKER='ZPZS''TVNAUT' run 'echo 920000 920000 > /sys/kernel/mva_test//regulators/buck4_set'
ZPZSTVNAUTZPZSTVNAUT 0
root@arm:~# echo 'EJNF''GZVCQV'
EJNFGZVCQV
root@arm:~# MARKER='VLJF''EOAPZL' run 'i2cget -y -f 2 0x4b 0x13'
VLJFEOAPZL0x16
VLJFEOAPZL 0
root@arm:~# echo 'FOYL''TYPWOU'
FOYLTYPWOU
root@arm:~# MARKER='WOBY''NTZTWX' run 'echo 930000 930000 > /sys/kernel/mva_test//regulators/buck4_set'
WOBYNTZTWXWOBYNTZTWX 0
root@arm:~# echo 'NNNT''CCSSAT'
NNNTCCSSAT
root@arm:~# MARKER='WZXQ''SJJQCP' run 'i2cget -y -f 2 0x4b 0x13'
WZXQSJJQCP0x17
WZXQSJJQCP 0
root@arm:~# echo 'GFTE''JXXJOK'
GFTEJXXJOK
