Labgrid Console Logfile for main
Logfile started at 2025-11-14 16:26:06.648184
=== Log starts here ===

root@arm:~# run() { echo -n "$MARKER"; sh -c "$@"; echo "$MARKER $?"; }
root@arm:~# echo 'USTT''YNLEQS'
USTTYNLEQS
root@arm:~# MARKER='VMCE''OXCNEM' run 'grep -r -l rohm,bd71837 /proc/device-tree  | sed '"'"'s![^/]*$!!'"'"''
VMCEOXCNEM/proc/device-tree/ocp/interconnect@48000000/segment@100000/target-module@9c000/i2c@0/pmic@4b/
VMCEOXCNEM 0
root@arm:~# echo 'QJKY''EVNOJU'
QJKYEVNOJU
root@arm:~# MARKER='QPVV''KPPLJU' run 'test -f /proc/device-tree/ocp/interconnectt\@48000000/segment\@100000/target-module\@9c000/i2c\@0/pmic\@4b/regulators/BUCK11/rohm,no-regulator-enable-control ;echo $?'
QPVVKPPLJU1
QPVVKPPLJU 0
root@arm:~# echo 'NJHC''WOTOEQ'
NJHCWOTOEQ
root@arm:~# MARKER='QATY''CSTBEW' run 'echo 1 > /sys/kernel/mva_test/regulators/bbuck1_en'
QATYCSTBEWQATYCSTBEW 0
root@arm:~# echo 'PNPY''OXHKUV'
PNPYOXHKUV
root@arm:~# MARKER='QSCO''EMMEBO' run 'i2cget -y -f 2 0x4b 0x5'
QSCOEMMEBO0x03
QSCOEMMEBO 0
root@arm:~# echo 'JFCM''ZONPEN'
JFCMZONPEN
root@arm:~# MARKER='KYVQ''JKHYSY' run 'grep -r -l rohm,bd71837 /proc/device-tree  | sed '"'"'s![^/]*$!!'"'"''
KYVQJKHYSY/proc/device-tree/ocp/interconnect@48000000/segment@100000/target-module@9c000/i2c@0/pmic@4b/
KYVQJKHYSY 0
root@arm:~# echo 'UCKZ''QEAKVN'
UCKZQEAKVN
root@arm:~# MARKER='MGFM''MZMPGZ' run 'test -f /proc/device-tree/ocp/interconnectt\@48000000/segment\@100000/target-module\@9c000/i2c\@0/pmic\@4b/regulators/BUCK11/rohm,no-regulator-enable-control ;echo $?'
MGFMMZMPGZ1
MGFMMZMPGZ 0
root@arm:~# echo 'JOTQ''JUQEOU'
JOTQJUQEOU
root@arm:~# MARKER='ECNM''OJYFTH' run 'grep -r -l rohm,bd71837 /proc/device-tree  | sed '"'"'s![^/]*$!!'"'"''
ECNMOJYFTH/proc/device-tree/ocp/interconnect@48000000/segment@100000/target-module@9c000/i2c@0/pmic@4b/
ECNMOJYFTH 0
root@arm:~# echo 'ZCFE''SNYSWZ'
ZCFESNYSWZ
root@arm:~# MARKER='SJKV''ASLSJL' run 'test -f /proc/device-tree/ocp/interconnectt\@48000000/segment\@100000/target-module\@9c000/i2c\@0/pmic\@4b/regulators/BUCK11/regulator-always-on ;echo $?'
SJKVASLSJL1
SJKVASLSJL 0
root@arm:~# echo 'ETZH''TXKCMB'
ETZHTXKCMB
root@arm:~# MARKER='GUKV''LTLEPN' run 'echo 0 > /sys/kernel/mva_test/regulators/bbuck1_en'
GUKVLTLEPNGUKVLTLEPN 0
root@arm:~# echo 'EEET''UHZQZZ'
EEETUHZQZZ
root@arm:~# MARKER='QTVJ''ZKMVVC' run 'i2cget -y -f 2 0x4b 0x5'
QTVJZKMVVC0x02
QTVJZKMVVC 0
root@arm:~# echo 'FJUV''WKPAFQ'
FJUVWKPAFQ
root@arm:~# MARKER='EFPO''GJMVJN' run 'grep -r -l rohm,bd71837 /proc/device-tree  | sed '"'"'s![^/]*$!!'"'"''
EFPOGJMVJN/proc/device-tree/ocp/interconnect@48000000/segment@100000/target-module@9c000/i2c@0/pmic@4b/
EFPOGJMVJN 0
root@arm:~# echo 'NUQF''ZQBUGQ'
NUQFZQBUGQ
root@arm:~# MARKER='LBAL''VBOAKB' run 'test -f /proc/device-tree/ocp/interconnectt\@48000000/segment\@100000/target-module\@9c000/i2c\@0/pmic\@4b/regulators/BUCK22/rohm,no-regulator-enable-control ;echo $?'
LBALVBOAKB1
LBALVBOAKB 0
root@arm:~# echo 'TVWO''MOEJFS'
TVWOMOEJFS
root@arm:~# MARKER='HXWY''WUKWUE' run 'echo 1 > /sys/kernel/mva_test/regulators/bbuck2_en'
HXWYWUKWUEHXWYWUKWUE 0
root@arm:~# echo 'WNLQ''BYTJYW'
WNLQBYTJYW
root@arm:~# MARKER='TXEF''CPAELQ' run 'i2cget -y -f 2 0x4b 0x6'
TXEFCPAELQ0x43
TXEFCPAELQ 0
root@arm:~# echo 'LVXH''HEEYBE'
LVXHHEEYBE
root@arm:~# MARKER='KPWZ''XYSMKM' run 'grep -r -l rohm,bd71837 /proc/device-tree  | sed '"'"'s![^/]*$!!'"'"''
KPWZXYSMKM/proc/device-tree/ocp/interconnect@48000000/segment@100000/target-module@9c000/i2c@0/pmic@4b/
KPWZXYSMKM 0
root@arm:~# echo 'JZFM''MYPWSS'
JZFMMYPWSS
root@arm:~# MARKER='VGLP''NKOEQL' run 'test -f /proc/device-tree/ocp/interconnectt\@48000000/segment\@100000/target-module\@9c000/i2c\@0/pmic\@4b/regulators/BUCK22/rohm,no-regulator-enable-control ;echo $?'
VGLPNKOEQL1
VGLPNKOEQL 0
root@arm:~# echo 'AKZQ''QBOQQW'
AKZQQBOQQW
root@arm:~# MARKER='PFZQ''YCSKGZ' run 'grep -r -l rohm,bd71837 /proc/device-tree  | sed '"'"'s![^/]*$!!'"'"''
PFZQYCSKGZ/proc/device-tree/ocp/interconnect@48000000/segment@100000/target-module@9c000/i2c@0/pmic@4b/
PFZQYCSKGZ 0
root@arm:~# echo 'UFLY''MSEBHG'
UFLYMSEBHG
root@arm:~# MARKER='NVVM''VGZVJX' run 'test -f /proc/device-tree/ocp/interconnectt\@48000000/segment\@100000/target-module\@9c000/i2c\@0/pmic\@4b/regulators/BUCK22/regulator-always-on ;echo $?'
NVVMVGZVJX0
NVVMVGZVJX 0
root@arm:~# echo 'QWBG''XQGFQO'
QWBGXQGFQO
root@arm:~# MARKER='SMGH''JSJFXJ' run 'grep -r -l rohm,bd71837 /proc/device-tree  | sed '"'"'s![^/]*$!!'"'"''
SMGHJSJFXJ/proc/device-tree/ocp/interconnect@48000000/segment@100000/target-module@9c000/i2c@0/pmic@4b/
SMGHJSJFXJ 0
root@arm:~# echo 'NJWL''SWAQOZ'
NJWLSWAQOZ
root@arm:~# MARKER='HCQU''ESVFZF' run 'test -f /proc/device-tree/ocp/interconnectt\@48000000/segment\@100000/target-module\@9c000/i2c\@0/pmic\@4b/regulators/BUCK33/rohm,no-regulator-enable-control ;echo $?'
HCQUESVFZF0
HCQUESVFZF 0
root@arm:~# echo 'NWGF''VFHYZL'
NWGFVFHYZL
root@arm:~# MARKER='PJQB''YTGUCB' run 'grep -r -l rohm,bd71837 /proc/device-tree  | sed '"'"'s![^/]*$!!'"'"''
PJQBYTGUCB/proc/device-tree/ocp/interconnect@48000000/segment@100000/target-module@9c000/i2c@0/pmic@4b/
PJQBYTGUCB 0
root@arm:~# echo 'HELC''JOJETO'
HELCJOJETO
root@arm:~# MARKER='WCZU''ENTFCY' run 'test -f /proc/device-tree/ocp/interconnectt\@48000000/segment\@100000/target-module\@9c000/i2c\@0/pmic\@4b/regulators/BUCK33/rohm,no-regulator-enable-control ;echo $?'
WCZUENTFCY0
WCZUENTFCY 0
root@arm:~# echo 'BEYS''MVYGOS'
BEYSMVYGOS
root@arm:~# MARKER='JSPK''UUJPGY' run 'grep -r -l rohm,bd71837 /proc/device-tree  | sed '"'"'s![^/]*$!!'"'"''
JSPKUUJPGY/proc/device-tree/ocp/interconnect@48000000/segment@100000/target-module@9c000/i2c@0/pmic@4b/
JSPKUUJPGY 0
root@arm:~# echo 'JETF''CYVPBC'
JETFCYVPBC
root@arm:~# MARKER='ZSVW''XOCOMA' run 'test -f /proc/device-tree/ocp/interconnectt\@48000000/segment\@100000/target-module\@9c000/i2c\@0/pmic\@4b/regulators/BUCK44/rohm,no-regulator-enable-control ;echo $?'
ZSVWXOCOMA1
ZSVWXOCOMA 0
root@arm:~# echo 'VFTH''XZQHFU'
VFTHXZQHFU
root@arm:~# MARKER='HAOW''PGXFQW' run 'echo 1 > /sys/kernel/mva_test/regulators/bbuck4_en'
HAOWPGXFQWHAOWPGXFQW 0
root@arm:~# echo 'GEEC''SJWUPH'
GEECSJWUPH
root@arm:~# MARKER='LVPY''CCQOXQ' run 'i2cget -y -f 2 0x4b 0x8'
LVPYCCQOXQ0xc7
LVPYCCQOXQ 0
root@arm:~# echo 'KAGM''OWLEPZ'
KAGMOWLEPZ
root@arm:~# MARKER='UNVT''YAVZJO' run 'grep -r -l rohm,bd71837 /proc/device-tree  | sed '"'"'s![^/]*$!!'"'"''
UNVTYAVZJO/proc/device-tree/ocp/interconnect@48000000/segment@100000/target-module@9c000/i2c@0/pmic@4b/
UNVTYAVZJO 0
root@arm:~# echo 'OPBY''ZUEKZF'
OPBYZUEKZF
root@arm:~# MARKER='WTLC''HNJVXK' run 'test -f /proc/device-tree/ocp/interconnectt\@48000000/segment\@100000/target-module\@9c000/i2c\@0/pmic\@4b/regulators/BUCK44/rohm,no-regulator-enable-control ;echo $?'
WTLCHNJVXK1
WTLCHNJVXK 0
root@arm:~# echo 'SCEO''QEKFCO'
SCEOQEKFCO
root@arm:~# MARKER='NPLB''OOMETQ' run 'grep -r -l rohm,bd71837 /proc/device-tree  | sed '"'"'s![^/]*$!!'"'"''
NPLBOOMETQ/proc/device-tree/ocp/interconnect@48000000/segment@100000/target-module@9c000/i2c@0/pmic@4b/
NPLBOOMETQ 0
root@arm:~# echo 'ZSGJ''VCCTOC'
ZSGJVCCTOC
root@arm:~# MARKER='GXCU''ZLMNZJ' run 'test -f /proc/device-tree/ocp/interconnectt\@48000000/segment\@100000/target-module\@9c000/i2c\@0/pmic\@4b/regulators/BUCK44/regulator-always-on ;echo $?'
GXCUZLMNZJ1
GXCUZLMNZJ 0
root@arm:~# echo 'GMTK''QQVSVW'
GMTKQQVSVW
root@arm:~# MARKER='OSVB''SLFBBH' run 'echo 0 > /sys/kernel/mva_test/regulators/bbuck4_en'
OSVBSLFBBHOSVBSLFBBH 0
root@arm:~# echo 'QWHX''SYOLUY'
QWHXSYOLUY
root@arm:~# MARKER='PKXT''BQXVAN' run 'i2cget -y -f 2 0x4b 0x8'
PKXTBQXVAN0xc6
PKXTBQXVAN 0
root@arm:~# echo 'XTZU''SWLXJF'
XTZUSWLXJF
root@arm:~# MARKER='XKWN''ECECYW' run 'grep -r -l rohm,bd71837 /proc/device-tree  | sed '"'"'s![^/]*$!!'"'"''
XKWNECECYW/proc/device-tree/ocp/interconnect@48000000/segment@100000/target-module@9c000/i2c@0/pmic@4b/
XKWNECECYW 0
root@arm:~# echo 'LAVC''NSKVFO'
LAVCNSKVFO
root@arm:~# MARKER='YJLT''TCNQNF' run 'test -f /proc/device-tree/ocp/interconnectt\@48000000/segment\@100000/target-module\@9c000/i2c\@0/pmic\@4b/regulators/BUCK55/rohm,no-regulator-enable-control ;echo $?'
YJLTTCNQNF1
YJLTTCNQNF 0
root@arm:~# echo 'ZNZX''GHHQVL'
ZNZXGHHQVL
root@arm:~# MARKER='LKQQ''EPCCWX' run 'echo 1 > /sys/kernel/mva_test/regulators/bbuck5_en'
LKQQEPCCWXLKQQEPCCWX 0
root@arm:~# echo 'XBEL''LGUVWN'
XBELLGUVWN
root@arm:~# MARKER='UKBC''TEPNBX' run 'i2cget -y -f 2 0x4b 0x9'
UKBCTEPNBX0x03
UKBCTEPNBX 0
root@arm:~# echo 'GYZN''FTOEGC'
GYZNFTOEGC
root@arm:~# MARKER='TWPN''WWCVFX' run 'grep -r -l rohm,bd71837 /proc/device-tree  | sed '"'"'s![^/]*$!!'"'"''
TWPNWWCVFX/proc/device-tree/ocp/interconnect@48000000/segment@100000/target-module@9c000/i2c@0/pmic@4b/
TWPNWWCVFX 0
root@arm:~# echo 'ZKCQ''LYZMHM'
ZKCQLYZMHM
root@arm:~# MARKER='WWCV''MHSEEO' run 'test -f /proc/device-tree/ocp/interconnectt\@48000000/segment\@100000/target-module\@9c000/i2c\@0/pmic\@4b/regulators/BUCK55/rohm,no-regulator-enable-control ;echo $?'
WWCVMHSEEO1
WWCVMHSEEO 0
root@arm:~# echo 'KFYN''HGSEGU'
KFYNHGSEGU
root@arm:~# MARKER='OLWO''UMAHPG' run 'grep -r -l rohm,bd71837 /proc/device-tree  | sed '"'"'s![^/]*$!!'"'"''
OLWOUMAHPG/proc/device-tree/ocp/interconnect@48000000/segment@100000/target-module@9c000/i2c@0/pmic@4b/
OLWOUMAHPG 0
root@arm:~# echo 'WXZA''CZTBQX'
WXZACZTBQX
root@arm:~# MARKER='LUJU''CQCZYG' run 'test -f /proc/device-tree/ocp/interconnectt\@48000000/segment\@100000/target-module\@9c000/i2c\@0/pmic\@4b/regulators/BUCK55/regulator-always-on ;echo $?'
LUJUCQCZYG1
LUJUCQCZYG 0
root@arm:~# echo 'XEJA''GGAYBV'
XEJAGGAYBV
root@arm:~# MARKER='LQOO''LZQATF' run 'echo 0 > /sys/kernel/mva_test/regulators/bbuck5_en'
LQOOLZQATFLQOOLZQATF 0
root@arm:~# echo 'BZXM''CFGJTL'
BZXMCFGJTL
root@arm:~# MARKER='EGHS''NTXYJE' run 'i2cget -y -f 2 0x4b 0x9'
EGHSNTXYJE0x02
EGHSNTXYJE 0
root@arm:~# echo 'KKTC''AXGWJE'
KKTCAXGWJE
root@arm:~# MARKER='OCYW''PELLQW' run 'grep -r -l rohm,bd71837 /proc/device-tree  | sed '"'"'s![^/]*$!!'"'"''
OCYWPELLQW/proc/device-tree/ocp/interconnect@48000000/segment@100000/target-module@9c000/i2c@0/pmic@4b/
OCYWPELLQW 0
root@arm:~# echo 'UVVA''YUUEWT'
UVVAYUUEWT
root@arm:~# MARKER='OEJB''GMFAOY' run 'test -f /proc/device-tree/ocp/interconnectt\@48000000/segment\@100000/target-module\@9c000/i2c\@0/pmic\@4b/regulators/BUCK66/rohm,no-regulator-enable-control ;echo $?'
OEJBGMFAOY1
OEJBGMFAOY 0
root@arm:~# echo 'VOQB''NMHOWN'
VOQBNMHOWN
root@arm:~# MARKER='SKUB''KHBCJJ' run 'echo 1 > /sys/kernel/mva_test/regulators/bbuck6_en'
SKUBKHBCJJSKUBKHBCJJ 0
root@arm:~# echo 'TOBF''FNJNXJ'
TOBFFNJNXJ
root@arm:~# MARKER='ZMJZ''WVYFAJ' run 'i2cget -y -f 2 0x4b 0xa'
ZMJZWVYFAJ0x03
ZMJZWVYFAJ 0
root@arm:~# echo 'KVWK''JWGCKM'
KVWKJWGCKM
root@arm:~# MARKER='BCBW''PCPKZG' run 'grep -r -l rohm,bd71837 /proc/device-tree  | sed '"'"'s![^/]*$!!'"'"''
BCBWPCPKZG/proc/device-tree/ocp/interconnect@48000000/segment@100000/target-module@9c000/i2c@0/pmic@4b/
BCBWPCPKZG 0
root@arm:~# echo 'UWST''KCFNJU'
UWSTKCFNJU
root@arm:~# MARKER='CXCU''VONGZP' run 'test -f /proc/device-tree/ocp/interconnectt\@48000000/segment\@100000/target-module\@9c000/i2c\@0/pmic\@4b/regulators/BUCK66/rohm,no-regulator-enable-control ;echo $?'
CXCUVONGZP1
CXCUVONGZP 0
root@arm:~# echo 'OBTT''MQUNPY'
OBTTMQUNPY
root@arm:~# MARKER='XBTU''VTSLBB' run 'grep -r -l rohm,bd71837 /proc/device-tree  | sed '"'"'s![^/]*$!!'"'"''
XBTUVTSLBB/proc/device-tree/ocp/interconnect@48000000/segment@100000/target-module@9c000/i2c@0/pmic@4b/
XBTUVTSLBB 0
root@arm:~# echo 'EXPG''NOKJCC'
EXPGNOKJCC
root@arm:~# MARKER='QLOB''UTQCTK' run 'test -f /proc/device-tree/ocp/interconnectt\@48000000/segment\@100000/target-module\@9c000/i2c\@0/pmic\@4b/regulators/BUCK 6/regulator-always-on ;echo $?'
QLOBUTQCTK1
QLOBUTQCTK 0
root@arm:~# echo 'FOGU''YKVJCT'
FOGUYKVJCT
root@arm:~# MARKER='NSJZ''PQYLUO' run 'echo 0 > /sys/kernel/mva_test/regulators/bbuck6_en'
NSJZPQYLUONSJZPQYLUO 0
root@arm:~# echo 'JCUK''NYSMCP'
JCUKNYSMCP
root@arm:~# MARKER='NJOH''OUALMV' run 'i2cget -y -f 2 0x4b 0xa'
NJOHOUALMV0x02
NJOHOUALMV 0
root@arm:~# echo 'TKKY''AULJHP'
TKKYAULJHP
root@arm:~# MARKER='YNHP''QECOAP' run 'grep -r -l rohm,bd71837 /proc/device-tree  | sed '"'"'s![^/]*$!!'"'"''
YNHPQECOAP/proc/device-tree/ocp/interconnect@48000000/segment@100000/target-module@9c000/i2c@0/pmic@4b/
YNHPQECOAP 0
root@arm:~# echo 'WZQS''OUYYVH'
WZQSOUYYVH
root@arm:~# MARKER='HCBH''THXMKQ' run 'test -f /proc/device-tree/ocp/interconnectt\@48000000/segment\@100000/target-module\@9c000/i2c\@0/pmic\@4b/regulators/BUCK77/rohm,no-regulator-enable-control ;echo $?'
HCBHTHXMKQ1
HCBHTHXMKQ 0
root@arm:~# echo 'TSKC''SLAFTW'
TSKCSLAFTW
root@arm:~# MARKER='VEFK''OGXCLU' run 'echo 1 > /sys/kernel/mva_test/regulators/bbuck7_en'
VEFKOGXCLUVEFKOGXCLU 0
root@arm:~# echo 'NFXF''JENHKP'
NFXFJENHKP
root@arm:~# MARKER='OUCU''NCOAQH' run 'i2cget -y -f 2 0x4b 0xb'
OUCUNCOAQH0x03
OUCUNCOAQH 0
root@arm:~# echo 'AFVA''QYQLCC'
AFVAQYQLCC
root@arm:~# MARKER='WTBA''KSWXHE' run 'grep -r -l rohm,bd71837 /proc/device-tree  | sed '"'"'s![^/]*$!!'"'"''
WTBAKSWXHE/proc/device-tree/ocp/interconnect@48000000/segment@100000/target-module@9c000/i2c@0/pmic@4b/
WTBAKSWXHE 0
root@arm:~# echo 'CSEN''LOQLQM'
CSENLOQLQM
root@arm:~# MARKER='UXSL''WZGTTP' run 'test -f /proc/device-tree/ocp/interconnectt\@48000000/segment\@100000/target-module\@9c000/i2c\@0/pmic\@4b/regulators/BUCK77/rohm,no-regulator-enable-control ;echo $?'
UXSLWZGTTP1
UXSLWZGTTP 0
root@arm:~# echo 'TLHQ''MJHXON'
TLHQMJHXON
root@arm:~# MARKER='UPVV''UNMYFA' run 'grep -r -l rohm,bd71837 /proc/device-tree  | sed '"'"'s![^/]*$!!'"'"''
UPVVUNMYFA/proc/device-tree/ocp/interconnect@48000000/segment@100000/target-module@9c000/i2c@0/pmic@4b/
UPVVUNMYFA 0
root@arm:~# echo 'QCFA''GZBPYN'
QCFAGZBPYN
root@arm:~# MARKER='YPUG''ZNCTSM' run 'test -f /proc/device-tree/ocp/interconnectt\@48000000/segment\@100000/target-module\@9c000/i2c\@0/pmic\@4b/regulators/BUCK77/regulator-always-on ;echo $?'
YPUGZNCTSM1
YPUGZNCTSM 0
root@arm:~# echo 'YALB''OOMGVV'
YALBOOMGVV
root@arm:~# MARKER='KPNM''HXNYSP' run 'echo 0 > /sys/kernel/mva_test/regulators/bbuck7_en'
KPNMHXNYSPKPNMHXNYSP 0
root@arm:~# echo 'QOJG''BCJGQK'
QOJGBCJGQK
root@arm:~# MARKER='HPYO''YOOQZB' run 'i2cget -y -f 2 0x4b 0xb'
HPYOYOOQZB0x02
HPYOYOOQZB 0
root@arm:~# echo 'NFYQ''NPTELW'
NFYQNPTELW
root@arm:~# MARKER='ZNYJ''HSSGQS' run 'grep -r -l rohm,bd71837 /proc/device-tree  | sed '"'"'s![^/]*$!!'"'"''
ZNYJHSSGQS/proc/device-tree/ocp/interconnect@48000000/segment@100000/target-module@9c000/i2c@0/pmic@4b/
ZNYJHSSGQS 0
root@arm:~# echo 'YWJX''JVZUSW'
YWJXJVZUSW
root@arm:~# MARKER='WVAO''UUJWLJ' run 'test -f /proc/device-tree/ocp/interconnectt\@48000000/segment\@100000/target-module\@9c000/i2c\@0/pmic\@4b/regulators/BUCK88/rohm,no-regulator-enable-control ;echo $?'
WVAOUUJWLJ1
WVAOUUJWLJ 0
root@arm:~# echo 'CASX''LCTABZ'
CASXLCTABZ
root@arm:~# MARKER='VECX''JKPVVO' run 'echo 1 > /sys/kernel/mva_test/regulators/bbuck8_en'
VECXJKPVVOVECXJKPVVO 0
root@arm:~# echo 'FQLC''VPZYXT'
FQLCVPZYXT
root@arm:~# MARKER='XVXM''XCTQTA' run 'i2cget -y -f 2 0x4b 0xc'
XVXMXCTQTA0x03
XVXMXCTQTA 0
root@arm:~# echo 'HQPY''EKHMVY'
HQPYEKHMVY
root@arm:~# MARKER='FZGO''JEUTJQ' run 'grep -r -l rohm,bd71837 /proc/device-tree  | sed '"'"'s![^/]*$!!'"'"''
FZGOJEUTJQ/proc/device-tree/ocp/interconnect@48000000/segment@100000/target-module@9c000/i2c@0/pmic@4b/
FZGOJEUTJQ 0
root@arm:~# echo 'NZLT''UJTOQL'
NZLTUJTOQL
root@arm:~# MARKER='YLEM''NLXTOF' run 'test -f /proc/device-tree/ocp/interconnectt\@48000000/segment\@100000/target-module\@9c000/i2c\@0/pmic\@4b/regulators/BUCK88/rohm,no-regulator-enable-control ;echo $?'
YLEMNLXTOF1
YLEMNLXTOF 0
root@arm:~# echo 'TJCF''TSYQPV'
TJCFTSYQPV
root@arm:~# MARKER='OMPO''UVQHFH' run 'grep -r -l rohm,bd71837 /proc/device-tree  | sed '"'"'s![^/]*$!!'"'"''
OMPOUVQHFH/proc/device-tree/ocp/interconnect@48000000/segment@100000/target-module@9c000/i2c@0/pmic@4b/
OMPOUVQHFH 0
root@arm:~# echo 'ZPPZ''LBQNJJ'
ZPPZLBQNJJ
root@arm:~# MARKER='FSQB''LZVWMA' run 'test -f /proc/device-tree/ocp/interconnectt\@48000000/segment\@100000/target-module\@9c000/i2c\@0/pmic\@4b/regulators/BUCK88/regulator-always-on ;echo $?'
FSQBLZVWMA1
FSQBLZVWMA 0
root@arm:~# echo 'SOLK''SWUZHO'
SOLKSWUZHO
root@arm:~# MARKER='ZOOP''XMUELH' run 'echo 0 > /sys/kernel/mva_test/regulators/bbuck8_en'
ZOOPXMUELHZOOPXMUELH 0
root@arm:~# echo 'KEHW''AAVXZY'
KEHWAAVXZY
root@arm:~# MARKER='WTSX''SQKGKZ' run 'i2cget -y -f 2 0x4b 0xc'
WTSXSQKGKZ0x02
WTSXSQKGKZ 0
root@arm:~# echo 'VJHL''TAXYMK'
VJHLTAXYMK
root@arm:~# MARKER='KTEQ''FTAMXG' run 'grep -r -l rohm,bd71837 /proc/device-tree  | sed '"'"'s![^/]*$!!'"'"''
KTEQFTAMXG/proc/device-tree/ocp/interconnect@48000000/segment@100000/target-module@9c000/i2c@0/pmic@4b/
KTEQFTAMXG 0
root@arm:~# echo 'TOBT''QFVGLA'
TOBTQFVGLA
root@arm:~# MARKER='MWMK''YNAKHU' run 'test -f /proc/device-tree/ocp/interconnectt\@48000000/segment\@100000/target-module\@9c000/i2c\@0/pmic\@4b/regulators/LDO1//rohm,no-regulator-enable-control ;echo $?'
MWMKYNAKHU1
MWMKYNAKHU 0
root@arm:~# echo 'UTOV''FNFCWJ'
UTOVFNFCWJ
root@arm:~# MARKER='HGZH''BQJYEA' run 'echo 1 > /sys/kernel/mva_test/regulators/bbuck9_en'
HGZHBQJYEAHGZHBQJYEA 0
root@arm:~# echo 'LUXY''ZJYOMT'
LUXYZJYOMT
root@arm:~# MARKER='OCNO''KYJZUP' run 'i2cget -y -f 2 0x4b 0x18'
OCNOKYJZUP0xc3
OCNOKYJZUP 0
root@arm:~# echo 'XNFM''LVZXPP'
XNFMLVZXPP
root@arm:~# MARKER='FKVZ''ASKKEZ' run 'grep -r -l rohm,bd71837 /proc/device-tree  | sed '"'"'s![^/]*$!!'"'"''
FKVZASKKEZ/proc/device-tree/ocp/interconnect@48000000/segment@100000/target-module@9c000/i2c@0/pmic@4b/
FKVZASKKEZ 0
root@arm:~# echo 'SOYC''YQXXZN'
SOYCYQXXZN
root@arm:~# MARKER='ZALA''JGONNY' run 'test -f /proc/device-tree/ocp/interconnectt\@48000000/segment\@100000/target-module\@9c000/i2c\@0/pmic\@4b/regulators/LDO1//rohm,no-regulator-enable-control ;echo $?'
ZALAJGONNY1
ZALAJGONNY 0
root@arm:~# echo 'LYYA''MHFHKB'
LYYAMHFHKB
root@arm:~# MARKER='ATLW''WMQBCP' run 'grep -r -l rohm,bd71837 /proc/device-tree  | sed '"'"'s![^/]*$!!'"'"''
ATLWWMQBCP/proc/device-tree/ocp/interconnect@48000000/segment@100000/target-module@9c000/i2c@0/pmic@4b/
ATLWWMQBCP 0
root@arm:~# echo 'TUNM''XELLXN'
TUNMXELLXN
root@arm:~# MARKER='ZMQY''HFOBOQ' run 'test -f /proc/device-tree/ocp/interconnectt\@48000000/segment\@100000/target-module\@9c000/i2c\@0/pmic\@4b/regulators/LDO1//regulator-always-on ;echo $?'
ZMQYHFOBOQ1
ZMQYHFOBOQ 0
root@arm:~# echo 'HGAZ''JZCUPV'
HGAZJZCUPV
root@arm:~# MARKER='FHKC''OEBMAX' run 'echo 0 > /sys/kernel/mva_test/regulators/bbuck9_en'
FHKCOEBMAXFHKCOEBMAX 0
root@arm:~# echo 'EFZL''LWXCJO'
EFZLLWXCJO
root@arm:~# MARKER='UZMY''MFQOEV' run 'i2cget -y -f 2 0x4b 0x18'
UZMYMFQOEV0x83
UZMYMFQOEV 0
root@arm:~# echo 'LSKL''WNQVGB'
LSKLWNQVGB
root@arm:~# MARKER='ZQPU''PUEBQB' run 'grep -r -l rohm,bd71837 /proc/device-tree  | sed '"'"'s![^/]*$!!'"'"''
ZQPUPUEBQB/proc/device-tree/ocp/interconnect@48000000/segment@100000/target-module@9c000/i2c@0/pmic@4b/
ZQPUPUEBQB 0
root@arm:~# echo 'VWSZ''PUSQVB'
VWSZPUSQVB
root@arm:~# MARKER='GQNO''WBPBJF' run 'test -f /proc/device-tree/ocp/interconnectt\@48000000/segment\@100000/target-module\@9c000/i2c\@0/pmic\@4b/regulators/LDO2//rohm,no-regulator-enable-control ;echo $?'
GQNOWBPBJF1
GQNOWBPBJF 0
root@arm:~# echo 'PFYB''KEHGGQ'
PFYBKEHGGQ
root@arm:~# MARKER='ZOQP''OEYVOB' run 'echo 1 > /sys/kernel/mva_test/regulators/bbuck10_en'
ZOQPOEYVOBZOQPOEYVOB 0
root@arm:~# echo 'WVWA''QPKQTT'
WVWAQPKQTT
root@arm:~# MARKER='KJMX''NGBBAN' run 'i2cget -y -f 2 0x4b 0x19'
KJMXNGBBAN0xc0
KJMXNGBBAN 0
root@arm:~# echo 'AHUE''UKSBVK'
AHUEUKSBVK
root@arm:~# MARKER='NXYS''BALXUF' run 'grep -r -l rohm,bd71837 /proc/device-tree  | sed '"'"'s![^/]*$!!'"'"''
NXYSBALXUF/proc/device-tree/ocp/interconnect@48000000/segment@100000/target-module@9c000/i2c@0/pmic@4b/
NXYSBALXUF 0
root@arm:~# echo 'GZBX''TACHNG'
GZBXTACHNG
root@arm:~# MARKER='VZCS''EXHBZY' run 'test -f /proc/device-tree/ocp/interconnectt\@48000000/segment\@100000/target-module\@9c000/i2c\@0/pmic\@4b/regulators/LDO2//rohm,no-regulator-enable-control ;echo $?'
VZCSEXHBZY1
VZCSEXHBZY 0
root@arm:~# echo 'QXHH''BMUYKJ'
QXHHBMUYKJ
root@arm:~# MARKER='UHSG''NMMUGM' run 'grep -r -l rohm,bd71837 /proc/device-tree  | sed '"'"'s![^/]*$!!'"'"''
UHSGNMMUGM/proc/device-tree/ocp/interconnect@48000000/segment@100000/target-module@9c000/i2c@0/pmic@4b/
UHSGNMMUGM 0
root@arm:~# echo 'CNJF''NKXOFH'
CNJFNKXOFH
root@arm:~# MARKER='YUXT''UNLOCA' run 'test -f /proc/device-tree/ocp/interconnectt\@48000000/segment\@100000/target-module\@9c000/i2c\@0/pmic\@4b/regulators/LDO2//regulator-always-on ;echo $?'
YUXTUNLOCA1
YUXTUNLOCA 0
root@arm:~# echo 'PQYU''OAYTUB'
PQYUOAYTUB
root@arm:~# MARKER='VSML''SHECLM' run 'echo 0 > /sys/kernel/mva_test/regulators/bbuck10_en'
VSMLSHECLMVSMLSHECLM 0
root@arm:~# echo 'JBQB''SLJKPE'
JBQBSLJKPE
root@arm:~# MARKER='LOXB''TVKALT' run 'i2cget -y -f 2 0x4b 0x19'
LOXBTVKALT0x80
LOXBTVKALT 0
root@arm:~# echo 'YFSO''VJNTKC'
YFSOVJNTKC
root@arm:~# MARKER='QMAA''NHJLWU' run 'grep -r -l rohm,bd71837 /proc/device-tree  | sed '"'"'s![^/]*$!!'"'"''
QMAANHJLWU/proc/device-tree/ocp/interconnect@48000000/segment@100000/target-module@9c000/i2c@0/pmic@4b/
QMAANHJLWU 0
root@arm:~# echo 'HUKX''HCAPPK'
HUKXHCAPPK
root@arm:~# MARKER='JJYZ''PJFGYE' run 'test -f /proc/device-tree/ocp/interconnectt\@48000000/segment\@100000/target-module\@9c000/i2c\@0/pmic\@4b/regulators/LDO3//rohm,no-regulator-enable-control ;echo $?'
JJYZPJFGYE1
JJYZPJFGYE 0
root@arm:~# echo 'TELE''NJSLLN'
TELENJSLLN
root@arm:~# MARKER='GCNA''KWBXEB' run 'echo 1 > /sys/kernel/mva_test/regulators/bbuck11_en'
GCNAKWBXEBGCNAKWBXEB 0
root@arm:~# echo 'VLBO''AOQUVS'
VLBOAOQUVS
root@arm:~# MARKER='JSVK''MUXHNV' run 'i2cget -y -f 2 0x4b 0x1a'
JSVKMUXHNV0xc0
JSVKMUXHNV 0
root@arm:~# echo 'MEBY''WPTKXO'
MEBYWPTKXO
root@arm:~# MARKER='YSHC''WAXOGH' run 'grep -r -l rohm,bd71837 /proc/device-tree  | sed '"'"'s![^/]*$!!'"'"''
YSHCWAXOGH/proc/device-tree/ocp/interconnect@48000000/segment@100000/target-module@9c000/i2c@0/pmic@4b/
YSHCWAXOGH 0
root@arm:~# echo 'EJEJ''PVWKQN'
EJEJPVWKQN
root@arm:~# MARKER='UUAX''KKMQGW' run 'test -f /proc/device-tree/ocp/interconnectt\@48000000/segment\@100000/target-module\@9c000/i2c\@0/pmic\@4b/regulators/LDO3//rohm,no-regulator-enable-control ;echo $?'
UUAXKKMQGW1
UUAXKKMQGW 0
root@arm:~# echo 'JWHL''USKTJS'
JWHLUSKTJS
root@arm:~# MARKER='LZOB''USUMTJ' run 'grep -r -l rohm,bd71837 /proc/device-tree  | sed '"'"'s![^/]*$!!'"'"''
LZOBUSUMTJ/proc/device-tree/ocp/interconnect@48000000/segment@100000/target-module@9c000/i2c@0/pmic@4b/
LZOBUSUMTJ 0
root@arm:~# echo 'OWXP''XZWPSC'
OWXPXZWPSC
root@arm:~# MARKER='SNQX''SBLECF' run 'test -f /proc/device-tree/ocp/interconnectt\@48000000/segment\@100000/target-module\@9c000/i2c\@0/pmic\@4b/regulators/LDO3//regulator-always-on ;echo $?'
SNQXSBLECF1
SNQXSBLECF 0
root@arm:~# echo 'ZHET''NYJXMK'
ZHETNYJXMK
root@arm:~# MARKER='YOTX''WAXTZK' run 'echo 0 > /sys/kernel/mva_test/regulators/bbuck11_en'
YOTXWAXTZKYOTXWAXTZK 0
root@arm:~# echo 'UQUJ''YBWMPM'
UQUJYBWMPM
root@arm:~# MARKER='GFSM''JGKHUF' run 'i2cget -y -f 2 0x4b 0x1a'
GFSMJGKHUF0x80
GFSMJGKHUF 0
root@arm:~# echo 'YNJP''JFFCPU'
YNJPJFFCPU
root@arm:~# MARKER='XBBA''TLMEFY' run 'grep -r -l rohm,bd71837 /proc/device-tree  | sed '"'"'s![^/]*$!!'"'"''
XBBATLMEFY/proc/device-tree/ocp/interconnect@48000000/segment@100000/target-module@9c000/i2c@0/pmic@4b/
XBBATLMEFY 0
root@arm:~# echo 'VABO''VZAAMH'
VABOVZAAMH
root@arm:~# MARKER='MYHX''EGXHPC' run 'test -f /proc/device-tree/ocp/interconnectt\@48000000/segment\@100000/target-module\@9c000/i2c\@0/pmic\@4b/regulators/LDO4//rohm,no-regulator-enable-control ;echo $?'
MYHXEGXHPC1
MYHXEGXHPC 0
root@arm:~# echo 'LJMK''WNQHJM'
LJMKWNQHJM
root@arm:~# MARKER='AGFQ''KWYPJM' run 'echo 1 > /sys/kernel/mva_test/regulators/bbuck12_en'
AGFQKWYPJMAGFQKWYPJM 0
root@arm:~# echo 'NKSW''JZFVKJ'
NKSWJZFVKJ
root@arm:~# MARKER='GFJA''OQFCUG' run 'i2cget -y -f 2 0x4b 0x1b'
GFJAOQFCUG0xc0
GFJAOQFCUG 0
root@arm:~# echo 'KWPK''VUCUJC'
KWPKVUCUJC
root@arm:~# MARKER='ZUAL''BMENUP' run 'grep -r -l rohm,bd71837 /proc/device-tree  | sed '"'"'s![^/]*$!!'"'"''
ZUALBMENUP/proc/device-tree/ocp/interconnect@48000000/segment@100000/target-module@9c000/i2c@0/pmic@4b/
ZUALBMENUP 0
root@arm:~# echo 'JKSQ''CMLLVB'
JKSQCMLLVB
root@arm:~# MARKER='ZSBV''JTLCOL' run 'test -f /proc/device-tree/ocp/interconnectt\@48000000/segment\@100000/target-module\@9c000/i2c\@0/pmic\@4b/regulators/LDO4//rohm,no-regulator-enable-control ;echo $?'
ZSBVJTLCOL1
ZSBVJTLCOL 0
root@arm:~# echo 'MAPT''QMSKLK'
MAPTQMSKLK
root@arm:~# MARKER='EXOJ''BTLMJG' run 'grep -r -l rohm,bd71837 /proc/device-tree  | sed '"'"'s![^/]*$!!'"'"''
EXOJBTLMJG/proc/device-tree/ocp/interconnect@48000000/segment@100000/target-module@9c000/i2c@0/pmic@4b/
EXOJBTLMJG 0
root@arm:~# echo 'FYWM''EZYLVY'
FYWMEZYLVY
root@arm:~# MARKER='AGSA''LCMUGJ' run 'test -f /proc/device-tree/ocp/interconnectt\@48000000/segment\@100000/target-module\@9c000/i2c\@0/pmic\@4b/regulators/LDO4//regulator-always-on ;echo $?'
AGSALCMUGJ1
AGSALCMUGJ 0
root@arm:~# echo 'FVPY''XQBOFL'
FVPYXQBOFL
root@arm:~# MARKER='SKWN''VUXSXY' run 'echo 0 > /sys/kernel/mva_test/regulators/bbuck12_en'
SKWNVUXSXYSKWNVUXSXY 0
root@arm:~# echo 'MKOG''ZUJAWE'
MKOGZUJAWE
root@arm:~# MARKER='ZEVY''XTPMCW' run 'i2cget -y -f 2 0x4b 0x1b'
ZEVYXTPMCW0x80
ZEVYXTPMCW 0
root@arm:~# echo 'GMCJ''HOYJNC'
GMCJHOYJNC
root@arm:~# MARKER='EMKF''KKJBZS' run 'grep -r -l rohm,bd71837 /proc/device-tree  | sed '"'"'s![^/]*$!!'"'"''
EMKFKKJBZS/proc/device-tree/ocp/interconnect@48000000/segment@100000/target-module@9c000/i2c@0/pmic@4b/
EMKFKKJBZS 0
root@arm:~# echo 'NCKZ''NYQXVC'
NCKZNYQXVC
root@arm:~# MARKER='XZYC''WAPVMU' run 'test -f /proc/device-tree/ocp/interconnectt\@48000000/segment\@100000/target-module\@9c000/i2c\@0/pmic\@4b/regulators/LDO5//rohm,no-regulator-enable-control ;echo $?'
XZYCWAPVMU0
XZYCWAPVMU 0
root@arm:~# echo 'NMUG''UYTZYH'
NMUGUYTZYH
root@arm:~# MARKER='YGHS''SOKCFG' run 'grep -r -l rohm,bd71837 /proc/device-tree  | sed '"'"'s![^/]*$!!'"'"''
YGHSSOKCFG/proc/device-tree/ocp/interconnect@48000000/segment@100000/target-module@9c000/i2c@0/pmic@4b/
YGHSSOKCFG 0
root@arm:~# echo 'OMYW''FEAWLM'
OMYWFEAWLM
root@arm:~# MARKER='XBJB''KLYXGT' run 'test -f /proc/device-tree/ocp/interconnectt\@48000000/segment\@100000/target-module\@9c000/i2c\@0/pmic\@4b/regulators/LDO5//rohm,no-regulator-enable-control ;echo $?'
XBJBKLYXGT0
XBJBKLYXGT 0
root@arm:~# echo 'VCXS''NUYXUE'
VCXSNUYXUE
root@arm:~# MARKER='NGFS''KOWEHG' run 'grep -r -l rohm,bd71837 /proc/device-tree  | sed '"'"'s![^/]*$!!'"'"''
NGFSKOWEHG/proc/device-tree/ocp/interconnect@48000000/segment@100000/target-module@9c000/i2c@0/pmic@4b/
NGFSKOWEHG 0
root@arm:~# echo 'EYWQ''YTWTQO'
EYWQYTWTQO
root@arm:~# MARKER='GQFA''ONCEXS' run 'test -f /proc/device-tree/ocp/interconnectt\@48000000/segment\@100000/target-module\@9c000/i2c\@0/pmic\@4b/regulators/LDO6//rohm,no-regulator-enable-control ;echo $?'
GQFAONCEXS1
GQFAONCEXS 0
root@arm:~# echo 'EKAW''CAWNKC'
EKAWCAWNKC
root@arm:~# MARKER='BHOF''LKLEQL' run 'echo 1 > /sys/kernel/mva_test/regulators/bbuck14_en'
BHOFLKLEQLBHOFLKLEQL 0
root@arm:~# echo 'LHPY''GQOEUA'
LHPYGQOEUA
root@arm:~# MARKER='OMCT''MNJQAQ' run 'i2cget -y -f 2 0x4b 0x1d'
OMCTMNJQAQ0xc0
OMCTMNJQAQ 0
root@arm:~# echo 'HMGP''UKPZOA'
HMGPUKPZOA
root@arm:~# MARKER='GPVX''STXHPX' run 'grep -r -l rohm,bd71837 /proc/device-tree  | sed '"'"'s![^/]*$!!'"'"''
GPVXSTXHPX/proc/device-tree/ocp/interconnect@48000000/segment@100000/target-module@9c000/i2c@0/pmic@4b/
GPVXSTXHPX 0
root@arm:~# echo 'NOKH''FULFPW'
NOKHFULFPW
root@arm:~# MARKER='JAYG''AJBNTV' run 'test -f /proc/device-tree/ocp/interconnectt\@48000000/segment\@100000/target-module\@9c000/i2c\@0/pmic\@4b/regulators/LDO6//rohm,no-regulator-enable-control ;echo $?'
JAYGAJBNTV1
JAYGAJBNTV 0
root@arm:~# echo 'HCSO''XXXJTW'
HCSOXXXJTW
root@arm:~# MARKER='MAMO''YPPHAW' run 'grep -r -l rohm,bd71837 /proc/device-tree  | sed '"'"'s![^/]*$!!'"'"''
MAMOYPPHAW/proc/device-tree/ocp/interconnect@48000000/segment@100000/target-module@9c000/i2c@0/pmic@4b/
MAMOYPPHAW 0
root@arm:~# echo 'QVSZ''TZELSU'
QVSZTZELSU
root@arm:~# MARKER='SZKX''APFPSA' run 'test -f /proc/device-tree/ocp/interconnectt\@48000000/segment\@100000/target-module\@9c000/i2c\@0/pmic\@4b/regulators/LDO6//regulator-always-on ;echo $?'
SZKXAPFPSA1
SZKXAPFPSA 0
root@arm:~# echo 'FXHC''COVMKO'
FXHCCOVMKO
root@arm:~# MARKER='ZLJZ''XBTWCZ' run 'echo 0 > /sys/kernel/mva_test/regulators/bbuck14_en'
ZLJZXBTWCZZLJZXBTWCZ 0
root@arm:~# echo 'FNYH''AKAMHP'
FNYHAKAMHP
root@arm:~# MARKER='ZYOY''QHNVPN' run 'i2cget -y -f 2 0x4b 0x1d'
ZYOYQHNVPN0x80
ZYOYQHNVPN 0
root@arm:~# echo 'JLZM''VOTGGK'
JLZMVOTGGK
root@arm:~# MARKER='VHZG''CHWGQG' run 'grep -r -l rohm,bd71837 /proc/device-tree  | sed '"'"'s![^/]*$!!'"'"''
VHZGCHWGQG/proc/device-tree/ocp/interconnect@48000000/segment@100000/target-module@9c000/i2c@0/pmic@4b/
VHZGCHWGQG 0
root@arm:~# echo 'JVQA''XZPHTT'
JVQAXZPHTT
root@arm:~# MARKER='POOK''TXZHGK' run 'test -f /proc/device-tree/ocp/interconnectt\@48000000/segment\@100000/target-module\@9c000/i2c\@0/pmic\@4b/regulators/LDO7//rohm,no-regulator-enable-control ;echo $?'
POOKTXZHGK1
POOKTXZHGK 0
root@arm:~# echo 'JEKN''NEGPUN'
JEKNNEGPUN
root@arm:~# MARKER='XJXK''LUYEFS' run 'echo 1 > /sys/kernel/mva_test/regulators/bbuck15_en'
XJXKLUYEFSXJXKLUYEFS 0
root@arm:~# echo 'PPYJ''PHAPUC'
PPYJPHAPUC
root@arm:~# MARKER='CMVQ''BFPQZP' run 'i2cget -y -f 2 0x4b 0x1e'
CMVQBFPQZP0xcf
CMVQBFPQZP 0
root@arm:~# echo 'FZTM''PUEBKY'
FZTMPUEBKY
root@arm:~# MARKER='EMHZ''WZQWSW' run 'grep -r -l rohm,bd71837 /proc/device-tree  | sed '"'"'s![^/]*$!!'"'"''
EMHZWZQWSW/proc/device-tree/ocp/interconnect@48000000/segment@100000/target-module@9c000/i2c@0/pmic@4b/
EMHZWZQWSW 0
root@arm:~# echo 'PXBH''QJYQMS'
PXBHQJYQMS
root@arm:~# MARKER='YXJH''UPTFLB' run 'test -f /proc/device-tree/ocp/interconnectt\@48000000/segment\@100000/target-module\@9c000/i2c\@0/pmic\@4b/regulators/LDO7//rohm,no-regulator-enable-control ;echo $?'
YXJHUPTFLB1
YXJHUPTFLB 0
root@arm:~# echo 'UWCH''OYFNOH'
UWCHOYFNOH
root@arm:~# MARKER='ZHMB''QAFSHZ' run 'grep -r -l rohm,bd71837 /proc/device-tree  | sed '"'"'s![^/]*$!!'"'"''
ZHMBQAFSHZ/proc/device-tree/ocp/interconnect@48000000/segment@100000/target-module@9c000/i2c@0/pmic@4b/
ZHMBQAFSHZ 0
root@arm:~# echo 'UUSZ''ACEGNN'
UUSZACEGNN
root@arm:~# MARKER='UJJP''QQOEZZ' run 'test -f /proc/device-tree/ocp/interconnectt\@48000000/segment\@100000/target-module\@9c000/i2c\@0/pmic\@4b/regulators/LDO7//regulator-always-on ;echo $?'
UJJPQQOEZZ1
UJJPQQOEZZ 0
root@arm:~# echo 'MQUX''QFPSMV'
MQUXQFPSMV
root@arm:~# MARKER='EUTT''TAGVCU' run 'echo 0 > /sys/kernel/mva_test/regulators/bbuck15_en'
EUTTTAGVCUEUTTTAGVCU 0
root@arm:~# echo 'HGPU''BGNULN'
HGPUBGNULN
root@arm:~# MARKER='XSSX''WUSOEA' run 'i2cget -y -f 2 0x4b 0x1e'
XSSXWUSOEA0x8f
XSSXWUSOEA 0
root@arm:~# Labgrid Console Logfile for main
Logfile started at 2025-11-14 16:26:40.817412
=== Log starts here ===

root@arm:~# run() { echo -n "$MARKER"; sh -c "$@"; echo "$MARKER $?"; }
root@arm:~# echo 'QWSW''VUOHZX'
QWSWVUOHZX
root@arm:~# MARKER='EBJF''MYBTYB' run 'grep -r -l rohm,bd71837 /proc/device-tree  | sed '"'"'s![^/]*$!!'"'"''
EBJFMYBTYB/proc/device-tree/ocp/interconnect@48000000/segment@100000/target-module@9c000/i2c@0/pmic@4b/
EBJFMYBTYB 0
root@arm:~# echo 'FJFW''KHXNKL'
FJFWKHXNKL
root@arm:~# MARKER='COJF''ZZVSNO' run 'test -f /proc/device-tree/ocp/interconnectt\@48000000/segment\@100000/target-module\@9c000/i2c\@0/pmic\@4b/regulators/BUCK11/rohm,no-regulator-enable-control ;echo $?'
COJFZZVSNO1
COJFZZVSNO 0
root@arm:~# echo 'BBOS''LYMJJU'
BBOSLYMJJU
root@arm:~# MARKER='CUYY''BPUBUH' run 'i2cget -y -f 2 0x4b 0x5'
CUYYBPUBUH0x02
CUYYBPUBUH 0
root@arm:~# echo 'YFQT''MBLJEW'
YFQTMBLJEW
root@arm:~# MARKER='AOXL''EBVGKW' run 'echo 700000 700000 > /sys/kernel/mva_test//regulators/buck1_set'
AOXLEBVGKWAOXLEBVGKW 0
root@arm:~# echo 'QSEW''ZEGWNS'
QSEWZEGWNS
root@arm:~# MARKER='CKMO''OBQXAT' run 'i2cget -y -f 2 0x4b 0xd'
CKMOOBQXAT0x00
CKMOOBQXAT 0
root@arm:~# echo 'CCYE''PPYQMW'
CCYEPPYQMW
root@arm:~# MARKER='ASTG''ZPNUVT' run 'echo 710000 710000 > /sys/kernel/mva_test//regulators/buck1_set'
ASTGZPNUVTASTGZPNUVT 0
root@arm:~# echo 'GKJK''OABAHH'
GKJKOABAHH
root@arm:~# MARKER='VNLM''NMVBMW' run 'i2cget -y -f 2 0x4b 0xd'
VNLMNMVBMW0x01
VNLMNMVBMW 0
root@arm:~# echo 'YUTL''CQZYCS'
YUTLCQZYCS
root@arm:~# MARKER='GCOF''VZSMOM' run 'echo 720000 720000 > /sys/kernel/mva_test//regulators/buck1_set'
GCOFVZSMOMGCOFVZSMOM 0
root@arm:~# echo 'UVSN''FKYZQG'
UVSNFKYZQG
root@arm:~# MARKER='BACP''COCEAB' run 'i2cget -y -f 2 0x4b 0xd'
BACPCOCEAB0x02
BACPCOCEAB 0
root@arm:~# echo 'ZUJO''JBTEKZ'
ZUJOJBTEKZ
root@arm:~# MARKER='WSUN''MKUVQL' run 'echo 730000 730000 > /sys/kernel/mva_test//regulators/buck1_set'
WSUNMKUVQLWSUNMKUVQL 0
root@arm:~# echo 'ELGA''KSGFCX'
ELGAKSGFCX
root@arm:~# MARKER='VYAH''QWSFSV' run 'i2cget -y -f 2 0x4b 0xd'
VYAHQWSFSV0x03
VYAHQWSFSV 0
root@arm:~# echo 'MKYN''SZOXHB'
MKYNSZOXHB
root@arm:~# MARKER='UFAZ''TEMHMV' run 'echo 740000 740000 > /sys/kernel/mva_test//regulators/buck1_set'
UFAZTEMHMVUFAZTEMHMV 0
root@arm:~# echo 'TLKO''SELZYN'
TLKOSELZYN
root@arm:~# MARKER='BTZL''KOOJPN' run 'i2cget -y -f 2 0x4b 0xd'
BTZLKOOJPN0x04
BTZLKOOJPN 0
root@arm:~# echo 'UAMN''SHXZEH'
UAMNSHXZEH
root@arm:~# MARKER='NHQS''XASZKA' run 'echo 750000 750000 > /sys/kernel/mva_test//regulators/buck1_set'
NHQSXASZKANHQSXASZKA 0
root@arm:~# echo 'SPJF''LAKVZV'
SPJFLAKVZV
root@arm:~# MARKER='EEPW''XBLFFK' run 'i2cget -y -f 2 0x4b 0xd'
EEPWXBLFFK0x05
EEPWXBLFFK 0
root@arm:~# echo 'YLHN''ZNOOUG'
YLHNZNOOUG
root@arm:~# MARKER='YAZN''PXXPEN' run 'echo 760000 760000 > /sys/kernel/mva_test//regulators/buck1_set'
YAZNPXXPENYAZNPXXPEN 0
root@arm:~# echo 'XAEB''XQNSUC'
XAEBXQNSUC
root@arm:~# MARKER='XFNL''OBYKPH' run 'i2cget -y -f 2 0x4b 0xd'
XFNLOBYKPH0x06
XFNLOBYKPH 0
root@arm:~# echo 'NSLU''ZVZMBT'
NSLUZVZMBT
root@arm:~# MARKER='HQCE''SNLUJF' run 'echo 770000 770000 > /sys/kernel/mva_test//regulators/buck1_set'
HQCESNLUJFHQCESNLUJF 0
root@arm:~# echo 'BVBF''ATCVTK'
BVBFATCVTK
root@arm:~# MARKER='HWXF''MTVGTL' run 'i2cget -y -f 2 0x4b 0xd'
HWXFMTVGTL0x07
HWXFMTVGTL 0
root@arm:~# echo 'UAHH''VJVTHQ'
UAHHVJVTHQ
root@arm:~# MARKER='YYYH''COCPWF' run 'echo 780000 780000 > /sys/kernel/mva_test//regulators/buck1_set'
YYYHCOCPWFYYYHCOCPWF 0
root@arm:~# echo 'VXXF''VHWBEK'
VXXFVHWBEK
root@arm:~# MARKER='PAEZ''EYFCKT' run 'i2cget -y -f 2 0x4b 0xd'
PAEZEYFCKT0x08
PAEZEYFCKT 0
root@arm:~# echo 'XNLF''PEELXT'
XNLFPEELXT
root@arm:~# MARKER='YQJN''GXKUYA' run 'echo 790000 790000 > /sys/kernel/mva_test//regulators/buck1_set'
YQJNGXKUYAYQJNGXKUYA 0
root@arm:~# echo 'MQVY''WXKFAN'
MQVYWXKFAN
root@arm:~# MARKER='MVEP''FCLFYC' run 'i2cget -y -f 2 0x4b 0xd'
MVEPFCLFYC0x09
MVEPFCLFYC 0
root@arm:~# echo 'GCOL''WPHLUE'
GCOLWPHLUE
root@arm:~# MARKER='VQOF''OCQKLO' run 'echo 800000 800000 > /sys/kernel/mva_test//regulators/buck1_set'
VQOFOCQKLOVQOFOCQKLO 0
root@arm:~# echo 'SALM''XCKWOV'
SALMXCKWOV
root@arm:~# MARKER='UGSA''ATLWTF' run 'i2cget -y -f 2 0x4b 0xd'
UGSAATLWTF0x0a
UGSAATLWTF 0
root@arm:~# echo 'KQFU''UMTJYC'
KQFUUMTJYC
root@arm:~# MARKER='CNQJ''ULKMCA' run 'echo 810000 810000 > /sys/kernel/mva_test//regulators/buck1_set'
CNQJULKMCACNQJULKMCA 0
root@arm:~# echo 'XKVM''BOMGNP'
XKVMBOMGNP
root@arm:~# MARKER='NWZZ''ENAHHA' run 'i2cget -y -f 2 0x4b 0xd'
NWZZENAHHA0x0b
NWZZENAHHA 0
root@arm:~# echo 'UYCV''KLKAYL'
UYCVKLKAYL
root@arm:~# MARKER='HCSE''JVQZLK' run 'echo 820000 820000 > /sys/kernel/mva_test//regulators/buck1_set'
HCSEJVQZLKHCSEJVQZLK 0
root@arm:~# echo 'NNOT''QZFWUB'
NNOTQZFWUB
root@arm:~# MARKER='QBSV''CHECOY' run 'i2cget -y -f 2 0x4b 0xd'
QBSVCHECOY0x0c
QBSVCHECOY 0
root@arm:~# echo 'LVHU''ZGWWYC'
LVHUZGWWYC
root@arm:~# MARKER='AMEY''MMMTUB' run 'echo 830000 830000 > /sys/kernel/mva_test//regulators/buck1_set'
AMEYMMMTUBAMEYMMMTUB 0
root@arm:~# echo 'BSPW''JLBGCO'
BSPWJLBGCO
root@arm:~# MARKER='NKEO''PKVSBV' run 'i2cget -y -f 2 0x4b 0xd'
NKEOPKVSBV0x0d
NKEOPKVSBV 0
root@arm:~# echo 'SMTH''MPZOQZ'
SMTHMPZOQZ
root@arm:~# MARKER='QQMY''ASEHLL' run 'echo 840000 840000 > /sys/kernel/mva_test//regulators/buck1_set'
QQMYASEHLLQQMYASEHLL 0
root@arm:~# echo 'YKHH''AUAAOW'
YKHHAUAAOW
root@arm:~# MARKER='OXQW''WZQSUB' run 'i2cget -y -f 2 0x4b 0xd'
OXQWWZQSUB0x0e
OXQWWZQSUB 0
root@arm:~# echo 'QNSH''GPVQOM'
QNSHGPVQOM
root@arm:~# MARKER='WGXU''AMTMCO' run 'echo 850000 850000 > /sys/kernel/mva_test//regulators/buck1_set'
WGXUAMTMCOWGXUAMTMCO 0
root@arm:~# echo 'UXXL''EFJQLN'
UXXLEFJQLN
root@arm:~# MARKER='QHKM''JUVNUW' run 'i2cget -y -f 2 0x4b 0xd'
QHKMJUVNUW0x0f
QHKMJUVNUW 0
root@arm:~# echo 'JXBY''MGWKUX'
JXBYMGWKUX
root@arm:~# MARKER='OABV''KNBLVA' run 'echo 860000 860000 > /sys/kernel/mva_test//regulators/buck1_set'
OABVKNBLVAOABVKNBLVA 0
root@arm:~# echo 'KHQB''OWCMSY'
KHQBOWCMSY
root@arm:~# MARKER='MTJB''QXWJTE' run 'i2cget -y -f 2 0x4b 0xd'
MTJBQXWJTE0x10
MTJBQXWJTE 0
root@arm:~# echo 'GGTY''NSNWNK'
GGTYNSNWNK
root@arm:~# MARKER='PMCQ''JUUTMO' run 'echo 870000 870000 > /sys/kernel/mva_test//regulators/buck1_set'
PMCQJUUTMOPMCQJUUTMO 0
root@arm:~# echo 'ZTSX''ABWTNE'
ZTSXABWTNE
root@arm:~# MARKER='LVCB''BQXYOS' run 'i2cget -y -f 2 0x4b 0xd'
LVCBBQXYOS0x11
LVCBBQXYOS 0
root@arm:~# echo 'FXGW''FTYVVW'
FXGWFTYVVW
root@arm:~# MARKER='XNWG''SCLOYY' run 'echo 880000 880000 > /sys/kernel/mva_test//regulators/buck1_set'
XNWGSCLOYYXNWGSCLOYY 0
root@arm:~# echo 'QUXJ''ABZSVH'
QUXJABZSVH
root@arm:~# MARKER='KPAV''WSCHTP' run 'i2cget -y -f 2 0x4b 0xd'
KPAVWSCHTP0x12
KPAVWSCHTP 0
root@arm:~# echo 'LTBL''LKKAXO'
LTBLLKKAXO
root@arm:~# MARKER='YXFV''WSKCTZ' run 'echo 890000 890000 > /sys/kernel/mva_test//regulators/buck1_set'
YXFVWSKCTZYXFVWSKCTZ 0
root@arm:~# echo 'OAAJ''NYHAHZ'
OAAJNYHAHZ
root@arm:~# MARKER='BZLK''KNZSGB' run 'i2cget -y -f 2 0x4b 0xd'
BZLKKNZSGB0x13
BZLKKNZSGB 0
root@arm:~# echo 'AAEQ''PGHEFK'
AAEQPGHEFK
root@arm:~# MARKER='KEYC''VHKAPG' run 'echo 900000 900000 > /sys/kernel/mva_test//regulators/buck1_set'
KEYCVHKAPGKEYCVHKAPG 0
root@arm:~# echo 'JLNE''SJWTLG'
JLNESJWTLG
root@arm:~# MARKER='VUKY''XMCOCS' run 'i2cget -y -f 2 0x4b 0xd'
VUKYXMCOCS0x14
VUKYXMCOCS 0
root@arm:~# echo 'BGMH''MZCGET'
BGMHMZCGET
root@arm:~# MARKER='XTUY''WVFHNH' run 'echo 910000 910000 > /sys/kernel/mva_test//regulators/buck1_set'
XTUYWVFHNHXTUYWVFHNH 0
root@arm:~# echo 'XKLP''CUTEFP'
XKLPCUTEFP
root@arm:~# MARKER='POWF''VKEBSV' run 'i2cget -y -f 2 0x4b 0xd'
POWFVKEBSV0x15
POWFVKEBSV 0
root@arm:~# echo 'FQME''TXFPSA'
FQMETXFPSA
root@arm:~# MARKER='CSGA''NYZLLL' run 'echo 920000 920000 > /sys/kernel/mva_test//regulators/buck1_set'
CSGANYZLLLCSGANYZLLL 0
root@arm:~# echo 'FCKN''SGHLEZ'
FCKNSGHLEZ
root@arm:~# MARKER='SANB''AOZULM' run 'i2cget -y -f 2 0x4b 0xd'
SANBAOZULM0x16
SANBAOZULM 0
root@arm:~# echo 'WFTO''YLMLWX'
WFTOYLMLWX
root@arm:~# MARKER='GFOB''XKBKSO' run 'echo 930000 930000 > /sys/kernel/mva_test//regulators/buck1_set'
GFOBXKBKSOGFOBXKBKSO 0
root@arm:~# echo 'GUCN''SWMSQW'
GUCNSWMSQW
root@arm:~# MARKER='TJTV''LEAGUB' run 'i2cget -y -f 2 0x4b 0xd'
TJTVLEAGUB0x17
TJTVLEAGUB 0
root@arm:~# echo 'APAV''YSFAFH'
APAVYSFAFH
root@arm:~# MARKER='SVFW''ZVSTEG' run 'echo 940000 940000 > /sys/kernel/mva_test//regulators/buck1_set'
SVFWZVSTEGSVFWZVSTEG 0
root@arm:~# echo 'NCHE''HTNTKC'
NCHEHTNTKC
root@arm:~# MARKER='GPUX''LXOXOA' run 'i2cget -y -f 2 0x4b 0xd'
GPUXLXOXOA0x18
GPUXLXOXOA 0
root@arm:~# echo 'XCHK''VXSAZA'
XCHKVXSAZA
root@arm:~# MARKER='JNPB''VXVYMS' run 'echo 950000 950000 > /sys/kernel/mva_test//regulators/buck1_set'
JNPBVXVYMSJNPBVXVYMS 0
root@arm:~# echo 'LANJ''CGVLMP'
LANJCGVLMP
root@arm:~# MARKER='XQLH''GOAYOM' run 'i2cget -y -f 2 0x4b 0xd'
XQLHGOAYOM0x19
XQLHGOAYOM 0
root@arm:~# echo 'CFZH''VOCMOG'
CFZHVOCMOG
root@arm:~# MARKER='ZPHU''UGMCNY' run 'echo 960000 960000 > /sys/kernel/mva_test//regulators/buck1_set'
ZPHUUGMCNYZPHUUGMCNY 0
root@arm:~# echo 'ZUSL''YKCMJL'
ZUSLYKCMJL
root@arm:~# MARKER='UBNM''SLCNAB' run 'i2cget -y -f 2 0x4b 0xd'
UBNMSLCNAB0x1a
UBNMSLCNAB 0
root@arm:~# echo 'NWHF''YVAHOS'
NWHFYVAHOS
root@arm:~# MARKER='YJUS''JQAGXX' run 'echo 970000 970000 > /sys/kernel/mva_test//regulators/buck1_set'
YJUSJQAGXXYJUSJQAGXX 0
root@arm:~# echo 'SMAF''SKNJMF'
SMAFSKNJMF
root@arm:~# MARKER='BAFC''HWVYVM' run 'i2cget -y -f 2 0x4b 0xd'
BAFCHWVYVM0x1b
BAFCHWVYVM 0
root@arm:~# echo 'LZYF''XQUWAH'
LZYFXQUWAH
root@arm:~# MARKER='OYVX''EGWOVT' run 'echo 980000 980000 > /sys/kernel/mva_test//regulators/buck1_set'
OYVXEGWOVTOYVXEGWOVT 0
root@arm:~# echo 'ZOKT''OOLXAF'
ZOKTOOLXAF
root@arm:~# MARKER='VSZJ''ZLFPKW' run 'i2cget -y -f 2 0x4b 0xd'
VSZJZLFPKW0x1c
VSZJZLFPKW 0
root@arm:~# echo 'ZHFU''CASPKA'
ZHFUCASPKA
root@arm:~# MARKER='GPFO''VFMFOQ' run 'echo 990000 990000 > /sys/kernel/mva_test//regulators/buck1_set'
GPFOVFMFOQGPFOVFMFOQ 0
root@arm:~# echo 'BMAA''JQQPTM'
BMAAJQQPTM
root@arm:~# MARKER='YSWU''PLOBNT' run 'i2cget -y -f 2 0x4b 0xd'
YSWUPLOBNT0x1d
YSWUPLOBNT 0
root@arm:~# echo 'THBX''KGUAQY'
THBXKGUAQY
root@arm:~# MARKER='KFZU''SPAGGK' run 'echo 1000000 1000000 > /sys/kernel/mva_tesst/regulators/buck1_set'
KFZUSPAGGKKFZUSPAGGK 0
root@arm:~# echo 'OZOG''FLYLHF'
OZOGFLYLHF
root@arm:~# MARKER='ZFGY''UYGCTF' run 'i2cget -y -f 2 0x4b 0xd'
ZFGYUYGCTF0x1e
ZFGYUYGCTF 0
root@arm:~# echo 'PLPX''SGJWSA'
PLPXSGJWSA
root@arm:~# MARKER='MMQT''AUYUET' run 'echo 1010000 1010000 > /sys/kernel/mva_tesst/regulators/buck1_set'
MMQTAUYUETMMQTAUYUET 0
root@arm:~# echo 'PXGN''USEWPL'
PXGNUSEWPL
root@arm:~# MARKER='FUHB''QPOBCE' run 'i2cget -y -f 2 0x4b 0xd'
FUHBQPOBCE0x1f
FUHBQPOBCE 0
root@arm:~# echo 'PCZO''ZFXYBK'
PCZOZFXYBK
root@arm:~# MARKER='JWWL''SAJGAZ' run 'echo 1020000 1020000 > /sys/kernel/mva_tesst/regulators/buck1_set'
JWWLSAJGAZJWWLSAJGAZ 0
root@arm:~# echo 'UYEU''EYNKGZ'
UYEUEYNKGZ
root@arm:~# MARKER='NWCM''ZXGKNP' run 'i2cget -y -f 2 0x4b 0xd'
NWCMZXGKNP0x20
NWCMZXGKNP 0
root@arm:~# echo 'EWCO''OPUYVY'
EWCOOPUYVY
root@arm:~# MARKER='FSBN''YOVMOT' run 'echo 1030000 1030000 > /sys/kernel/mva_tesst/regulators/buck1_set'
FSBNYOVMOTFSBNYOVMOT 0
root@arm:~# echo 'JQSX''EQAKCK'
JQSXEQAKCK
root@arm:~# MARKER='MENX''YEUNOV' run 'i2cget -y -f 2 0x4b 0xd'
MENXYEUNOV0x21
MENXYEUNOV 0
root@arm:~# echo 'TOBK''OWUFVV'
TOBKOWUFVV
root@arm:~# MARKER='UJQS''VGUSOG' run 'echo 1040000 1040000 > /sys/kernel/mva_tesst/regulators/buck1_set'
UJQSVGUSOGUJQSVGUSOG 0
root@arm:~# echo 'SQOM''QYPVHK'
SQOMQYPVHK
root@arm:~# MARKER='NJXC''SLXNGA' run 'i2cget -y -f 2 0x4b 0xd'
NJXCSLXNGA0x22
NJXCSLXNGA 0
root@arm:~# echo 'WMGT''VJKMZE'
WMGTVJKMZE
root@arm:~# MARKER='EVJK''HPHSVX' run 'echo 1050000 1050000 > /sys/kernel/mva_tesst/regulators/buck1_set'
EVJKHPHSVXEVJKHPHSVX 0
root@arm:~# echo 'WBFL''TCOKTM'
WBFLTCOKTM
root@arm:~# MARKER='BEQM''PVOLFP' run 'i2cget -y -f 2 0x4b 0xd'
BEQMPVOLFP0x23
BEQMPVOLFP 0
root@arm:~# echo 'QAPK''UTPCPY'
QAPKUTPCPY
root@arm:~# MARKER='EEGN''QUPNTK' run 'echo 1060000 1060000 > /sys/kernel/mva_tesst/regulators/buck1_set'
EEGNQUPNTKEEGNQUPNTK 0
root@arm:~# echo 'UUKU''BKHFAT'
UUKUBKHFAT
root@arm:~# MARKER='YWCO''YVZWOC' run 'i2cget -y -f 2 0x4b 0xd'
YWCOYVZWOC0x24
YWCOYVZWOC 0
root@arm:~# echo 'SJKQ''QQBYON'
SJKQQQBYON
root@arm:~# MARKER='EMXK''WPVBYN' run 'echo 1070000 1070000 > /sys/kernel/mva_tesst/regulators/buck1_set'
EMXKWPVBYNEMXKWPVBYN 0
root@arm:~# echo 'VWCJ''VPWUCQ'
VWCJVPWUCQ
root@arm:~# MARKER='PFJW''PYQKVG' run 'i2cget -y -f 2 0x4b 0xd'
PFJWPYQKVG0x25
PFJWPYQKVG 0
root@arm:~# echo 'UTHQ''ZVAQVU'
UTHQZVAQVU
root@arm:~# MARKER='BFBX''QZXSLJ' run 'echo 1080000 1080000 > /sys/kernel/mva_tesst/regulators/buck1_set'
BFBXQZXSLJBFBXQZXSLJ 0
root@arm:~# echo 'FPJQ''TFUEBK'
FPJQTFUEBK
root@arm:~# MARKER='UNNS''PLJTXK' run 'i2cget -y -f 2 0x4b 0xd'
UNNSPLJTXK0x26
UNNSPLJTXK 0
root@arm:~# echo 'OZAS''ZMYVMJ'
OZASZMYVMJ
root@arm:~# MARKER='WOMV''FJJAMA' run 'echo 1090000 1090000 > /sys/kernel/mva_tesst/regulators/buck1_set'
WOMVFJJAMAWOMVFJJAMA 0
root@arm:~# echo 'ZMZP''FXUSVN'
ZMZPFXUSVN
root@arm:~# MARKER='BZXB''QJELHJ' run 'i2cget -y -f 2 0x4b 0xd'
BZXBQJELHJ0x27
BZXBQJELHJ 0
root@arm:~# echo 'LLNB''AOMSUL'
LLNBAOMSUL
root@arm:~# MARKER='GXCE''KOTKXB' run 'echo 1100000 1100000 > /sys/kernel/mva_tesst/regulators/buck1_set'
GXCEKOTKXBGXCEKOTKXB 0
root@arm:~# echo 'QJKH''AAYTLL'
QJKHAAYTLL
root@arm:~# MARKER='FWML''MYEWQT' run 'i2cget -y -f 2 0x4b 0xd'
FWMLMYEWQT0x28
FWMLMYEWQT 0
root@arm:~# echo 'KXHK''BGASXP'
KXHKBGASXP
root@arm:~# MARKER='BTQK''ZBFYPV' run 'echo 1110000 1110000 > /sys/kernel/mva_tesst/regulators/buck1_set'
BTQKZBFYPVBTQKZBFYPV 0
root@arm:~# echo 'QSCZ''AZVTTF'
QSCZAZVTTF
root@arm:~# MARKER='YUXW''KBAOWF' run 'i2cget -y -f 2 0x4b 0xd'
YUXWKBAOWF0x29
YUXWKBAOWF 0
root@arm:~# echo 'PSYH''PSUGLM'
PSYHPSUGLM
root@arm:~# MARKER='WBGG''ZLOZGB' run 'echo 1120000 1120000 > /sys/kernel/mva_tesst/regulators/buck1_set'
WBGGZLOZGBWBGGZLOZGB 0
root@arm:~# echo 'JSPZ''CMCKBE'
JSPZCMCKBE
root@arm:~# MARKER='YPXJ''TKGAUH' run 'i2cget -y -f 2 0x4b 0xd'
YPXJTKGAUH0x2a
YPXJTKGAUH 0
root@arm:~# echo 'SZES''HBLJMS'
SZESHBLJMS
root@arm:~# MARKER='LJFW''QXVYFX' run 'echo 1130000 1130000 > /sys/kernel/mva_tesst/regulators/buck1_set'
LJFWQXVYFXLJFWQXVYFX 0
root@arm:~# echo 'YEXH''KHKCUU'
YEXHKHKCUU
root@arm:~# MARKER='SBEG''JWBLKU' run 'i2cget -y -f 2 0x4b 0xd'
SBEGJWBLKU0x2b
SBEGJWBLKU 0
root@arm:~# echo 'GVVQ''TUMAOA'
GVVQTUMAOA
root@arm:~# MARKER='EGYO''FUGHGK' run 'echo 1140000 1140000 > /sys/kernel/mva_tesst/regulators/buck1_set'
EGYOFUGHGKEGYOFUGHGK 0
root@arm:~# echo 'ZSLQ''NPLECO'
ZSLQNPLECO
root@arm:~# MARKER='LNYF''UTYJWP' run 'i2cget -y -f 2 0x4b 0xd'
LNYFUTYJWP0x2c
LNYFUTYJWP 0
root@arm:~# echo 'TTPT''QEMQHO'
TTPTQEMQHO
root@arm:~# MARKER='TMQX''XHNGFJ' run 'echo 1150000 1150000 > /sys/kernel/mva_tesst/regulators/buck1_set'
TMQXXHNGFJTMQXXHNGFJ 0
root@arm:~# echo 'GTXY''YQMLMF'
GTXYYQMLMF
root@arm:~# MARKER='HQBP''TKCUXY' run 'i2cget -y -f 2 0x4b 0xd'
HQBPTKCUXY0x2d
HQBPTKCUXY 0
root@arm:~# echo 'UJGK''AUQWCN'
UJGKAUQWCN
root@arm:~# MARKER='ASFL''TFLUBF' run 'echo 1160000 1160000 > /sys/kernel/mva_tesst/regulators/buck1_set'
ASFLTFLUBFASFLTFLUBF 0
root@arm:~# echo 'MOXT''YCPXFN'
MOXTYCPXFN
root@arm:~# MARKER='XKZU''NHYQEP' run 'i2cget -y -f 2 0x4b 0xd'
XKZUNHYQEP0x2e
XKZUNHYQEP 0
root@arm:~# echo 'TUGJ''VUUTOL'
TUGJVUUTOL
root@arm:~# MARKER='TSHQ''MUUQPN' run 'echo 1170000 1170000 > /sys/kernel/mva_tesst/regulators/buck1_set'
TSHQMUUQPNTSHQMUUQPN 0
root@arm:~# echo 'YYOW''SKKMHH'
YYOWSKKMHH
root@arm:~# MARKER='YOHK''KGCAXP' run 'i2cget -y -f 2 0x4b 0xd'
YOHKKGCAXP0x2f
YOHKKGCAXP 0
root@arm:~# echo 'LZPS''KSTSCA'
LZPSKSTSCA
root@arm:~# MARKER='XSYK''JEEAZV' run 'echo 1180000 1180000 > /sys/kernel/mva_tesst/regulators/buck1_set'
XSYKJEEAZVXSYKJEEAZV 0
root@arm:~# echo 'BBMQ''CASWGW'
BBMQCASWGW
root@arm:~# MARKER='WPVX''OZNUSP' run 'i2cget -y -f 2 0x4b 0xd'
WPVXOZNUSP0x30
WPVXOZNUSP 0
root@arm:~# echo 'OZSV''VYZUUT'
OZSVVYZUUT
root@arm:~# MARKER='XMOC''PYJSCF' run 'echo 1190000 1190000 > /sys/kernel/mva_tesst/regulators/buck1_set'
XMOCPYJSCFXMOCPYJSCF 0
root@arm:~# echo 'AYOY''SASCXN'
AYOYSASCXN
root@arm:~# MARKER='QHVN''APYSYZ' run 'i2cget -y -f 2 0x4b 0xd'
QHVNAPYSYZ0x31
QHVNAPYSYZ 0
root@arm:~# echo 'LKXE''WXYQES'
LKXEWXYQES
root@arm:~# MARKER='XTOA''KOKWAZ' run 'echo 1200000 1200000 > /sys/kernel/mva_tesst/regulators/buck1_set'
XTOAKOKWAZXTOAKOKWAZ 0
root@arm:~# echo 'JEMN''WTXXYZ'
JEMNWTXXYZ
root@arm:~# MARKER='SESK''LKJNJF' run 'i2cget -y -f 2 0x4b 0xd'
SESKLKJNJF0x32
SESKLKJNJF 0
root@arm:~# echo 'JZAS''BTUUYN'
JZASBTUUYN
root@arm:~# MARKER='NOGG''HLUFOQ' run 'echo 1210000 1210000 > /sys/kernel/mva_tesst/regulators/buck1_set'
NOGGHLUFOQNOGGHLUFOQ 0
root@arm:~# echo 'NYPC''ZEFZZM'
NYPCZEFZZM
root@arm:~# MARKER='JEBP''UFPQYT' run 'i2cget -y -f 2 0x4b 0xd'
JEBPUFPQYT0x33
JEBPUFPQYT 0
root@arm:~# echo 'TLES''VSZNVQ'
TLESVSZNVQ
root@arm:~# MARKER='CVAF''LOFFFP' run 'echo 1220000 1220000 > /sys/kernel/mva_tesst/regulators/buck1_set'
CVAFLOFFFPCVAFLOFFFP 0
root@arm:~# echo 'VVOA''OXWOMJ'
VVOAOXWOMJ
root@arm:~# MARKER='QSLF''VCAKSC' run 'i2cget -y -f 2 0x4b 0xd'
QSLFVCAKSC0x34
QSLFVCAKSC 0
root@arm:~# echo 'QTMQ''FPSAJH'
QTMQFPSAJH
root@arm:~# MARKER='ZJMC''ZFABAP' run 'echo 1230000 1230000 > /sys/kernel/mva_tesst/regulators/buck1_set'
ZJMCZFABAPZJMCZFABAP 0
root@arm:~# echo 'LOYM''TZYCFB'
LOYMTZYCFB
root@arm:~# MARKER='UKTL''ZNPKVL' run 'i2cget -y -f 2 0x4b 0xd'
UKTLZNPKVL0x35
UKTLZNPKVL 0
root@arm:~# echo 'YYCN''YTGPMK'
YYCNYTGPMK
root@arm:~# MARKER='NHMU''TCGOCE' run 'echo 1240000 1240000 > /sys/kernel/mva_tesst/regulators/buck1_set'
NHMUTCGOCENHMUTCGOCE 0
root@arm:~# echo 'GBHX''ACLKOH'
GBHXACLKOH
root@arm:~# MARKER='WOTV''KAQVFV' run 'i2cget -y -f 2 0x4b 0xd'
WOTVKAQVFV0x36
WOTVKAQVFV 0
root@arm:~# echo 'UVMA''WYAPUC'
UVMAWYAPUC
root@arm:~# MARKER='UOXM''HTVXEL' run 'echo 1250000 1250000 > /sys/kernel/mva_tesst/regulators/buck1_set'
UOXMHTVXELUOXMHTVXEL 0
root@arm:~# echo 'ZUOH''OEBMJU'
ZUOHOEBMJU
root@arm:~# MARKER='PMYC''ENYSYJ' run 'i2cget -y -f 2 0x4b 0xd'
PMYCENYSYJ0x37
PMYCENYSYJ 0
root@arm:~# echo 'JZPV''OLCCLM'
JZPVOLCCLM
root@arm:~# MARKER='UHYU''SJBZKN' run 'echo 1260000 1260000 > /sys/kernel/mva_tesst/regulators/buck1_set'
UHYUSJBZKNUHYUSJBZKN 0
root@arm:~# echo 'KSTZ''MBOHXK'
KSTZMBOHXK
root@arm:~# MARKER='UEQV''AJKBTF' run 'i2cget -y -f 2 0x4b 0xd'
UEQVAJKBTF0x38
UEQVAJKBTF 0
root@arm:~# echo 'BHNB''SKTKTM'
BHNBSKTKTM
root@arm:~# MARKER='ALQU''UMHBUB' run 'echo 1270000 1270000 > /sys/kernel/mva_tesst/regulators/buck1_set'
ALQUUMHBUBALQUUMHBUB 0
root@arm:~# echo 'CKLW''OQPBFM'
CKLWOQPBFM
root@arm:~# MARKER='QKHE''MWOVOU' run 'i2cget -y -f 2 0x4b 0xd'
QKHEMWOVOU0x39
QKHEMWOVOU 0
root@arm:~# echo 'ZNXE''HQOOAO'
ZNXEHQOOAO
root@arm:~# MARKER='QOAH''YHOAKE' run 'echo 1280000 1280000 > /sys/kernel/mva_tesst/regulators/buck1_set'
QOAHYHOAKEQOAHYHOAKE 0
root@arm:~# echo 'FTAM''ANCWZJ'
FTAMANCWZJ
root@arm:~# MARKER='QFVO''XCTPJP' run 'i2cget -y -f 2 0x4b 0xd'
QFVOXCTPJP0x3a
QFVOXCTPJP 0
root@arm:~# echo 'EFZT''XXVQEZ'
EFZTXXVQEZ
root@arm:~# MARKER='XFGG''NWQPLQ' run 'echo 1290000 1290000 > /sys/kernel/mva_tesst/regulators/buck1_set'
XFGGNWQPLQXFGGNWQPLQ 0
root@arm:~# echo 'MEHH''BNSNWN'
MEHHBNSNWN
root@arm:~# MARKER='FOZM''YGSMYU' run 'i2cget -y -f 2 0x4b 0xd'
FOZMYGSMYU0x3b
FOZMYGSMYU 0
root@arm:~# echo 'HOLZ''OGYNYC'
HOLZOGYNYC
root@arm:~# MARKER='CJEB''HJKLPL' run 'echo 1300000 1300000 > /sys/kernel/mva_tesst/regulators/buck1_set'
CJEBHJKLPLCJEBHJKLPL 0
root@arm:~# echo 'STVE''BPSKVX'
STVEBPSKVX
root@arm:~# MARKER='VOUU''ASLBYP' run 'i2cget -y -f 2 0x4b 0xd'
VOUUASLBYP0x3c
VOUUASLBYP 0
root@arm:~# echo 'QFCS''JZCEBX'
QFCSJZCEBX
root@arm:~# MARKER='ZWGB''CHOBLF' run 'grep -r -l rohm,bd71837 /proc/device-tree  | sed '"'"'s![^/]*$!!'"'"''
ZWGBCHOBLF/proc/device-tree/ocp/interconnect@48000000/segment@100000/target-module@9c000/i2c@0/pmic@4b/
ZWGBCHOBLF 0
root@arm:~# echo 'MLKG''OUOTMP'
MLKGOUOTMP
root@arm:~# MARKER='KTMM''TWPOPL' run 'test -f /proc/device-tree/ocp/interconnectt\@48000000/segment\@100000/target-module\@9c000/i2c\@0/pmic\@4b/regulators/BUCK22/rohm,no-regulator-enable-control ;echo $?'
KTMMTWPOPL1
KTMMTWPOPL 0
root@arm:~# echo 'GXJP''ZHUALL'
GXJPZHUALL
root@arm:~# MARKER='TXWV''CSMGPA' run 'i2cget -y -f 2 0x4b 0x6'
TXWVCSMGPA0x43
TXWVCSMGPA 0
root@arm:~# echo 'PKYB''CXQMXT'
PKYBCXQMXT
root@arm:~# MARKER='JZNL''HHGTOQ' run 'echo 700000 700000 > /sys/kernel/mva_test//regulators/buck2_set'
JZNLHHGTOQJZNLHHGTOQ 0
root@arm:~# echo 'MXYA''WUMHHQ'
MXYAWUMHHQ
root@arm:~# MARKER='PFZK''SYCXJU' run 'i2cget -y -f 2 0x4b 0x10'
PFZKSYCXJU0x00
PFZKSYCXJU 0
root@arm:~# echo 'GKPL''WZUXEV'
GKPLWZUXEV
root@arm:~# MARKER='AGZX''XVOWHX' run 'echo 710000 710000 > /sys/kernel/mva_test//regulators/buck2_set'
AGZXXVOWHXAGZXXVOWHX 0
root@arm:~# echo 'ZUZZ''JWUETB'
ZUZZJWUETB
root@arm:~# MARKER='SLQF''MPWOXL' run 'i2cget -y -f 2 0x4b 0x10'
SLQFMPWOXL0x01
SLQFMPWOXL 0
root@arm:~# echo 'OSPE''EPMPJG'
OSPEEPMPJG
root@arm:~# MARKER='COHA''CFVWUF' run 'echo 720000 720000 > /sys/kernel/mva_test//regulators/buck2_set'
COHACFVWUFCOHACFVWUF 0
root@arm:~# echo 'SMSN''EKKWNT'
SMSNEKKWNT
root@arm:~# MARKER='HGYX''FFCKBY' run 'i2cget -y -f 2 0x4b 0x10'
HGYXFFCKBY0x02
HGYXFFCKBY 0
root@arm:~# echo 'HOXX''GGTJBG'
HOXXGGTJBG
root@arm:~# MARKER='UKTG''NAOFGW' run 'echo 730000 730000 > /sys/kernel/mva_test//regulators/buck2_set'
UKTGNAOFGWUKTGNAOFGW 0
root@arm:~# echo 'NHCL''YEXGJQ'
NHCLYEXGJQ
root@arm:~# MARKER='JFUY''OXSVAJ' run 'i2cget -y -f 2 0x4b 0x10'
JFUYOXSVAJ0x03
JFUYOXSVAJ 0
root@arm:~# echo 'BGHY''ZXNOVA'
BGHYZXNOVA
root@arm:~# MARKER='CSAL''OOWFYM' run 'echo 740000 740000 > /sys/kernel/mva_test//regulators/buck2_set'
CSALOOWFYMCSALOOWFYM 0
root@arm:~# echo 'NPQY''JVKWLQ'
NPQYJVKWLQ
root@arm:~# MARKER='QGMF''JWYCFK' run 'i2cget -y -f 2 0x4b 0x10'
QGMFJWYCFK0x04
QGMFJWYCFK 0
root@arm:~# echo 'ZPET''LJWXJV'
ZPETLJWXJV
root@arm:~# MARKER='VCQA''BBFFFF' run 'echo 750000 750000 > /sys/kernel/mva_test//regulators/buck2_set'
VCQABBFFFFVCQABBFFFF 0
root@arm:~# echo 'TEKK''QGVAYE'
TEKKQGVAYE
root@arm:~# MARKER='YLVG''SMECGO' run 'i2cget -y -f 2 0x4b 0x10'
YLVGSMECGO0x05
YLVGSMECGO 0
root@arm:~# echo 'KALM''HBMJKM'
KALMHBMJKM
root@arm:~# MARKER='AZUY''BWVKLP' run 'echo 760000 760000 > /sys/kernel/mva_test//regulators/buck2_set'
AZUYBWVKLPAZUYBWVKLP 0
root@arm:~# echo 'UCHU''PSVQMK'
UCHUPSVQMK
root@arm:~# MARKER='JCTG''YTBLOL' run 'i2cget -y -f 2 0x4b 0x10'
JCTGYTBLOL0x06
JCTGYTBLOL 0
root@arm:~# echo 'BPHQ''PUKVLH'
BPHQPUKVLH
root@arm:~# MARKER='KMYL''GNZBYP' run 'echo 770000 770000 > /sys/kernel/mva_test//regulators/buck2_set'
KMYLGNZBYPKMYLGNZBYP 0
root@arm:~# echo 'BNSL''ZUSKYQ'
BNSLZUSKYQ
root@arm:~# MARKER='LQKL''BVULSF' run 'i2cget -y -f 2 0x4b 0x10'
LQKLBVULSF0x07
LQKLBVULSF 0
root@arm:~# echo 'QKCO''FVYECV'
QKCOFVYECV
root@arm:~# MARKER='VBSL''HUZVOE' run 'echo 780000 780000 > /sys/kernel/mva_test//regulators/buck2_set'
VBSLHUZVOEVBSLHUZVOE 0
root@arm:~# echo 'NCNQ''UYLSOG'
NCNQUYLSOG
root@arm:~# MARKER='UHOT''SABEWF' run 'i2cget -y -f 2 0x4b 0x10'
UHOTSABEWF0x08
UHOTSABEWF 0
root@arm:~# echo 'PNGX''OLEMPE'
PNGXOLEMPE
root@arm:~# MARKER='WXAT''NQEFEJ' run 'echo 790000 790000 > /sys/kernel/mva_test//regulators/buck2_set'
WXATNQEFEJWXATNQEFEJ 0
root@arm:~# echo 'UMLQ''PUXCAE'
UMLQPUXCAE
root@arm:~# MARKER='KYCS''WLNYWB' run 'i2cget -y -f 2 0x4b 0x10'
KYCSWLNYWB0x09
KYCSWLNYWB 0
root@arm:~# echo 'HPJG''MJXYVG'
HPJGMJXYVG
root@arm:~# MARKER='AEAK''OECMCL' run 'echo 800000 800000 > /sys/kernel/mva_test//regulators/buck2_set'
AEAKOECMCLAEAKOECMCL 0
root@arm:~# echo 'JFMX''BNTLXP'
JFMXBNTLXP
root@arm:~# MARKER='BCWT''TOOSXH' run 'i2cget -y -f 2 0x4b 0x10'
BCWTTOOSXH0x0a
BCWTTOOSXH 0
root@arm:~# echo 'WWAX''XNZWTY'
WWAXXNZWTY
root@arm:~# MARKER='AFZA''XEYLGL' run 'echo 810000 810000 > /sys/kernel/mva_test//regulators/buck2_set'
AFZAXEYLGLAFZAXEYLGL 0
root@arm:~# echo 'GSNJ''FUUFFV'
GSNJFUUFFV
root@arm:~# MARKER='WTXA''ZVKSAL' run 'i2cget -y -f 2 0x4b 0x10'
WTXAZVKSAL0x0b
WTXAZVKSAL 0
root@arm:~# echo 'UGST''FEEGNS'
UGSTFEEGNS
root@arm:~# MARKER='EYTE''KVAUPB' run 'echo 820000 820000 > /sys/kernel/mva_test//regulators/buck2_set'
EYTEKVAUPBEYTEKVAUPB 0
root@arm:~# echo 'YWAG''WGESPW'
YWAGWGESPW
root@arm:~# MARKER='SVMP''NOPAOV' run 'i2cget -y -f 2 0x4b 0x10'
SVMPNOPAOV0x0c
SVMPNOPAOV 0
root@arm:~# echo 'PVJV''HNGZNV'
PVJVHNGZNV
root@arm:~# MARKER='OJJH''MNAKWH' run 'echo 830000 830000 > /sys/kernel/mva_test//regulators/buck2_set'
OJJHMNAKWHOJJHMNAKWH 0
root@arm:~# echo 'NAVS''MGJKZZ'
NAVSMGJKZZ
root@arm:~# MARKER='TUAK''ULUFZJ' run 'i2cget -y -f 2 0x4b 0x10'
TUAKULUFZJ0x0d
TUAKULUFZJ 0
root@arm:~# echo 'VMXO''QMGGKV'
VMXOQMGGKV
root@arm:~# MARKER='PWTZ''YJTHYO' run 'echo 840000 840000 > /sys/kernel/mva_test//regulators/buck2_set'
PWTZYJTHYOPWTZYJTHYO 0
root@arm:~# echo 'OHGL''MMQCPZ'
OHGLMMQCPZ
root@arm:~# MARKER='JYSV''BEALVF' run 'i2cget -y -f 2 0x4b 0x10'
JYSVBEALVF0x0e
JYSVBEALVF 0
root@arm:~# echo 'MQEX''EAXZHA'
MQEXEAXZHA
root@arm:~# MARKER='UGUF''OOYPFG' run 'echo 850000 850000 > /sys/kernel/mva_test//regulators/buck2_set'
UGUFOOYPFGUGUFOOYPFG 0
root@arm:~# echo 'GLKA''NWTNFJ'
GLKANWTNFJ
root@arm:~# MARKER='EFQB''FSEEMK' run 'i2cget -y -f 2 0x4b 0x10'
EFQBFSEEMK0x0f
EFQBFSEEMK 0
root@arm:~# echo 'CBTE''ZLLZKE'
CBTEZLLZKE
root@arm:~# MARKER='OHJQ''YWAGBE' run 'echo 860000 860000 > /sys/kernel/mva_test//regulators/buck2_set'
OHJQYWAGBEOHJQYWAGBE 0
root@arm:~# echo 'CWHZ''USCPAA'
CWHZUSCPAA
root@arm:~# MARKER='SOKF''YVGZMQ' run 'i2cget -y -f 2 0x4b 0x10'
SOKFYVGZMQ0x10
SOKFYVGZMQ 0
root@arm:~# echo 'GQLQ''XMHWML'
GQLQXMHWML
root@arm:~# MARKER='UNSU''EWASSU' run 'echo 870000 870000 > /sys/kernel/mva_test//regulators/buck2_set'
UNSUEWASSUUNSUEWASSU 0
root@arm:~# echo 'EAJZ''BZOHKG'
EAJZBZOHKG
root@arm:~# MARKER='FJSA''XZZHLY' run 'i2cget -y -f 2 0x4b 0x10'
FJSAXZZHLY0x11
FJSAXZZHLY 0
root@arm:~# echo 'JPVT''FEOZYG'
JPVTFEOZYG
root@arm:~# MARKER='QQCF''EBEOAG' run 'echo 880000 880000 > /sys/kernel/mva_test//regulators/buck2_set'
QQCFEBEOAGQQCFEBEOAG 0
root@arm:~# echo 'XXZC''OUONLU'
XXZCOUONLU
root@arm:~# MARKER='NZSS''KJQTXJ' run 'i2cget -y -f 2 0x4b 0x10'
NZSSKJQTXJ0x12
NZSSKJQTXJ 0
root@arm:~# echo 'LTHP''VXECNT'
LTHPVXECNT
root@arm:~# MARKER='UASL''ALPELL' run 'echo 890000 890000 > /sys/kernel/mva_test//regulators/buck2_set'
UASLALPELLUASLALPELL 0
root@arm:~# echo 'JCTM''TSBPCY'
JCTMTSBPCY
root@arm:~# MARKER='NLVS''JHAYUW' run 'i2cget -y -f 2 0x4b 0x10'
NLVSJHAYUW0x13
NLVSJHAYUW 0
root@arm:~# echo 'KWXK''CMLMHF'
KWXKCMLMHF
root@arm:~# MARKER='ELVV''OAVPFX' run 'echo 900000 900000 > /sys/kernel/mva_test//regulators/buck2_set'
ELVVOAVPFXELVVOAVPFX 0
root@arm:~# echo 'FEUG''UQBGOH'
FEUGUQBGOH
root@arm:~# MARKER='BZHN''WPWZPL' run 'i2cget -y -f 2 0x4b 0x10'
BZHNWPWZPL0x14
BZHNWPWZPL 0
root@arm:~# echo 'HWOT''XZNYXL'
HWOTXZNYXL
root@arm:~# MARKER='HKYA''FPYWUB' run 'echo 910000 910000 > /sys/kernel/mva_test//regulators/buck2_set'
HKYAFPYWUBHKYAFPYWUB 0
root@arm:~# echo 'PESA''TUWVVT'
PESATUWVVT
root@arm:~# MARKER='MCXE''BLVUSF' run 'i2cget -y -f 2 0x4b 0x10'
MCXEBLVUSF0x15
MCXEBLVUSF 0
root@arm:~# echo 'LQKN''QTUJPA'
LQKNQTUJPA
root@arm:~# MARKER='PASP''TYHSJL' run 'echo 920000 920000 > /sys/kernel/mva_test//regulators/buck2_set'
PASPTYHSJLPASPTYHSJL 0
root@arm:~# echo 'CTOW''JHVQKA'
CTOWJHVQKA
root@arm:~# MARKER='FOXO''KHVUQW' run 'i2cget -y -f 2 0x4b 0x10'
FOXOKHVUQW0x16
FOXOKHVUQW 0
root@arm:~# echo 'PUGY''WTXXXL'
PUGYWTXXXL
root@arm:~# MARKER='AHUZ''LQFCTO' run 'echo 930000 930000 > /sys/kernel/mva_test//regulators/buck2_set'
AHUZLQFCTOAHUZLQFCTO 0
root@arm:~# echo 'CNWZ''GZABKB'
CNWZGZABKB
root@arm:~# MARKER='EYPA''MOWQUQ' run 'i2cget -y -f 2 0x4b 0x10'
EYPAMOWQUQ0x17
EYPAMOWQUQ 0
root@arm:~# echo 'OTWQ''ZKWMVK'
OTWQZKWMVK
root@arm:~# MARKER='TSUC''YTZJAL' run 'echo 940000 940000 > /sys/kernel/mva_test//regulators/buck2_set'
TSUCYTZJALTSUCYTZJAL 0
root@arm:~# echo 'AQYT''OQYMJB'
AQYTOQYMJB
root@arm:~# MARKER='UBAU''PJMWZM' run 'i2cget -y -f 2 0x4b 0x10'
UBAUPJMWZM0x18
UBAUPJMWZM 0
root@arm:~# echo 'PUOZ''LNMAPY'
PUOZLNMAPY
root@arm:~# MARKER='EYBB''LSUVNF' run 'echo 950000 950000 > /sys/kernel/mva_test//regulators/buck2_set'
EYBBLSUVNFEYBBLSUVNF 0
root@arm:~# echo 'CKWG''YYAZBQ'
CKWGYYAZBQ
root@arm:~# MARKER='YAMM''ATSKJS' run 'i2cget -y -f 2 0x4b 0x10'
YAMMATSKJS0x19
YAMMATSKJS 0
root@arm:~# echo 'USTM''KWZOAP'
USTMKWZOAP
root@arm:~# MARKER='LMPJ''NKJTHZ' run 'echo 960000 960000 > /sys/kernel/mva_test//regulators/buck2_set'
LMPJNKJTHZLMPJNKJTHZ 0
root@arm:~# echo 'JFAO''LNUWTZ'
JFAOLNUWTZ
root@arm:~# MARKER='ONPE''MMXMUG' run 'i2cget -y -f 2 0x4b 0x10'
ONPEMMXMUG0x1a
ONPEMMXMUG 0
root@arm:~# echo 'WOPC''NJBMLY'
WOPCNJBMLY
root@arm:~# MARKER='SPMT''EJGZEL' run 'echo 970000 970000 > /sys/kernel/mva_test//regulators/buck2_set'
SPMTEJGZELSPMTEJGZEL 0
root@arm:~# echo 'SNVP''JTAACH'
SNVPJTAACH
root@arm:~# MARKER='WXTL''KXFGXX' run 'i2cget -y -f 2 0x4b 0x10'
WXTLKXFGXX0x1b
WXTLKXFGXX 0
root@arm:~# echo 'MNMU''QAPEVJ'
MNMUQAPEVJ
root@arm:~# MARKER='QNXJ''LXSEXF' run 'echo 980000 980000 > /sys/kernel/mva_test//regulators/buck2_set'
QNXJLXSEXFQNXJLXSEXF 0
root@arm:~# echo 'MZEH''MFJHJP'
MZEHMFJHJP
root@arm:~# MARKER='PEYT''GWBWEK' run 'i2cget -y -f 2 0x4b 0x10'
PEYTGWBWEK0x1c
PEYTGWBWEK 0
root@arm:~# echo 'EAHY''HKGVNB'
EAHYHKGVNB
root@arm:~# MARKER='SHYP''GATTUY' run 'echo 990000 990000 > /sys/kernel/mva_test//regulators/buck2_set'
SHYPGATTUYSHYPGATTUY 0
root@arm:~# echo 'AEQY''XOKPSH'
AEQYXOKPSH
root@arm:~# MARKER='LAWG''MZBOHB' run 'i2cget -y -f 2 0x4b 0x10'
LAWGMZBOHB0x1d
LAWGMZBOHB 0
root@arm:~# echo 'KYFM''YZKJAC'
KYFMYZKJAC
root@arm:~# MARKER='OXLO''WSMTYM' run 'echo 1000000 1000000 > /sys/kernel/mva_tesst/regulators/buck2_set'
OXLOWSMTYMOXLOWSMTYM 0
root@arm:~# echo 'TZNA''YWBQMS'
TZNAYWBQMS
root@arm:~# MARKER='GPXL''FKGVNB' run 'i2cget -y -f 2 0x4b 0x10'
GPXLFKGVNB0x1e
GPXLFKGVNB 0
root@arm:~# echo 'ONZP''FBBLFE'
ONZPFBBLFE
root@arm:~# MARKER='CJWT''SEMTYS' run 'echo 1010000 1010000 > /sys/kernel/mva_tesst/regulators/buck2_set'
CJWTSEMTYSCJWTSEMTYS 0
root@arm:~# echo 'NXHS''EAKEKY'
NXHSEAKEKY
root@arm:~# MARKER='JLLQ''GGNNYY' run 'i2cget -y -f 2 0x4b 0x10'
JLLQGGNNYY0x1f
JLLQGGNNYY 0
root@arm:~# echo 'CSFM''WFZSEW'
CSFMWFZSEW
root@arm:~# MARKER='WHXT''FVBKOV' run 'echo 1020000 1020000 > /sys/kernel/mva_tesst/regulators/buck2_set'
WHXTFVBKOVWHXTFVBKOV 0
root@arm:~# echo 'JJEC''OSUWTF'
JJECOSUWTF
root@arm:~# MARKER='AFUY''YYKXAZ' run 'i2cget -y -f 2 0x4b 0x10'
AFUYYYKXAZ0x20
AFUYYYKXAZ 0
root@arm:~# echo 'MLYS''OVVABG'
MLYSOVVABG
root@arm:~# MARKER='AVOQ''JQYJPN' run 'echo 1030000 1030000 > /sys/kernel/mva_tesst/regulators/buck2_set'
AVOQJQYJPNAVOQJQYJPN 0
root@arm:~# echo 'COYU''JXOQST'
COYUJXOQST
root@arm:~# MARKER='VVUQ''JJTVLM' run 'i2cget -y -f 2 0x4b 0x10'
VVUQJJTVLM0x21
VVUQJJTVLM 0
root@arm:~# echo 'LVCL''KKSLMU'
LVCLKKSLMU
root@arm:~# MARKER='EWYB''MFUGHK' run 'echo 1040000 1040000 > /sys/kernel/mva_tesst/regulators/buck2_set'
EWYBMFUGHKEWYBMFUGHK 0
root@arm:~# echo 'JYAH''MJXYNF'
JYAHMJXYNF
root@arm:~# MARKER='YTMJ''FSHATA' run 'i2cget -y -f 2 0x4b 0x10'
YTMJFSHATA0x22
YTMJFSHATA 0
root@arm:~# echo 'UKBB''GFXBCH'
UKBBGFXBCH
root@arm:~# MARKER='GMZS''WYHJCK' run 'echo 1050000 1050000 > /sys/kernel/mva_tesst/regulators/buck2_set'
GMZSWYHJCKGMZSWYHJCK 0
root@arm:~# echo 'EHPK''JLCELJ'
EHPKJLCELJ
root@arm:~# MARKER='EMOM''SKUFXP' run 'i2cget -y -f 2 0x4b 0x10'
EMOMSKUFXP0x23
EMOMSKUFXP 0
root@arm:~# echo 'JBSB''ZKMQJS'
JBSBZKMQJS
root@arm:~# MARKER='LHVA''UQPYYC' run 'echo 1060000 1060000 > /sys/kernel/mva_tesst/regulators/buck2_set'
LHVAUQPYYCLHVAUQPYYC 0
root@arm:~# echo 'PCSW''YLJNZO'
PCSWYLJNZO
root@arm:~# MARKER='SCLV''LTNSMT' run 'i2cget -y -f 2 0x4b 0x10'
SCLVLTNSMT0x24
SCLVLTNSMT 0
root@arm:~# echo 'MLYK''UKCMNJ'
MLYKUKCMNJ
root@arm:~# MARKER='LXYN''JYKSJZ' run 'echo 1070000 1070000 > /sys/kernel/mva_tesst/regulators/buck2_set'
LXYNJYKSJZLXYNJYKSJZ 0
root@arm:~# echo 'YNYX''CTGUNG'
YNYXCTGUNG
root@arm:~# MARKER='TGPF''ATNHPN' run 'i2cget -y -f 2 0x4b 0x10'
TGPFATNHPN0x25
TGPFATNHPN 0
root@arm:~# echo 'HMYM''GOGWNZ'
HMYMGOGWNZ
root@arm:~# MARKER='GSNW''JWOTTO' run 'echo 1080000 1080000 > /sys/kernel/mva_tesst/regulators/buck2_set'
GSNWJWOTTOGSNWJWOTTO 0
root@arm:~# echo 'SSEQ''ZVSYFA'
SSEQZVSYFA
root@arm:~# MARKER='FTEN''BQVNPU' run 'i2cget -y -f 2 0x4b 0x10'
FTENBQVNPU0x26
FTENBQVNPU 0
root@arm:~# echo 'VWAL''EHFWMM'
VWALEHFWMM
root@arm:~# MARKER='EZSO''TNGCVW' run 'echo 1090000 1090000 > /sys/kernel/mva_tesst/regulators/buck2_set'
EZSOTNGCVWEZSOTNGCVW 0
root@arm:~# echo 'KWJA''TXNQKL'
KWJATXNQKL
root@arm:~# MARKER='VVYH''UTVPLH' run 'i2cget -y -f 2 0x4b 0x10'
VVYHUTVPLH0x27
VVYHUTVPLH 0
root@arm:~# echo 'UAMS''KMBSHL'
UAMSKMBSHL
root@arm:~# MARKER='SLTF''FGTQFW' run 'echo 1100000 1100000 > /sys/kernel/mva_tesst/regulators/buck2_set'
SLTFFGTQFWSLTFFGTQFW 0
root@arm:~# echo 'MNAC''EAKZAU'
MNACEAKZAU
root@arm:~# MARKER='SJWT''TCGSAL' run 'i2cget -y -f 2 0x4b 0x10'
SJWTTCGSAL0x28
SJWTTCGSAL 0
root@arm:~# echo 'WBTV''AETEZT'
WBTVAETEZT
root@arm:~# MARKER='TFSX''HTPKXC' run 'echo 1110000 1110000 > /sys/kernel/mva_tesst/regulators/buck2_set'
TFSXHTPKXCTFSXHTPKXC 0
root@arm:~# echo 'MMUE''SYTQGZ'
MMUESYTQGZ
root@arm:~# MARKER='GFJA''FVSFTA' run 'i2cget -y -f 2 0x4b 0x10'
GFJAFVSFTA0x29
GFJAFVSFTA 0
root@arm:~# echo 'ZHXE''KCMNGK'
ZHXEKCMNGK
root@arm:~# MARKER='KETO''PMGOKM' run 'echo 1120000 1120000 > /sys/kernel/mva_tesst/regulators/buck2_set'
KETOPMGOKMKETOPMGOKM 0
root@arm:~# echo 'BCYL''VAJAEO'
BCYLVAJAEO
root@arm:~# MARKER='TYCF''TQKSFL' run 'i2cget -y -f 2 0x4b 0x10'
TYCFTQKSFL0x2a
TYCFTQKSFL 0
root@arm:~# echo 'MFWU''EYGUPS'
MFWUEYGUPS
root@arm:~# MARKER='UKLV''NWVQKZ' run 'echo 1130000 1130000 > /sys/kernel/mva_tesst/regulators/buck2_set'
UKLVNWVQKZUKLVNWVQKZ 0
root@arm:~# echo 'VCWN''FGWGUL'
VCWNFGWGUL
root@arm:~# MARKER='MVTA''HVLTHJ' run 'i2cget -y -f 2 0x4b 0x10'
MVTAHVLTHJ0x2b
MVTAHVLTHJ 0
root@arm:~# echo 'UVWU''KMEKAZ'
UVWUKMEKAZ
root@arm:~# MARKER='WJNP''HGYZAP' run 'echo 1140000 1140000 > /sys/kernel/mva_tesst/regulators/buck2_set'
WJNPHGYZAPWJNPHGYZAP 0
root@arm:~# echo 'KYLW''MSYJFO'
KYLWMSYJFO
root@arm:~# MARKER='NPPN''OYOJUC' run 'i2cget -y -f 2 0x4b 0x10'
NPPNOYOJUC0x2c
NPPNOYOJUC 0
root@arm:~# echo 'UTHT''BVZJUF'
UTHTBVZJUF
root@arm:~# MARKER='NMLV''PNXXYT' run 'echo 1150000 1150000 > /sys/kernel/mva_tesst/regulators/buck2_set'
NMLVPNXXYTNMLVPNXXYT 0
root@arm:~# echo 'BSAS''OBHPPV'
BSASOBHPPV
root@arm:~# MARKER='EMEJ''EXEQPP' run 'i2cget -y -f 2 0x4b 0x10'
EMEJEXEQPP0x2d
EMEJEXEQPP 0
root@arm:~# echo 'VVQU''XHTFMQ'
VVQUXHTFMQ
root@arm:~# MARKER='BHUB''HOOLZO' run 'echo 1160000 1160000 > /sys/kernel/mva_tesst/regulators/buck2_set'
BHUBHOOLZOBHUBHOOLZO 0
root@arm:~# echo 'FMGG''CNBPHA'
FMGGCNBPHA
root@arm:~# MARKER='MOKE''HWYJTG' run 'i2cget -y -f 2 0x4b 0x10'
MOKEHWYJTG0x2e
MOKEHWYJTG 0
root@arm:~# echo 'JGOL''JZQQCF'
JGOLJZQQCF
root@arm:~# MARKER='PPGH''GABVGZ' run 'echo 1170000 1170000 > /sys/kernel/mva_tesst/regulators/buck2_set'
PPGHGABVGZPPGHGABVGZ 0
root@arm:~# echo 'WGVV''HTWPTZ'
WGVVHTWPTZ
root@arm:~# MARKER='JZBU''CYHBJP' run 'i2cget -y -f 2 0x4b 0x10'
JZBUCYHBJP0x2f
JZBUCYHBJP 0
root@arm:~# echo 'TQMC''HNXLEP'
TQMCHNXLEP
root@arm:~# MARKER='KOAT''CSJBJE' run 'echo 1180000 1180000 > /sys/kernel/mva_tesst/regulators/buck2_set'
KOATCSJBJEKOATCSJBJE 0
root@arm:~# echo 'STWQ''UWWEAY'
STWQUWWEAY
root@arm:~# MARKER='XOLA''ACHZVH' run 'i2cget -y -f 2 0x4b 0x10'
XOLAACHZVH0x30
XOLAACHZVH 0
root@arm:~# echo 'ATGY''HCUEGM'
ATGYHCUEGM
root@arm:~# MARKER='LXEQ''NPYBFH' run 'echo 1190000 1190000 > /sys/kernel/mva_tesst/regulators/buck2_set'
LXEQNPYBFHLXEQNPYBFH 0
root@arm:~# echo 'NLFU''YGKSNU'
NLFUYGKSNU
root@arm:~# MARKER='VQHU''MZXYZY' run 'i2cget -y -f 2 0x4b 0x10'
VQHUMZXYZY0x31
VQHUMZXYZY 0
root@arm:~# echo 'PCOY''QTZXCC'
PCOYQTZXCC
root@arm:~# MARKER='WYFN''QQOUUH' run 'echo 1200000 1200000 > /sys/kernel/mva_tesst/regulators/buck2_set'
WYFNQQOUUHWYFNQQOUUH 0
root@arm:~# echo 'MAUP''HMTHWF'
MAUPHMTHWF
root@arm:~# MARKER='LXHX''JQNGJU' run 'i2cget -y -f 2 0x4b 0x10'
LXHXJQNGJU0x32
LXHXJQNGJU 0
root@arm:~# echo 'CTUC''JAWGTF'
CTUCJAWGTF
root@arm:~# MARKER='LKVQ''AEJTVW' run 'echo 1210000 1210000 > /sys/kernel/mva_tesst/regulators/buck2_set'
LKVQAEJTVWLKVQAEJTVW 0
root@arm:~# echo 'YHJM''KJOSUQ'
YHJMKJOSUQ
root@arm:~# MARKER='OCEX''CZCQFA' run 'i2cget -y -f 2 0x4b 0x10'
OCEXCZCQFA0x33
OCEXCZCQFA 0
root@arm:~# echo 'XQLA''WEZXMM'
XQLAWEZXMM
root@arm:~# MARKER='YFAQ''VZBOBN' run 'echo 1220000 1220000 > /sys/kernel/mva_tesst/regulators/buck2_set'
YFAQVZBOBNYFAQVZBOBN 0
root@arm:~# echo 'SALQ''QPKWBO'
SALQQPKWBO
root@arm:~# MARKER='VFOY''LQKWKS' run 'i2cget -y -f 2 0x4b 0x10'
VFOYLQKWKS0x34
VFOYLQKWKS 0
root@arm:~# echo 'MQAU''SWBGXN'
MQAUSWBGXN
root@arm:~# MARKER='MQYO''LUQVZA' run 'echo 1230000 1230000 > /sys/kernel/mva_tesst/regulators/buck2_set'
MQYOLUQVZAMQYOLUQVZA 0
root@arm:~# echo 'CUPN''OFLFOQ'
CUPNOFLFOQ
root@arm:~# MARKER='WVHC''AOCCHW' run 'i2cget -y -f 2 0x4b 0x10'
WVHCAOCCHW0x35
WVHCAOCCHW 0
root@arm:~# echo 'YWGS''PPSTQH'
YWGSPPSTQH
root@arm:~# MARKER='JMZS''WTGGVE' run 'echo 1240000 1240000 > /sys/kernel/mva_tesst/regulators/buck2_set'
JMZSWTGGVEJMZSWTGGVE 0
root@arm:~# echo 'WKUU''OBLGCP'
WKUUOBLGCP
root@arm:~# MARKER='PCYA''QWEZLW' run 'i2cget -y -f 2 0x4b 0x10'
PCYAQWEZLW0x36
PCYAQWEZLW 0
root@arm:~# echo 'GXBK''QPSOVA'
GXBKQPSOVA
root@arm:~# MARKER='FBNZ''TQFQMW' run 'echo 1250000 1250000 > /sys/kernel/mva_tesst/regulators/buck2_set'
FBNZTQFQMWFBNZTQFQMW 0
root@arm:~# echo 'AKFK''QSCJGH'
AKFKQSCJGH
root@arm:~# MARKER='VJWF''KUHUGH' run 'i2cget -y -f 2 0x4b 0x10'
VJWFKUHUGH0x37
VJWFKUHUGH 0
root@arm:~# echo 'PKWP''SVKTUO'
PKWPSVKTUO
root@arm:~# MARKER='OVKN''XNUUFF' run 'echo 1260000 1260000 > /sys/kernel/mva_tesst/regulators/buck2_set'
OVKNXNUUFFOVKNXNUUFF 0
root@arm:~# echo 'TXTQ''YUFVTU'
TXTQYUFVTU
root@arm:~# MARKER='SMPA''YOLHGY' run 'i2cget -y -f 2 0x4b 0x10'
SMPAYOLHGY0x38
SMPAYOLHGY 0
root@arm:~# echo 'NAXW''NPYYEG'
NAXWNPYYEG
root@arm:~# MARKER='YEOA''ZNOMGJ' run 'echo 1270000 1270000 > /sys/kernel/mva_tesst/regulators/buck2_set'
YEOAZNOMGJYEOAZNOMGJ 0
root@arm:~# echo 'SZXZ''PUPBZT'
SZXZPUPBZT
root@arm:~# MARKER='XQYA''CHFOJP' run 'i2cget -y -f 2 0x4b 0x10'
XQYACHFOJP0x39
XQYACHFOJP 0
root@arm:~# echo 'CTTZ''JEOUZK'
CTTZJEOUZK
root@arm:~# MARKER='PQKL''AXHOGX' run 'echo 1280000 1280000 > /sys/kernel/mva_tesst/regulators/buck2_set'
PQKLAXHOGXPQKLAXHOGX 0
root@arm:~# echo 'GGZC''WBMAJM'
GGZCWBMAJM
root@arm:~# MARKER='JWVC''TAKAKX' run 'i2cget -y -f 2 0x4b 0x10'
JWVCTAKAKX0x3a
JWVCTAKAKX 0
root@arm:~# echo 'HFYG''MBJMFZ'
HFYGMBJMFZ
root@arm:~# MARKER='XQGN''TSSVAP' run 'echo 1290000 1290000 > /sys/kernel/mva_tesst/regulators/buck2_set'
XQGNTSSVAPXQGNTSSVAP 0
root@arm:~# echo 'VUHM''SYQTQM'
VUHMSYQTQM
root@arm:~# MARKER='JQWZ''WEWSNN' run 'i2cget -y -f 2 0x4b 0x10'
JQWZWEWSNN0x3b
JQWZWEWSNN 0
root@arm:~# echo 'WZEQ''HHSZAY'
WZEQHHSZAY
root@arm:~# MARKER='ZYTW''AOHYBP' run 'echo 1300000 1300000 > /sys/kernel/mva_tesst/regulators/buck2_set'
ZYTWAOHYBPZYTWAOHYBP 0
root@arm:~# echo 'ZNJM''LUBHQB'
ZNJMLUBHQB
root@arm:~# MARKER='JYLJ''MMPKXO' run 'i2cget -y -f 2 0x4b 0x10'
JYLJMMPKXO0x3c
JYLJMMPKXO 0
root@arm:~# echo 'YSTX''ASUEGB'
YSTXASUEGB
root@arm:~# MARKER='CXNC''EOBSNK' run 'grep -r -l rohm,bd71837 /proc/device-tree  | sed '"'"'s![^/]*$!!'"'"''
CXNCEOBSNK/proc/device-tree/ocp/interconnect@48000000/segment@100000/target-module@9c000/i2c@0/pmic@4b/
CXNCEOBSNK 0
root@arm:~# echo 'EZFH''LNVAGX'
EZFHLNVAGX
root@arm:~# MARKER='SBUB''THGHHA' run 'test -f /proc/device-tree/ocp/interconnectt\@48000000/segment\@100000/target-module\@9c000/i2c\@0/pmic\@4b/regulators/BUCK33/rohm,no-regulator-enable-control ;echo $?'
SBUBTHGHHA0
SBUBTHGHHA 0
root@arm:~# echo 'UONV''SCQAMP'
UONVSCQAMP
root@arm:~# MARKER='CHOU''VZPXJE' run 'echo 700000 700000 > /sys/kernel/mva_test//regulators/buck3_set'
CHOUVZPXJECHOUVZPXJE 0
root@arm:~# echo 'UQUL''HLZETT'
UQULHLZETT
root@arm:~# MARKER='HLUJ''TQWQWV' run 'i2cget -y -f 2 0x4b 0x12'
HLUJTQWQWV0x00
HLUJTQWQWV 0
root@arm:~# echo 'BFGO''PVUWOQ'
BFGOPVUWOQ
root@arm:~# MARKER='TGQN''JFAJHJ' run 'echo 710000 710000 > /sys/kernel/mva_test//regulators/buck3_set'
TGQNJFAJHJTGQNJFAJHJ 0
root@arm:~# echo 'GKUK''TBPMOX'
GKUKTBPMOX
root@arm:~# MARKER='PJTZ''UFPNWH' run 'i2cget -y -f 2 0x4b 0x12'
PJTZUFPNWH0x01
PJTZUFPNWH 0
root@arm:~# echo 'SJLN''EFWAGG'
SJLNEFWAGG
root@arm:~# MARKER='LMUE''MHPUJQ' run 'echo 720000 720000 > /sys/kernel/mva_test//regulators/buck3_set'
LMUEMHPUJQLMUEMHPUJQ 0
root@arm:~# echo 'MLBO''OEWWUF'
MLBOOEWWUF
root@arm:~# MARKER='KYGK''GXMBAW' run 'i2cget -y -f 2 0x4b 0x12'
KYGKGXMBAW0x02
KYGKGXMBAW 0
root@arm:~# echo 'UMUB''MBXLVA'
UMUBMBXLVA
root@arm:~# MARKER='SZNA''VAWPMH' run 'echo 730000 730000 > /sys/kernel/mva_test//regulators/buck3_set'
SZNAVAWPMHSZNAVAWPMH 0
root@arm:~# echo 'MMMX''ZEQHST'
MMMXZEQHST
root@arm:~# MARKER='ELZM''CZFGZN' run 'i2cget -y -f 2 0x4b 0x12'
ELZMCZFGZN0x03
ELZMCZFGZN 0
root@arm:~# echo 'ECNU''CPEPKT'
ECNUCPEPKT
root@arm:~# MARKER='FKBC''MFTKJQ' run 'echo 740000 740000 > /sys/kernel/mva_test//regulators/buck3_set'
FKBCMFTKJQFKBCMFTKJQ 0
root@arm:~# echo 'WNAY''UMWBWX'
WNAYUMWBWX
root@arm:~# MARKER='CJMF''OBHKOJ' run 'i2cget -y -f 2 0x4b 0x12'
CJMFOBHKOJ0x04
CJMFOBHKOJ 0
root@arm:~# echo 'ZCNA''YSJYJT'
ZCNAYSJYJT
root@arm:~# MARKER='MYTT''OKTGCO' run 'echo 750000 750000 > /sys/kernel/mva_test//regulators/buck3_set'
MYTTOKTGCOMYTTOKTGCO 0
root@arm:~# echo 'PBZT''PZKLYA'
PBZTPZKLYA
root@arm:~# MARKER='YNZB''OHVJCM' run 'i2cget -y -f 2 0x4b 0x12'
YNZBOHVJCM0x05
YNZBOHVJCM 0
root@arm:~# echo 'OXQH''XMWBUE'
OXQHXMWBUE
root@arm:~# MARKER='CHPO''UAMGLZ' run 'echo 760000 760000 > /sys/kernel/mva_test//regulators/buck3_set'
CHPOUAMGLZCHPOUAMGLZ 0
root@arm:~# echo 'MFFE''HFKVFO'
MFFEHFKVFO
root@arm:~# MARKER='PLLM''LEYJUG' run 'i2cget -y -f 2 0x4b 0x12'
PLLMLEYJUG0x06
PLLMLEYJUG 0
root@arm:~# echo 'TQCS''FSLUGQ'
TQCSFSLUGQ
root@arm:~# MARKER='ECZL''KPBHOT' run 'echo 770000 770000 > /sys/kernel/mva_test//regulators/buck3_set'
ECZLKPBHOTECZLKPBHOT 0
root@arm:~# echo 'XLFT''OABBKU'
XLFTOABBKU
root@arm:~# MARKER='WXOO''LLYBEH' run 'i2cget -y -f 2 0x4b 0x12'
WXOOLLYBEH0x07
WXOOLLYBEH 0
root@arm:~# echo 'OKVU''MVZQTU'
OKVUMVZQTU
root@arm:~# MARKER='VCZW''GQZOPU' run 'echo 780000 780000 > /sys/kernel/mva_test//regulators/buck3_set'
VCZWGQZOPUVCZWGQZOPU 0
root@arm:~# echo 'MWJL''VWUSNC'
MWJLVWUSNC
root@arm:~# MARKER='YLYA''QVQABV' run 'i2cget -y -f 2 0x4b 0x12'
YLYAQVQABV0x08
YLYAQVQABV 0
root@arm:~# echo 'VCGP''GJJFYS'
VCGPGJJFYS
root@arm:~# MARKER='NLFL''MQGKEY' run 'echo 790000 790000 > /sys/kernel/mva_test//regulators/buck3_set'
NLFLMQGKEYNLFLMQGKEY 0
root@arm:~# echo 'MEHX''OXNMVW'
MEHXOXNMVW
root@arm:~# MARKER='EWNX''YWETWH' run 'i2cget -y -f 2 0x4b 0x12'
EWNXYWETWH0x09
EWNXYWETWH 0
root@arm:~# echo 'KPUS''SFQGWQ'
KPUSSFQGWQ
root@arm:~# MARKER='HTFP''QPQNWS' run 'echo 800000 800000 > /sys/kernel/mva_test//regulators/buck3_set'
HTFPQPQNWSHTFPQPQNWS 0
root@arm:~# echo 'YLVH''WEPVTF'
YLVHWEPVTF
root@arm:~# MARKER='KCSH''LOYCKF' run 'i2cget -y -f 2 0x4b 0x12'
KCSHLOYCKF0x0a
KCSHLOYCKF 0
root@arm:~# echo 'KUWJ''JWBNAH'
KUWJJWBNAH
root@arm:~# MARKER='MVHA''BOVUMB' run 'echo 810000 810000 > /sys/kernel/mva_test//regulators/buck3_set'
MVHABOVUMBMVHABOVUMB 0
root@arm:~# echo 'JJNT''LVYYMC'
JJNTLVYYMC
root@arm:~# MARKER='ZUHY''FGUEAP' run 'i2cget -y -f 2 0x4b 0x12'
ZUHYFGUEAP0x0b
ZUHYFGUEAP 0
root@arm:~# echo 'UEQT''AOTESW'
UEQTAOTESW
root@arm:~# MARKER='XSHC''GYWVGV' run 'echo 820000 820000 > /sys/kernel/mva_test//regulators/buck3_set'
XSHCGYWVGVXSHCGYWVGV 0
root@arm:~# echo 'GWTZ''QQQVWL'
GWTZQQQVWL
root@arm:~# MARKER='UUGZ''YBOYWN' run 'i2cget -y -f 2 0x4b 0x12'
UUGZYBOYWN0x0c
UUGZYBOYWN 0
root@arm:~# echo 'VTHT''JTFSAL'
VTHTJTFSAL
root@arm:~# MARKER='NFJK''ZUBJEF' run 'echo 830000 830000 > /sys/kernel/mva_test//regulators/buck3_set'
NFJKZUBJEFNFJKZUBJEF 0
root@arm:~# echo 'GMNJ''GPCGFE'
GMNJGPCGFE
root@arm:~# MARKER='XBWA''EFTVXU' run 'i2cget -y -f 2 0x4b 0x12'
XBWAEFTVXU0x0d
XBWAEFTVXU 0
root@arm:~# echo 'FKJX''LQFVOG'
FKJXLQFVOG
root@arm:~# MARKER='WQNA''GNZEHP' run 'echo 840000 840000 > /sys/kernel/mva_test//regulators/buck3_set'
WQNAGNZEHPWQNAGNZEHP 0
root@arm:~# echo 'WUOM''QACZBT'
WUOMQACZBT
root@arm:~# MARKER='TWWM''LGLJGT' run 'i2cget -y -f 2 0x4b 0x12'
TWWMLGLJGT0x0e
TWWMLGLJGT 0
root@arm:~# echo 'TUSN''HHBSKS'
TUSNHHBSKS
root@arm:~# MARKER='CAEJ''OVLLAN' run 'echo 850000 850000 > /sys/kernel/mva_test//regulators/buck3_set'
CAEJOVLLANCAEJOVLLAN 0
root@arm:~# echo 'ZBGX''QLWJCX'
ZBGXQLWJCX
root@arm:~# MARKER='OSLU''YJZXKZ' run 'i2cget -y -f 2 0x4b 0x12'
OSLUYJZXKZ0x0f
OSLUYJZXKZ 0
root@arm:~# echo 'NUME''TKMWYC'
NUMETKMWYC
root@arm:~# MARKER='PQCT''UQYCGH' run 'echo 860000 860000 > /sys/kernel/mva_test//regulators/buck3_set'
PQCTUQYCGHPQCTUQYCGH 0
root@arm:~# echo 'SEJB''FPGGKB'
SEJBFPGGKB
root@arm:~# MARKER='ZLML''UBNMFT' run 'i2cget -y -f 2 0x4b 0x12'
ZLMLUBNMFT0x10
ZLMLUBNMFT 0
root@arm:~# echo 'SKKV''MBLAXG'
SKKVMBLAXG
root@arm:~# MARKER='VMWA''QYYLLT' run 'echo 870000 870000 > /sys/kernel/mva_test//regulators/buck3_set'
VMWAQYYLLTVMWAQYYLLT 0
root@arm:~# echo 'HNOF''LPJJCJ'
HNOFLPJJCJ
root@arm:~# MARKER='TZUS''YZYQTY' run 'i2cget -y -f 2 0x4b 0x12'
TZUSYZYQTY0x11
TZUSYZYQTY 0
root@arm:~# echo 'ECZT''XXQLOH'
ECZTXXQLOH
root@arm:~# MARKER='UGKN''HJSAEK' run 'echo 880000 880000 > /sys/kernel/mva_test//regulators/buck3_set'
UGKNHJSAEKUGKNHJSAEK 0
root@arm:~# echo 'EHSO''VXEQNW'
EHSOVXEQNW
root@arm:~# MARKER='FMFF''XOLMOV' run 'i2cget -y -f 2 0x4b 0x12'
FMFFXOLMOV0x12
FMFFXOLMOV 0
root@arm:~# echo 'MMLE''WOQNNM'
MMLEWOQNNM
root@arm:~# MARKER='PHTP''CNGONJ' run 'echo 890000 890000 > /sys/kernel/mva_test//regulators/buck3_set'
PHTPCNGONJPHTPCNGONJ 0
root@arm:~# echo 'YUXW''BGXPCQ'
YUXWBGXPCQ
root@arm:~# MARKER='PKOT''AKLXTJ' run 'i2cget -y -f 2 0x4b 0x12'
PKOTAKLXTJ0x13
PKOTAKLXTJ 0
root@arm:~# echo 'QHHB''BJTWNO'
QHHBBJTWNO
root@arm:~# MARKER='CJTS''UTSSJF' run 'echo 900000 900000 > /sys/kernel/mva_test//regulators/buck3_set'
CJTSUTSSJFCJTSUTSSJF 0
root@arm:~# echo 'KNSM''KYLFPM'
KNSMKYLFPM
root@arm:~# MARKER='OQFC''HNGPKF' run 'i2cget -y -f 2 0x4b 0x12'
OQFCHNGPKF0x14
OQFCHNGPKF 0
root@arm:~# echo 'TEVQ''YHQOUS'
TEVQYHQOUS
root@arm:~# MARKER='AYOH''MCVFNK' run 'echo 910000 910000 > /sys/kernel/mva_test//regulators/buck3_set'
AYOHMCVFNKAYOHMCVFNK 0
root@arm:~# echo 'FYSQ''SNUGBB'
FYSQSNUGBB
root@arm:~# MARKER='PVKZ''LLLBWA' run 'i2cget -y -f 2 0x4b 0x12'
PVKZLLLBWA0x15
PVKZLLLBWA 0
root@arm:~# echo 'CYYG''MLTSSX'
CYYGMLTSSX
root@arm:~# MARKER='FWLK''SFGNLM' run 'echo 920000 920000 > /sys/kernel/mva_test//regulators/buck3_set'
FWLKSFGNLMFWLKSFGNLM 0
root@arm:~# echo 'KMZO''EZMXJS'
KMZOEZMXJS
root@arm:~# MARKER='OVCY''NXSLVP' run 'i2cget -y -f 2 0x4b 0x12'
OVCYNXSLVP0x16
OVCYNXSLVP 0
root@arm:~# echo 'HNSY''JBGJOO'
HNSYJBGJOO
root@arm:~# MARKER='TZZM''JOOELC' run 'echo 930000 930000 > /sys/kernel/mva_test//regulators/buck3_set'
TZZMJOOELCTZZMJOOELC 0
root@arm:~# echo 'ZKMP''GLVSNG'
ZKMPGLVSNG
root@arm:~# MARKER='KJQV''YHOVNT' run 'i2cget -y -f 2 0x4b 0x12'
KJQVYHOVNT0x17
KJQVYHOVNT 0
root@arm:~# echo 'HGQU''AVNSQK'
HGQUAVNSQK
root@arm:~# MARKER='TLWN''MXBSMK' run 'echo 940000 940000 > /sys/kernel/mva_test//regulators/buck3_set'
TLWNMXBSMKTLWNMXBSMK 0
root@arm:~# echo 'FYXC''MELBTS'
FYXCMELBTS
root@arm:~# MARKER='TVXX''PHFOCN' run 'i2cget -y -f 2 0x4b 0x12'
TVXXPHFOCN0x18
TVXXPHFOCN 0
root@arm:~# echo 'YMBU''QGNBSM'
YMBUQGNBSM
root@arm:~# MARKER='THJQ''ONVQPM' run 'echo 950000 950000 > /sys/kernel/mva_test//regulators/buck3_set'
THJQONVQPMTHJQONVQPM 0
root@arm:~# echo 'KYZC''FCGFTE'
KYZCFCGFTE
root@arm:~# MARKER='YHUO''LLTPTB' run 'i2cget -y -f 2 0x4b 0x12'
YHUOLLTPTB0x19
YHUOLLTPTB 0
root@arm:~# echo 'KGJB''CPABBS'
KGJBCPABBS
root@arm:~# MARKER='SJMU''OSMGJY' run 'echo 960000 960000 > /sys/kernel/mva_test//regulators/buck3_set'
SJMUOSMGJYSJMUOSMGJY 0
root@arm:~# echo 'ZFSO''QUBTKW'
ZFSOQUBTKW
root@arm:~# MARKER='KNEP''FOSXZV' run 'i2cget -y -f 2 0x4b 0x12'
KNEPFOSXZV0x1a
KNEPFOSXZV 0
root@arm:~# echo 'NAMZ''ZHUQZG'
NAMZZHUQZG
root@arm:~# MARKER='ECBF''TPLOKX' run 'echo 970000 970000 > /sys/kernel/mva_test//regulators/buck3_set'
ECBFTPLOKXECBFTPLOKX 0
root@arm:~# echo 'VVSM''WBWZSY'
VVSMWBWZSY
root@arm:~# MARKER='GXKQ''YZCECQ' run 'i2cget -y -f 2 0x4b 0x12'
GXKQYZCECQ0x1b
GXKQYZCECQ 0
root@arm:~# echo 'LYMU''BCLHBS'
LYMUBCLHBS
root@arm:~# MARKER='XGBA''EBUUFO' run 'echo 980000 980000 > /sys/kernel/mva_test//regulators/buck3_set'
XGBAEBUUFOXGBAEBUUFO 0
root@arm:~# echo 'OCYQ''BUEYBZ'
OCYQBUEYBZ
root@arm:~# MARKER='AMCF''AUQFTH' run 'i2cget -y -f 2 0x4b 0x12'
AMCFAUQFTH0x1c
AMCFAUQFTH 0
root@arm:~# echo 'AXUF''OFOUSP'
AXUFOFOUSP
root@arm:~# MARKER='YMVB''WNXCGC' run 'echo 990000 990000 > /sys/kernel/mva_test//regulators/buck3_set'
YMVBWNXCGCYMVBWNXCGC 0
root@arm:~# echo 'LKKE''OGGPAW'
LKKEOGGPAW
root@arm:~# MARKER='XOPE''GSNPGF' run 'i2cget -y -f 2 0x4b 0x12'
XOPEGSNPGF0x1d
XOPEGSNPGF 0
root@arm:~# echo 'HHUQ''XFEOMM'
HHUQXFEOMM
root@arm:~# MARKER='HKGC''UEXBNX' run 'echo 1000000 1000000 > /sys/kernel/mva_tesst/regulators/buck3_set'
HKGCUEXBNXHKGCUEXBNX 0
root@arm:~# echo 'PSCB''MOONLH'
PSCBMOONLH
root@arm:~# MARKER='ZXCJ''OMKLOH' run 'i2cget -y -f 2 0x4b 0x12'
ZXCJOMKLOH0x1e
ZXCJOMKLOH 0
root@arm:~# echo 'LQWF''YXFXJV'
LQWFYXFXJV
root@arm:~# MARKER='NUBF''BCZZGS' run 'echo 1010000 1010000 > /sys/kernel/mva_tesst/regulators/buck3_set'
NUBFBCZZGSNUBFBCZZGS 0
root@arm:~# echo 'YLXC''LFMPUP'
YLXCLFMPUP
root@arm:~# MARKER='QVPL''VUYHBZ' run 'i2cget -y -f 2 0x4b 0x12'
QVPLVUYHBZ0x1f
QVPLVUYHBZ 0
root@arm:~# echo 'QLJQ''AGXCHU'
QLJQAGXCHU
root@arm:~# MARKER='MSJP''JPLTMO' run 'echo 1020000 1020000 > /sys/kernel/mva_tesst/regulators/buck3_set'
MSJPJPLTMOMSJPJPLTMO 0
root@arm:~# echo 'LFYJ''QHMVLG'
LFYJQHMVLG
root@arm:~# MARKER='GTPQ''BHLAPT' run 'i2cget -y -f 2 0x4b 0x12'
GTPQBHLAPT0x20
GTPQBHLAPT 0
root@arm:~# echo 'EWKX''UXBVQQ'
EWKXUXBVQQ
root@arm:~# MARKER='WWFG''JMGQEB' run 'echo 1030000 1030000 > /sys/kernel/mva_tesst/regulators/buck3_set'
WWFGJMGQEBWWFGJMGQEB 0
root@arm:~# echo 'GQCN''NPLZEM'
GQCNNPLZEM
root@arm:~# MARKER='QQJW''QNJABL' run 'i2cget -y -f 2 0x4b 0x12'
QQJWQNJABL0x21
QQJWQNJABL 0
root@arm:~# echo 'YHBM''YCBTBP'
YHBMYCBTBP
root@arm:~# MARKER='QFYQ''ELGOKS' run 'echo 1040000 1040000 > /sys/kernel/mva_tesst/regulators/buck3_set'
QFYQELGOKSQFYQELGOKS 0
root@arm:~# echo 'GQEL''KOWETG'
GQELKOWETG
root@arm:~# MARKER='SAVY''NJLZLX' run 'i2cget -y -f 2 0x4b 0x12'
SAVYNJLZLX0x22
SAVYNJLZLX 0
root@arm:~# echo 'KJQY''HVSJBO'
KJQYHVSJBO
root@arm:~# MARKER='VTWQ''SCMKEZ' run 'echo 1050000 1050000 > /sys/kernel/mva_tesst/regulators/buck3_set'
VTWQSCMKEZVTWQSCMKEZ 0
root@arm:~# echo 'FAHA''ETSTJP'
FAHAETSTJP
root@arm:~# MARKER='TKEV''BGLHXL' run 'i2cget -y -f 2 0x4b 0x12'
TKEVBGLHXL0x23
TKEVBGLHXL 0
root@arm:~# echo 'LQUH''TWTWAQ'
LQUHTWTWAQ
root@arm:~# MARKER='SVXV''WQLKNY' run 'echo 1060000 1060000 > /sys/kernel/mva_tesst/regulators/buck3_set'
SVXVWQLKNYSVXVWQLKNY 0
root@arm:~# echo 'YXHY''GTBVUU'
YXHYGTBVUU
root@arm:~# MARKER='HGXO''OHFXHM' run 'i2cget -y -f 2 0x4b 0x12'
HGXOOHFXHM0x24
HGXOOHFXHM 0
root@arm:~# echo 'CVEZ''PBLSZK'
CVEZPBLSZK
root@arm:~# MARKER='UVNJ''YVUQCY' run 'echo 1070000 1070000 > /sys/kernel/mva_tesst/regulators/buck3_set'
UVNJYVUQCYUVNJYVUQCY 0
root@arm:~# echo 'TKQH''BHZONZ'
TKQHBHZONZ
root@arm:~# MARKER='SUGF''NWQEBJ' run 'i2cget -y -f 2 0x4b 0x12'
SUGFNWQEBJ0x25
SUGFNWQEBJ 0
root@arm:~# echo 'NKWK''ZLWKQU'
NKWKZLWKQU
root@arm:~# MARKER='UVVY''EYQAUF' run 'echo 1080000 1080000 > /sys/kernel/mva_tesst/regulators/buck3_set'
UVVYEYQAUFUVVYEYQAUF 0
root@arm:~# echo 'PTGF''OZPWUN'
PTGFOZPWUN
root@arm:~# MARKER='GSEE''SATXBT' run 'i2cget -y -f 2 0x4b 0x12'
GSEESATXBT0x26
GSEESATXBT 0
root@arm:~# echo 'MAVG''OEYQEX'
MAVGOEYQEX
root@arm:~# MARKER='FMSX''LMSFSQ' run 'echo 1090000 1090000 > /sys/kernel/mva_tesst/regulators/buck3_set'
FMSXLMSFSQFMSXLMSFSQ 0
root@arm:~# echo 'ENBO''VZQBLF'
ENBOVZQBLF
root@arm:~# MARKER='CTJE''KWQUVF' run 'i2cget -y -f 2 0x4b 0x12'
CTJEKWQUVF0x27
CTJEKWQUVF 0
root@arm:~# echo 'HFHN''PNYCSH'
HFHNPNYCSH
root@arm:~# MARKER='KTNH''ZYLAHJ' run 'echo 1100000 1100000 > /sys/kernel/mva_tesst/regulators/buck3_set'
KTNHZYLAHJKTNHZYLAHJ 0
root@arm:~# echo 'HMQO''TPOJTV'
HMQOTPOJTV
root@arm:~# MARKER='CJCO''YUAKJW' run 'i2cget -y -f 2 0x4b 0x12'
CJCOYUAKJW0x28
CJCOYUAKJW 0
root@arm:~# echo 'EYQO''HOBATQ'
EYQOHOBATQ
root@arm:~# MARKER='WYJV''AZXABJ' run 'echo 1110000 1110000 > /sys/kernel/mva_tesst/regulators/buck3_set'
WYJVAZXABJWYJVAZXABJ 0
root@arm:~# echo 'CAEO''TVTUXW'
CAEOTVTUXW
root@arm:~# MARKER='BVMJ''LTYXZJ' run 'i2cget -y -f 2 0x4b 0x12'
BVMJLTYXZJ0x29
BVMJLTYXZJ 0
root@arm:~# echo 'VAUH''MXMNQV'
VAUHMXMNQV
root@arm:~# MARKER='YATS''JKUQGQ' run 'echo 1120000 1120000 > /sys/kernel/mva_tesst/regulators/buck3_set'
YATSJKUQGQYATSJKUQGQ 0
root@arm:~# echo 'GFTC''ZPCQFE'
GFTCZPCQFE
root@arm:~# MARKER='CXVO''HONABT' run 'i2cget -y -f 2 0x4b 0x12'
CXVOHONABT0x2a
CXVOHONABT 0
root@arm:~# echo 'HWQG''PYTUCV'
HWQGPYTUCV
root@arm:~# MARKER='YFQW''TYZGYA' run 'echo 1130000 1130000 > /sys/kernel/mva_tesst/regulators/buck3_set'
YFQWTYZGYAYFQWTYZGYA 0
root@arm:~# echo 'AQUB''QKMJEA'
AQUBQKMJEA
root@arm:~# MARKER='QOJS''PGAPZN' run 'i2cget -y -f 2 0x4b 0x12'
QOJSPGAPZN0x2b
QOJSPGAPZN 0
root@arm:~# echo 'VXGY''NBJWTT'
VXGYNBJWTT
root@arm:~# MARKER='NPYL''OKXTGF' run 'echo 1140000 1140000 > /sys/kernel/mva_tesst/regulators/buck3_set'
NPYLOKXTGFNPYLOKXTGF 0
root@arm:~# echo 'NOHO''UYSFLM'
NOHOUYSFLM
root@arm:~# MARKER='PTAO''BPNMNH' run 'i2cget -y -f 2 0x4b 0x12'
PTAOBPNMNH0x2c
PTAOBPNMNH 0
root@arm:~# echo 'XXHC''TYJFJV'
XXHCTYJFJV
root@arm:~# MARKER='UAUX''YNCGXY' run 'echo 1150000 1150000 > /sys/kernel/mva_tesst/regulators/buck3_set'
UAUXYNCGXYUAUXYNCGXY 0
root@arm:~# echo 'TUVH''TVOLWY'
TUVHTVOLWY
root@arm:~# MARKER='NQBE''ASFQZZ' run 'i2cget -y -f 2 0x4b 0x12'
NQBEASFQZZ0x2d
NQBEASFQZZ 0
root@arm:~# echo 'ALLP''KBWOUX'
ALLPKBWOUX
root@arm:~# MARKER='MHAB''OPEESG' run 'echo 1160000 1160000 > /sys/kernel/mva_tesst/regulators/buck3_set'
MHABOPEESGMHABOPEESG 0
root@arm:~# echo 'NXSU''SFMBXC'
NXSUSFMBXC
root@arm:~# MARKER='AUWS''JZHKUC' run 'i2cget -y -f 2 0x4b 0x12'
AUWSJZHKUC0x2e
AUWSJZHKUC 0
root@arm:~# echo 'PFLQ''PUBSUK'
PFLQPUBSUK
root@arm:~# MARKER='FQHQ''NHLQJM' run 'echo 1170000 1170000 > /sys/kernel/mva_tesst/regulators/buck3_set'
FQHQNHLQJMFQHQNHLQJM 0
root@arm:~# echo 'MAZX''YSYUAN'
MAZXYSYUAN
root@arm:~# MARKER='TXKA''CGCFSU' run 'i2cget -y -f 2 0x4b 0x12'
TXKACGCFSU0x2f
TXKACGCFSU 0
root@arm:~# echo 'AGXL''HCZQBL'
AGXLHCZQBL
root@arm:~# MARKER='XSLL''QTNYWB' run 'echo 1180000 1180000 > /sys/kernel/mva_tesst/regulators/buck3_set'
XSLLQTNYWBXSLLQTNYWB 0
root@arm:~# echo 'JBGL''ZFZZGG'
JBGLZFZZGG
root@arm:~# MARKER='YPCV''XWEMSL' run 'i2cget -y -f 2 0x4b 0x12'
YPCVXWEMSL0x30
YPCVXWEMSL 0
root@arm:~# echo 'FCSU''AVYHZJ'
FCSUAVYHZJ
root@arm:~# MARKER='PKCS''WOQLYT' run 'echo 1190000 1190000 > /sys/kernel/mva_tesst/regulators/buck3_set'
PKCSWOQLYTPKCSWOQLYT 0
root@arm:~# echo 'TYTB''BMWWQO'
TYTBBMWWQO
root@arm:~# MARKER='OLMO''SSEJXJ' run 'i2cget -y -f 2 0x4b 0x12'
OLMOSSEJXJ0x31
OLMOSSEJXJ 0
root@arm:~# echo 'JVEG''TKFKMM'
JVEGTKFKMM
root@arm:~# MARKER='EYKH''LNLYWZ' run 'echo 1200000 1200000 > /sys/kernel/mva_tesst/regulators/buck3_set'
EYKHLNLYWZEYKHLNLYWZ 0
root@arm:~# echo 'KKBL''NTQYMH'
KKBLNTQYMH
root@arm:~# MARKER='WQLJ''OOMOOU' run 'i2cget -y -f 2 0x4b 0x12'
WQLJOOMOOU0x32
WQLJOOMOOU 0
root@arm:~# echo 'GQPK''GVGWHN'
GQPKGVGWHN
root@arm:~# MARKER='ZQTW''JPYNWC' run 'echo 1210000 1210000 > /sys/kernel/mva_tesst/regulators/buck3_set'
ZQTWJPYNWCZQTWJPYNWC 0
root@arm:~# echo 'FHHX''CFWOQA'
FHHXCFWOQA
root@arm:~# MARKER='UYMO''SGPBME' run 'i2cget -y -f 2 0x4b 0x12'
UYMOSGPBME0x33
UYMOSGPBME 0
root@arm:~# echo 'ZBNH''KBULGU'
ZBNHKBULGU
root@arm:~# MARKER='BLYX''QWOJZN' run 'echo 1220000 1220000 > /sys/kernel/mva_tesst/regulators/buck3_set'
BLYXQWOJZNBLYXQWOJZN 0
root@arm:~# echo 'NEUK''EYYCCB'
NEUKEYYCCB
root@arm:~# MARKER='EHSW''WJPGSF' run 'i2cget -y -f 2 0x4b 0x12'
EHSWWJPGSF0x34
EHSWWJPGSF 0
root@arm:~# echo 'ZHTO''OZWMJQ'
ZHTOOZWMJQ
root@arm:~# MARKER='CMUS''XHWONN' run 'echo 1230000 1230000 > /sys/kernel/mva_tesst/regulators/buck3_set'
CMUSXHWONNCMUSXHWONN 0
root@arm:~# echo 'STWC''MSHBJK'
STWCMSHBJK
root@arm:~# MARKER='ZFKN''CPCLHN' run 'i2cget -y -f 2 0x4b 0x12'
ZFKNCPCLHN0x35
ZFKNCPCLHN 0
root@arm:~# echo 'VFGJ''BVBQUO'
VFGJBVBQUO
root@arm:~# MARKER='CZHA''LBTSCX' run 'echo 1240000 1240000 > /sys/kernel/mva_tesst/regulators/buck3_set'
CZHALBTSCXCZHALBTSCX 0
root@arm:~# echo 'GJSA''OQSMPF'
GJSAOQSMPF
root@arm:~# MARKER='XNXM''NHQXTY' run 'i2cget -y -f 2 0x4b 0x12'
XNXMNHQXTY0x36
XNXMNHQXTY 0
root@arm:~# echo 'PAZP''BXSNNW'
PAZPBXSNNW
root@arm:~# MARKER='BVOQ''CFBEAN' run 'echo 1250000 1250000 > /sys/kernel/mva_tesst/regulators/buck3_set'
BVOQCFBEANBVOQCFBEAN 0
root@arm:~# echo 'YFVK''MVKMEZ'
YFVKMVKMEZ
root@arm:~# MARKER='XTFS''LONMEH' run 'i2cget -y -f 2 0x4b 0x12'
XTFSLONMEH0x37
XTFSLONMEH 0
root@arm:~# echo 'GGUE''UPQWEQ'
GGUEUPQWEQ
root@arm:~# MARKER='AKNU''LOYNXX' run 'echo 1260000 1260000 > /sys/kernel/mva_tesst/regulators/buck3_set'
AKNULOYNXXAKNULOYNXX 0
root@arm:~# echo 'WYXQ''VCGOZZ'
WYXQVCGOZZ
root@arm:~# MARKER='PUJV''GUEJNK' run 'i2cget -y -f 2 0x4b 0x12'
PUJVGUEJNK0x38
PUJVGUEJNK 0
root@arm:~# echo 'JSNK''HJZKWQ'
JSNKHJZKWQ
root@arm:~# MARKER='NJXB''GVXGKX' run 'echo 1270000 1270000 > /sys/kernel/mva_tesst/regulators/buck3_set'
NJXBGVXGKXNJXBGVXGKX 0
root@arm:~# echo 'SPHP''KXVUAN'
SPHPKXVUAN
root@arm:~# MARKER='SMPJ''YNPEEN' run 'i2cget -y -f 2 0x4b 0x12'
SMPJYNPEEN0x39
SMPJYNPEEN 0
root@arm:~# echo 'WBNP''VLJZMJ'
WBNPVLJZMJ
root@arm:~# MARKER='ZAJC''FVXJKH' run 'echo 1280000 1280000 > /sys/kernel/mva_tesst/regulators/buck3_set'
ZAJCFVXJKHZAJCFVXJKH 0
root@arm:~# echo 'NKQU''HQEVGK'
NKQUHQEVGK
root@arm:~# MARKER='GKFQ''THCYSV' run 'i2cget -y -f 2 0x4b 0x12'
GKFQTHCYSV0x3a
GKFQTHCYSV 0
root@arm:~# echo 'CALS''EZCYXK'
CALSEZCYXK
root@arm:~# MARKER='QQPW''XUFTVY' run 'echo 1290000 1290000 > /sys/kernel/mva_tesst/regulators/buck3_set'
QQPWXUFTVYQQPWXUFTVY 0
root@arm:~# echo 'CVLT''KNCNST'
CVLTKNCNST
root@arm:~# MARKER='PFWJ''LYWQKG' run 'i2cget -y -f 2 0x4b 0x12'
PFWJLYWQKG0x3b
PFWJLYWQKG 0
root@arm:~# echo 'EHYU''TWUHQZ'
EHYUTWUHQZ
root@arm:~# MARKER='VOWU''XMVNPG' run 'echo 1300000 1300000 > /sys/kernel/mva_tesst/regulators/buck3_set'
VOWUXMVNPGVOWUXMVNPG 0
root@arm:~# echo 'NBCT''YHQGOX'
NBCTYHQGOX
root@arm:~# MARKER='KQZO''EJSBSS' run 'i2cget -y -f 2 0x4b 0x12'
KQZOEJSBSS0x3c
KQZOEJSBSS 0
root@arm:~# echo 'AZME''OQXYCA'
AZMEOQXYCA
root@arm:~# MARKER='ELEK''YZBWJO' run 'grep -r -l rohm,bd71837 /proc/device-tree  | sed '"'"'s![^/]*$!!'"'"''
ELEKYZBWJO/proc/device-tree/ocp/interconnect@48000000/segment@100000/target-module@9c000/i2c@0/pmic@4b/
ELEKYZBWJO 0
root@arm:~# echo 'BZYS''FEMJHT'
BZYSFEMJHT
root@arm:~# MARKER='ZLXW''XWHGQH' run 'test -f /proc/device-tree/ocp/interconnectt\@48000000/segment\@100000/target-module\@9c000/i2c\@0/pmic\@4b/regulators/BUCK44/rohm,no-regulator-enable-control ;echo $?'
ZLXWXWHGQH1
ZLXWXWHGQH 0
root@arm:~# echo 'MGAH''PPNSUG'
MGAHPPNSUG
root@arm:~# MARKER='YZZO''TOBFNF' run 'i2cget -y -f 2 0x4b 0x8'
YZZOTOBFNF0xc6
YZZOTOBFNF 0
root@arm:~# echo 'HNYO''QKFOKG'
HNYOQKFOKG
root@arm:~# MARKER='SPFV''GKQAUB' run 'echo 700000 700000 > /sys/kernel/mva_test//regulators/buck4_set'
SPFVGKQAUBSPFVGKQAUB 0
root@arm:~# echo 'CZXV''MMUPSY'
CZXVMMUPSY
root@arm:~# MARKER='WWSH''PSQSFO' run 'i2cget -y -f 2 0x4b 0x13'
WWSHPSQSFO0x00
WWSHPSQSFO 0
root@arm:~# echo 'BMTA''FHQCQK'
BMTAFHQCQK
root@arm:~# MARKER='BLAE''JOGKHN' run 'echo 710000 710000 > /sys/kernel/mva_test//regulators/buck4_set'
BLAEJOGKHNBLAEJOGKHN 0
root@arm:~# echo 'EXME''VSZHTT'
EXMEVSZHTT
root@arm:~# MARKER='UTVP''TJMXLB' run 'i2cget -y -f 2 0x4b 0x13'
UTVPTJMXLB0x01
UTVPTJMXLB 0
root@arm:~# echo 'ZLYB''WFETJY'
ZLYBWFETJY
root@arm:~# MARKER='ATYQ''HKBZAF' run 'echo 720000 720000 > /sys/kernel/mva_test//regulators/buck4_set'
ATYQHKBZAFATYQHKBZAF 0
root@arm:~# echo 'TQZY''WNKYFX'
TQZYWNKYFX
root@arm:~# MARKER='OGOM''GMTVFK' run 'i2cget -y -f 2 0x4b 0x13'
OGOMGMTVFK0x02
OGOMGMTVFK 0
root@arm:~# echo 'GVYS''ENPXZK'
GVYSENPXZK
root@arm:~# MARKER='CZJG''SHKJTU' run 'echo 730000 730000 > /sys/kernel/mva_test//regulators/buck4_set'
CZJGSHKJTUCZJGSHKJTU 0
root@arm:~# echo 'UZKA''VTVFLW'
UZKAVTVFLW
root@arm:~# MARKER='SJFE''BKWPTC' run 'i2cget -y -f 2 0x4b 0x13'
SJFEBKWPTC0x03
SJFEBKWPTC 0
root@arm:~# echo 'PNSG''BLSCVY'
PNSGBLSCVY
root@arm:~# MARKER='NWYW''CJVCBY' run 'echo 740000 740000 > /sys/kernel/mva_test//regulators/buck4_set'
NWYWCJVCBYNWYWCJVCBY 0
root@arm:~# echo 'BBCV''VUQNNS'
BBCVVUQNNS
root@arm:~# MARKER='TVMC''SCTQGJ' run 'i2cget -y -f 2 0x4b 0x13'
TVMCSCTQGJ0x04
TVMCSCTQGJ 0
root@arm:~# echo 'LUFK''NBONTS'
LUFKNBONTS
root@arm:~# MARKER='YNZH''NUAWBT' run 'echo 750000 750000 > /sys/kernel/mva_test//regulators/buck4_set'
YNZHNUAWBTYNZHNUAWBT 0
root@arm:~# echo 'EJVG''NZNUSC'
EJVGNZNUSC
root@arm:~# MARKER='PSFM''CXGLBF' run 'i2cget -y -f 2 0x4b 0x13'
PSFMCXGLBF0x05
PSFMCXGLBF 0
root@arm:~# echo 'CQYF''NHAFGX'
CQYFNHAFGX
root@arm:~# MARKER='PHWH''FNLBAT' run 'echo 760000 760000 > /sys/kernel/mva_test//regulators/buck4_set'
PHWHFNLBATPHWHFNLBAT 0
root@arm:~# echo 'KPUK''JQKEAT'
KPUKJQKEAT
root@arm:~# MARKER='AEWH''KSYAUN' run 'i2cget -y -f 2 0x4b 0x13'
AEWHKSYAUN0x06
AEWHKSYAUN 0
root@arm:~# echo 'CGCC''WVXJMQ'
CGCCWVXJMQ
root@arm:~# MARKER='ELTH''NPOHUG' run 'echo 770000 770000 > /sys/kernel/mva_test//regulators/buck4_set'
ELTHNPOHUGELTHNPOHUG 0
root@arm:~# echo 'VPFK''QNHZNW'
VPFKQNHZNW
root@arm:~# MARKER='AQPC''BVHAHS' run 'i2cget -y -f 2 0x4b 0x13'
AQPCBVHAHS0x07
AQPCBVHAHS 0
root@arm:~# echo 'CGVB''EBAEZP'
CGVBEBAEZP
root@arm:~# MARKER='TSWP''FXSHNA' run 'echo 780000 780000 > /sys/kernel/mva_test//regulators/buck4_set'
TSWPFXSHNATSWPFXSHNA 0
root@arm:~# echo 'NWQX''ESEQZG'
NWQXESEQZG
root@arm:~# MARKER='LQJH''KWEBYC' run 'i2cget -y -f 2 0x4b 0x13'
LQJHKWEBYC0x08
LQJHKWEBYC 0
root@arm:~# echo 'MYVT''ZJWXEV'
MYVTZJWXEV
root@arm:~# MARKER='QNLW''HFGJWC' run 'echo 790000 790000 > /sys/kernel/mva_test//regulators/buck4_set'
QNLWHFGJWCQNLWHFGJWC 0
root@arm:~# echo 'WBKV''CYLPSQ'
WBKVCYLPSQ
root@arm:~# MARKER='PWBV''HHJWGL' run 'i2cget -y -f 2 0x4b 0x13'
PWBVHHJWGL0x09
PWBVHHJWGL 0
root@arm:~# echo 'MCEF''NAOAFM'
MCEFNAOAFM
root@arm:~# MARKER='SSVF''FLBOFJ' run 'echo 800000 800000 > /sys/kernel/mva_test//regulators/buck4_set'
SSVFFLBOFJSSVFFLBOFJ 0
root@arm:~# echo 'ETBB''TESTFY'
ETBBTESTFY
root@arm:~# MARKER='PTJF''PVOHYH' run 'i2cget -y -f 2 0x4b 0x13'
PTJFPVOHYH0x0a
PTJFPVOHYH 0
root@arm:~# echo 'VBHY''TTHZEB'
VBHYTTHZEB
root@arm:~# MARKER='AUGH''VZHMJZ' run 'echo 810000 810000 > /sys/kernel/mva_test//regulators/buck4_set'
AUGHVZHMJZAUGHVZHMJZ 0
root@arm:~# echo 'NXSF''YTJTQJ'
NXSFYTJTQJ
root@arm:~# MARKER='ZFHJ''BPPFNC' run 'i2cget -y -f 2 0x4b 0x13'
ZFHJBPPFNC0x0b
ZFHJBPPFNC 0
root@arm:~# echo 'ZHCC''APYXTF'
ZHCCAPYXTF
root@arm:~# MARKER='FSMO''GQPSBM' run 'echo 820000 820000 > /sys/kernel/mva_test//regulators/buck4_set'
FSMOGQPSBMFSMOGQPSBM 0
root@arm:~# echo 'GKSX''FVCFHA'
GKSXFVCFHA
root@arm:~# MARKER='SYPL''LVFOJG' run 'i2cget -y -f 2 0x4b 0x13'
SYPLLVFOJG0x0c
SYPLLVFOJG 0
root@arm:~# echo 'AOBX''OLKVGA'
AOBXOLKVGA
root@arm:~# MARKER='ULHY''EKMXSU' run 'echo 830000 830000 > /sys/kernel/mva_test//regulators/buck4_set'
ULHYEKMXSUULHYEKMXSU 0
root@arm:~# echo 'TWEH''HFBJGK'
TWEHHFBJGK
root@arm:~# MARKER='ZTLH''ASQZLA' run 'i2cget -y -f 2 0x4b 0x13'
ZTLHASQZLA0x0d
ZTLHASQZLA 0
root@arm:~# echo 'MNWE''VHPMFZ'
MNWEVHPMFZ
root@arm:~# MARKER='WLTT''EPVUUU' run 'echo 840000 840000 > /sys/kernel/mva_test//regulators/buck4_set'
WLTTEPVUUUWLTTEPVUUU 0
root@arm:~# echo 'PHTU''CXYUTB'
PHTUCXYUTB
root@arm:~# MARKER='MNCZ''LEOVGQ' run 'i2cget -y -f 2 0x4b 0x13'
MNCZLEOVGQ0x0e
MNCZLEOVGQ 0
root@arm:~# echo 'NZNF''QGOCBA'
NZNFQGOCBA
root@arm:~# MARKER='FUJY''KJLLYY' run 'echo 850000 850000 > /sys/kernel/mva_test//regulators/buck4_set'
FUJYKJLLYYFUJYKJLLYY 0
root@arm:~# echo 'YVPB''WFXCXU'
YVPBWFXCXU
root@arm:~# MARKER='OHMK''MNPJAJ' run 'i2cget -y -f 2 0x4b 0x13'
OHMKMNPJAJ0x0f
OHMKMNPJAJ 0
root@arm:~# echo 'YFAQ''WBCBAK'
YFAQWBCBAK
root@arm:~# MARKER='HCHN''TYCVMA' run 'echo 860000 860000 > /sys/kernel/mva_test//regulators/buck4_set'
HCHNTYCVMAHCHNTYCVMA 0
root@arm:~# echo 'CSXW''BOHPXC'
CSXWBOHPXC
root@arm:~# MARKER='BGQX''EKAPQZ' run 'i2cget -y -f 2 0x4b 0x13'
BGQXEKAPQZ0x10
BGQXEKAPQZ 0
root@arm:~# echo 'JXKU''NULBNH'
JXKUNULBNH
root@arm:~# MARKER='HBCU''TQFOAT' run 'echo 870000 870000 > /sys/kernel/mva_test//regulators/buck4_set'
HBCUTQFOATHBCUTQFOAT 0
root@arm:~# echo 'ZLZO''HCNQYH'
ZLZOHCNQYH
root@arm:~# MARKER='AFWE''QLVNQJ' run 'i2cget -y -f 2 0x4b 0x13'
AFWEQLVNQJ0x11
AFWEQLVNQJ 0
root@arm:~# echo 'GEVL''SKTYTM'
GEVLSKTYTM
root@arm:~# MARKER='JGXH''WVHHOZ' run 'echo 880000 880000 > /sys/kernel/mva_test//regulators/buck4_set'
JGXHWVHHOZJGXHWVHHOZ 0
root@arm:~# echo 'LZLS''QVEJUZ'
LZLSQVEJUZ
root@arm:~# MARKER='JPOY''WAWWWT' run 'i2cget -y -f 2 0x4b 0x13'
JPOYWAWWWT0x12
JPOYWAWWWT 0
root@arm:~# echo 'FXOO''QBKZWE'
FXOOQBKZWE
root@arm:~# MARKER='YOVO''AUGTJL' run 'echo 890000 890000 > /sys/kernel/mva_test//regulators/buck4_set'
YOVOAUGTJLYOVOAUGTJL 0
root@arm:~# echo 'VZEP''SHGFNM'
VZEPSHGFNM
root@arm:~# MARKER='QSZG''KWUBOB' run 'i2cget -y -f 2 0x4b 0x13'
QSZGKWUBOB0x13
QSZGKWUBOB 0
root@arm:~# echo 'JJJQ''EEWTZK'
JJJQEEWTZK
root@arm:~# MARKER='SXBX''GYYOCB' run 'echo 900000 900000 > /sys/kernel/mva_test//regulators/buck4_set'
SXBXGYYOCBSXBXGYYOCB 0
root@arm:~# echo 'KOKQ''NLJHNM'
KOKQNLJHNM
root@arm:~# MARKER='LAOP''MTOGAU' run 'i2cget -y -f 2 0x4b 0x13'
LAOPMTOGAU0x14
LAOPMTOGAU 0
root@arm:~# echo 'LSQH''TSZVOJ'
LSQHTSZVOJ
root@arm:~# MARKER='LJGL''LJSHXN' run 'echo 910000 910000 > /sys/kernel/mva_test//regulators/buck4_set'
LJGLLJSHXNLJGLLJSHXN 0
root@arm:~# echo 'APJL''NVELKY'
APJLNVELKY
root@arm:~# MARKER='XSZV''XJQNLM' run 'i2cget -y -f 2 0x4b 0x13'
XSZVXJQNLM0x15
XSZVXJQNLM 0
root@arm:~# echo 'XXMV''XWVPEZ'
XXMVXWVPEZ
root@arm:~# MARKER='GPTX''SWXZGW' run 'echo 920000 920000 > /sys/kernel/mva_test//regulators/buck4_set'
GPTXSWXZGWGPTXSWXZGW 0
root@arm:~# echo 'VXME''WXAQAL'
VXMEWXAQAL
root@arm:~# MARKER='KOGY''WHOLHM' run 'i2cget -y -f 2 0x4b 0x13'
KOGYWHOLHM0x16
KOGYWHOLHM 0
root@arm:~# echo 'CQCW''VPLWZF'
CQCWVPLWZF
root@arm:~# MARKER='HZXN''SFUPCG' run 'echo 930000 930000 > /sys/kernel/mva_test//regulators/buck4_set'
HZXNSFUPCGHZXNSFUPCG 0
root@arm:~# echo 'APQV''HQLXUA'
APQVHQLXUA
root@arm:~# MARKER='CQUY''QUAZTW' run 'i2cget -y -f 2 0x4b 0x13'
CQUYQUAZTW0x17
CQUYQUAZTW 0
root@arm:~# echo 'YLSL''OTYCWP'
YLSLOTYCWP
