Labgrid Console Logfile for main
Logfile started at 2025-10-29 17:51:10.503481
=== Log starts here ===

root@arm:~# run() { echo -n "$MARKER"; sh -c "$@"; echo "$MARKER $?"; }
root@arm:~# echo 'QOHA''HJOCNO'
QOHAHJOCNO
root@arm:~# MARKER='GHWA''SWJSHJ' run 'grep -r -l rohm,bd71837 /proc/device-tree  | sed '"'"'s![^/]*$!!'"'"''
GHWASWJSHJ/proc/device-tree/ocp/interconnect@48000000/segment@100000/target-module@9c000/i2c@0/pmic@4b/
GHWASWJSHJ 0
root@arm:~# echo 'HNTS''BWYHSX'
HNTSBWYHSX
root@arm:~# MARKER='BOBE''XJCAYU' run 'test -f /proc/device-tree/ocp/interconnectt\@48000000/segment\@100000/target-module\@9c000/i2c\@0/pmic\@4b/regulators/BUCK11/rohm,no-regulator-enable-control ;echo $?'
BOBEXJCAYU1
BOBEXJCAYU 0
root@arm:~# echo 'HZXQ''BCCBKM'
HZXQBCCBKM
root@arm:~# MARKER='WMLC''PYLNYA' run 'echo 1 > /sys/kernel/mva_test/regulators/bbuck1_en'
WMLCPYLNYAWMLCPYLNYA 0
root@arm:~# echo 'CHUA''SZMMVA'
CHUASZMMVA
root@arm:~# MARKER='CNLU''SYEAJT' run 'i2cget -y -f 2 0x4b 0x5'
CNLUSYEAJT0x03
CNLUSYEAJT 0
root@arm:~# echo 'GQBF''XOEAJA'
GQBFXOEAJA
root@arm:~# MARKER='YWJK''NGEXTC' run 'grep -r -l rohm,bd71837 /proc/device-tree  | sed '"'"'s![^/]*$!!'"'"''
YWJKNGEXTC/proc/device-tree/ocp/interconnect@48000000/segment@100000/target-module@9c000/i2c@0/pmic@4b/
YWJKNGEXTC 0
root@arm:~# echo 'YCUK''SFJGYA'
YCUKSFJGYA
root@arm:~# MARKER='QGNG''TNFWJU' run 'test -f /proc/device-tree/ocp/interconnectt\@48000000/segment\@100000/target-module\@9c000/i2c\@0/pmic\@4b/regulators/BUCK11/rohm,no-regulator-enable-control ;echo $?'
QGNGTNFWJU1
QGNGTNFWJU 0
root@arm:~# echo 'TGNX''ZWQSHO'
TGNXZWQSHO
root@arm:~# MARKER='EZMY''TAXTFX' run 'grep -r -l rohm,bd71837 /proc/device-tree  | sed '"'"'s![^/]*$!!'"'"''
EZMYTAXTFX/proc/device-tree/ocp/interconnect@48000000/segment@100000/target-module@9c000/i2c@0/pmic@4b/
EZMYTAXTFX 0
root@arm:~# echo 'WLCE''SFPOEZ'
WLCESFPOEZ
root@arm:~# MARKER='QEMG''NPKANK' run 'test -f /proc/device-tree/ocp/interconnectt\@48000000/segment\@100000/target-module\@9c000/i2c\@0/pmic\@4b/regulators/BUCK11/regulator-always-on ;echo $?'
QEMGNPKANK1
QEMGNPKANK 0
root@arm:~# echo 'BBGJ''VBLVKY'
BBGJVBLVKY
root@arm:~# MARKER='MAST''LWBUUQ' run 'echo 0 > /sys/kernel/mva_test/regulators/bbuck1_en'
MASTLWBUUQMASTLWBUUQ 0
root@arm:~# echo 'VBCT''MHAMXS'
VBCTMHAMXS
root@arm:~# MARKER='XSCV''NHELLF' run 'i2cget -y -f 2 0x4b 0x5'
XSCVNHELLF0x02
XSCVNHELLF 0
root@arm:~# echo 'LYBC''JGHAYU'
LYBCJGHAYU
root@arm:~# MARKER='FYHG''XVJKGM' run 'grep -r -l rohm,bd71837 /proc/device-tree  | sed '"'"'s![^/]*$!!'"'"''
FYHGXVJKGM/proc/device-tree/ocp/interconnect@48000000/segment@100000/target-module@9c000/i2c@0/pmic@4b/
FYHGXVJKGM 0
root@arm:~# echo 'GFKC''JGGFKM'
GFKCJGGFKM
root@arm:~# MARKER='FCGC''LQYLTB' run 'test -f /proc/device-tree/ocp/interconnectt\@48000000/segment\@100000/target-module\@9c000/i2c\@0/pmic\@4b/regulators/BUCK22/rohm,no-regulator-enable-control ;echo $?'
FCGCLQYLTB1
FCGCLQYLTB 0
root@arm:~# echo 'PZWQ''OPNYMT'
PZWQOPNYMT
root@arm:~# MARKER='QPWZ''MPGYMP' run 'echo 1 > /sys/kernel/mva_test/regulators/bbuck2_en'
QPWZMPGYMPQPWZMPGYMP 0
root@arm:~# echo 'QTGY''AKVFSB'
QTGYAKVFSB
root@arm:~# MARKER='XAHM''ZWCNGQ' run 'i2cget -y -f 2 0x4b 0x6'
XAHMZWCNGQ0x43
XAHMZWCNGQ 0
root@arm:~# echo 'OJCB''EUQQMQ'
OJCBEUQQMQ
root@arm:~# MARKER='XSJF''PCKWNU' run 'grep -r -l rohm,bd71837 /proc/device-tree  | sed '"'"'s![^/]*$!!'"'"''
XSJFPCKWNU/proc/device-tree/ocp/interconnect@48000000/segment@100000/target-module@9c000/i2c@0/pmic@4b/
XSJFPCKWNU 0
root@arm:~# echo 'EUCP''MTATVT'
EUCPMTATVT
root@arm:~# MARKER='EJMQ''OZXQCH' run 'test -f /proc/device-tree/ocp/interconnectt\@48000000/segment\@100000/target-module\@9c000/i2c\@0/pmic\@4b/regulators/BUCK22/rohm,no-regulator-enable-control ;echo $?'
EJMQOZXQCH1
EJMQOZXQCH 0
root@arm:~# echo 'KYWV''VEWWXM'
KYWVVEWWXM
root@arm:~# MARKER='VAFJ''TYLLEE' run 'grep -r -l rohm,bd71837 /proc/device-tree  | sed '"'"'s![^/]*$!!'"'"''
VAFJTYLLEE/proc/device-tree/ocp/interconnect@48000000/segment@100000/target-module@9c000/i2c@0/pmic@4b/
VAFJTYLLEE 0
root@arm:~# echo 'JBZE''AJGJSU'
JBZEAJGJSU
root@arm:~# MARKER='TMGS''SAVOYA' run 'test -f /proc/device-tree/ocp/interconnectt\@48000000/segment\@100000/target-module\@9c000/i2c\@0/pmic\@4b/regulators/BUCK22/regulator-always-on ;echo $?'
TMGSSAVOYA0
TMGSSAVOYA 0
root@arm:~# echo 'ZLTG''NCEUUA'
ZLTGNCEUUA
root@arm:~# MARKER='CVMW''NVENYM' run 'grep -r -l rohm,bd71837 /proc/device-tree  | sed '"'"'s![^/]*$!!'"'"''
CVMWNVENYM/proc/device-tree/ocp/interconnect@48000000/segment@100000/target-module@9c000/i2c@0/pmic@4b/
CVMWNVENYM 0
root@arm:~# echo 'UCSO''XACPLV'
UCSOXACPLV
root@arm:~# MARKER='TZYV''UFWTCJ' run 'test -f /proc/device-tree/ocp/interconnectt\@48000000/segment\@100000/target-module\@9c000/i2c\@0/pmic\@4b/regulators/BUCK33/rohm,no-regulator-enable-control ;echo $?'
TZYVUFWTCJ0
TZYVUFWTCJ 0
root@arm:~# echo 'SXAL''ZHSYAE'
SXALZHSYAE
root@arm:~# MARKER='SKCL''QYQPYJ' run 'grep -r -l rohm,bd71837 /proc/device-tree  | sed '"'"'s![^/]*$!!'"'"''
SKCLQYQPYJ/proc/device-tree/ocp/interconnect@48000000/segment@100000/target-module@9c000/i2c@0/pmic@4b/
SKCLQYQPYJ 0
root@arm:~# echo 'WLZP''SQKNNE'
WLZPSQKNNE
root@arm:~# MARKER='ZFOB''PVMPTF' run 'test -f /proc/device-tree/ocp/interconnectt\@48000000/segment\@100000/target-module\@9c000/i2c\@0/pmic\@4b/regulators/BUCK 3/rohm,no-regulator-enable-control ;echo $?'
ZFOBPVMPTF0
ZFOBPVMPTF 0
root@arm:~# echo 'SBMB''LEFKXB'
SBMBLEFKXB
root@arm:~# MARKER='JLHW''BVGUMU' run 'grep -r -l rohm,bd71837 /proc/device-tree  | sed '"'"'s![^/]*$!!'"'"''
JLHWBVGUMU/proc/device-tree/ocp/interconnect@48000000/segment@100000/target-module@9c000/i2c@0/pmic@4b/
JLHWBVGUMU 0
root@arm:~# echo 'UVUA''YNGMHZ'
UVUAYNGMHZ
root@arm:~# MARKER='ETOQ''TXUGSM' run 'test -f /proc/device-tree/ocp/interconnectt\@48000000/segment\@100000/target-module\@9c000/i2c\@0/pmic\@4b/regulators/BUCK44/rohm,no-regulator-enable-control ;echo $?'
ETOQTXUGSM1
ETOQTXUGSM 0
root@arm:~# echo 'PLGZ''MMSGCU'
PLGZMMSGCU
root@arm:~# MARKER='SUXH''HFQEZJ' run 'echo 1 > /sys/kernel/mva_test/regulators/bbuck4_en'
SUXHHFQEZJSUXHHFQEZJ 0
root@arm:~# echo 'YXHK''SWWVXE'
YXHKSWWVXE
root@arm:~# MARKER='JSZH''JJAZKJ' run 'i2cget -y -f 2 0x4b 0x8'
JSZHJJAZKJ0xc7
JSZHJJAZKJ 0
root@arm:~# echo 'UZHQ''UPJLOG'
UZHQUPJLOG
root@arm:~# MARKER='SSSU''NHBKWM' run 'grep -r -l rohm,bd71837 /proc/device-tree  | sed '"'"'s![^/]*$!!'"'"''
SSSUNHBKWM/proc/device-tree/ocp/interconnect@48000000/segment@100000/target-module@9c000/i2c@0/pmic@4b/
SSSUNHBKWM 0
root@arm:~# echo 'AXCS''PLMYUX'
AXCSPLMYUX
root@arm:~# MARKER='LAWN''CWLWVY' run 'test -f /proc/device-tree/ocp/interconnectt\@48000000/segment\@100000/target-module\@9c000/i2c\@0/pmic\@4b/regulators/BUCK44/rohm,no-regulator-enable-control ;echo $?'
LAWNCWLWVY1
LAWNCWLWVY 0
root@arm:~# echo 'GTMH''UYGEJW'
GTMHUYGEJW
root@arm:~# MARKER='OEHB''QAFTGB' run 'grep -r -l rohm,bd71837 /proc/device-tree  | sed '"'"'s![^/]*$!!'"'"''
OEHBQAFTGB/proc/device-tree/ocp/interconnect@48000000/segment@100000/target-module@9c000/i2c@0/pmic@4b/
OEHBQAFTGB 0
root@arm:~# echo 'KVFZ''YXUZTM'
KVFZYXUZTM
root@arm:~# MARKER='MPXE''VBBETG' run 'test -f /proc/device-tree/ocp/interconnectt\@48000000/segment\@100000/target-module\@9c000/i2c\@0/pmic\@4b/regulators/BUCK44/regulator-always-on ;echo $?'
MPXEVBBETG1
MPXEVBBETG 0
root@arm:~# echo 'XJOV''MBQSFT'
XJOVMBQSFT
root@arm:~# MARKER='EHUY''KGBUYA' run 'echo 0 > /sys/kernel/mva_test/regulators/bbuck4_en'
EHUYKGBUYAEHUYKGBUYA 0
root@arm:~# echo 'GKYE''GTQZKV'
GKYEGTQZKV
root@arm:~# MARKER='PZEU''TFQLBZ' run 'i2cget -y -f 2 0x4b 0x8'
PZEUTFQLBZ0xc6
PZEUTFQLBZ 0
root@arm:~# echo 'LLYH''CGYYEZ'
LLYHCGYYEZ
root@arm:~# MARKER='MMXK''EHVWAK' run 'grep -r -l rohm,bd71837 /proc/device-tree  | sed '"'"'s![^/]*$!!'"'"''
MMXKEHVWAK/proc/device-tree/ocp/interconnect@48000000/segment@100000/target-module@9c000/i2c@0/pmic@4b/
MMXKEHVWAK 0
root@arm:~# echo 'TNCK''AWVOMV'
TNCKAWVOMV
root@arm:~# MARKER='YNUT''VYVCVK' run 'test -f /proc/device-tree/ocp/interconnectt\@48000000/segment\@100000/target-module\@9c000/i2c\@0/pmic\@4b/regulators/BUCK55/rohm,no-regulator-enable-control ;echo $?'
YNUTVYVCVK1
YNUTVYVCVK 0
root@arm:~# echo 'YUJN''KMGVGG'
YUJNKMGVGG
root@arm:~# MARKER='GVUG''LGNXOY' run 'echo 1 > /sys/kernel/mva_test/regulators/bbuck5_en'
GVUGLGNXOYGVUGLGNXOY 0
root@arm:~# echo 'YZSF''KWCJVK'
YZSFKWCJVK
root@arm:~# MARKER='FPBE''HJKSJX' run 'i2cget -y -f 2 0x4b 0x9'
FPBEHJKSJX0x03
FPBEHJKSJX 0
root@arm:~# echo 'FNTC''TGCPTP'
FNTCTGCPTP
root@arm:~# MARKER='EGGG''SHFEKP' run 'grep -r -l rohm,bd71837 /proc/device-tree  | sed '"'"'s![^/]*$!!'"'"''
EGGGSHFEKP/proc/device-tree/ocp/interconnect@48000000/segment@100000/target-module@9c000/i2c@0/pmic@4b/
EGGGSHFEKP 0
root@arm:~# echo 'VLOS''TKPEHT'
VLOSTKPEHT
root@arm:~# MARKER='AWSA''FJZHVQ' run 'test -f /proc/device-tree/ocp/interconnectt\@48000000/segment\@100000/target-module\@9c000/i2c\@0/pmic\@4b/regulators/BUCK55/rohm,no-regulator-enable-control ;echo $?'
AWSAFJZHVQ1
AWSAFJZHVQ 0
root@arm:~# echo 'ONTH''ZPHCBS'
ONTHZPHCBS
root@arm:~# MARKER='ETQP''HTOKBN' run 'grep -r -l rohm,bd71837 /proc/device-tree  | sed '"'"'s![^/]*$!!'"'"''
ETQPHTOKBN/proc/device-tree/ocp/interconnect@48000000/segment@100000/target-module@9c000/i2c@0/pmic@4b/
ETQPHTOKBN 0
root@arm:~# echo 'BEAJ''ZZFUHO'
BEAJZZFUHO
root@arm:~# MARKER='HCUC''BKGNAC' run 'test -f /proc/device-tree/ocp/interconnectt\@48000000/segment\@100000/target-module\@9c000/i2c\@0/pmic\@4b/regulators/BUCK55/regulator-always-on ;echo $?'
HCUCBKGNAC1
HCUCBKGNAC 0
root@arm:~# echo 'VKCX''SXCAUV'
VKCXSXCAUV
root@arm:~# MARKER='CCGA''NVOTVZ' run 'echo 0 > /sys/kernel/mva_test/regulators/bbuck5_en'
CCGANVOTVZCCGANVOTVZ 0
root@arm:~# echo 'QXPA''CGOYNT'
QXPACGOYNT
root@arm:~# MARKER='GTFQ''EQZGWB' run 'i2cget -y -f 2 0x4b 0x9'
GTFQEQZGWB0x02
GTFQEQZGWB 0
root@arm:~# echo 'NULT''JFEHKW'
NULTJFEHKW
root@arm:~# MARKER='MFBW''CPTQVN' run 'grep -r -l rohm,bd71837 /proc/device-tree  | sed '"'"'s![^/]*$!!'"'"''
MFBWCPTQVN/proc/device-tree/ocp/interconnect@48000000/segment@100000/target-module@9c000/i2c@0/pmic@4b/
MFBWCPTQVN 0
root@arm:~# echo 'NGHQ''ZPXEMO'
NGHQZPXEMO
root@arm:~# MARKER='BXBS''PLALLS' run 'test -f /proc/device-tree/ocp/interconnectt\@48000000/segment\@100000/target-module\@9c000/i2c\@0/pmic\@4b/regulators/BUCK 6/rohm,no-regulator-enable-control ;echo $?'
BXBSPLALLS1
BXBSPLALLS 0
root@arm:~# echo 'OLLP''JAXTMZ'
OLLPJAXTMZ
root@arm:~# MARKER='BQKW''ASZPOX' run 'echo 1 > /sys/kernel/mva_test/regulators/bbuck6_en'
BQKWASZPOXBQKWASZPOX 0
root@arm:~# echo 'KNBJ''GNUXWS'
KNBJGNUXWS
root@arm:~# MARKER='XXCM''UQYSXJ' run 'i2cget -y -f 2 0x4b 0xa'
XXCMUQYSXJ0x03
XXCMUQYSXJ 0
root@arm:~# echo 'ATAZ''UJKVSN'
ATAZUJKVSN
root@arm:~# MARKER='MWNU''VHLCLG' run 'grep -r -l rohm,bd71837 /proc/device-tree  | sed '"'"'s![^/]*$!!'"'"''
MWNUVHLCLG/proc/device-tree/ocp/interconnect@48000000/segment@100000/target-module@9c000/i2c@0/pmic@4b/
MWNUVHLCLG 0
root@arm:~# echo 'VPUB''AMSXWY'
VPUBAMSXWY
root@arm:~# MARKER='PNCK''FJBXUA' run 'test -f /proc/device-tree/ocp/interconnectt\@48000000/segment\@100000/target-module\@9c000/i2c\@0/pmic\@4b/regulators/BUCK66/rohm,no-regulator-enable-control ;echo $?'
PNCKFJBXUA1
PNCKFJBXUA 0
root@arm:~# echo 'QNXP''YTNULF'
QNXPYTNULF
root@arm:~# MARKER='LSZT''TQFSXH' run 'grep -r -l rohm,bd71837 /proc/device-tree  | sed '"'"'s![^/]*$!!'"'"''
LSZTTQFSXH/proc/device-tree/ocp/interconnect@48000000/segment@100000/target-module@9c000/i2c@0/pmic@4b/
LSZTTQFSXH 0
root@arm:~# echo 'NSBJ''JUKHAN'
NSBJJUKHAN
root@arm:~# MARKER='LNZB''UWAZUP' run 'test -f /proc/device-tree/ocp/interconnectt\@48000000/segment\@100000/target-module\@9c000/i2c\@0/pmic\@4b/regulators/BUCK66/regulator-always-on ;echo $?'
LNZBUWAZUP1
LNZBUWAZUP 0
root@arm:~# echo 'AKFZ''MMPZWC'
AKFZMMPZWC
root@arm:~# MARKER='XVLB''GUEJQW' run 'echo 0 > /sys/kernel/mva_test/regulators/bbuck6_en'
XVLBGUEJQWXVLBGUEJQW 0
root@arm:~# echo 'NYZV''YHCAPX'
NYZVYHCAPX
root@arm:~# MARKER='UCTJ''SWZHLC' run 'i2cget -y -f 2 0x4b 0xa'
UCTJSWZHLC0x02
UCTJSWZHLC 0
root@arm:~# echo 'UWPP''WBUMNA'
UWPPWBUMNA
root@arm:~# MARKER='SEUP''WXWKWL' run 'grep -r -l rohm,bd71837 /proc/device-tree  | sed '"'"'s![^/]*$!!'"'"''
SEUPWXWKWL/proc/device-tree/ocp/interconnect@48000000/segment@100000/target-module@9c000/i2c@0/pmic@4b/
SEUPWXWKWL 0
root@arm:~# echo 'NCEM''ZPWAEB'
NCEMZPWAEB
root@arm:~# MARKER='MFSZ''HYWUSL' run 'test -f /proc/device-tree/ocp/interconnectt\@48000000/segment\@100000/target-module\@9c000/i2c\@0/pmic\@4b/regulators/BUCK77/rohm,no-regulator-enable-control ;echo $?'
MFSZHYWUSL1
MFSZHYWUSL 0
root@arm:~# echo 'YKZQ''XPANXN'
YKZQXPANXN
root@arm:~# MARKER='GZTT''BLJJVW' run 'echo 1 > /sys/kernel/mva_test/regulators/bbuck7_en'
GZTTBLJJVWGZTTBLJJVW 0
root@arm:~# echo 'LCQG''LKNSNQ'
LCQGLKNSNQ
root@arm:~# MARKER='HUMT''LLJXJM' run 'i2cget -y -f 2 0x4b 0xb'
HUMTLLJXJM0x03
HUMTLLJXJM 0
root@arm:~# echo 'GWMW''QTTJBL'
GWMWQTTJBL
root@arm:~# MARKER='XMUE''HVUQGN' run 'grep -r -l rohm,bd71837 /proc/device-tree  | sed '"'"'s![^/]*$!!'"'"''
XMUEHVUQGN/proc/device-tree/ocp/interconnect@48000000/segment@100000/target-module@9c000/i2c@0/pmic@4b/
XMUEHVUQGN 0
root@arm:~# echo 'ZVBE''WBLOVX'
ZVBEWBLOVX
root@arm:~# MARKER='JSQU''XNFJSG' run 'test -f /proc/device-tree/ocp/interconnectt\@48000000/segment\@100000/target-module\@9c000/i2c\@0/pmic\@4b/regulators/BUCK77/rohm,no-regulator-enable-control ;echo $?'
JSQUXNFJSG1
JSQUXNFJSG 0
root@arm:~# echo 'JMXB''PANYVS'
JMXBPANYVS
root@arm:~# MARKER='VZGU''XPBJGY' run 'grep -r -l rohm,bd71837 /proc/device-tree  | sed '"'"'s![^/]*$!!'"'"''
VZGUXPBJGY/proc/device-tree/ocp/interconnect@48000000/segment@100000/target-module@9c000/i2c@0/pmic@4b/
VZGUXPBJGY 0
root@arm:~# echo 'ZMGO''FZLWZN'
ZMGOFZLWZN
root@arm:~# MARKER='GANQ''PCLVUJ' run 'test -f /proc/device-tree/ocp/interconnectt\@48000000/segment\@100000/target-module\@9c000/i2c\@0/pmic\@4b/regulators/BUCK77/regulator-always-on ;echo $?'
GANQPCLVUJ1
GANQPCLVUJ 0
root@arm:~# echo 'PWWV''KWJTUK'
PWWVKWJTUK
root@arm:~# MARKER='LTVK''LAFCWH' run 'echo 0 > /sys/kernel/mva_test/regulators/bbuck7_en'
LTVKLAFCWHLTVKLAFCWH 0
root@arm:~# echo 'ZYEU''BJOCLG'
ZYEUBJOCLG
root@arm:~# MARKER='KGBT''BTOLFC' run 'i2cget -y -f 2 0x4b 0xb'
KGBTBTOLFC0x02
KGBTBTOLFC 0
root@arm:~# echo 'OPEP''NSKQCC'
OPEPNSKQCC
root@arm:~# MARKER='TVMX''QPAKHC' run 'grep -r -l rohm,bd71837 /proc/device-tree  | sed '"'"'s![^/]*$!!'"'"''
TVMXQPAKHC/proc/device-tree/ocp/interconnect@48000000/segment@100000/target-module@9c000/i2c@0/pmic@4b/
TVMXQPAKHC 0
root@arm:~# echo 'OPCZ''FMKOAQ'
OPCZFMKOAQ
root@arm:~# MARKER='MCMO''QKJKHL' run 'test -f /proc/device-tree/ocp/interconnectt\@48000000/segment\@100000/target-module\@9c000/i2c\@0/pmic\@4b/regulators/BUCK88/rohm,no-regulator-enable-control ;echo $?'
MCMOQKJKHL1
MCMOQKJKHL 0
root@arm:~# echo 'VLNE''OSOOCN'
VLNEOSOOCN
root@arm:~# MARKER='VXSB''VXSKXO' run 'echo 1 > /sys/kernel/mva_test/regulators/bbuck8_en'
VXSBVXSKXOVXSBVXSKXO 0
root@arm:~# echo 'MWHE''XZSFLQ'
MWHEXZSFLQ
root@arm:~# MARKER='SFTH''HEHHVU' run 'i2cget -y -f 2 0x4b 0xc'
SFTHHEHHVU0x03
SFTHHEHHVU 0
root@arm:~# echo 'CPON''LFWUBV'
CPONLFWUBV
root@arm:~# MARKER='YGXY''WWOSMS' run 'grep -r -l rohm,bd71837 /proc/device-tree  | sed '"'"'s![^/]*$!!'"'"''
YGXYWWOSMS/proc/device-tree/ocp/interconnect@48000000/segment@100000/target-module@9c000/i2c@0/pmic@4b/
YGXYWWOSMS 0
root@arm:~# echo 'YSFG''AFMCFZ'
YSFGAFMCFZ
root@arm:~# MARKER='NVOC''YQLYHT' run 'test -f /proc/device-tree/ocp/interconnectt\@48000000/segment\@100000/target-module\@9c000/i2c\@0/pmic\@4b/regulators/BUCK88/rohm,no-regulator-enable-control ;echo $?'
NVOCYQLYHT1
NVOCYQLYHT 0
root@arm:~# echo 'QQVW''FBOJFA'
QQVWFBOJFA
root@arm:~# MARKER='EKVX''AYBUFW' run 'grep -r -l rohm,bd71837 /proc/device-tree  | sed '"'"'s![^/]*$!!'"'"''
EKVXAYBUFW/proc/device-tree/ocp/interconnect@48000000/segment@100000/target-module@9c000/i2c@0/pmic@4b/
EKVXAYBUFW 0
root@arm:~# echo 'WACP''FTBXYZ'
WACPFTBXYZ
root@arm:~# MARKER='YTVU''MTXETQ' run 'test -f /proc/device-tree/ocp/interconnectt\@48000000/segment\@100000/target-module\@9c000/i2c\@0/pmic\@4b/regulators/BUCK88/regulator-always-on ;echo $?'
YTVUMTXETQ1
YTVUMTXETQ 0
root@arm:~# echo 'QCFB''AJYJKU'
QCFBAJYJKU
root@arm:~# MARKER='NKKN''NMHAGQ' run 'echo 0 > /sys/kernel/mva_test/regulators/bbuck8_en'
NKKNNMHAGQNKKNNMHAGQ 0
root@arm:~# echo 'SAXX''MGLOBQ'
SAXXMGLOBQ
root@arm:~# MARKER='SUTZ''ZCPSCC' run 'i2cget -y -f 2 0x4b 0xc'
SUTZZCPSCC0x02
SUTZZCPSCC 0
root@arm:~# echo 'QLZA''TETSTJ'
QLZATETSTJ
root@arm:~# MARKER='KTSN''ZEAAQS' run 'grep -r -l rohm,bd71837 /proc/device-tree  | sed '"'"'s![^/]*$!!'"'"''
KTSNZEAAQS/proc/device-tree/ocp/interconnect@48000000/segment@100000/target-module@9c000/i2c@0/pmic@4b/
KTSNZEAAQS 0
root@arm:~# echo 'CLXL''WVOCAH'
CLXLWVOCAH
root@arm:~# MARKER='MAFW''AYHMPH' run 'test -f /proc/device-tree/ocp/interconnectt\@48000000/segment\@100000/target-module\@9c000/i2c\@0/pmic\@4b/regulators/LDO1//rohm,no-regulator-enable-control ;echo $?'
MAFWAYHMPH1
MAFWAYHMPH 0
root@arm:~# echo 'AONW''PYKEMH'
AONWPYKEMH
root@arm:~# MARKER='WWAY''TYKZGM' run 'echo 1 > /sys/kernel/mva_test/regulators/bbuck9_en'
WWAYTYKZGMWWAYTYKZGM 0
root@arm:~# echo 'BXVJ''BWCNHV'
BXVJBWCNHV
root@arm:~# MARKER='FXQJ''KBOLZG' run 'i2cget -y -f 2 0x4b 0x18'
FXQJKBOLZG0xc3
FXQJKBOLZG 0
root@arm:~# echo 'PPSC''GSFNWC'
PPSCGSFNWC
root@arm:~# MARKER='SPNE''CPFZHF' run 'grep -r -l rohm,bd71837 /proc/device-tree  | sed '"'"'s![^/]*$!!'"'"''
SPNECPFZHF/proc/device-tree/ocp/interconnect@48000000/segment@100000/target-module@9c000/i2c@0/pmic@4b/
SPNECPFZHF 0
root@arm:~# echo 'JPSW''UJXKMM'
JPSWUJXKMM
root@arm:~# MARKER='PGCN''HNNCQM' run 'test -f /proc/device-tree/ocp/interconnectt\@48000000/segment\@100000/target-module\@9c000/i2c\@0/pmic\@4b/regulators/LDO1//rohm,no-regulator-enable-control ;echo $?'
PGCNHNNCQM1
PGCNHNNCQM 0
root@arm:~# echo 'YQHY''STQNWL'
YQHYSTQNWL
root@arm:~# MARKER='XJCH''SJKQSZ' run 'grep -r -l rohm,bd71837 /proc/device-tree  | sed '"'"'s![^/]*$!!'"'"''
XJCHSJKQSZ/proc/device-tree/ocp/interconnect@48000000/segment@100000/target-module@9c000/i2c@0/pmic@4b/
XJCHSJKQSZ 0
root@arm:~# echo 'PMBM''HCJVAG'
PMBMHCJVAG
root@arm:~# MARKER='HLCL''CQCUFB' run 'test -f /proc/device-tree/ocp/interconnectt\@48000000/segment\@100000/target-module\@9c000/i2c\@0/pmic\@4b/regulators/LDO1//regulator-always-on ;echo $?'
HLCLCQCUFB1
HLCLCQCUFB 0
root@arm:~# echo 'WGEA''JNLMQJ'
WGEAJNLMQJ
root@arm:~# MARKER='QBME''EPNVLM' run 'echo 0 > /sys/kernel/mva_test/regulators/bbuck9_en'
QBMEEPNVLMQBMEEPNVLM 0
root@arm:~# echo 'SBMB''LHFJZW'
SBMBLHFJZW
root@arm:~# MARKER='SXJE''EKSGPL' run 'i2cget -y -f 2 0x4b 0x18'
SXJEEKSGPL0x83
SXJEEKSGPL 0
root@arm:~# echo 'LANJ''NCYGPO'
LANJNCYGPO
root@arm:~# MARKER='ZNFV''ZPNWON' run 'grep -r -l rohm,bd71837 /proc/device-tree  | sed '"'"'s![^/]*$!!'"'"''
ZNFVZPNWON/proc/device-tree/ocp/interconnect@48000000/segment@100000/target-module@9c000/i2c@0/pmic@4b/
ZNFVZPNWON 0
root@arm:~# echo 'FGZX''CATBWC'
FGZXCATBWC
root@arm:~# MARKER='GXTT''GWYKHY' run 'test -f /proc/device-tree/ocp/interconnectt\@48000000/segment\@100000/target-module\@9c000/i2c\@0/pmic\@4b/regulators/LDO2//rohm,no-regulator-enable-control ;echo $?'
GXTTGWYKHY1
GXTTGWYKHY 0
root@arm:~# echo 'GMZL''MUHKHY'
GMZLMUHKHY
root@arm:~# MARKER='XLEV''LPEHXU' run 'echo 1 > /sys/kernel/mva_test/regulators/bbuck10_en'
XLEVLPEHXUXLEVLPEHXU 0
root@arm:~# echo 'UMSA''AJXPEP'
UMSAAJXPEP
root@arm:~# MARKER='LXGV''YCAZZQ' run 'i2cget -y -f 2 0x4b 0x19'
LXGVYCAZZQ0xc0
LXGVYCAZZQ 0
root@arm:~# echo 'CXTC''SFVAWT'
CXTCSFVAWT
root@arm:~# MARKER='JOPP''GNAUTL' run 'grep -r -l rohm,bd71837 /proc/device-tree  | sed '"'"'s![^/]*$!!'"'"''
JOPPGNAUTL/proc/device-tree/ocp/interconnect@48000000/segment@100000/target-module@9c000/i2c@0/pmic@4b/
JOPPGNAUTL 0
root@arm:~# echo 'OSSW''AMBBCT'
OSSWAMBBCT
root@arm:~# MARKER='SMAT''OVOTLE' run 'test -f /proc/device-tree/ocp/interconnectt\@48000000/segment\@100000/target-module\@9c000/i2c\@0/pmic\@4b/regulators/LDO2 /rohm,no-regulator-enable-control ;echo $?'
SMATOVOTLE1
SMATOVOTLE 0
root@arm:~# echo 'YVUX''XNNJON'
YVUXXNNJON
root@arm:~# MARKER='YAQX''WKXATX' run 'grep -r -l rohm,bd71837 /proc/device-tree  | sed '"'"'s![^/]*$!!'"'"''
YAQXWKXATX/proc/device-tree/ocp/interconnect@48000000/segment@100000/target-module@9c000/i2c@0/pmic@4b/
YAQXWKXATX 0
root@arm:~# echo 'UOQH''OSPKWS'
UOQHOSPKWS
root@arm:~# MARKER='BKOB''YWNXJJ' run 'test -f /proc/device-tree/ocp/interconnectt\@48000000/segment\@100000/target-module\@9c000/i2c\@0/pmic\@4b/regulators/LDO2//regulator-always-on ;echo $?'
BKOBYWNXJJ1
BKOBYWNXJJ 0
root@arm:~# echo 'QPKB''BGFEWC'
QPKBBGFEWC
root@arm:~# MARKER='XSNA''OXAVCH' run 'echo 0 > /sys/kernel/mva_test/regulators/bbuck10_en'
XSNAOXAVCHXSNAOXAVCH 0
root@arm:~# echo 'OEHX''BNGAXV'
OEHXBNGAXV
root@arm:~# MARKER='WQBE''GBUYCO' run 'i2cget -y -f 2 0x4b 0x19'
WQBEGBUYCO0x80
WQBEGBUYCO 0
root@arm:~# echo 'HKMF''QPKWMT'
HKMFQPKWMT
root@arm:~# MARKER='SBVE''TUNNKH' run 'grep -r -l rohm,bd71837 /proc/device-tree  | sed '"'"'s![^/]*$!!'"'"''
SBVETUNNKH/proc/device-tree/ocp/interconnect@48000000/segment@100000/target-module@9c000/i2c@0/pmic@4b/
SBVETUNNKH 0
root@arm:~# echo 'NEGS''AJMPWQ'
NEGSAJMPWQ
root@arm:~# MARKER='KFWW''OVYBHL' run 'test -f /proc/device-tree/ocp/interconnectt\@48000000/segment\@100000/target-module\@9c000/i2c\@0/pmic\@4b/regulators/LDO3//rohm,no-regulator-enable-control ;echo $?'
KFWWOVYBHL1
KFWWOVYBHL 0
root@arm:~# echo 'SALV''SEAKVB'
SALVSEAKVB
root@arm:~# MARKER='LPZW''YLOVVK' run 'echo 1 > /sys/kernel/mva_test/regulators/bbuck11_en'
LPZWYLOVVKLPZWYLOVVK 0
root@arm:~# echo 'OPHF''JCCANJ'
OPHFJCCANJ
root@arm:~# MARKER='ZTQP''WFJXQC' run 'i2cget -y -f 2 0x4b 0x1a'
ZTQPWFJXQC0xc0
ZTQPWFJXQC 0
root@arm:~# echo 'MJBJ''GJFMQA'
MJBJGJFMQA
root@arm:~# MARKER='BNTU''WYOTAA' run 'grep -r -l rohm,bd71837 /proc/device-tree  | sed '"'"'s![^/]*$!!'"'"''
BNTUWYOTAA/proc/device-tree/ocp/interconnect@48000000/segment@100000/target-module@9c000/i2c@0/pmic@4b/
BNTUWYOTAA 0
root@arm:~# echo 'VYKG''CWWHMO'
VYKGCWWHMO
root@arm:~# MARKER='UYOF''PWULOL' run 'test -f /proc/device-tree/ocp/interconnectt\@48000000/segment\@100000/target-module\@9c000/i2c\@0/pmic\@4b/regulators/LDO3//rohm,no-regulator-enable-control ;echo $?'
UYOFPWULOL1
UYOFPWULOL 0
root@arm:~# echo 'YEJW''WQKOOB'
YEJWWQKOOB
root@arm:~# MARKER='JGKN''GYXLZH' run 'grep -r -l rohm,bd71837 /proc/device-tree  | sed '"'"'s![^/]*$!!'"'"''
JGKNGYXLZH/proc/device-tree/ocp/interconnect@48000000/segment@100000/target-module@9c000/i2c@0/pmic@4b/
JGKNGYXLZH 0
root@arm:~# echo 'BVFU''TYFPMG'
BVFUTYFPMG
root@arm:~# MARKER='VUKZ''TMUPTS' run 'test -f /proc/device-tree/ocp/interconnectt\@48000000/segment\@100000/target-module\@9c000/i2c\@0/pmic\@4b/regulators/LDO3//regulator-always-on ;echo $?'
VUKZTMUPTS1
VUKZTMUPTS 0
root@arm:~# echo 'VYYZ''XPMWZK'
VYYZXPMWZK
root@arm:~# MARKER='TVBH''GAHTAX' run 'echo 0 > /sys/kernel/mva_test/regulators/bbuck11_en'
TVBHGAHTAXTVBHGAHTAX 0
root@arm:~# echo 'EOFX''ZBPUWX'
EOFXZBPUWX
root@arm:~# MARKER='GTTH''FFBESW' run 'i2cget -y -f 2 0x4b 0x1a'
GTTHFFBESW0x80
GTTHFFBESW 0
root@arm:~# echo 'NKTE''SEXJPA'
NKTESEXJPA
root@arm:~# MARKER='UWHL''PCVGYC' run 'grep -r -l rohm,bd71837 /proc/device-tree  | sed '"'"'s![^/]*$!!'"'"''
UWHLPCVGYC/proc/device-tree/ocp/interconnect@48000000/segment@100000/target-module@9c000/i2c@0/pmic@4b/
UWHLPCVGYC 0
root@arm:~# echo 'XYXY''YXYQTY'
XYXYYXYQTY
root@arm:~# MARKER='FPGZ''HHVAUC' run 'test -f /proc/device-tree/ocp/interconnectt\@48000000/segment\@100000/target-module\@9c000/i2c\@0/pmic\@4b/regulators/LDO4//rohm,no-regulator-enable-control ;echo $?'
FPGZHHVAUC1
FPGZHHVAUC 0
root@arm:~# echo 'QFKO''OFEOYK'
QFKOOFEOYK
root@arm:~# MARKER='TZYT''LOEBQB' run 'echo 1 > /sys/kernel/mva_test/regulators/bbuck12_en'
TZYTLOEBQBTZYTLOEBQB 0
root@arm:~# echo 'SKCC''PZMLXX'
SKCCPZMLXX
root@arm:~# MARKER='KNNU''NFNKBM' run 'i2cget -y -f 2 0x4b 0x1b'
KNNUNFNKBM0xc0
KNNUNFNKBM 0
root@arm:~# echo 'NBYF''GBYYTX'
NBYFGBYYTX
root@arm:~# MARKER='KEJZ''AQAPPB' run 'grep -r -l rohm,bd71837 /proc/device-tree  | sed '"'"'s![^/]*$!!'"'"''
KEJZAQAPPB/proc/device-tree/ocp/interconnect@48000000/segment@100000/target-module@9c000/i2c@0/pmic@4b/
KEJZAQAPPB 0
root@arm:~# echo 'EOEZ''EUYXCL'
EOEZEUYXCL
root@arm:~# MARKER='HBXU''HPVOTL' run 'test -f /proc/device-tree/ocp/interconnectt\@48000000/segment\@100000/target-module\@9c000/i2c\@0/pmic\@4b/regulators/LDO4//rohm,no-regulator-enable-control ;echo $?'
HBXUHPVOTL1
HBXUHPVOTL 0
root@arm:~# echo 'PXYJ''VSCKOV'
PXYJVSCKOV
root@arm:~# MARKER='BHZU''ZZFTLH' run 'grep -r -l rohm,bd71837 /proc/device-tree  | sed '"'"'s![^/]*$!!'"'"''
BHZUZZFTLH/proc/device-tree/ocp/interconnect@48000000/segment@100000/target-module@9c000/i2c@0/pmic@4b/
BHZUZZFTLH 0
root@arm:~# echo 'XTVQ''SONLJH'
XTVQSONLJH
root@arm:~# MARKER='LAOH''NJSTGL' run 'test -f /proc/device-tree/ocp/interconnectt\@48000000/segment\@100000/target-module\@9c000/i2c\@0/pmic\@4b/regulators/LDO4//regulator-always-on ;echo $?'
LAOHNJSTGL1
LAOHNJSTGL 0
root@arm:~# echo 'GSVP''BEBVTG'
GSVPBEBVTG
root@arm:~# MARKER='PELG''EQQSNX' run 'echo 0 > /sys/kernel/mva_test/regulators/bbuck12_en'
PELGEQQSNXPELGEQQSNX 0
root@arm:~# echo 'EVLZ''ZHUVXB'
EVLZZHUVXB
root@arm:~# MARKER='TOFT''XBXPPC' run 'i2cget -y -f 2 0x4b 0x1b'
TOFTXBXPPC0x80
TOFTXBXPPC 0
root@arm:~# echo 'WALU''QBFNKK'
WALUQBFNKK
root@arm:~# MARKER='ZXJU''PKKLLJ' run 'grep -r -l rohm,bd71837 /proc/device-tree  | sed '"'"'s![^/]*$!!'"'"''
ZXJUPKKLLJ/proc/device-tree/ocp/interconnect@48000000/segment@100000/target-module@9c000/i2c@0/pmic@4b/
ZXJUPKKLLJ 0
root@arm:~# echo 'SQYP''WZBZXZ'
SQYPWZBZXZ
root@arm:~# MARKER='MQUS''FJCYGQ' run 'test -f /proc/device-tree/ocp/interconnectt\@48000000/segment\@100000/target-module\@9c000/i2c\@0/pmic\@4b/regulators/LDO5//rohm,no-regulator-enable-control ;echo $?'
MQUSFJCYGQ0
MQUSFJCYGQ 0
root@arm:~# echo 'ETPY''ENFPHG'
ETPYENFPHG
root@arm:~# MARKER='OBNF''MWUFBN' run 'grep -r -l rohm,bd71837 /proc/device-tree  | sed '"'"'s![^/]*$!!'"'"''
OBNFMWUFBN/proc/device-tree/ocp/interconnect@48000000/segment@100000/target-module@9c000/i2c@0/pmic@4b/
OBNFMWUFBN 0
root@arm:~# echo 'MAJZ''ACZHOY'
MAJZACZHOY
root@arm:~# MARKER='KOUM''YGXHEV' run 'test -f /proc/device-tree/ocp/interconnectt\@48000000/segment\@100000/target-module\@9c000/i2c\@0/pmic\@4b/regulators/LDO5//rohm,no-regulator-enable-control ;echo $?'
KOUMYGXHEV0
KOUMYGXHEV 0
root@arm:~# echo 'EEBM''FFHUKN'
EEBMFFHUKN
root@arm:~# MARKER='CGAO''UVJAGE' run 'grep -r -l rohm,bd71837 /proc/device-tree  | sed '"'"'s![^/]*$!!'"'"''
CGAOUVJAGE/proc/device-tree/ocp/interconnect@48000000/segment@100000/target-module@9c000/i2c@0/pmic@4b/
CGAOUVJAGE 0
root@arm:~# echo 'BLCT''QCWVGY'
BLCTQCWVGY
root@arm:~# MARKER='FPCO''MUSKAZ' run 'test -f /proc/device-tree/ocp/interconnectt\@48000000/segment\@100000/target-module\@9c000/i2c\@0/pmic\@4b/regulators/LDO6//rohm,no-regulator-enable-control ;echo $?'
FPCOMUSKAZ1
FPCOMUSKAZ 0
root@arm:~# echo 'XMXA''MVSBWN'
XMXAMVSBWN
root@arm:~# MARKER='VZAK''ZGBYLS' run 'echo 1 > /sys/kernel/mva_test/regulators/bbuck14_en'
VZAKZGBYLSVZAKZGBYLS 0
root@arm:~# echo 'FYGM''UOZTFP'
FYGMUOZTFP
root@arm:~# MARKER='EPCX''CJEWYE' run 'i2cget -y -f 2 0x4b 0x1d'
EPCXCJEWYE0xc0
EPCXCJEWYE 0
root@arm:~# echo 'YNYJ''ASWFFH'
YNYJASWFFH
root@arm:~# MARKER='LGAA''MFFTYB' run 'grep -r -l rohm,bd71837 /proc/device-tree  | sed '"'"'s![^/]*$!!'"'"''
LGAAMFFTYB/proc/device-tree/ocp/interconnect@48000000/segment@100000/target-module@9c000/i2c@0/pmic@4b/
LGAAMFFTYB 0
root@arm:~# echo 'MLBH''SOTPZZ'
MLBHSOTPZZ
root@arm:~# MARKER='BAOC''PVZLLW' run 'test -f /proc/device-tree/ocp/interconnectt\@48000000/segment\@100000/target-module\@9c000/i2c\@0/pmic\@4b/regulators/LDO6//rohm,no-regulator-enable-control ;echo $?'
BAOCPVZLLW1
BAOCPVZLLW 0
root@arm:~# echo 'PLPB''GAQCPB'
PLPBGAQCPB
root@arm:~# MARKER='SWKS''XEGMWC' run 'grep -r -l rohm,bd71837 /proc/device-tree  | sed '"'"'s![^/]*$!!'"'"''
SWKSXEGMWC/proc/device-tree/ocp/interconnect@48000000/segment@100000/target-module@9c000/i2c@0/pmic@4b/
SWKSXEGMWC 0
root@arm:~# echo 'OMQY''GMXEHB'
OMQYGMXEHB
root@arm:~# MARKER='LFSW''MCBHVF' run 'test -f /proc/device-tree/ocp/interconnectt\@48000000/segment\@100000/target-module\@9c000/i2c\@0/pmic\@4b/regulators/LDO6//regulator-always-on ;echo $?'
LFSWMCBHVF1
LFSWMCBHVF 0
root@arm:~# echo 'UHLJ''NBHXZG'
UHLJNBHXZG
root@arm:~# MARKER='EAWV''MSOHKC' run 'echo 0 > /sys/kernel/mva_test/regulators/bbuck14_en'
EAWVMSOHKCEAWVMSOHKC 0
root@arm:~# echo 'ZLPK''YCHOLK'
ZLPKYCHOLK
root@arm:~# MARKER='GBWC''CVVUCA' run 'i2cget -y -f 2 0x4b 0x1d'
GBWCCVVUCA0x80
GBWCCVVUCA 0
root@arm:~# echo 'MWQP''TTTTJG'
MWQPTTTTJG
root@arm:~# MARKER='JAMJ''YOFMLM' run 'grep -r -l rohm,bd71837 /proc/device-tree  | sed '"'"'s![^/]*$!!'"'"''
JAMJYOFMLM/proc/device-tree/ocp/interconnect@48000000/segment@100000/target-module@9c000/i2c@0/pmic@4b/
JAMJYOFMLM 0
root@arm:~# echo 'KWEE''PWZSNS'
KWEEPWZSNS
root@arm:~# MARKER='JQVN''TYYHBT' run 'test -f /proc/device-tree/ocp/interconnectt\@48000000/segment\@100000/target-module\@9c000/i2c\@0/pmic\@4b/regulators/LDO7//rohm,no-regulator-enable-control ;echo $?'
JQVNTYYHBT1
JQVNTYYHBT 0
root@arm:~# echo 'PFQQ''BBFNNC'
PFQQBBFNNC
root@arm:~# MARKER='XUHV''XQZKNB' run 'echo 1 > /sys/kernel/mva_test/regulators/bbuck15_en'
XUHVXQZKNBXUHVXQZKNB 0
root@arm:~# echo 'OPVA''MJLHEL'
OPVAMJLHEL
root@arm:~# MARKER='UHAL''HPHFJN' run 'i2cget -y -f 2 0x4b 0x1e'
UHALHPHFJN0xcf
UHALHPHFJN 0
root@arm:~# echo 'GHJF''OMWMGL'
GHJFOMWMGL
root@arm:~# MARKER='HGMK''OLWVAT' run 'grep -r -l rohm,bd71837 /proc/device-tree  | sed '"'"'s![^/]*$!!'"'"''
HGMKOLWVAT/proc/device-tree/ocp/interconnect@48000000/segment@100000/target-module@9c000/i2c@0/pmic@4b/
HGMKOLWVAT 0
root@arm:~# echo 'SELG''LWSFNH'
SELGLWSFNH
root@arm:~# MARKER='UFGK''YYZNSX' run 'test -f /proc/device-tree/ocp/interconnectt\@48000000/segment\@100000/target-module\@9c000/i2c\@0/pmic\@4b/regulators/LDO7//rohm,no-regulator-enable-control ;echo $?'
UFGKYYZNSX1
UFGKYYZNSX 0
root@arm:~# echo 'GMQM''QNJFTY'
GMQMQNJFTY
root@arm:~# MARKER='UYQF''JTQZWM' run 'grep -r -l rohm,bd71837 /proc/device-tree  | sed '"'"'s![^/]*$!!'"'"''
UYQFJTQZWM/proc/device-tree/ocp/interconnect@48000000/segment@100000/target-module@9c000/i2c@0/pmic@4b/
UYQFJTQZWM 0
root@arm:~# echo 'JJGA''QSQWNH'
JJGAQSQWNH
root@arm:~# MARKER='SPCQ''XCEPLN' run 'test -f /proc/device-tree/ocp/interconnectt\@48000000/segment\@100000/target-module\@9c000/i2c\@0/pmic\@4b/regulators/LDO7//regulator-always-on ;echo $?'
SPCQXCEPLN1
SPCQXCEPLN 0
root@arm:~# echo 'QVMU''BENKOT'
QVMUBENKOT
root@arm:~# MARKER='UMVE''AKGMLU' run 'echo 0 > /sys/kernel/mva_test/regulators/bbuck15_en'
UMVEAKGMLUUMVEAKGMLU 0
root@arm:~# echo 'PWQE''QJGNCQ'
PWQEQJGNCQ
root@arm:~# MARKER='KNSQ''FSPUGY' run 'i2cget -y -f 2 0x4b 0x1e'
KNSQFSPUGY0x8f
KNSQFSPUGY 0
root@arm:~# Labgrid Console Logfile for main
Logfile started at 2025-10-29 17:51:45.694985
=== Log starts here ===

root@arm:~# run() { echo -n "$MARKER"; sh -c "$@"; echo "$MARKER $?"; }
root@arm:~# echo 'XQSY''PSQMHP'
XQSYPSQMHP
root@arm:~# MARKER='PACL''WHQZPM' run 'grep -r -l rohm,bd71837 /proc/device-tree  | sed '"'"'s![^/]*$!!'"'"''
PACLWHQZPM/proc/device-tree/ocp/interconnect@48000000/segment@100000/target-module@9c000/i2c@0/pmic@4b/
PACLWHQZPM 0
root@arm:~# echo 'WZZV''VCOSSX'
WZZVVCOSSX
root@arm:~# MARKER='TUSM''XECGON' run 'test -f /proc/device-tree/ocp/interconnectt\@48000000/segment\@100000/target-module\@9c000/i2c\@0/pmic\@4b/regulators/BUCK11/rohm,no-regulator-enable-control ;echo $?'
TUSMXECGON1
TUSMXECGON 0
root@arm:~# echo 'UPZA''JHYPZM'
UPZAJHYPZM
root@arm:~# MARKER='PGTO''OPAFAE' run 'i2cget -y -f 2 0x4b 0x5'
PGTOOPAFAE0x02
PGTOOPAFAE 0
root@arm:~# echo 'MMMP''BWOENA'
MMMPBWOENA
root@arm:~# MARKER='VOLA''FGJKCV' run 'echo 700000 700000 > /sys/kernel/mva_test//regulators/buck1_set'
VOLAFGJKCVVOLAFGJKCV 0
root@arm:~# echo 'ZFXW''TFMSAW'
ZFXWTFMSAW
root@arm:~# MARKER='HCXX''AWZPBN' run 'i2cget -y -f 2 0x4b 0xd'
HCXXAWZPBN0x00
HCXXAWZPBN 0
root@arm:~# echo 'XQGJ''ZAYJZO'
XQGJZAYJZO
root@arm:~# MARKER='SOBA''OYHJEA' run 'echo 710000 710000 > /sys/kernel/mva_test//regulators/buck1_set'
SOBAOYHJEASOBAOYHJEA 0
root@arm:~# echo 'XFCV''KMGTWC'
XFCVKMGTWC
root@arm:~# MARKER='OUWL''FHWMKQ' run 'i2cget -y -f 2 0x4b 0xd'
OUWLFHWMKQ0x01
OUWLFHWMKQ 0
root@arm:~# echo 'NLFZ''GAEZWK'
NLFZGAEZWK
root@arm:~# MARKER='MYHW''WTVMGN' run 'echo 720000 720000 > /sys/kernel/mva_test//regulators/buck1_set'
MYHWWTVMGNMYHWWTVMGN 0
root@arm:~# echo 'SHOS''UWZKYW'
SHOSUWZKYW
root@arm:~# MARKER='MCPF''FUBMZH' run 'i2cget -y -f 2 0x4b 0xd'
MCPFFUBMZH0x02
MCPFFUBMZH 0
root@arm:~# echo 'ACNE''UXNHHG'
ACNEUXNHHG
root@arm:~# MARKER='GGAS''TPYFHG' run 'echo 730000 730000 > /sys/kernel/mva_test//regulators/buck1_set'
GGASTPYFHGGGASTPYFHG 0
root@arm:~# echo 'AEQH''USFKMC'
AEQHUSFKMC
root@arm:~# MARKER='ZKKY''WOJHOC' run 'i2cget -y -f 2 0x4b 0xd'
ZKKYWOJHOC0x03
ZKKYWOJHOC 0
root@arm:~# echo 'FNSM''MKNGLP'
FNSMMKNGLP
root@arm:~# MARKER='BWVW''TLVKVN' run 'echo 740000 740000 > /sys/kernel/mva_test//regulators/buck1_set'
BWVWTLVKVNBWVWTLVKVN 0
root@arm:~# echo 'BZCB''XVUPMN'
BZCBXVUPMN
root@arm:~# MARKER='EYMX''YZQCKH' run 'i2cget -y -f 2 0x4b 0xd'
EYMXYZQCKH0x04
EYMXYZQCKH 0
root@arm:~# echo 'PLBU''OAWGXJ'
PLBUOAWGXJ
root@arm:~# MARKER='CZPB''NSLJGH' run 'echo 750000 750000 > /sys/kernel/mva_test//regulators/buck1_set'
CZPBNSLJGHCZPBNSLJGH 0
root@arm:~# echo 'WKUK''NMJSCL'
WKUKNMJSCL
root@arm:~# MARKER='QZTU''EWYOZJ' run 'i2cget -y -f 2 0x4b 0xd'
QZTUEWYOZJ0x05
QZTUEWYOZJ 0
root@arm:~# echo 'LBLQ''TASWLM'
LBLQTASWLM
root@arm:~# MARKER='LJLX''ZOUJWZ' run 'echo 760000 760000 > /sys/kernel/mva_test//regulators/buck1_set'
LJLXZOUJWZLJLXZOUJWZ 0
root@arm:~# echo 'KFXX''VAYFPN'
KFXXVAYFPN
root@arm:~# MARKER='QJHO''NEXSYT' run 'i2cget -y -f 2 0x4b 0xd'
QJHONEXSYT0x06
QJHONEXSYT 0
root@arm:~# echo 'YFWL''QUBSSX'
YFWLQUBSSX
root@arm:~# MARKER='HXBY''WCBYTC' run 'echo 770000 770000 > /sys/kernel/mva_test//regulators/buck1_set'
HXBYWCBYTCHXBYWCBYTC 0
root@arm:~# echo 'YWBN''ATXPBU'
YWBNATXPBU
root@arm:~# MARKER='ZLYP''ZUWJTW' run 'i2cget -y -f 2 0x4b 0xd'
ZLYPZUWJTW0x07
ZLYPZUWJTW 0
root@arm:~# echo 'LMXS''KGZMTP'
LMXSKGZMTP
root@arm:~# MARKER='GGMW''MQTNAP' run 'echo 780000 780000 > /sys/kernel/mva_test//regulators/buck1_set'
GGMWMQTNAPGGMWMQTNAP 0
root@arm:~# echo 'QQQC''FWXLHH'
QQQCFWXLHH
root@arm:~# MARKER='OAJN''BOTOQL' run 'i2cget -y -f 2 0x4b 0xd'
OAJNBOTOQL0x08
OAJNBOTOQL 0
root@arm:~# echo 'YSMQ''QTKZEN'
YSMQQTKZEN
root@arm:~# MARKER='XEVU''COQHQC' run 'echo 790000 790000 > /sys/kernel/mva_test//regulators/buck1_set'
XEVUCOQHQCXEVUCOQHQC 0
root@arm:~# echo 'LSHZ''SXFSWN'
LSHZSXFSWN
root@arm:~# MARKER='ZGSK''HXLKFF' run 'i2cget -y -f 2 0x4b 0xd'
ZGSKHXLKFF0x09
ZGSKHXLKFF 0
root@arm:~# echo 'YQMX''JSEHFB'
YQMXJSEHFB
root@arm:~# MARKER='FSKP''CKCMLX' run 'echo 800000 800000 > /sys/kernel/mva_test//regulators/buck1_set'
FSKPCKCMLXFSKPCKCMLX 0
root@arm:~# echo 'KMOJ''NWTGGT'
KMOJNWTGGT
root@arm:~# MARKER='XZAZ''SLTXSM' run 'i2cget -y -f 2 0x4b 0xd'
XZAZSLTXSM0x0a
XZAZSLTXSM 0
root@arm:~# echo 'NBFY''XWPELF'
NBFYXWPELF
root@arm:~# MARKER='KEWQ''ZBFNEB' run 'echo 810000 810000 > /sys/kernel/mva_test//regulators/buck1_set'
KEWQZBFNEBKEWQZBFNEB 0
root@arm:~# echo 'CVFO''QCHWNK'
CVFOQCHWNK
root@arm:~# MARKER='LAGK''TKCAHP' run 'i2cget -y -f 2 0x4b 0xd'
LAGKTKCAHP0x0b
LAGKTKCAHP 0
root@arm:~# echo 'VWOU''LBTUZK'
VWOULBTUZK
root@arm:~# MARKER='PFQJ''UNUOOC' run 'echo 820000 820000 > /sys/kernel/mva_test//regulators/buck1_set'
PFQJUNUOOCPFQJUNUOOC 0
root@arm:~# echo 'UUQM''EHAZWN'
UUQMEHAZWN
root@arm:~# MARKER='QTUO''EFPMHN' run 'i2cget -y -f 2 0x4b 0xd'
QTUOEFPMHN0x0c
QTUOEFPMHN 0
root@arm:~# echo 'WJAF''UOVTWC'
WJAFUOVTWC
root@arm:~# MARKER='NUBF''WNZSWP' run 'echo 830000 830000 > /sys/kernel/mva_test//regulators/buck1_set'
NUBFWNZSWPNUBFWNZSWP 0
root@arm:~# echo 'JJKL''YFBYAH'
JJKLYFBYAH
root@arm:~# MARKER='JXOY''HGSEMA' run 'i2cget -y -f 2 0x4b 0xd'
JXOYHGSEMA0x0d
JXOYHGSEMA 0
root@arm:~# echo 'HQTE''OJEVAT'
HQTEOJEVAT
root@arm:~# MARKER='YPBU''JHKOMS' run 'echo 840000 840000 > /sys/kernel/mva_test//regulators/buck1_set'
YPBUJHKOMSYPBUJHKOMS 0
root@arm:~# echo 'TSKA''WGAHSJ'
TSKAWGAHSJ
root@arm:~# MARKER='PASA''QYBCEA' run 'i2cget -y -f 2 0x4b 0xd'
PASAQYBCEA0x0e
PASAQYBCEA 0
root@arm:~# echo 'LWWX''LNCZBS'
LWWXLNCZBS
root@arm:~# MARKER='FWKF''PEMVNA' run 'echo 850000 850000 > /sys/kernel/mva_test//regulators/buck1_set'
FWKFPEMVNAFWKFPEMVNA 0
root@arm:~# echo 'JTXH''BYTVXO'
JTXHBYTVXO
root@arm:~# MARKER='ZWVJ''PMALBV' run 'i2cget -y -f 2 0x4b 0xd'
ZWVJPMALBV0x0f
ZWVJPMALBV 0
root@arm:~# echo 'XKUN''USAYNV'
XKUNUSAYNV
root@arm:~# MARKER='ACLP''HJUNSK' run 'echo 860000 860000 > /sys/kernel/mva_test//regulators/buck1_set'
ACLPHJUNSKACLPHJUNSK 0
root@arm:~# echo 'EBCO''OBQNNH'
EBCOOBQNNH
root@arm:~# MARKER='QHZN''SLZMBA' run 'i2cget -y -f 2 0x4b 0xd'
QHZNSLZMBA0x10
QHZNSLZMBA 0
root@arm:~# echo 'OCJT''HPUCQM'
OCJTHPUCQM
root@arm:~# MARKER='VFFW''VOGEFK' run 'echo 870000 870000 > /sys/kernel/mva_test//regulators/buck1_set'
VFFWVOGEFKVFFWVOGEFK 0
root@arm:~# echo 'NVZS''MMAAJG'
NVZSMMAAJG
root@arm:~# MARKER='YOAJ''PHMQSO' run 'i2cget -y -f 2 0x4b 0xd'
YOAJPHMQSO0x11
YOAJPHMQSO 0
root@arm:~# echo 'FTAQ''QBAUYW'
FTAQQBAUYW
root@arm:~# MARKER='WLAY''KJQXGY' run 'echo 880000 880000 > /sys/kernel/mva_test//regulators/buck1_set'
WLAYKJQXGYWLAYKJQXGY 0
root@arm:~# echo 'WZBX''AKHGJV'
WZBXAKHGJV
root@arm:~# MARKER='ULKB''LQPQSP' run 'i2cget -y -f 2 0x4b 0xd'
ULKBLQPQSP0x12
ULKBLQPQSP 0
root@arm:~# echo 'TJJZ''AJKWVC'
TJJZAJKWVC
root@arm:~# MARKER='ELSY''NMVLJH' run 'echo 890000 890000 > /sys/kernel/mva_test//regulators/buck1_set'
ELSYNMVLJHELSYNMVLJH 0
root@arm:~# echo 'ANXK''NWVFZJ'
ANXKNWVFZJ
root@arm:~# MARKER='PZMV''FFFJZB' run 'i2cget -y -f 2 0x4b 0xd'
PZMVFFFJZB0x13
PZMVFFFJZB 0
root@arm:~# echo 'OXYS''HOTFHT'
OXYSHOTFHT
root@arm:~# MARKER='SZCA''UEOWKC' run 'echo 900000 900000 > /sys/kernel/mva_test//regulators/buck1_set'
SZCAUEOWKCSZCAUEOWKC 0
root@arm:~# echo 'PEKN''VCOZBT'
PEKNVCOZBT
root@arm:~# MARKER='KQXZ''NHEYZL' run 'i2cget -y -f 2 0x4b 0xd'
KQXZNHEYZL0x14
KQXZNHEYZL 0
root@arm:~# echo 'ONHC''CVXZZV'
ONHCCVXZZV
root@arm:~# MARKER='ZUWY''LYNQZO' run 'echo 910000 910000 > /sys/kernel/mva_test//regulators/buck1_set'
ZUWYLYNQZOZUWYLYNQZO 0
root@arm:~# echo 'KBFU''NEUFCE'
KBFUNEUFCE
root@arm:~# MARKER='FJKO''ZPZHFB' run 'i2cget -y -f 2 0x4b 0xd'
FJKOZPZHFB0x15
FJKOZPZHFB 0
root@arm:~# echo 'XAQM''ATYOOW'
XAQMATYOOW
root@arm:~# MARKER='YYFO''VBUSBY' run 'echo 920000 920000 > /sys/kernel/mva_test//regulators/buck1_set'
YYFOVBUSBYYYFOVBUSBY 0
root@arm:~# echo 'YUWB''HVWTYL'
YUWBHVWTYL
root@arm:~# MARKER='PAOU''GTHJLE' run 'i2cget -y -f 2 0x4b 0xd'
PAOUGTHJLE0x16
PAOUGTHJLE 0
root@arm:~# echo 'UKTK''MLEZZH'
UKTKMLEZZH
root@arm:~# MARKER='KXHK''AHZJMH' run 'echo 930000 930000 > /sys/kernel/mva_test//regulators/buck1_set'
KXHKAHZJMHKXHKAHZJMH 0
root@arm:~# echo 'HYOC''ZEXXWM'
HYOCZEXXWM
root@arm:~# MARKER='CYSK''QSAPCL' run 'i2cget -y -f 2 0x4b 0xd'
CYSKQSAPCL0x17
CYSKQSAPCL 0
root@arm:~# echo 'GSYT''YKUALZ'
GSYTYKUALZ
root@arm:~# MARKER='QXKF''UALSQX' run 'echo 940000 940000 > /sys/kernel/mva_test//regulators/buck1_set'
QXKFUALSQXQXKFUALSQX 0
root@arm:~# echo 'OOET''LOPNTZ'
OOETLOPNTZ
root@arm:~# MARKER='VQTC''VYNTOQ' run 'i2cget -y -f 2 0x4b 0xd'
VQTCVYNTOQ0x18
VQTCVYNTOQ 0
root@arm:~# echo 'VNHE''VNYVAS'
VNHEVNYVAS
root@arm:~# MARKER='FFPV''FZLJYE' run 'echo 950000 950000 > /sys/kernel/mva_test//regulators/buck1_set'
FFPVFZLJYEFFPVFZLJYE 0
root@arm:~# echo 'XYYJ''XTFFNK'
XYYJXTFFNK
root@arm:~# MARKER='JSYE''FGALMX' run 'i2cget -y -f 2 0x4b 0xd'
JSYEFGALMX0x19
JSYEFGALMX 0
root@arm:~# echo 'ONJM''KZLNXN'
ONJMKZLNXN
root@arm:~# MARKER='YUPY''SFNBHM' run 'echo 960000 960000 > /sys/kernel/mva_test//regulators/buck1_set'
YUPYSFNBHMYUPYSFNBHM 0
root@arm:~# echo 'YTCT''EEVHJG'
YTCTEEVHJG
root@arm:~# MARKER='KCAO''MZFSZF' run 'i2cget -y -f 2 0x4b 0xd'
KCAOMZFSZF0x1a
KCAOMZFSZF 0
root@arm:~# echo 'UMLE''CNZGYO'
UMLECNZGYO
root@arm:~# MARKER='KKPO''KBFLCL' run 'echo 970000 970000 > /sys/kernel/mva_test//regulators/buck1_set'
KKPOKBFLCLKKPOKBFLCL 0
root@arm:~# echo 'FGEA''MVHJVV'
FGEAMVHJVV
root@arm:~# MARKER='EYWA''WOPXSL' run 'i2cget -y -f 2 0x4b 0xd'
EYWAWOPXSL0x1b
EYWAWOPXSL 0
root@arm:~# echo 'QCZG''HJPUGT'
QCZGHJPUGT
root@arm:~# MARKER='ZAQV''AGUVJZ' run 'echo 980000 980000 > /sys/kernel/mva_test//regulators/buck1_set'
ZAQVAGUVJZZAQVAGUVJZ 0
root@arm:~# echo 'JFHL''WAWUXZ'
JFHLWAWUXZ
root@arm:~# MARKER='ALYZ''LPQYQP' run 'i2cget -y -f 2 0x4b 0xd'
ALYZLPQYQP0x1c
ALYZLPQYQP 0
root@arm:~# echo 'XTMW''HLXBFH'
XTMWHLXBFH
root@arm:~# MARKER='QFQK''WPLKGH' run 'echo 990000 990000 > /sys/kernel/mva_test//regulators/buck1_set'
QFQKWPLKGHQFQKWPLKGH 0
root@arm:~# echo 'HXAW''WCAVXZ'
HXAWWCAVXZ
root@arm:~# MARKER='AOMT''KZPNWW' run 'i2cget -y -f 2 0x4b 0xd'
AOMTKZPNWW0x1d
AOMTKZPNWW 0
root@arm:~# echo 'UXMV''AZVBKX'
UXMVAZVBKX
root@arm:~# MARKER='VGUX''GQPHKC' run 'echo 1000000 1000000 > /sys/kernel/mva_tesst/regulators/buck1_set'
VGUXGQPHKCVGUXGQPHKC 0
root@arm:~# echo 'NXKZ''EUBQKK'
NXKZEUBQKK
root@arm:~# MARKER='MSUU''TCVJYT' run 'i2cget -y -f 2 0x4b 0xd'
MSUUTCVJYT0x1e
MSUUTCVJYT 0
root@arm:~# echo 'ZNXN''WTEUQK'
ZNXNWTEUQK
root@arm:~# MARKER='YTKS''JGLNGN' run 'echo 1010000 1010000 > /sys/kernel/mva_tesst/regulators/buck1_set'
YTKSJGLNGNYTKSJGLNGN 0
root@arm:~# echo 'TLJJ''CFSTXK'
TLJJCFSTXK
root@arm:~# MARKER='BWTW''AFQOYN' run 'i2cget -y -f 2 0x4b 0xd'
BWTWAFQOYN0x1f
BWTWAFQOYN 0
root@arm:~# echo 'CHAV''MNGMCQ'
CHAVMNGMCQ
root@arm:~# MARKER='MYLJ''UUVWKJ' run 'echo 1020000 1020000 > /sys/kernel/mva_tesst/regulators/buck1_set'
MYLJUUVWKJMYLJUUVWKJ 0
root@arm:~# echo 'WZGO''SNQYJH'
WZGOSNQYJH
root@arm:~# MARKER='CTQT''QJXAZL' run 'i2cget -y -f 2 0x4b 0xd'
CTQTQJXAZL0x20
CTQTQJXAZL 0
root@arm:~# echo 'EQSG''ZJAFSG'
EQSGZJAFSG
root@arm:~# MARKER='GENZ''VCGCFB' run 'echo 1030000 1030000 > /sys/kernel/mva_tesst/regulators/buck1_set'
GENZVCGCFBGENZVCGCFB 0
root@arm:~# echo 'JTSV''UEHSPU'
JTSVUEHSPU
root@arm:~# MARKER='NEBF''VMOSXQ' run 'i2cget -y -f 2 0x4b 0xd'
NEBFVMOSXQ0x21
NEBFVMOSXQ 0
root@arm:~# echo 'HMVB''SGZCHL'
HMVBSGZCHL
root@arm:~# MARKER='GAFV''GTGMNG' run 'echo 1040000 1040000 > /sys/kernel/mva_tesst/regulators/buck1_set'
GAFVGTGMNGGAFVGTGMNG 0
root@arm:~# echo 'GOLL''WJQFSS'
GOLLWJQFSS
root@arm:~# MARKER='UKJX''QGFEFO' run 'i2cget -y -f 2 0x4b 0xd'
UKJXQGFEFO0x22
UKJXQGFEFO 0
root@arm:~# echo 'AMBJ''UNPEKK'
AMBJUNPEKK
root@arm:~# MARKER='EFFW''JNGHPE' run 'echo 1050000 1050000 > /sys/kernel/mva_tesst/regulators/buck1_set'
EFFWJNGHPEEFFWJNGHPE 0
root@arm:~# echo 'MHSU''ONKMFB'
MHSUONKMFB
root@arm:~# MARKER='OFWF''BPMUTX' run 'i2cget -y -f 2 0x4b 0xd'
OFWFBPMUTX0x23
OFWFBPMUTX 0
root@arm:~# echo 'SXUV''BWTBQQ'
SXUVBWTBQQ
root@arm:~# MARKER='KVOS''QHZZKL' run 'echo 1060000 1060000 > /sys/kernel/mva_tesst/regulators/buck1_set'
KVOSQHZZKLKVOSQHZZKL 0
root@arm:~# echo 'ZBSA''BLUXAS'
ZBSABLUXAS
root@arm:~# MARKER='HFVV''HOAXCL' run 'i2cget -y -f 2 0x4b 0xd'
HFVVHOAXCL0x24
HFVVHOAXCL 0
root@arm:~# echo 'FBHH''CSKQBC'
FBHHCSKQBC
root@arm:~# MARKER='CLVW''KOTAKS' run 'echo 1070000 1070000 > /sys/kernel/mva_tesst/regulators/buck1_set'
CLVWKOTAKSCLVWKOTAKS 0
root@arm:~# echo 'ZXPL''WPZUTB'
ZXPLWPZUTB
root@arm:~# MARKER='MVSK''UMHLJK' run 'i2cget -y -f 2 0x4b 0xd'
MVSKUMHLJK0x25
MVSKUMHLJK 0
root@arm:~# echo 'KFJP''FBKUBE'
KFJPFBKUBE
root@arm:~# MARKER='XJOM''JVQSBL' run 'echo 1080000 1080000 > /sys/kernel/mva_tesst/regulators/buck1_set'
XJOMJVQSBLXJOMJVQSBL 0
root@arm:~# echo 'PTLG''ZWATYS'
PTLGZWATYS
root@arm:~# MARKER='BXYG''QCKHJT' run 'i2cget -y -f 2 0x4b 0xd'
BXYGQCKHJT0x26
BXYGQCKHJT 0
root@arm:~# echo 'CEEJ''EBWHAL'
CEEJEBWHAL
root@arm:~# MARKER='FMFW''CTTHKZ' run 'echo 1090000 1090000 > /sys/kernel/mva_tesst/regulators/buck1_set'
FMFWCTTHKZFMFWCTTHKZ 0
root@arm:~# echo 'UNJB''AAOSUJ'
UNJBAAOSUJ
root@arm:~# MARKER='WTPA''EVKBPZ' run 'i2cget -y -f 2 0x4b 0xd'
WTPAEVKBPZ0x27
WTPAEVKBPZ 0
root@arm:~# echo 'VEKS''SBQAKY'
VEKSSBQAKY
root@arm:~# MARKER='MWXO''ELNQMA' run 'echo 1100000 1100000 > /sys/kernel/mva_tesst/regulators/buck1_set'
MWXOELNQMAMWXOELNQMA 0
root@arm:~# echo 'ZAHQ''FLEPXH'
ZAHQFLEPXH
root@arm:~# MARKER='ONPH''GUGAEV' run 'i2cget -y -f 2 0x4b 0xd'
ONPHGUGAEV0x28
ONPHGUGAEV 0
root@arm:~# echo 'TAHP''HNYGLG'
TAHPHNYGLG
root@arm:~# MARKER='PJOT''LNZWYN' run 'echo 1110000 1110000 > /sys/kernel/mva_tesst/regulators/buck1_set'
PJOTLNZWYNPJOTLNZWYN 0
root@arm:~# echo 'UTAM''EFVZBH'
UTAMEFVZBH
root@arm:~# MARKER='KMGG''TZWGAP' run 'i2cget -y -f 2 0x4b 0xd'
KMGGTZWGAP0x29
KMGGTZWGAP 0
root@arm:~# echo 'EKLV''YETSGJ'
EKLVYETSGJ
root@arm:~# MARKER='CCOA''QGLQAW' run 'echo 1120000 1120000 > /sys/kernel/mva_tesst/regulators/buck1_set'
CCOAQGLQAWCCOAQGLQAW 0
root@arm:~# echo 'CXYM''MCWOLG'
CXYMMCWOLG
root@arm:~# MARKER='FPUC''FQXBUA' run 'i2cget -y -f 2 0x4b 0xd'
FPUCFQXBUA0x2a
FPUCFQXBUA 0
root@arm:~# echo 'UBNQ''LJTTHP'
UBNQLJTTHP
root@arm:~# MARKER='TBMU''XVYFZU' run 'echo 1130000 1130000 > /sys/kernel/mva_tesst/regulators/buck1_set'
TBMUXVYFZUTBMUXVYFZU 0
root@arm:~# echo 'VSNH''KYNWMC'
VSNHKYNWMC
root@arm:~# MARKER='VFLC''CKEENY' run 'i2cget -y -f 2 0x4b 0xd'
VFLCCKEENY0x2b
VFLCCKEENY 0
root@arm:~# echo 'BMXO''VWCAAL'
BMXOVWCAAL
root@arm:~# MARKER='KACP''KWGBLT' run 'echo 1140000 1140000 > /sys/kernel/mva_tesst/regulators/buck1_set'
KACPKWGBLTKACPKWGBLT 0
root@arm:~# echo 'ULWY''NFLOVJ'
ULWYNFLOVJ
root@arm:~# MARKER='YXZK''THCTCW' run 'i2cget -y -f 2 0x4b 0xd'
YXZKTHCTCW0x2c
YXZKTHCTCW 0
root@arm:~# echo 'YVUM''YGQJUX'
YVUMYGQJUX
root@arm:~# MARKER='BVNH''HFMJAQ' run 'echo 1150000 1150000 > /sys/kernel/mva_tesst/regulators/buck1_set'
BVNHHFMJAQBVNHHFMJAQ 0
root@arm:~# echo 'FAEG''WWYATS'
FAEGWWYATS
root@arm:~# MARKER='SKAT''YQTMSB' run 'i2cget -y -f 2 0x4b 0xd'
SKATYQTMSB0x2d
SKATYQTMSB 0
root@arm:~# echo 'QQCN''CGFTHA'
QQCNCGFTHA
root@arm:~# MARKER='SSAZ''BCUVUT' run 'echo 1160000 1160000 > /sys/kernel/mva_tesst/regulators/buck1_set'
SSAZBCUVUTSSAZBCUVUT 0
root@arm:~# echo 'VUQB''HQZWVG'
VUQBHQZWVG
root@arm:~# MARKER='ZHZL''FBAXTM' run 'i2cget -y -f 2 0x4b 0xd'
ZHZLFBAXTM0x2e
ZHZLFBAXTM 0
root@arm:~# echo 'JGGK''QXVABZ'
JGGKQXVABZ
root@arm:~# MARKER='KCFL''WHTHNG' run 'echo 1170000 1170000 > /sys/kernel/mva_tesst/regulators/buck1_set'
KCFLWHTHNGKCFLWHTHNG 0
root@arm:~# echo 'MECZ''YLWWQP'
MECZYLWWQP
root@arm:~# MARKER='QSZY''ONKSGV' run 'i2cget -y -f 2 0x4b 0xd'
QSZYONKSGV0x2f
QSZYONKSGV 0
root@arm:~# echo 'ZNWM''FCYGAX'
ZNWMFCYGAX
root@arm:~# MARKER='KMBY''JAEMNB' run 'echo 1180000 1180000 > /sys/kernel/mva_tesst/regulators/buck1_set'
KMBYJAEMNBKMBYJAEMNB 0
root@arm:~# echo 'GWNM''FOJNAK'
GWNMFOJNAK
root@arm:~# MARKER='ABTT''XZOGNJ' run 'i2cget -y -f 2 0x4b 0xd'
ABTTXZOGNJ0x30
ABTTXZOGNJ 0
root@arm:~# echo 'UPBO''QWGPGB'
UPBOQWGPGB
root@arm:~# MARKER='XNFX''TWLUZS' run 'echo 1190000 1190000 > /sys/kernel/mva_tesst/regulators/buck1_set'
XNFXTWLUZSXNFXTWLUZS 0
root@arm:~# echo 'QGAN''PUOQNG'
QGANPUOQNG
root@arm:~# MARKER='PQNN''LJVXWE' run 'i2cget -y -f 2 0x4b 0xd'
PQNNLJVXWE0x31
PQNNLJVXWE 0
root@arm:~# echo 'ELXM''SZYHWS'
ELXMSZYHWS
root@arm:~# MARKER='CPOK''FXCUOC' run 'echo 1200000 1200000 > /sys/kernel/mva_tesst/regulators/buck1_set'
CPOKFXCUOCCPOKFXCUOC 0
root@arm:~# echo 'TOQX''VNFXPY'
TOQXVNFXPY
root@arm:~# MARKER='MCEL''CHEBWE' run 'i2cget -y -f 2 0x4b 0xd'
MCELCHEBWE0x32
MCELCHEBWE 0
root@arm:~# echo 'VBCS''WUCWVV'
VBCSWUCWVV
root@arm:~# MARKER='JWLJ''AYQSGB' run 'echo 1210000 1210000 > /sys/kernel/mva_tesst/regulators/buck1_set'
JWLJAYQSGBJWLJAYQSGB 0
root@arm:~# echo 'UWKH''CHPXKZ'
UWKHCHPXKZ
root@arm:~# MARKER='SEYT''YFNMNS' run 'i2cget -y -f 2 0x4b 0xd'
SEYTYFNMNS0x33
SEYTYFNMNS 0
root@arm:~# echo 'MGQP''BBCLEJ'
MGQPBBCLEJ
root@arm:~# MARKER='ZLBF''LZUPWH' run 'echo 1220000 1220000 > /sys/kernel/mva_tesst/regulators/buck1_set'
ZLBFLZUPWHZLBFLZUPWH 0
root@arm:~# echo 'SAXM''QYONUX'
SAXMQYONUX
root@arm:~# MARKER='MPYQ''WYMPFM' run 'i2cget -y -f 2 0x4b 0xd'
MPYQWYMPFM0x34
MPYQWYMPFM 0
root@arm:~# echo 'WLAF''SOZGOZ'
WLAFSOZGOZ
root@arm:~# MARKER='ZPAE''OELTJX' run 'echo 1230000 1230000 > /sys/kernel/mva_tesst/regulators/buck1_set'
ZPAEOELTJXZPAEOELTJX 0
root@arm:~# echo 'OCOX''MVPLNX'
OCOXMVPLNX
root@arm:~# MARKER='QUEE''FVPFCE' run 'i2cget -y -f 2 0x4b 0xd'
QUEEFVPFCE0x35
QUEEFVPFCE 0
root@arm:~# echo 'TOQB''AZKGMW'
TOQBAZKGMW
root@arm:~# MARKER='WWSP''TWBGKU' run 'echo 1240000 1240000 > /sys/kernel/mva_tesst/regulators/buck1_set'
WWSPTWBGKUWWSPTWBGKU 0
root@arm:~# echo 'XZMW''FXPVTF'
XZMWFXPVTF
root@arm:~# MARKER='HBLA''HQOKGG' run 'i2cget -y -f 2 0x4b 0xd'
HBLAHQOKGG0x36
HBLAHQOKGG 0
root@arm:~# echo 'QZOQ''BYPANX'
QZOQBYPANX
root@arm:~# MARKER='UXGC''JFXFBH' run 'echo 1250000 1250000 > /sys/kernel/mva_tesst/regulators/buck1_set'
UXGCJFXFBHUXGCJFXFBH 0
root@arm:~# echo 'LMFU''WQBKHS'
LMFUWQBKHS
root@arm:~# MARKER='BTWO''JXQFVV' run 'i2cget -y -f 2 0x4b 0xd'
BTWOJXQFVV0x37
BTWOJXQFVV 0
root@arm:~# echo 'STNQ''YNSKTG'
STNQYNSKTG
root@arm:~# MARKER='JAYF''UHVBVY' run 'echo 1260000 1260000 > /sys/kernel/mva_tesst/regulators/buck1_set'
JAYFUHVBVYJAYFUHVBVY 0
root@arm:~# echo 'JYZF''UWEWSB'
JYZFUWEWSB
root@arm:~# MARKER='MAXK''YUHNFF' run 'i2cget -y -f 2 0x4b 0xd'
MAXKYUHNFF0x38
MAXKYUHNFF 0
root@arm:~# echo 'KAPJ''FCFVPK'
KAPJFCFVPK
root@arm:~# MARKER='ZCQO''SEMEBH' run 'echo 1270000 1270000 > /sys/kernel/mva_tesst/regulators/buck1_set'
ZCQOSEMEBHZCQOSEMEBH 0
root@arm:~# echo 'MUNS''WPHAEB'
MUNSWPHAEB
root@arm:~# MARKER='SXOO''VOFZAZ' run 'i2cget -y -f 2 0x4b 0xd'
SXOOVOFZAZ0x39
SXOOVOFZAZ 0
root@arm:~# echo 'HTTV''JQUTXQ'
HTTVJQUTXQ
root@arm:~# MARKER='HHLA''JPUKHM' run 'echo 1280000 1280000 > /sys/kernel/mva_tesst/regulators/buck1_set'
HHLAJPUKHMHHLAJPUKHM 0
root@arm:~# echo 'OJZU''OQCFHP'
OJZUOQCFHP
root@arm:~# MARKER='EHXS''FJNHXA' run 'i2cget -y -f 2 0x4b 0xd'
EHXSFJNHXA0x3a
EHXSFJNHXA 0
root@arm:~# echo 'VFZS''YOUELV'
VFZSYOUELV
root@arm:~# MARKER='TKYJ''LOCSBP' run 'echo 1290000 1290000 > /sys/kernel/mva_tesst/regulators/buck1_set'
TKYJLOCSBPTKYJLOCSBP 0
root@arm:~# echo 'SQHA''OBPJGF'
SQHAOBPJGF
root@arm:~# MARKER='QTFZ''XQAXHK' run 'i2cget -y -f 2 0x4b 0xd'
QTFZXQAXHK0x3b
QTFZXQAXHK 0
root@arm:~# echo 'THOP''EBPYYG'
THOPEBPYYG
root@arm:~# MARKER='HQKT''KZNTPB' run 'echo 1300000 1300000 > /sys/kernel/mva_tesst/regulators/buck1_set'
HQKTKZNTPBHQKTKZNTPB 0
root@arm:~# echo 'VHTU''OHYUEG'
VHTUOHYUEG
root@arm:~# MARKER='KEOJ''TMTZHM' run 'i2cget -y -f 2 0x4b 0xd'
KEOJTMTZHM0x3c
KEOJTMTZHM 0
root@arm:~# echo 'YNKK''KBAEPX'
YNKKKBAEPX
root@arm:~# MARKER='UZES''EAATMO' run 'grep -r -l rohm,bd71837 /proc/device-tree  | sed '"'"'s![^/]*$!!'"'"''
UZESEAATMO/proc/device-tree/ocp/interconnect@48000000/segment@100000/target-module@9c000/i2c@0/pmic@4b/
UZESEAATMO 0
root@arm:~# echo 'LMAK''JLAHMJ'
LMAKJLAHMJ
root@arm:~# MARKER='QMJU''VHXXGA' run 'test -f /proc/device-tree/ocp/interconnectt\@48000000/segment\@100000/target-module\@9c000/i2c\@0/pmic\@4b/regulators/BUCK22/rohm,no-regulator-enable-control ;echo $?'
QMJUVHXXGA1
QMJUVHXXGA 0
root@arm:~# echo 'EFFC''UEUFHL'
EFFCUEUFHL
root@arm:~# MARKER='JWBV''JHUKPK' run 'i2cget -y -f 2 0x4b 0x6'
JWBVJHUKPK0x43
JWBVJHUKPK 0
root@arm:~# echo 'HEMV''UXEHYL'
HEMVUXEHYL
root@arm:~# MARKER='FTJN''SLKVNN' run 'echo 700000 700000 > /sys/kernel/mva_test//regulators/buck2_set'
FTJNSLKVNNFTJNSLKVNN 0
root@arm:~# echo 'LGAQ''OVNPLJ'
LGAQOVNPLJ
root@arm:~# MARKER='SCLC''BHPOHW' run 'i2cget -y -f 2 0x4b 0x10'
SCLCBHPOHW0x00
SCLCBHPOHW 0
root@arm:~# echo 'NKYX''NNGCTQ'
NKYXNNGCTQ
root@arm:~# MARKER='AGPO''XOKMXL' run 'echo 710000 710000 > /sys/kernel/mva_test//regulators/buck2_set'
AGPOXOKMXLAGPOXOKMXL 0
root@arm:~# echo 'GAZL''CCUPPN'
GAZLCCUPPN
root@arm:~# MARKER='LBCW''TCLMYF' run 'i2cget -y -f 2 0x4b 0x10'
LBCWTCLMYF0x01
LBCWTCLMYF 0
root@arm:~# echo 'QFTE''HYSXHF'
QFTEHYSXHF
root@arm:~# MARKER='FEWE''VCUYGP' run 'echo 720000 720000 > /sys/kernel/mva_test//regulators/buck2_set'
FEWEVCUYGPFEWEVCUYGP 0
root@arm:~# echo 'TTOT''NCBLYO'
TTOTNCBLYO
root@arm:~# MARKER='JSPF''JAQKSQ' run 'i2cget -y -f 2 0x4b 0x10'
JSPFJAQKSQ0x02
JSPFJAQKSQ 0
root@arm:~# echo 'AGWA''PMZVNZ'
AGWAPMZVNZ
root@arm:~# MARKER='BJGQ''VTKYNU' run 'echo 730000 730000 > /sys/kernel/mva_test//regulators/buck2_set'
BJGQVTKYNUBJGQVTKYNU 0
root@arm:~# echo 'KZXF''FZKEKC'
KZXFFZKEKC
root@arm:~# MARKER='PUPP''BTWOWF' run 'i2cget -y -f 2 0x4b 0x10'
PUPPBTWOWF0x03
PUPPBTWOWF 0
root@arm:~# echo 'NHZH''FFOYJL'
NHZHFFOYJL
root@arm:~# MARKER='ZVLM''FWYFOQ' run 'echo 740000 740000 > /sys/kernel/mva_test//regulators/buck2_set'
ZVLMFWYFOQZVLMFWYFOQ 0
root@arm:~# echo 'NWGE''JWMKTK'
NWGEJWMKTK
root@arm:~# MARKER='QKQG''UACHFF' run 'i2cget -y -f 2 0x4b 0x10'
QKQGUACHFF0x04
QKQGUACHFF 0
root@arm:~# echo 'KPUJ''OHXMBF'
KPUJOHXMBF
root@arm:~# MARKER='OQGG''GKHPTX' run 'echo 750000 750000 > /sys/kernel/mva_test//regulators/buck2_set'
OQGGGKHPTXOQGGGKHPTX 0
root@arm:~# echo 'TGUT''BBWFYK'
TGUTBBWFYK
root@arm:~# MARKER='ELFQ''MVNUFZ' run 'i2cget -y -f 2 0x4b 0x10'
ELFQMVNUFZ0x05
ELFQMVNUFZ 0
root@arm:~# echo 'KGTF''PPKUGE'
KGTFPPKUGE
root@arm:~# MARKER='XECG''TVXOUO' run 'echo 760000 760000 > /sys/kernel/mva_test//regulators/buck2_set'
XECGTVXOUOXECGTVXOUO 0
root@arm:~# echo 'VYYQ''KKYYOQ'
VYYQKKYYOQ
root@arm:~# MARKER='EGOE''QSLQWV' run 'i2cget -y -f 2 0x4b 0x10'
EGOEQSLQWV0x06
EGOEQSLQWV 0
root@arm:~# echo 'GBKP''MUPUXY'
GBKPMUPUXY
root@arm:~# MARKER='YZTF''HNCBWP' run 'echo 770000 770000 > /sys/kernel/mva_test//regulators/buck2_set'
YZTFHNCBWPYZTFHNCBWP 0
root@arm:~# echo 'SSTW''GJGEQY'
SSTWGJGEQY
root@arm:~# MARKER='YKGN''VSNLPO' run 'i2cget -y -f 2 0x4b 0x10'
YKGNVSNLPO0x07
YKGNVSNLPO 0
root@arm:~# echo 'ENSA''ZEFVOG'
ENSAZEFVOG
root@arm:~# MARKER='ZXJX''OVJHJB' run 'echo 780000 780000 > /sys/kernel/mva_test//regulators/buck2_set'
ZXJXOVJHJBZXJXOVJHJB 0
root@arm:~# echo 'KVUX''CCQOFO'
KVUXCCQOFO
root@arm:~# MARKER='WEQX''MGSZUY' run 'i2cget -y -f 2 0x4b 0x10'
WEQXMGSZUY0x08
WEQXMGSZUY 0
root@arm:~# echo 'TGLY''WUBVYB'
TGLYWUBVYB
root@arm:~# MARKER='WFVE''NOWYOC' run 'echo 790000 790000 > /sys/kernel/mva_test//regulators/buck2_set'
WFVENOWYOCWFVENOWYOC 0
root@arm:~# echo 'AOMY''XVVEGG'
AOMYXVVEGG
root@arm:~# MARKER='NQUE''FOKXSX' run 'i2cget -y -f 2 0x4b 0x10'
NQUEFOKXSX0x09
NQUEFOKXSX 0
root@arm:~# echo 'NUHL''GJPAVN'
NUHLGJPAVN
root@arm:~# MARKER='WHMW''QGVMTP' run 'echo 800000 800000 > /sys/kernel/mva_test//regulators/buck2_set'
WHMWQGVMTPWHMWQGVMTP 0
root@arm:~# echo 'OMCF''FMNEFC'
OMCFFMNEFC
root@arm:~# MARKER='HYOH''EHGVXU' run 'i2cget -y -f 2 0x4b 0x10'
HYOHEHGVXU0x0a
HYOHEHGVXU 0
root@arm:~# echo 'PYWL''ZBEEGJ'
PYWLZBEEGJ
root@arm:~# MARKER='XGYV''NYZEOV' run 'echo 810000 810000 > /sys/kernel/mva_test//regulators/buck2_set'
XGYVNYZEOVXGYVNYZEOV 0
root@arm:~# echo 'GTCK''LFKGLA'
GTCKLFKGLA
root@arm:~# MARKER='FEFK''HVFVXZ' run 'i2cget -y -f 2 0x4b 0x10'
FEFKHVFVXZ0x0b
FEFKHVFVXZ 0
root@arm:~# echo 'YBPK''NCNUPW'
YBPKNCNUPW
root@arm:~# MARKER='KSLL''FOLLCO' run 'echo 820000 820000 > /sys/kernel/mva_test//regulators/buck2_set'
KSLLFOLLCOKSLLFOLLCO 0
root@arm:~# echo 'VYVA''BXGAZY'
VYVABXGAZY
root@arm:~# MARKER='BXMM''WFOPOF' run 'i2cget -y -f 2 0x4b 0x10'
BXMMWFOPOF0x0c
BXMMWFOPOF 0
root@arm:~# echo 'LFJU''KZHWKW'
LFJUKZHWKW
root@arm:~# MARKER='FPXE''MSBWPX' run 'echo 830000 830000 > /sys/kernel/mva_test//regulators/buck2_set'
FPXEMSBWPXFPXEMSBWPX 0
root@arm:~# echo 'GKXB''TEPFPE'
GKXBTEPFPE
root@arm:~# MARKER='EYJG''OALSBV' run 'i2cget -y -f 2 0x4b 0x10'
EYJGOALSBV0x0d
EYJGOALSBV 0
root@arm:~# echo 'NQUW''WPYTAU'
NQUWWPYTAU
root@arm:~# MARKER='SUCY''GWWXHK' run 'echo 840000 840000 > /sys/kernel/mva_test//regulators/buck2_set'
SUCYGWWXHKSUCYGWWXHK 0
root@arm:~# echo 'GVJB''PXKSAO'
GVJBPXKSAO
root@arm:~# MARKER='CCEC''YNBQHV' run 'i2cget -y -f 2 0x4b 0x10'
CCECYNBQHV0x0e
CCECYNBQHV 0
root@arm:~# echo 'LHZO''UJZMZP'
LHZOUJZMZP
root@arm:~# MARKER='JYYQ''ZMBCMU' run 'echo 850000 850000 > /sys/kernel/mva_test//regulators/buck2_set'
JYYQZMBCMUJYYQZMBCMU 0
root@arm:~# echo 'SNYH''EHGHYP'
SNYHEHGHYP
root@arm:~# MARKER='EAZJ''HWLHLS' run 'i2cget -y -f 2 0x4b 0x10'
EAZJHWLHLS0x0f
EAZJHWLHLS 0
root@arm:~# echo 'ZLFL''WQJHLO'
ZLFLWQJHLO
root@arm:~# MARKER='AJBU''NEJBYL' run 'echo 860000 860000 > /sys/kernel/mva_test//regulators/buck2_set'
AJBUNEJBYLAJBUNEJBYL 0
root@arm:~# echo 'UWLU''KBLUGP'
UWLUKBLUGP
root@arm:~# MARKER='GBFE''OQQKYS' run 'i2cget -y -f 2 0x4b 0x10'
GBFEOQQKYS0x10
GBFEOQQKYS 0
root@arm:~# echo 'OCBY''XKBQYS'
OCBYXKBQYS
root@arm:~# MARKER='XYSM''STKAEN' run 'echo 870000 870000 > /sys/kernel/mva_test//regulators/buck2_set'
XYSMSTKAENXYSMSTKAEN 0
root@arm:~# echo 'ZMSQ''BGAHAN'
ZMSQBGAHAN
root@arm:~# MARKER='YKTN''HEOCKQ' run 'i2cget -y -f 2 0x4b 0x10'
YKTNHEOCKQ0x11
YKTNHEOCKQ 0
root@arm:~# echo 'EQYJ''ZOPUWE'
EQYJZOPUWE
root@arm:~# MARKER='NUTC''BONUNO' run 'echo 880000 880000 > /sys/kernel/mva_test//regulators/buck2_set'
NUTCBONUNONUTCBONUNO 0
root@arm:~# echo 'KMQE''APEHUJ'
KMQEAPEHUJ
root@arm:~# MARKER='XZHL''AWXCBG' run 'i2cget -y -f 2 0x4b 0x10'
XZHLAWXCBG0x12
XZHLAWXCBG 0
root@arm:~# echo 'VPMB''GPLEKX'
VPMBGPLEKX
root@arm:~# MARKER='LSQJ''AYTJLS' run 'echo 890000 890000 > /sys/kernel/mva_test//regulators/buck2_set'
LSQJAYTJLSLSQJAYTJLS 0
root@arm:~# echo 'SWKS''KJAJLM'
SWKSKJAJLM
root@arm:~# MARKER='HUMB''KMMHHG' run 'i2cget -y -f 2 0x4b 0x10'
HUMBKMMHHG0x13
HUMBKMMHHG 0
root@arm:~# echo 'ASOV''WEXWOE'
ASOVWEXWOE
root@arm:~# MARKER='UGVM''MJTVNY' run 'echo 900000 900000 > /sys/kernel/mva_test//regulators/buck2_set'
UGVMMJTVNYUGVMMJTVNY 0
root@arm:~# echo 'OMJW''UHLMYF'
OMJWUHLMYF
root@arm:~# MARKER='WLWF''UGMAHS' run 'i2cget -y -f 2 0x4b 0x10'
WLWFUGMAHS0x14
WLWFUGMAHS 0
root@arm:~# echo 'AXPX''HBJXYK'
AXPXHBJXYK
root@arm:~# MARKER='QAAE''MEYOAT' run 'echo 910000 910000 > /sys/kernel/mva_test//regulators/buck2_set'
QAAEMEYOATQAAEMEYOAT 0
root@arm:~# echo 'MZOO''KTZGHF'
MZOOKTZGHF
root@arm:~# MARKER='YGJG''UBEUWS' run 'i2cget -y -f 2 0x4b 0x10'
YGJGUBEUWS0x15
YGJGUBEUWS 0
root@arm:~# echo 'MNLU''MHCZEG'
MNLUMHCZEG
root@arm:~# MARKER='SJPY''AGWSLK' run 'echo 920000 920000 > /sys/kernel/mva_test//regulators/buck2_set'
SJPYAGWSLKSJPYAGWSLK 0
root@arm:~# echo 'KLGE''HPGKUA'
KLGEHPGKUA
root@arm:~# MARKER='SYHO''NTXVUL' run 'i2cget -y -f 2 0x4b 0x10'
SYHONTXVUL0x16
SYHONTXVUL 0
root@arm:~# echo 'AKEY''ZBHZGC'
AKEYZBHZGC
root@arm:~# MARKER='BZJA''EHEFZA' run 'echo 930000 930000 > /sys/kernel/mva_test//regulators/buck2_set'
BZJAEHEFZABZJAEHEFZA 0
root@arm:~# echo 'AWSF''HLWXZF'
AWSFHLWXZF
root@arm:~# MARKER='FQZF''PEYCTZ' run 'i2cget -y -f 2 0x4b 0x10'
FQZFPEYCTZ0x17
FQZFPEYCTZ 0
root@arm:~# echo 'UJQJ''NFUVCJ'
UJQJNFUVCJ
root@arm:~# MARKER='JVCQ''GUPOJG' run 'echo 940000 940000 > /sys/kernel/mva_test//regulators/buck2_set'
JVCQGUPOJGJVCQGUPOJG 0
root@arm:~# echo 'HABG''FYYNJN'
HABGFYYNJN
root@arm:~# MARKER='CXAG''WELLOY' run 'i2cget -y -f 2 0x4b 0x10'
CXAGWELLOY0x18
CXAGWELLOY 0
root@arm:~# echo 'SJLB''TWLNVL'
SJLBTWLNVL
root@arm:~# MARKER='MFCM''YBTBVM' run 'echo 950000 950000 > /sys/kernel/mva_test//regulators/buck2_set'
MFCMYBTBVMMFCMYBTBVM 0
root@arm:~# echo 'EUQA''ZCGYGZ'
EUQAZCGYGZ
root@arm:~# MARKER='AMOE''OXTTTU' run 'i2cget -y -f 2 0x4b 0x10'
AMOEOXTTTU0x19
AMOEOXTTTU 0
root@arm:~# echo 'FQQT''ZTWMXB'
FQQTZTWMXB
root@arm:~# MARKER='LMLU''OJPKCM' run 'echo 960000 960000 > /sys/kernel/mva_test//regulators/buck2_set'
LMLUOJPKCMLMLUOJPKCM 0
root@arm:~# echo 'LQNP''ENQPHF'
LQNPENQPHF
root@arm:~# MARKER='ETKT''SXCUES' run 'i2cget -y -f 2 0x4b 0x10'
ETKTSXCUES0x1a
ETKTSXCUES 0
root@arm:~# echo 'ZEPK''AOZCWT'
ZEPKAOZCWT
root@arm:~# MARKER='SEYW''ULJZWC' run 'echo 970000 970000 > /sys/kernel/mva_test//regulators/buck2_set'
SEYWULJZWCSEYWULJZWC 0
root@arm:~# echo 'LSCV''NJHMZG'
LSCVNJHMZG
root@arm:~# MARKER='JPBQ''QCHEXU' run 'i2cget -y -f 2 0x4b 0x10'
JPBQQCHEXU0x1b
JPBQQCHEXU 0
root@arm:~# echo 'UNQU''SUHLSU'
UNQUSUHLSU
root@arm:~# MARKER='WTSY''PYKMHS' run 'echo 980000 980000 > /sys/kernel/mva_test//regulators/buck2_set'
WTSYPYKMHSWTSYPYKMHS 0
root@arm:~# echo 'VENO''ZWBUZE'
VENOZWBUZE
root@arm:~# MARKER='MJKZ''KHKJHT' run 'i2cget -y -f 2 0x4b 0x10'
MJKZKHKJHT0x1c
MJKZKHKJHT 0
root@arm:~# echo 'MOKV''GZYNNC'
MOKVGZYNNC
root@arm:~# MARKER='QGNB''UBTWLW' run 'echo 990000 990000 > /sys/kernel/mva_test//regulators/buck2_set'
QGNBUBTWLWQGNBUBTWLW 0
root@arm:~# echo 'FUNM''GHEBWV'
FUNMGHEBWV
root@arm:~# MARKER='GKOW''PQWFEO' run 'i2cget -y -f 2 0x4b 0x10'
GKOWPQWFEO0x1d
GKOWPQWFEO 0
root@arm:~# echo 'OVHZ''LGFLFT'
OVHZLGFLFT
root@arm:~# MARKER='GNMQ''BQWZTM' run 'echo 1000000 1000000 > /sys/kernel/mva_tesst/regulators/buck2_set'
GNMQBQWZTMGNMQBQWZTM 0
root@arm:~# echo 'YGUA''LTJJZA'
YGUALTJJZA
root@arm:~# MARKER='HYBZ''CHJMHB' run 'i2cget -y -f 2 0x4b 0x10'
HYBZCHJMHB0x1e
HYBZCHJMHB 0
root@arm:~# echo 'QZMM''LECVFL'
QZMMLECVFL
root@arm:~# MARKER='UOWQ''OZZPFZ' run 'echo 1010000 1010000 > /sys/kernel/mva_tesst/regulators/buck2_set'
UOWQOZZPFZUOWQOZZPFZ 0
root@arm:~# echo 'GEPW''APOOEC'
GEPWAPOOEC
root@arm:~# MARKER='ANVS''CHKBLO' run 'i2cget -y -f 2 0x4b 0x10'
ANVSCHKBLO0x1f
ANVSCHKBLO 0
root@arm:~# echo 'LVNV''QEPZQO'
LVNVQEPZQO
root@arm:~# MARKER='LVVE''JHGXMJ' run 'echo 1020000 1020000 > /sys/kernel/mva_tesst/regulators/buck2_set'
LVVEJHGXMJLVVEJHGXMJ 0
root@arm:~# echo 'KJSN''YUOGPV'
KJSNYUOGPV
root@arm:~# MARKER='YEKY''FNNJOG' run 'i2cget -y -f 2 0x4b 0x10'
YEKYFNNJOG0x20
YEKYFNNJOG 0
root@arm:~# echo 'SKLK''PFMHUB'
SKLKPFMHUB
root@arm:~# MARKER='PGBV''AKXVXA' run 'echo 1030000 1030000 > /sys/kernel/mva_tesst/regulators/buck2_set'
PGBVAKXVXAPGBVAKXVXA 0
root@arm:~# echo 'UZGL''CLTBKA'
UZGLCLTBKA
root@arm:~# MARKER='LECG''TUYMAZ' run 'i2cget -y -f 2 0x4b 0x10'
LECGTUYMAZ0x21
LECGTUYMAZ 0
root@arm:~# echo 'KSES''BBVFAC'
KSESBBVFAC
root@arm:~# MARKER='FEMF''OLSUBB' run 'echo 1040000 1040000 > /sys/kernel/mva_tesst/regulators/buck2_set'
FEMFOLSUBBFEMFOLSUBB 0
root@arm:~# echo 'TZOC''MVQWXY'
TZOCMVQWXY
root@arm:~# MARKER='VMNJ''YAAVQS' run 'i2cget -y -f 2 0x4b 0x10'
VMNJYAAVQS0x22
VMNJYAAVQS 0
root@arm:~# echo 'SPEV''XPQBWT'
SPEVXPQBWT
root@arm:~# MARKER='JVES''YBALMO' run 'echo 1050000 1050000 > /sys/kernel/mva_tesst/regulators/buck2_set'
JVESYBALMOJVESYBALMO 0
root@arm:~# echo 'WQEP''CQMWQM'
WQEPCQMWQM
root@arm:~# MARKER='YZSP''FZPPSX' run 'i2cget -y -f 2 0x4b 0x10'
YZSPFZPPSX0x23
YZSPFZPPSX 0
root@arm:~# echo 'OAXN''SJHFAT'
OAXNSJHFAT
root@arm:~# MARKER='AVKK''EMPPXY' run 'echo 1060000 1060000 > /sys/kernel/mva_tesst/regulators/buck2_set'
AVKKEMPPXYAVKKEMPPXY 0
root@arm:~# echo 'GOLT''XXBASC'
GOLTXXBASC
root@arm:~# MARKER='ZAKB''NEQNVU' run 'i2cget -y -f 2 0x4b 0x10'
ZAKBNEQNVU0x24
ZAKBNEQNVU 0
root@arm:~# echo 'SXST''MPTBCP'
SXSTMPTBCP
root@arm:~# MARKER='VPSS''LLJAYW' run 'echo 1070000 1070000 > /sys/kernel/mva_tesst/regulators/buck2_set'
VPSSLLJAYWVPSSLLJAYW 0
root@arm:~# echo 'BLSJ''VBFHJG'
BLSJVBFHJG
root@arm:~# MARKER='EBGY''EPJVSJ' run 'i2cget -y -f 2 0x4b 0x10'
EBGYEPJVSJ0x25
EBGYEPJVSJ 0
root@arm:~# echo 'TUJY''JQLYMQ'
TUJYJQLYMQ
root@arm:~# MARKER='BFAW''YFXPSG' run 'echo 1080000 1080000 > /sys/kernel/mva_tesst/regulators/buck2_set'
BFAWYFXPSGBFAWYFXPSG 0
root@arm:~# echo 'XKTP''OOQSPJ'
XKTPOOQSPJ
root@arm:~# MARKER='JCZN''UWQAHJ' run 'i2cget -y -f 2 0x4b 0x10'
JCZNUWQAHJ0x26
JCZNUWQAHJ 0
root@arm:~# echo 'GYAG''LOAAPQ'
GYAGLOAAPQ
root@arm:~# MARKER='LPBO''SOQOZQ' run 'echo 1090000 1090000 > /sys/kernel/mva_tesst/regulators/buck2_set'
LPBOSOQOZQLPBOSOQOZQ 0
root@arm:~# echo 'AXPJ''BFWYNT'
AXPJBFWYNT
root@arm:~# MARKER='VSKH''HFUHCV' run 'i2cget -y -f 2 0x4b 0x10'
VSKHHFUHCV0x27
VSKHHFUHCV 0
root@arm:~# echo 'NPCQ''KULHBO'
NPCQKULHBO
root@arm:~# MARKER='UKFQ''SNHTGN' run 'echo 1100000 1100000 > /sys/kernel/mva_tesst/regulators/buck2_set'
UKFQSNHTGNUKFQSNHTGN 0
root@arm:~# echo 'QLBU''ESUSJX'
QLBUESUSJX
root@arm:~# MARKER='LTWA''YXHEUL' run 'i2cget -y -f 2 0x4b 0x10'
LTWAYXHEUL0x28
LTWAYXHEUL 0
root@arm:~# echo 'YXTP''LZOOUS'
YXTPLZOOUS
root@arm:~# MARKER='GWXO''KCPKXK' run 'echo 1110000 1110000 > /sys/kernel/mva_tesst/regulators/buck2_set'
GWXOKCPKXKGWXOKCPKXK 0
root@arm:~# echo 'WKXZ''VBWKXE'
WKXZVBWKXE
root@arm:~# MARKER='JCPH''LJOFYS' run 'i2cget -y -f 2 0x4b 0x10'
JCPHLJOFYS0x29
JCPHLJOFYS 0
root@arm:~# echo 'KECP''CLENTN'
KECPCLENTN
root@arm:~# MARKER='KFYA''OEGNVV' run 'echo 1120000 1120000 > /sys/kernel/mva_tesst/regulators/buck2_set'
KFYAOEGNVVKFYAOEGNVV 0
root@arm:~# echo 'VGQW''GMQVTZ'
VGQWGMQVTZ
root@arm:~# MARKER='NXHB''JKMQBE' run 'i2cget -y -f 2 0x4b 0x10'
NXHBJKMQBE0x2a
NXHBJKMQBE 0
root@arm:~# echo 'LMGJ''SJWPVF'
LMGJSJWPVF
root@arm:~# MARKER='XNNP''WYLUZZ' run 'echo 1130000 1130000 > /sys/kernel/mva_tesst/regulators/buck2_set'
XNNPWYLUZZXNNPWYLUZZ 0
root@arm:~# echo 'VCNQ''XUJPSS'
VCNQXUJPSS
root@arm:~# MARKER='ZFCX''UUSNPO' run 'i2cget -y -f 2 0x4b 0x10'
ZFCXUUSNPO0x2b
ZFCXUUSNPO 0
root@arm:~# echo 'OTFU''OMECNH'
OTFUOMECNH
root@arm:~# MARKER='BPZN''FEMMVN' run 'echo 1140000 1140000 > /sys/kernel/mva_tesst/regulators/buck2_set'
BPZNFEMMVNBPZNFEMMVN 0
root@arm:~# echo 'MGNX''HFLTXK'
MGNXHFLTXK
root@arm:~# MARKER='AVEW''QMJQVT' run 'i2cget -y -f 2 0x4b 0x10'
AVEWQMJQVT0x2c
AVEWQMJQVT 0
root@arm:~# echo 'ECWJ''YHQBAV'
ECWJYHQBAV
root@arm:~# MARKER='CJOB''WSNXWL' run 'echo 1150000 1150000 > /sys/kernel/mva_tesst/regulators/buck2_set'
CJOBWSNXWLCJOBWSNXWL 0
root@arm:~# echo 'ZOUE''EBBCVC'
ZOUEEBBCVC
root@arm:~# MARKER='GLXZ''HPAKVY' run 'i2cget -y -f 2 0x4b 0x10'
GLXZHPAKVY0x2d
GLXZHPAKVY 0
root@arm:~# echo 'UZBZ''PUQZBY'
UZBZPUQZBY
root@arm:~# MARKER='ACWC''HJYCPC' run 'echo 1160000 1160000 > /sys/kernel/mva_tesst/regulators/buck2_set'
ACWCHJYCPCACWCHJYCPC 0
root@arm:~# echo 'SMFY''UTAXWS'
SMFYUTAXWS
root@arm:~# MARKER='FPEC''ZXLYCX' run 'i2cget -y -f 2 0x4b 0x10'
FPECZXLYCX0x2e
FPECZXLYCX 0
root@arm:~# echo 'UVSH''QLTYFN'
UVSHQLTYFN
root@arm:~# MARKER='EOBW''HLYWMO' run 'echo 1170000 1170000 > /sys/kernel/mva_tesst/regulators/buck2_set'
EOBWHLYWMOEOBWHLYWMO 0
root@arm:~# echo 'UCMY''UPWOHK'
UCMYUPWOHK
root@arm:~# MARKER='UVEP''NXJFPH' run 'i2cget -y -f 2 0x4b 0x10'
UVEPNXJFPH0x2f
UVEPNXJFPH 0
root@arm:~# echo 'UTKY''XXMYUY'
UTKYXXMYUY
root@arm:~# MARKER='KEPA''HHNUKH' run 'echo 1180000 1180000 > /sys/kernel/mva_tesst/regulators/buck2_set'
KEPAHHNUKHKEPAHHNUKH 0
root@arm:~# echo 'BNBY''KVXPYY'
BNBYKVXPYY
root@arm:~# MARKER='PCTO''EAAQYT' run 'i2cget -y -f 2 0x4b 0x10'
PCTOEAAQYT0x30
PCTOEAAQYT 0
root@arm:~# echo 'FUVZ''OQTTMF'
FUVZOQTTMF
root@arm:~# MARKER='ZHKQ''ECKFUU' run 'echo 1190000 1190000 > /sys/kernel/mva_tesst/regulators/buck2_set'
ZHKQECKFUUZHKQECKFUU 0
root@arm:~# echo 'WHQS''WQMKXO'
WHQSWQMKXO
root@arm:~# MARKER='SWFF''GENXLX' run 'i2cget -y -f 2 0x4b 0x10'
SWFFGENXLX0x31
SWFFGENXLX 0
root@arm:~# echo 'GHYT''YSBVJS'
GHYTYSBVJS
root@arm:~# MARKER='GPUK''VAHLQZ' run 'echo 1200000 1200000 > /sys/kernel/mva_tesst/regulators/buck2_set'
GPUKVAHLQZGPUKVAHLQZ 0
root@arm:~# echo 'ESCJ''EMCCKY'
ESCJEMCCKY
root@arm:~# MARKER='FBZU''MTAMNN' run 'i2cget -y -f 2 0x4b 0x10'
FBZUMTAMNN0x32
FBZUMTAMNN 0
root@arm:~# echo 'BSJA''LAEPCT'
BSJALAEPCT
root@arm:~# MARKER='SPVF''VTFQEC' run 'echo 1210000 1210000 > /sys/kernel/mva_tesst/regulators/buck2_set'
SPVFVTFQECSPVFVTFQEC 0
root@arm:~# echo 'GBZA''EJHPHE'
GBZAEJHPHE
root@arm:~# MARKER='NOGM''LEFHOL' run 'i2cget -y -f 2 0x4b 0x10'
NOGMLEFHOL0x33
NOGMLEFHOL 0
root@arm:~# echo 'OQFH''ECSCXZ'
OQFHECSCXZ
root@arm:~# MARKER='NBZK''UESGZQ' run 'echo 1220000 1220000 > /sys/kernel/mva_tesst/regulators/buck2_set'
NBZKUESGZQNBZKUESGZQ 0
root@arm:~# echo 'NTYK''SATTNT'
NTYKSATTNT
root@arm:~# MARKER='TKQZ''VJYZXJ' run 'i2cget -y -f 2 0x4b 0x10'
TKQZVJYZXJ0x34
TKQZVJYZXJ 0
root@arm:~# echo 'XLHO''XYUMXY'
XLHOXYUMXY
root@arm:~# MARKER='TYXO''QQLVFM' run 'echo 1230000 1230000 > /sys/kernel/mva_tesst/regulators/buck2_set'
TYXOQQLVFMTYXOQQLVFM 0
root@arm:~# echo 'OWQG''KUFXZY'
OWQGKUFXZY
root@arm:~# MARKER='SNVX''PJSZFC' run 'i2cget -y -f 2 0x4b 0x10'
SNVXPJSZFC0x35
SNVXPJSZFC 0
root@arm:~# echo 'HBPM''WUCXWE'
HBPMWUCXWE
root@arm:~# MARKER='MBKU''NGWUTA' run 'echo 1240000 1240000 > /sys/kernel/mva_tesst/regulators/buck2_set'
MBKUNGWUTAMBKUNGWUTA 0
root@arm:~# echo 'ZWOB''LQETGQ'
ZWOBLQETGQ
root@arm:~# MARKER='PPQG''PAPZXX' run 'i2cget -y -f 2 0x4b 0x10'
PPQGPAPZXX0x36
PPQGPAPZXX 0
root@arm:~# echo 'FYLV''HOLATQ'
FYLVHOLATQ
root@arm:~# MARKER='GMVC''ZGCELC' run 'echo 1250000 1250000 > /sys/kernel/mva_tesst/regulators/buck2_set'
GMVCZGCELCGMVCZGCELC 0
root@arm:~# echo 'PGWM''JTQKUY'
PGWMJTQKUY
root@arm:~# MARKER='WSYK''WPQQYQ' run 'i2cget -y -f 2 0x4b 0x10'
WSYKWPQQYQ0x37
WSYKWPQQYQ 0
root@arm:~# echo 'NANP''TZSOBE'
NANPTZSOBE
root@arm:~# MARKER='ANME''QFYCBA' run 'echo 1260000 1260000 > /sys/kernel/mva_tesst/regulators/buck2_set'
ANMEQFYCBAANMEQFYCBA 0
root@arm:~# echo 'TKMJ''WBJTXT'
TKMJWBJTXT
root@arm:~# MARKER='EALL''KWZGWM' run 'i2cget -y -f 2 0x4b 0x10'
EALLKWZGWM0x38
EALLKWZGWM 0
root@arm:~# echo 'VUFN''WXVMHA'
VUFNWXVMHA
root@arm:~# MARKER='UENY''LQFEFK' run 'echo 1270000 1270000 > /sys/kernel/mva_tesst/regulators/buck2_set'
UENYLQFEFKUENYLQFEFK 0
root@arm:~# echo 'VYJH''QVAATE'
VYJHQVAATE
root@arm:~# MARKER='GZMY''QSBUJB' run 'i2cget -y -f 2 0x4b 0x10'
GZMYQSBUJB0x39
GZMYQSBUJB 0
root@arm:~# echo 'XSSC''YCGHZF'
XSSCYCGHZF
root@arm:~# MARKER='KSCE''KFBNXU' run 'echo 1280000 1280000 > /sys/kernel/mva_tesst/regulators/buck2_set'
KSCEKFBNXUKSCEKFBNXU 0
root@arm:~# echo 'JWGW''ONZLKU'
JWGWONZLKU
root@arm:~# MARKER='XZCZ''GAHXGB' run 'i2cget -y -f 2 0x4b 0x10'
XZCZGAHXGB0x3a
XZCZGAHXGB 0
root@arm:~# echo 'XGMO''COXVWE'
XGMOCOXVWE
root@arm:~# MARKER='JGCE''JQMOTF' run 'echo 1290000 1290000 > /sys/kernel/mva_tesst/regulators/buck2_set'
JGCEJQMOTFJGCEJQMOTF 0
root@arm:~# echo 'KMTK''LUYLKT'
KMTKLUYLKT
root@arm:~# MARKER='OWML''LWTTNH' run 'i2cget -y -f 2 0x4b 0x10'
OWMLLWTTNH0x3b
OWMLLWTTNH 0
root@arm:~# echo 'MSUE''GKBESH'
MSUEGKBESH
root@arm:~# MARKER='SKOF''XVZTYA' run 'echo 1300000 1300000 > /sys/kernel/mva_tesst/regulators/buck2_set'
SKOFXVZTYASKOFXVZTYA 0
root@arm:~# echo 'VAZX''VONNFF'
VAZXVONNFF
root@arm:~# MARKER='LQZY''FCMCSL' run 'i2cget -y -f 2 0x4b 0x10'
LQZYFCMCSL0x3c
LQZYFCMCSL 0
root@arm:~# echo 'ZJOW''TXGFVA'
ZJOWTXGFVA
root@arm:~# MARKER='SMQT''BJXKXZ' run 'grep -r -l rohm,bd71837 /proc/device-tree  | sed '"'"'s![^/]*$!!'"'"''
SMQTBJXKXZ/proc/device-tree/ocp/interconnect@48000000/segment@100000/target-module@9c000/i2c@0/pmic@4b/
SMQTBJXKXZ 0
root@arm:~# echo 'WCSF''SCYGPM'
WCSFSCYGPM
root@arm:~# MARKER='PQKB''VCOXQK' run 'test -f /proc/device-tree/ocp/interconnectt\@48000000/segment\@100000/target-module\@9c000/i2c\@0/pmic\@4b/regulators/BUCK33/rohm,no-regulator-enable-control ;echo $?'
PQKBVCOXQK0
PQKBVCOXQK 0
root@arm:~# echo 'NVQG''HPFXAS'
NVQGHPFXAS
root@arm:~# MARKER='CFAT''SZJFXE' run 'echo 700000 700000 > /sys/kernel/mva_test//regulators/buck3_set'
CFATSZJFXECFATSZJFXE 0
root@arm:~# echo 'CWJC''FKGUTM'
CWJCFKGUTM
root@arm:~# MARKER='JSNZ''NBFMVA' run 'i2cget -y -f 2 0x4b 0x12'
JSNZNBFMVA0x00
JSNZNBFMVA 0
root@arm:~# echo 'ZSBB''AUXQVL'
ZSBBAUXQVL
root@arm:~# MARKER='GPMA''FAGUMT' run 'echo 710000 710000 > /sys/kernel/mva_test//regulators/buck3_set'
GPMAFAGUMTGPMAFAGUMT 0
root@arm:~# echo 'FQOB''WMNHTQ'
FQOBWMNHTQ
root@arm:~# MARKER='MULV''BVYFAZ' run 'i2cget -y -f 2 0x4b 0x12'
MULVBVYFAZ0x01
MULVBVYFAZ 0
root@arm:~# echo 'XLQA''AVZAUF'
XLQAAVZAUF
root@arm:~# MARKER='OWHG''OHCPXH' run 'echo 720000 720000 > /sys/kernel/mva_test//regulators/buck3_set'
OWHGOHCPXHOWHGOHCPXH 0
root@arm:~# echo 'UXNA''WNWFLW'
UXNAWNWFLW
root@arm:~# MARKER='AHLP''YFJTGH' run 'i2cget -y -f 2 0x4b 0x12'
AHLPYFJTGH0x02
AHLPYFJTGH 0
root@arm:~# echo 'JNFS''WHVKFP'
JNFSWHVKFP
root@arm:~# MARKER='HGAY''COOEXX' run 'echo 730000 730000 > /sys/kernel/mva_test//regulators/buck3_set'
HGAYCOOEXXHGAYCOOEXX 0
root@arm:~# echo 'TGAP''NAWKLU'
TGAPNAWKLU
root@arm:~# MARKER='HXXB''HNUUET' run 'i2cget -y -f 2 0x4b 0x12'
HXXBHNUUET0x03
HXXBHNUUET 0
root@arm:~# echo 'XCUS''NXQPPL'
XCUSNXQPPL
root@arm:~# MARKER='PAAB''YUBVGM' run 'echo 740000 740000 > /sys/kernel/mva_test//regulators/buck3_set'
PAABYUBVGMPAABYUBVGM 0
root@arm:~# echo 'PBZU''KKYALJ'
PBZUKKYALJ
root@arm:~# MARKER='ELXS''MOQYHZ' run 'i2cget -y -f 2 0x4b 0x12'
ELXSMOQYHZ0x04
ELXSMOQYHZ 0
root@arm:~# echo 'GSCG''CTAVXE'
GSCGCTAVXE
root@arm:~# MARKER='YLBN''QKTBEY' run 'echo 750000 750000 > /sys/kernel/mva_test//regulators/buck3_set'
YLBNQKTBEYYLBNQKTBEY 0
root@arm:~# echo 'VJMT''YMEUAT'
VJMTYMEUAT
root@arm:~# MARKER='NPFP''ZHAYWS' run 'i2cget -y -f 2 0x4b 0x12'
NPFPZHAYWS0x05
NPFPZHAYWS 0
root@arm:~# echo 'QJKN''GZKPEO'
QJKNGZKPEO
root@arm:~# MARKER='ECNZ''OGYQPJ' run 'echo 760000 760000 > /sys/kernel/mva_test//regulators/buck3_set'
ECNZOGYQPJECNZOGYQPJ 0
root@arm:~# echo 'YGHP''GUNSQJ'
YGHPGUNSQJ
root@arm:~# MARKER='EAWM''QEWVOA' run 'i2cget -y -f 2 0x4b 0x12'
EAWMQEWVOA0x06
EAWMQEWVOA 0
root@arm:~# echo 'MXNO''CWAQBE'
MXNOCWAQBE
root@arm:~# MARKER='ZWSF''MJJSBU' run 'echo 770000 770000 > /sys/kernel/mva_test//regulators/buck3_set'
ZWSFMJJSBUZWSFMJJSBU 0
root@arm:~# echo 'NCBH''XBSJWC'
NCBHXBSJWC
root@arm:~# MARKER='MNWF''QLFHKF' run 'i2cget -y -f 2 0x4b 0x12'
MNWFQLFHKF0x07
MNWFQLFHKF 0
root@arm:~# echo 'HBXZ''BQTWVK'
HBXZBQTWVK
root@arm:~# MARKER='QGYU''JSGJPZ' run 'echo 780000 780000 > /sys/kernel/mva_test//regulators/buck3_set'
QGYUJSGJPZQGYUJSGJPZ 0
root@arm:~# echo 'BYKM''WAPLZN'
BYKMWAPLZN
root@arm:~# MARKER='JFBH''LWNYHQ' run 'i2cget -y -f 2 0x4b 0x12'
JFBHLWNYHQ0x08
JFBHLWNYHQ 0
root@arm:~# echo 'WTHM''VXWMOF'
WTHMVXWMOF
root@arm:~# MARKER='NSUQ''BTSFEY' run 'echo 790000 790000 > /sys/kernel/mva_test//regulators/buck3_set'
NSUQBTSFEYNSUQBTSFEY 0
root@arm:~# echo 'SENU''MFBUCH'
SENUMFBUCH
root@arm:~# MARKER='QFCE''FZYZBW' run 'i2cget -y -f 2 0x4b 0x12'
QFCEFZYZBW0x09
QFCEFZYZBW 0
root@arm:~# echo 'NLCH''JGSYYC'
NLCHJGSYYC
root@arm:~# MARKER='HACL''SBYWFE' run 'echo 800000 800000 > /sys/kernel/mva_test//regulators/buck3_set'
HACLSBYWFEHACLSBYWFE 0
root@arm:~# echo 'AAMQ''FUMGLH'
AAMQFUMGLH
root@arm:~# MARKER='WNXU''YNVJEA' run 'i2cget -y -f 2 0x4b 0x12'
WNXUYNVJEA0x0a
WNXUYNVJEA 0
root@arm:~# echo 'ECVW''BOWHHA'
ECVWBOWHHA
root@arm:~# MARKER='ZYEN''AFNHES' run 'echo 810000 810000 > /sys/kernel/mva_test//regulators/buck3_set'
ZYENAFNHESZYENAFNHES 0
root@arm:~# echo 'OAKY''UVETSY'
OAKYUVETSY
root@arm:~# MARKER='UPCL''XXWXHY' run 'i2cget -y -f 2 0x4b 0x12'
UPCLXXWXHY0x0b
UPCLXXWXHY 0
root@arm:~# echo 'QEMU''LUWBOH'
QEMULUWBOH
root@arm:~# MARKER='MJOA''OMYUJL' run 'echo 820000 820000 > /sys/kernel/mva_test//regulators/buck3_set'
MJOAOMYUJLMJOAOMYUJL 0
root@arm:~# echo 'LQJE''GYVMLM'
LQJEGYVMLM
root@arm:~# MARKER='FKFA''XGHFCN' run 'i2cget -y -f 2 0x4b 0x12'
FKFAXGHFCN0x0c
FKFAXGHFCN 0
root@arm:~# echo 'GHKN''NQFULJ'
GHKNNQFULJ
root@arm:~# MARKER='AYKY''XWLHXJ' run 'echo 830000 830000 > /sys/kernel/mva_test//regulators/buck3_set'
AYKYXWLHXJAYKYXWLHXJ 0
root@arm:~# echo 'YSMT''VNFBMV'
YSMTVNFBMV
root@arm:~# MARKER='EKWG''HEAEVU' run 'i2cget -y -f 2 0x4b 0x12'
EKWGHEAEVU0x0d
EKWGHEAEVU 0
root@arm:~# echo 'NQJA''NZEJXG'
NQJANZEJXG
root@arm:~# MARKER='XLXU''ESGCCF' run 'echo 840000 840000 > /sys/kernel/mva_test//regulators/buck3_set'
XLXUESGCCFXLXUESGCCF 0
root@arm:~# echo 'ATBU''LNKJHM'
ATBULNKJHM
root@arm:~# MARKER='JHBN''NZFXQM' run 'i2cget -y -f 2 0x4b 0x12'
JHBNNZFXQM0x0e
JHBNNZFXQM 0
root@arm:~# echo 'GXVK''VVXKVN'
GXVKVVXKVN
root@arm:~# MARKER='TQCG''MCVJGT' run 'echo 850000 850000 > /sys/kernel/mva_test//regulators/buck3_set'
TQCGMCVJGTTQCGMCVJGT 0
root@arm:~# echo 'XNQX''SHYGUK'
XNQXSHYGUK
root@arm:~# MARKER='FBJO''BEPMPT' run 'i2cget -y -f 2 0x4b 0x12'
FBJOBEPMPT0x0f
FBJOBEPMPT 0
root@arm:~# echo 'VTXC''SMYMZY'
VTXCSMYMZY
root@arm:~# MARKER='VXBF''HQMBNF' run 'echo 860000 860000 > /sys/kernel/mva_test//regulators/buck3_set'
VXBFHQMBNFVXBFHQMBNF 0
root@arm:~# echo 'QXKQ''GUUYSO'
QXKQGUUYSO
root@arm:~# MARKER='VUZY''HMUXSX' run 'i2cget -y -f 2 0x4b 0x12'
VUZYHMUXSX0x10
VUZYHMUXSX 0
root@arm:~# echo 'LHPQ''HHSUBO'
LHPQHHSUBO
root@arm:~# MARKER='YAEE''AXJAFA' run 'echo 870000 870000 > /sys/kernel/mva_test//regulators/buck3_set'
YAEEAXJAFAYAEEAXJAFA 0
root@arm:~# echo 'LGLT''SJEQCV'
LGLTSJEQCV
root@arm:~# MARKER='UENQ''TTKTOX' run 'i2cget -y -f 2 0x4b 0x12'
UENQTTKTOX0x11
UENQTTKTOX 0
root@arm:~# echo 'NQLH''BUOVPJ'
NQLHBUOVPJ
root@arm:~# MARKER='HUOC''TSJVTA' run 'echo 880000 880000 > /sys/kernel/mva_test//regulators/buck3_set'
HUOCTSJVTAHUOCTSJVTA 0
root@arm:~# echo 'AZSV''UXWNSG'
AZSVUXWNSG
root@arm:~# MARKER='FPNG''FPJYEL' run 'i2cget -y -f 2 0x4b 0x12'
FPNGFPJYEL0x12
FPNGFPJYEL 0
root@arm:~# echo 'BUVK''UUUHPT'
BUVKUUUHPT
root@arm:~# MARKER='OVNF''ZGSQHJ' run 'echo 890000 890000 > /sys/kernel/mva_test//regulators/buck3_set'
OVNFZGSQHJOVNFZGSQHJ 0
root@arm:~# echo 'GGUV''GPOJMZ'
GGUVGPOJMZ
root@arm:~# MARKER='BNAQ''NEWPOH' run 'i2cget -y -f 2 0x4b 0x12'
BNAQNEWPOH0x13
BNAQNEWPOH 0
root@arm:~# echo 'JUTE''EEZEGW'
JUTEEEZEGW
root@arm:~# MARKER='GYEW''VQOJXQ' run 'echo 900000 900000 > /sys/kernel/mva_test//regulators/buck3_set'
GYEWVQOJXQGYEWVQOJXQ 0
root@arm:~# echo 'XGKA''LMWEHJ'
XGKALMWEHJ
root@arm:~# MARKER='LFAT''FBHSAF' run 'i2cget -y -f 2 0x4b 0x12'
LFATFBHSAF0x14
LFATFBHSAF 0
root@arm:~# echo 'YKFF''XGYVJJ'
YKFFXGYVJJ
root@arm:~# MARKER='BUEM''ZZYOWU' run 'echo 910000 910000 > /sys/kernel/mva_test//regulators/buck3_set'
BUEMZZYOWUBUEMZZYOWU 0
root@arm:~# echo 'AGBL''WPVHUH'
AGBLWPVHUH
root@arm:~# MARKER='PUFM''MPBNYF' run 'i2cget -y -f 2 0x4b 0x12'
PUFMMPBNYF0x15
PUFMMPBNYF 0
root@arm:~# echo 'GNZU''XOMNGO'
GNZUXOMNGO
root@arm:~# MARKER='EHVQ''NBXPOE' run 'echo 920000 920000 > /sys/kernel/mva_test//regulators/buck3_set'
EHVQNBXPOEEHVQNBXPOE 0
root@arm:~# echo 'JZPC''NHFVMB'
JZPCNHFVMB
root@arm:~# MARKER='XQYS''ZPSBFS' run 'i2cget -y -f 2 0x4b 0x12'
XQYSZPSBFS0x16
XQYSZPSBFS 0
root@arm:~# echo 'ANJH''OYJTBB'
ANJHOYJTBB
root@arm:~# MARKER='WMEA''MOYVWL' run 'echo 930000 930000 > /sys/kernel/mva_test//regulators/buck3_set'
WMEAMOYVWLWMEAMOYVWL 0
root@arm:~# echo 'OMAX''NSPZVW'
OMAXNSPZVW
root@arm:~# MARKER='WHFY''KVFFWL' run 'i2cget -y -f 2 0x4b 0x12'
WHFYKVFFWL0x17
WHFYKVFFWL 0
root@arm:~# echo 'SLTQ''OFPSGC'
SLTQOFPSGC
root@arm:~# MARKER='ZCLC''XPHMCL' run 'echo 940000 940000 > /sys/kernel/mva_test//regulators/buck3_set'
ZCLCXPHMCLZCLCXPHMCL 0
root@arm:~# echo 'LMKV''LPOKCY'
LMKVLPOKCY
root@arm:~# MARKER='LVUV''QSKSOC' run 'i2cget -y -f 2 0x4b 0x12'
LVUVQSKSOC0x18
LVUVQSKSOC 0
root@arm:~# echo 'XXBG''QQOGST'
XXBGQQOGST
root@arm:~# MARKER='GNYV''ZKCZTE' run 'echo 950000 950000 > /sys/kernel/mva_test//regulators/buck3_set'
GNYVZKCZTEGNYVZKCZTE 0
root@arm:~# echo 'UNAC''NJOHNM'
UNACNJOHNM
root@arm:~# MARKER='UEEB''XSWVQB' run 'i2cget -y -f 2 0x4b 0x12'
UEEBXSWVQB0x19
UEEBXSWVQB 0
root@arm:~# echo 'OHCL''NFHXSN'
OHCLNFHXSN
root@arm:~# MARKER='JOAZ''GTQCMB' run 'echo 960000 960000 > /sys/kernel/mva_test//regulators/buck3_set'
JOAZGTQCMBJOAZGTQCMB 0
root@arm:~# echo 'AJZZ''EJHLMY'
AJZZEJHLMY
root@arm:~# MARKER='VJBY''WVMWFS' run 'i2cget -y -f 2 0x4b 0x12'
VJBYWVMWFS0x1a
VJBYWVMWFS 0
root@arm:~# echo 'HQCX''PKCLNX'
HQCXPKCLNX
root@arm:~# MARKER='EBFY''FFLNEK' run 'echo 970000 970000 > /sys/kernel/mva_test//regulators/buck3_set'
EBFYFFLNEKEBFYFFLNEK 0
root@arm:~# echo 'OWPN''PPUETN'
OWPNPPUETN
root@arm:~# MARKER='EKPF''OXCFBP' run 'i2cget -y -f 2 0x4b 0x12'
EKPFOXCFBP0x1b
EKPFOXCFBP 0
root@arm:~# echo 'ZSJH''OEYOKC'
ZSJHOEYOKC
root@arm:~# MARKER='TQNE''VFQCMB' run 'echo 980000 980000 > /sys/kernel/mva_test//regulators/buck3_set'
TQNEVFQCMBTQNEVFQCMB 0
root@arm:~# echo 'WSPC''KUEUYP'
WSPCKUEUYP
root@arm:~# MARKER='YPNE''BZXFQV' run 'i2cget -y -f 2 0x4b 0x12'
YPNEBZXFQV0x1c
YPNEBZXFQV 0
root@arm:~# echo 'XGJS''JFLWNB'
XGJSJFLWNB
root@arm:~# MARKER='YKPA''PFUZNS' run 'echo 990000 990000 > /sys/kernel/mva_test//regulators/buck3_set'
YKPAPFUZNSYKPAPFUZNS 0
root@arm:~# echo 'PEKL''BLJFZY'
PEKLBLJFZY
root@arm:~# MARKER='UCQN''YMYKGZ' run 'i2cget -y -f 2 0x4b 0x12'
UCQNYMYKGZ0x1d
UCQNYMYKGZ 0
root@arm:~# echo 'FUAV''XETCUP'
FUAVXETCUP
root@arm:~# MARKER='YXTJ''CUVGAZ' run 'echo 1000000 1000000 > /sys/kernel/mva_tesst/regulators/buck3_set'
YXTJCUVGAZYXTJCUVGAZ 0
root@arm:~# echo 'OBUA''TNTAUW'
OBUATNTAUW
root@arm:~# MARKER='ZOVN''VPNMKN' run 'i2cget -y -f 2 0x4b 0x12'
ZOVNVPNMKN0x1e
ZOVNVPNMKN 0
root@arm:~# echo 'WGBW''MHQTVH'
WGBWMHQTVH
root@arm:~# MARKER='SQCQ''XAJAYT' run 'echo 1010000 1010000 > /sys/kernel/mva_tesst/regulators/buck3_set'
SQCQXAJAYTSQCQXAJAYT 0
root@arm:~# echo 'JZBT''YZHFYT'
JZBTYZHFYT
root@arm:~# MARKER='LWLO''FYFKAE' run 'i2cget -y -f 2 0x4b 0x12'
LWLOFYFKAE0x1f
LWLOFYFKAE 0
root@arm:~# echo 'ZKUV''GYPHTC'
ZKUVGYPHTC
root@arm:~# MARKER='GPOQ''SHLYLY' run 'echo 1020000 1020000 > /sys/kernel/mva_tesst/regulators/buck3_set'
GPOQSHLYLYGPOQSHLYLY 0
root@arm:~# echo 'OMKU''NLPJYC'
OMKUNLPJYC
root@arm:~# MARKER='PGOS''EWMMUL' run 'i2cget -y -f 2 0x4b 0x12'
PGOSEWMMUL0x20
PGOSEWMMUL 0
root@arm:~# echo 'VPJX''GYGLMN'
VPJXGYGLMN
root@arm:~# MARKER='UPBH''JLOFTT' run 'echo 1030000 1030000 > /sys/kernel/mva_tesst/regulators/buck3_set'
UPBHJLOFTTUPBHJLOFTT 0
root@arm:~# echo 'WVFW''FEKHOY'
WVFWFEKHOY
root@arm:~# MARKER='NGLB''SBPSYP' run 'i2cget -y -f 2 0x4b 0x12'
NGLBSBPSYP0x21
NGLBSBPSYP 0
root@arm:~# echo 'SSQK''PUMCWS'
SSQKPUMCWS
root@arm:~# MARKER='SGSU''AUNVKY' run 'echo 1040000 1040000 > /sys/kernel/mva_tesst/regulators/buck3_set'
SGSUAUNVKYSGSUAUNVKY 0
root@arm:~# echo 'LNAS''XMUKPL'
LNASXMUKPL
root@arm:~# MARKER='GCFT''HLBBUO' run 'i2cget -y -f 2 0x4b 0x12'
GCFTHLBBUO0x22
GCFTHLBBUO 0
root@arm:~# echo 'KPCA''ZWCPQB'
KPCAZWCPQB
root@arm:~# MARKER='ZGZY''XKKAMP' run 'echo 1050000 1050000 > /sys/kernel/mva_tesst/regulators/buck3_set'
ZGZYXKKAMPZGZYXKKAMP 0
root@arm:~# echo 'TNVF''GCHJOB'
TNVFGCHJOB
root@arm:~# MARKER='UCEX''KQGANN' run 'i2cget -y -f 2 0x4b 0x12'
UCEXKQGANN0x23
UCEXKQGANN 0
root@arm:~# echo 'GGHO''UOJLOQ'
GGHOUOJLOQ
root@arm:~# MARKER='BTEC''BGETVX' run 'echo 1060000 1060000 > /sys/kernel/mva_tesst/regulators/buck3_set'
BTECBGETVXBTECBGETVX 0
root@arm:~# echo 'CCMC''ZHTZBZ'
CCMCZHTZBZ
root@arm:~# MARKER='CQUG''TFNNSO' run 'i2cget -y -f 2 0x4b 0x12'
CQUGTFNNSO0x24
CQUGTFNNSO 0
root@arm:~# echo 'MUOE''GQHTGK'
MUOEGQHTGK
root@arm:~# MARKER='UJEM''OCHENK' run 'echo 1070000 1070000 > /sys/kernel/mva_tesst/regulators/buck3_set'
UJEMOCHENKUJEMOCHENK 0
root@arm:~# echo 'OBCV''YAKKOJ'
OBCVYAKKOJ
root@arm:~# MARKER='BPWL''PKYVTV' run 'i2cget -y -f 2 0x4b 0x12'
BPWLPKYVTV0x25
BPWLPKYVTV 0
root@arm:~# echo 'ETFO''OWLKTL'
ETFOOWLKTL
root@arm:~# MARKER='UYQA''WUXUBS' run 'echo 1080000 1080000 > /sys/kernel/mva_tesst/regulators/buck3_set'
UYQAWUXUBSUYQAWUXUBS 0
root@arm:~# echo 'NATB''LEXHMC'
NATBLEXHMC
root@arm:~# MARKER='ZASJ''OUZAWL' run 'i2cget -y -f 2 0x4b 0x12'
ZASJOUZAWL0x26
ZASJOUZAWL 0
root@arm:~# echo 'TBXO''HWCWHC'
TBXOHWCWHC
root@arm:~# MARKER='XLFN''MGTTWN' run 'echo 1090000 1090000 > /sys/kernel/mva_tesst/regulators/buck3_set'
XLFNMGTTWNXLFNMGTTWN 0
root@arm:~# echo 'ZCPO''TGLKTQ'
ZCPOTGLKTQ
root@arm:~# MARKER='TTCZ''VXHCWS' run 'i2cget -y -f 2 0x4b 0x12'
TTCZVXHCWS0x27
TTCZVXHCWS 0
root@arm:~# echo 'JWJF''EHKKQY'
JWJFEHKKQY
root@arm:~# MARKER='CLXZ''SGKFNF' run 'echo 1100000 1100000 > /sys/kernel/mva_tesst/regulators/buck3_set'
CLXZSGKFNFCLXZSGKFNF 0
root@arm:~# echo 'HNFN''AYXJCL'
HNFNAYXJCL
root@arm:~# MARKER='OWNO''TJUUCL' run 'i2cget -y -f 2 0x4b 0x12'
OWNOTJUUCL0x28
OWNOTJUUCL 0
root@arm:~# echo 'YNHU''NCZSYY'
YNHUNCZSYY
root@arm:~# MARKER='UPCC''BWEFMN' run 'echo 1110000 1110000 > /sys/kernel/mva_tesst/regulators/buck3_set'
UPCCBWEFMNUPCCBWEFMN 0
root@arm:~# echo 'NZMZ''LNONWL'
NZMZLNONWL
root@arm:~# MARKER='ALXH''BSMYAU' run 'i2cget -y -f 2 0x4b 0x12'
ALXHBSMYAU0x29
ALXHBSMYAU 0
root@arm:~# echo 'ACJQ''ZBHEUX'
ACJQZBHEUX
root@arm:~# MARKER='NEEH''XJPUHK' run 'echo 1120000 1120000 > /sys/kernel/mva_tesst/regulators/buck3_set'
NEEHXJPUHKNEEHXJPUHK 0
root@arm:~# echo 'GXUF''QZNWSB'
GXUFQZNWSB
root@arm:~# MARKER='OSQB''VUCWVP' run 'i2cget -y -f 2 0x4b 0x12'
OSQBVUCWVP0x2a
OSQBVUCWVP 0
root@arm:~# echo 'WLLH''CVNOUT'
WLLHCVNOUT
root@arm:~# MARKER='MVEA''FFEGNM' run 'echo 1130000 1130000 > /sys/kernel/mva_tesst/regulators/buck3_set'
MVEAFFEGNMMVEAFFEGNM 0
root@arm:~# echo 'PKEM''WOQMTU'
PKEMWOQMTU
root@arm:~# MARKER='BGBZ''LJTVLH' run 'i2cget -y -f 2 0x4b 0x12'
BGBZLJTVLH0x2b
BGBZLJTVLH 0
root@arm:~# echo 'AYMV''TJSFPW'
AYMVTJSFPW
root@arm:~# MARKER='XOEC''UNUXMX' run 'echo 1140000 1140000 > /sys/kernel/mva_tesst/regulators/buck3_set'
XOECUNUXMXXOECUNUXMX 0
root@arm:~# echo 'VACK''JZBSQU'
VACKJZBSQU
root@arm:~# MARKER='AJGB''YKXAJK' run 'i2cget -y -f 2 0x4b 0x12'
AJGBYKXAJK0x2c
AJGBYKXAJK 0
root@arm:~# echo 'NYPS''EKYOXF'
NYPSEKYOXF
root@arm:~# MARKER='XTWY''BFYNWH' run 'echo 1150000 1150000 > /sys/kernel/mva_tesst/regulators/buck3_set'
XTWYBFYNWHXTWYBFYNWH 0
root@arm:~# echo 'CZNC''TYZOLL'
CZNCTYZOLL
root@arm:~# MARKER='JLBA''WHMHHO' run 'i2cget -y -f 2 0x4b 0x12'
JLBAWHMHHO0x2d
JLBAWHMHHO 0
root@arm:~# echo 'HLVZ''AYSAWW'
HLVZAYSAWW
root@arm:~# MARKER='FNAH''OALGVU' run 'echo 1160000 1160000 > /sys/kernel/mva_tesst/regulators/buck3_set'
FNAHOALGVUFNAHOALGVU 0
root@arm:~# echo 'UPQE''KYPGWZ'
UPQEKYPGWZ
root@arm:~# MARKER='YCYQ''NBPOEV' run 'i2cget -y -f 2 0x4b 0x12'
YCYQNBPOEV0x2e
YCYQNBPOEV 0
root@arm:~# echo 'NTLV''HPTOUA'
NTLVHPTOUA
root@arm:~# MARKER='TXPF''QWBOZF' run 'echo 1170000 1170000 > /sys/kernel/mva_tesst/regulators/buck3_set'
TXPFQWBOZFTXPFQWBOZF 0
root@arm:~# echo 'YHBU''HXEKZP'
YHBUHXEKZP
root@arm:~# MARKER='YVWE''OKGFUT' run 'i2cget -y -f 2 0x4b 0x12'
YVWEOKGFUT0x2f
YVWEOKGFUT 0
root@arm:~# echo 'WAXX''UUVLEW'
WAXXUUVLEW
root@arm:~# MARKER='TTSM''YOXGUP' run 'echo 1180000 1180000 > /sys/kernel/mva_tesst/regulators/buck3_set'
TTSMYOXGUPTTSMYOXGUP 0
root@arm:~# echo 'ZNBA''GKFNWH'
ZNBAGKFNWH
root@arm:~# MARKER='JUNW''LLGHAF' run 'i2cget -y -f 2 0x4b 0x12'
JUNWLLGHAF0x30
JUNWLLGHAF 0
root@arm:~# echo 'CMJU''XPUOMO'
CMJUXPUOMO
root@arm:~# MARKER='BUTZ''JNUOQQ' run 'echo 1190000 1190000 > /sys/kernel/mva_tesst/regulators/buck3_set'
BUTZJNUOQQBUTZJNUOQQ 0
root@arm:~# echo 'XAAW''NFLUVU'
XAAWNFLUVU
root@arm:~# MARKER='EWWV''KFZFTP' run 'i2cget -y -f 2 0x4b 0x12'
EWWVKFZFTP0x31
EWWVKFZFTP 0
root@arm:~# echo 'ZVAS''OJXFQU'
ZVASOJXFQU
root@arm:~# MARKER='SHCM''HXCJUG' run 'echo 1200000 1200000 > /sys/kernel/mva_tesst/regulators/buck3_set'
SHCMHXCJUGSHCMHXCJUG 0
root@arm:~# echo 'HBPC''ZAUEEG'
HBPCZAUEEG
root@arm:~# MARKER='KNUU''ZEQGNO' run 'i2cget -y -f 2 0x4b 0x12'
KNUUZEQGNO0x32
KNUUZEQGNO 0
root@arm:~# echo 'TYFK''FCQWPW'
TYFKFCQWPW
root@arm:~# MARKER='BXSG''XFFTGG' run 'echo 1210000 1210000 > /sys/kernel/mva_tesst/regulators/buck3_set'
BXSGXFFTGGBXSGXFFTGG 0
root@arm:~# echo 'HAAQ''YJMGMH'
HAAQYJMGMH
root@arm:~# MARKER='UEJY''JJCCYG' run 'i2cget -y -f 2 0x4b 0x12'
UEJYJJCCYG0x33
UEJYJJCCYG 0
root@arm:~# echo 'GNVP''PQVXST'
GNVPPQVXST
root@arm:~# MARKER='MZLE''EQXCQN' run 'echo 1220000 1220000 > /sys/kernel/mva_tesst/regulators/buck3_set'
MZLEEQXCQNMZLEEQXCQN 0
root@arm:~# echo 'KFZZ''YOTTLY'
KFZZYOTTLY
root@arm:~# MARKER='EQXH''VOHKZW' run 'i2cget -y -f 2 0x4b 0x12'
EQXHVOHKZW0x34
EQXHVOHKZW 0
root@arm:~# echo 'VGLH''UVAMLK'
VGLHUVAMLK
root@arm:~# MARKER='UXYC''GUHKBQ' run 'echo 1230000 1230000 > /sys/kernel/mva_tesst/regulators/buck3_set'
UXYCGUHKBQUXYCGUHKBQ 0
root@arm:~# echo 'WYBW''LAGMEQ'
WYBWLAGMEQ
root@arm:~# MARKER='JKBF''QBAVXH' run 'i2cget -y -f 2 0x4b 0x12'
JKBFQBAVXH0x35
JKBFQBAVXH 0
root@arm:~# echo 'ZCZG''WLVWBQ'
ZCZGWLVWBQ
root@arm:~# MARKER='FEWX''YQZWJE' run 'echo 1240000 1240000 > /sys/kernel/mva_tesst/regulators/buck3_set'
FEWXYQZWJEFEWXYQZWJE 0
root@arm:~# echo 'THGU''UXZAZK'
THGUUXZAZK
root@arm:~# MARKER='BCAF''PYGFLL' run 'i2cget -y -f 2 0x4b 0x12'
BCAFPYGFLL0x36
BCAFPYGFLL 0
root@arm:~# echo 'XLYB''BPWZFM'
XLYBBPWZFM
root@arm:~# MARKER='MAKL''PXPUOJ' run 'echo 1250000 1250000 > /sys/kernel/mva_tesst/regulators/buck3_set'
MAKLPXPUOJMAKLPXPUOJ 0
root@arm:~# echo 'JENG''GYKSJJ'
JENGGYKSJJ
root@arm:~# MARKER='THOY''UHSFNS' run 'i2cget -y -f 2 0x4b 0x12'
THOYUHSFNS0x37
THOYUHSFNS 0
root@arm:~# echo 'OKMN''JFEYUM'
OKMNJFEYUM
root@arm:~# MARKER='KEFQ''LAQLWQ' run 'echo 1260000 1260000 > /sys/kernel/mva_tesst/regulators/buck3_set'
KEFQLAQLWQKEFQLAQLWQ 0
root@arm:~# echo 'OATL''EFGCKA'
OATLEFGCKA
root@arm:~# MARKER='AUJG''EZZZKS' run 'i2cget -y -f 2 0x4b 0x12'
AUJGEZZZKS0x38
AUJGEZZZKS 0
root@arm:~# echo 'AQVS''QEJNCP'
AQVSQEJNCP
root@arm:~# MARKER='KCWN''LAVBJW' run 'echo 1270000 1270000 > /sys/kernel/mva_tesst/regulators/buck3_set'
KCWNLAVBJWKCWNLAVBJW 0
root@arm:~# echo 'MECQ''SGSQBK'
MECQSGSQBK
root@arm:~# MARKER='UFWE''SYJOAE' run 'i2cget -y -f 2 0x4b 0x12'
UFWESYJOAE0x39
UFWESYJOAE 0
root@arm:~# echo 'CHQZ''JQUVFK'
CHQZJQUVFK
root@arm:~# MARKER='PPSB''CFZOPF' run 'echo 1280000 1280000 > /sys/kernel/mva_tesst/regulators/buck3_set'
PPSBCFZOPFPPSBCFZOPF 0
root@arm:~# echo 'KECE''LTCMLB'
KECELTCMLB
root@arm:~# MARKER='FAFN''BUOHUF' run 'i2cget -y -f 2 0x4b 0x12'
FAFNBUOHUF0x3a
FAFNBUOHUF 0
root@arm:~# echo 'FXHA''TVVGQG'
FXHATVVGQG
root@arm:~# MARKER='EPTZ''EGSABA' run 'echo 1290000 1290000 > /sys/kernel/mva_tesst/regulators/buck3_set'
EPTZEGSABAEPTZEGSABA 0
root@arm:~# echo 'SSLQ''ABPMTL'
SSLQABPMTL
root@arm:~# MARKER='UCQJ''AAXKSO' run 'i2cget -y -f 2 0x4b 0x12'
UCQJAAXKSO0x3b
UCQJAAXKSO 0
root@arm:~# echo 'LZCW''YXPTWP'
LZCWYXPTWP
root@arm:~# MARKER='PPKS''HAFKCA' run 'echo 1300000 1300000 > /sys/kernel/mva_tesst/regulators/buck3_set'
PPKSHAFKCAPPKSHAFKCA 0
root@arm:~# echo 'MMEF''JPLPTZ'
MMEFJPLPTZ
root@arm:~# MARKER='EZLV''XWSOOW' run 'i2cget -y -f 2 0x4b 0x12'
EZLVXWSOOW0x3c
EZLVXWSOOW 0
root@arm:~# echo 'AVQE''BWOTZH'
AVQEBWOTZH
root@arm:~# MARKER='GXNM''PPMKQK' run 'grep -r -l rohm,bd71837 /proc/device-tree  | sed '"'"'s![^/]*$!!'"'"''
GXNMPPMKQK/proc/device-tree/ocp/interconnect@48000000/segment@100000/target-module@9c000/i2c@0/pmic@4b/
GXNMPPMKQK 0
root@arm:~# echo 'XTOG''GUAFHM'
XTOGGUAFHM
root@arm:~# MARKER='BPZN''ATFMXL' run 'test -f /proc/device-tree/ocp/interconnectt\@48000000/segment\@100000/target-module\@9c000/i2c\@0/pmic\@4b/regulators/BUCK44/rohm,no-regulator-enable-control ;echo $?'
BPZNATFMXL1
BPZNATFMXL 0
root@arm:~# echo 'XLOM''CZOUHT'
XLOMCZOUHT
root@arm:~# MARKER='MOKT''EECJTX' run 'i2cget -y -f 2 0x4b 0x8'
MOKTEECJTX0xc6
MOKTEECJTX 0
root@arm:~# echo 'XPJA''WKZGCV'
XPJAWKZGCV
root@arm:~# MARKER='ZLTP''AEUCBP' run 'echo 700000 700000 > /sys/kernel/mva_test//regulators/buck4_set'
ZLTPAEUCBPZLTPAEUCBP 0
root@arm:~# echo 'AHVJ''OTTEPS'
AHVJOTTEPS
root@arm:~# MARKER='HPKV''OTMBCY' run 'i2cget -y -f 2 0x4b 0x13'
HPKVOTMBCY0x00
HPKVOTMBCY 0
root@arm:~# echo 'HQYY''ZYBYZZ'
HQYYZYBYZZ
root@arm:~# MARKER='XHUN''NWSBHS' run 'echo 710000 710000 > /sys/kernel/mva_test//regulators/buck4_set'
XHUNNWSBHSXHUNNWSBHS 0
root@arm:~# echo 'OFYH''LJVZPB'
OFYHLJVZPB
root@arm:~# MARKER='SMMU''XXYLKN' run 'i2cget -y -f 2 0x4b 0x13'
SMMUXXYLKN0x01
SMMUXXYLKN 0
root@arm:~# echo 'GMKG''SMFSSA'
GMKGSMFSSA
root@arm:~# MARKER='MQLO''KQPOSJ' run 'echo 720000 720000 > /sys/kernel/mva_test//regulators/buck4_set'
MQLOKQPOSJMQLOKQPOSJ 0
root@arm:~# echo 'ECKV''UYTFOG'
ECKVUYTFOG
root@arm:~# MARKER='WPNA''OWKKXZ' run 'i2cget -y -f 2 0x4b 0x13'
WPNAOWKKXZ0x02
WPNAOWKKXZ 0
root@arm:~# echo 'CZNL''UTQGQV'
CZNLUTQGQV
root@arm:~# MARKER='JBGZ''XNZCYL' run 'echo 730000 730000 > /sys/kernel/mva_test//regulators/buck4_set'
JBGZXNZCYLJBGZXNZCYL 0
root@arm:~# echo 'NMCW''GJZXGV'
NMCWGJZXGV
root@arm:~# MARKER='HSWZ''NSNSWW' run 'i2cget -y -f 2 0x4b 0x13'
HSWZNSNSWW0x03
HSWZNSNSWW 0
root@arm:~# echo 'XSKM''QBCPBM'
XSKMQBCPBM
root@arm:~# MARKER='NGBK''KYAJWX' run 'echo 740000 740000 > /sys/kernel/mva_test//regulators/buck4_set'
NGBKKYAJWXNGBKKYAJWX 0
root@arm:~# echo 'WYOA''TXHPKU'
WYOATXHPKU
root@arm:~# MARKER='CLGH''TXKFUX' run 'i2cget -y -f 2 0x4b 0x13'
CLGHTXKFUX0x04
CLGHTXKFUX 0
root@arm:~# echo 'GXPM''MHTJUB'
GXPMMHTJUB
root@arm:~# MARKER='KCGY''LMMXUL' run 'echo 750000 750000 > /sys/kernel/mva_test//regulators/buck4_set'
KCGYLMMXULKCGYLMMXUL 0
root@arm:~# echo 'CNJX''THBPBW'
CNJXTHBPBW
root@arm:~# MARKER='YHNH''BLXSGQ' run 'i2cget -y -f 2 0x4b 0x13'
YHNHBLXSGQ0x05
YHNHBLXSGQ 0
root@arm:~# echo 'TMOX''LOEBZP'
TMOXLOEBZP
root@arm:~# MARKER='UYCS''BSGPHQ' run 'echo 760000 760000 > /sys/kernel/mva_test//regulators/buck4_set'
UYCSBSGPHQUYCSBSGPHQ 0
root@arm:~# echo 'WCWL''VLKCZE'
WCWLVLKCZE
root@arm:~# MARKER='HBEN''UAZKZP' run 'i2cget -y -f 2 0x4b 0x13'
HBENUAZKZP0x06
HBENUAZKZP 0
root@arm:~# echo 'NZET''BBFYZZ'
NZETBBFYZZ
root@arm:~# MARKER='UCXO''CGZOBB' run 'echo 770000 770000 > /sys/kernel/mva_test//regulators/buck4_set'
UCXOCGZOBBUCXOCGZOBB 0
root@arm:~# echo 'WVGB''EXKNPC'
WVGBEXKNPC
root@arm:~# MARKER='SPLQ''TLBUWG' run 'i2cget -y -f 2 0x4b 0x13'
SPLQTLBUWG0x07
SPLQTLBUWG 0
root@arm:~# echo 'PYAS''ZKQPLC'
PYASZKQPLC
root@arm:~# MARKER='XCVH''HOFLXJ' run 'echo 780000 780000 > /sys/kernel/mva_test//regulators/buck4_set'
XCVHHOFLXJXCVHHOFLXJ 0
root@arm:~# echo 'VQPQ''CFUJQU'
VQPQCFUJQU
root@arm:~# MARKER='TSSY''THVSQJ' run 'i2cget -y -f 2 0x4b 0x13'
TSSYTHVSQJ0x08
TSSYTHVSQJ 0
root@arm:~# echo 'BGXK''HWQLAF'
BGXKHWQLAF
root@arm:~# MARKER='FHWM''COWTPX' run 'echo 790000 790000 > /sys/kernel/mva_test//regulators/buck4_set'
FHWMCOWTPXFHWMCOWTPX 0
root@arm:~# echo 'VKZV''GQKCSG'
VKZVGQKCSG
root@arm:~# MARKER='APPJ''MCEMCG' run 'i2cget -y -f 2 0x4b 0x13'
APPJMCEMCG0x09
APPJMCEMCG 0
root@arm:~# echo 'HHPO''PUWZUX'
HHPOPUWZUX
root@arm:~# MARKER='PNJJ''PAHBQT' run 'echo 800000 800000 > /sys/kernel/mva_test//regulators/buck4_set'
PNJJPAHBQTPNJJPAHBQT 0
root@arm:~# echo 'LYNK''YKVBAL'
LYNKYKVBAL
root@arm:~# MARKER='CZJM''VWSZKE' run 'i2cget -y -f 2 0x4b 0x13'
CZJMVWSZKE0x0a
CZJMVWSZKE 0
root@arm:~# echo 'CMVO''TSCMTV'
CMVOTSCMTV
root@arm:~# MARKER='BXFB''MMYOZK' run 'echo 810000 810000 > /sys/kernel/mva_test//regulators/buck4_set'
BXFBMMYOZKBXFBMMYOZK 0
root@arm:~# echo 'GFXJ''NWYWNT'
GFXJNWYWNT
root@arm:~# MARKER='SGHG''PNXPKP' run 'i2cget -y -f 2 0x4b 0x13'
SGHGPNXPKP0x0b
SGHGPNXPKP 0
root@arm:~# echo 'WJWX''ABJCXB'
WJWXABJCXB
root@arm:~# MARKER='JZTJ''KLKBUN' run 'echo 820000 820000 > /sys/kernel/mva_test//regulators/buck4_set'
JZTJKLKBUNJZTJKLKBUN 0
root@arm:~# echo 'FCSZ''YLBBHB'
FCSZYLBBHB
root@arm:~# MARKER='NMSX''QFTUJT' run 'i2cget -y -f 2 0x4b 0x13'
NMSXQFTUJT0x0c
NMSXQFTUJT 0
root@arm:~# echo 'NVTL''MKEHNU'
NVTLMKEHNU
root@arm:~# MARKER='QTCH''NXGQLK' run 'echo 830000 830000 > /sys/kernel/mva_test//regulators/buck4_set'
QTCHNXGQLKQTCHNXGQLK 0
root@arm:~# echo 'LBKM''YFHPNB'
LBKMYFHPNB
root@arm:~# MARKER='VVTO''YPXLYJ' run 'i2cget -y -f 2 0x4b 0x13'
VVTOYPXLYJ0x0d
VVTOYPXLYJ 0
root@arm:~# echo 'JYLX''OUCFQC'
JYLXOUCFQC
root@arm:~# MARKER='VPVG''JKYTZC' run 'echo 840000 840000 > /sys/kernel/mva_test//regulators/buck4_set'
VPVGJKYTZCVPVGJKYTZC 0
root@arm:~# echo 'UNHL''CHFHJE'
UNHLCHFHJE
root@arm:~# MARKER='AZBS''QNKSAM' run 'i2cget -y -f 2 0x4b 0x13'
AZBSQNKSAM0x0e
AZBSQNKSAM 0
root@arm:~# echo 'JTWV''ACPQUH'
JTWVACPQUH
root@arm:~# MARKER='SJUY''JTLOXV' run 'echo 850000 850000 > /sys/kernel/mva_test//regulators/buck4_set'
SJUYJTLOXVSJUYJTLOXV 0
root@arm:~# echo 'TOPF''MJAFZQ'
TOPFMJAFZQ
root@arm:~# MARKER='WTGK''PCQEBH' run 'i2cget -y -f 2 0x4b 0x13'
WTGKPCQEBH0x0f
WTGKPCQEBH 0
root@arm:~# echo 'KOKP''UAGBHA'
KOKPUAGBHA
root@arm:~# MARKER='QZJO''UOTZTQ' run 'echo 860000 860000 > /sys/kernel/mva_test//regulators/buck4_set'
QZJOUOTZTQQZJOUOTZTQ 0
root@arm:~# echo 'MQEP''QWBCZO'
MQEPQWBCZO
root@arm:~# MARKER='KPGP''CQJJZZ' run 'i2cget -y -f 2 0x4b 0x13'
KPGPCQJJZZ0x10
KPGPCQJJZZ 0
root@arm:~# echo 'TVEQ''BFEAKY'
TVEQBFEAKY
root@arm:~# MARKER='AMKT''KCGGTO' run 'echo 870000 870000 > /sys/kernel/mva_test//regulators/buck4_set'
AMKTKCGGTOAMKTKCGGTO 0
root@arm:~# echo 'UBGF''WWMPPA'
UBGFWWMPPA
root@arm:~# MARKER='KBWL''VYVOZK' run 'i2cget -y -f 2 0x4b 0x13'
KBWLVYVOZK0x11
KBWLVYVOZK 0
root@arm:~# echo 'XQPX''VZGQVP'
XQPXVZGQVP
root@arm:~# MARKER='LUEZ''SKCJMK' run 'echo 880000 880000 > /sys/kernel/mva_test//regulators/buck4_set'
LUEZSKCJMKLUEZSKCJMK 0
root@arm:~# echo 'YOCS''XPBWQQ'
YOCSXPBWQQ
root@arm:~# MARKER='EWXV''AWPSBO' run 'i2cget -y -f 2 0x4b 0x13'
EWXVAWPSBO0x12
EWXVAWPSBO 0
root@arm:~# echo 'GTVE''UVGASS'
GTVEUVGASS
root@arm:~# MARKER='CNJZ''EXXQLB' run 'echo 890000 890000 > /sys/kernel/mva_test//regulators/buck4_set'
CNJZEXXQLBCNJZEXXQLB 0
root@arm:~# echo 'VXMW''UCOOUO'
VXMWUCOOUO
root@arm:~# MARKER='TZYF''EKQXKS' run 'i2cget -y -f 2 0x4b 0x13'
TZYFEKQXKS0x13
TZYFEKQXKS 0
root@arm:~# echo 'KPUJ''VZCSMA'
KPUJVZCSMA
root@arm:~# MARKER='NLNK''NTQFGT' run 'echo 900000 900000 > /sys/kernel/mva_test//regulators/buck4_set'
NLNKNTQFGTNLNKNTQFGT 0
root@arm:~# echo 'OZFN''COLOPL'
OZFNCOLOPL
root@arm:~# MARKER='WBNX''XLOFKM' run 'i2cget -y -f 2 0x4b 0x13'
WBNXXLOFKM0x14
WBNXXLOFKM 0
root@arm:~# echo 'LUBY''NZGANA'
LUBYNZGANA
root@arm:~# MARKER='YUHO''UGJMFM' run 'echo 910000 910000 > /sys/kernel/mva_test//regulators/buck4_set'
YUHOUGJMFMYUHOUGJMFM 0
root@arm:~# echo 'ZZTT''KKJFCB'
ZZTTKKJFCB
root@arm:~# MARKER='KQET''MPCNKL' run 'i2cget -y -f 2 0x4b 0x13'
KQETMPCNKL0x15
KQETMPCNKL 0
root@arm:~# echo 'OJWL''ZKEJEA'
OJWLZKEJEA
root@arm:~# MARKER='OHPA''ZNSYGX' run 'echo 920000 920000 > /sys/kernel/mva_test//regulators/buck4_set'
OHPAZNSYGXOHPAZNSYGX 0
root@arm:~# echo 'HBHL''JYXOOT'
HBHLJYXOOT
root@arm:~# MARKER='TCGC''ZPKEVG' run 'i2cget -y -f 2 0x4b 0x13'
TCGCZPKEVG0x16
TCGCZPKEVG 0
root@arm:~# echo 'CLCS''UJOOOS'
CLCSUJOOOS
root@arm:~# MARKER='NEGS''ZWGWBO' run 'echo 930000 930000 > /sys/kernel/mva_test//regulators/buck4_set'
NEGSZWGWBONEGSZWGWBO 0
root@arm:~# echo 'KCEE''OMTUZV'
KCEEOMTUZV
root@arm:~# MARKER='JFLS''SBQNPB' run 'i2cget -y -f 2 0x4b 0x13'
JFLSSBQNPB0x17
JFLSSBQNPB 0
root@arm:~# echo 'PTTX''HTZAYK'
PTTXHTZAYK
