Labgrid Console Logfile for main
Logfile started at 2025-10-28 06:43:01.853056
=== Log starts here ===

root@arm:~# run() { echo -n "$MARKER"; sh -c "$@"; echo "$MARKER $?"; }
root@arm:~# echo 'EVUB''YSUUWO'
EVUBYSUUWO
root@arm:~# MARKER='NWZC''XYAQBH' run 'grep -r -l rohm,bd71847 /proc/device-tree  | sed '"'"'s![^/]*$!!'"'"''
NWZCXYAQBH/proc/device-tree/ocp/interconnect@48000000/segment@0/target-module@2a000/i2c@0/pmic@4b/
NWZCXYAQBH 0
root@arm:~# echo 'OAXU''ZCWFTL'
OAXUZCWFTL
root@arm:~# MARKER='HEKQ''HEPLTK' run 'test -f /proc/device-tree/ocp/interconnectt\@48000000/segment\@0/target-module\@2a000/i2c\@0/pmic\@4b/regulators/BUCK1/rohmm,no-regulator-enable-control ;echo $?'
HEKQHEPLTK1
HEKQHEPLTK 0
root@arm:~# echo 'LFYN''EHNPGS'
LFYNEHNPGS
root@arm:~# MARKER='FBGL''WQMBHG' run 'echo 1 > /sys/kernel/mva_test/regulators/bbuck1_en'
FBGLWQMBHGFBGLWQMBHG 0
root@arm:~# echo 'GXWG''UYFYCG'
GXWGUYFYCG
root@arm:~# MARKER='NWFG''HBGWFM' run 'i2cget -y -f 1 0x4b 0x5'
NWFGHBGWFM0x03
NWFGHBGWFM 0
root@arm:~# echo 'TMZM''VBPBEW'
TMZMVBPBEW
root@arm:~# MARKER='WGTC''PAAGEU' run 'grep -r -l rohm,bd71847 /proc/device-tree  | sed '"'"'s![^/]*$!!'"'"''
WGTCPAAGEU/proc/device-tree/ocp/interconnect@48000000/segment@0/target-module@2a000/i2c@0/pmic@4b/
WGTCPAAGEU 0
root@arm:~# echo 'QTOQ''MUCTEN'
QTOQMUCTEN
root@arm:~# MARKER='MLHW''QJEWEW' run 'test -f /proc/device-tree/ocp/interconnectt\@48000000/segment\@0/target-module\@2a000/i2c\@0/pmic\@4b/regulators/BUCK1/rohmm,no-regulator-enable-control ;echo $?'
MLHWQJEWEW1
MLHWQJEWEW 0
root@arm:~# echo 'TTUY''MNMZWU'
TTUYMNMZWU
root@arm:~# MARKER='LHCU''KHSFPF' run 'grep -r -l rohm,bd71847 /proc/device-tree  | sed '"'"'s![^/]*$!!'"'"''
LHCUKHSFPF/proc/device-tree/ocp/interconnect@48000000/segment@0/target-module@2a000/i2c@0/pmic@4b/
LHCUKHSFPF 0
root@arm:~# echo 'GWNE''EKOFZC'
GWNEEKOFZC
root@arm:~# MARKER='GBFU''QJXSOW' run 'test -f /proc/device-tree/ocp/interconnectt\@48000000/segment\@0/target-module\@2a000/i2c\@0/pmic\@4b/regulators/BUCK1/reguulator-always-on ;echo $?'
GBFUQJXSOW1
GBFUQJXSOW 0
root@arm:~# echo 'UTWP''YFOKCL'
UTWPYFOKCL
root@arm:~# MARKER='VVFA''SUPVQM' run 'echo 0 > /sys/kernel/mva_test/regulators/bbuck1_en'
VVFASUPVQMVVFASUPVQM 0
root@arm:~# echo 'WFNZ''PMQYAV'
WFNZPMQYAV
root@arm:~# MARKER='EEXJ''OAQLMS' run 'i2cget -y -f 1 0x4b 0x5'
EEXJOAQLMS0x02
EEXJOAQLMS 0
root@arm:~# echo 'QWXL''PEMXWH'
QWXLPEMXWH
root@arm:~# MARKER='VSMQ''VSWLNO' run 'grep -r -l rohm,bd71847 /proc/device-tree  | sed '"'"'s![^/]*$!!'"'"''
VSMQVSWLNO/proc/device-tree/ocp/interconnect@48000000/segment@0/target-module@2a000/i2c@0/pmic@4b/
VSMQVSWLNO 0
root@arm:~# echo 'SMVS''YUGCGE'
SMVSYUGCGE
root@arm:~# MARKER='WCVL''TFMHGU' run 'test -f /proc/device-tree/ocp/interconnectt\@48000000/segment\@0/target-module\@2a000/i2c\@0/pmic\@4b/regulators/BUCK2/rohmm,no-regulator-enable-control ;echo $?'
WCVLTFMHGU1
WCVLTFMHGU 0
root@arm:~# echo 'WNJO''XFQEBU'
WNJOXFQEBU
root@arm:~# MARKER='LUON''ULGABC' run 'echo 1 > /sys/kernel/mva_test/regulators/bbuck2_en'
LUONULGABCLUONULGABC 0
root@arm:~# echo 'JWOP''EKJXOH'
JWOPEKJXOH
root@arm:~# MARKER='ZGMO''LFYCSC' run 'i2cget -y -f 1 0x4b 0x6'
ZGMOLFYCSC0x43
ZGMOLFYCSC 0
root@arm:~# echo 'NCUQ''CHHLPO'
NCUQCHHLPO
root@arm:~# MARKER='VEAY''VMOBBO' run 'grep -r -l rohm,bd71847 /proc/device-tree  | sed '"'"'s![^/]*$!!'"'"''
VEAYVMOBBO/proc/device-tree/ocp/interconnect@48000000/segment@0/target-module@2a000/i2c@0/pmic@4b/
VEAYVMOBBO 0
root@arm:~# echo 'UXUM''BMZQEN'
UXUMBMZQEN
root@arm:~# MARKER='FQJF''USJGAY' run 'test -f /proc/device-tree/ocp/interconnectt\@48000000/segment\@0/target-module\@2a000/i2c\@0/pmic\@4b/regulators/BUCK2/rohmm,no-regulator-enable-control ;echo $?'
FQJFUSJGAY1
FQJFUSJGAY 0
root@arm:~# echo 'WCTN''UFJGGT'
WCTNUFJGGT
root@arm:~# MARKER='AJQE''BHHNLC' run 'grep -r -l rohm,bd71847 /proc/device-tree  | sed '"'"'s![^/]*$!!'"'"''
AJQEBHHNLC/proc/device-tree/ocp/interconnect@48000000/segment@0/target-module@2a000/i2c@0/pmic@4b/
AJQEBHHNLC 0
root@arm:~# echo 'HJOJ''LYKCQS'
HJOJLYKCQS
root@arm:~# MARKER='LMXX''XKNKPN' run 'test -f /proc/device-tree/ocp/interconnectt\@48000000/segment\@0/target-module\@2a000/i2c\@0/pmic\@4b/regulators/BUCK2/reguulator-always-on ;echo $?'
LMXXXKNKPN0
LMXXXKNKPN 0
root@arm:~# echo 'AJJS''TNTEPZ'
AJJSTNTEPZ
root@arm:~# MARKER='WVCZ''SLFWQM' run 'grep -r -l rohm,bd71847 /proc/device-tree  | sed '"'"'s![^/]*$!!'"'"''
WVCZSLFWQM/proc/device-tree/ocp/interconnect@48000000/segment@0/target-module@2a000/i2c@0/pmic@4b/
WVCZSLFWQM 0
root@arm:~# echo 'TTUX''GEKKLM'
TTUXGEKKLM
root@arm:~# MARKER='ZFSV''KZQJKF' run 'test -f /proc/device-tree/ocp/interconnectt\@48000000/segment\@0/target-module\@2a000/i2c\@0/pmic\@4b/regulators/BUCK3/roh m,no-regulator-enable-control ;echo $?'
ZFSVKZQJKF0
ZFSVKZQJKF 0
root@arm:~# echo 'YHAZ''VGXTPB'
YHAZVGXTPB
root@arm:~# MARKER='SMWX''THCQNQ' run 'grep -r -l rohm,bd71847 /proc/device-tree  | sed '"'"'s![^/]*$!!'"'"''
SMWXTHCQNQ/proc/device-tree/ocp/interconnect@48000000/segment@0/target-module@2a000/i2c@0/pmic@4b/
SMWXTHCQNQ 0
root@arm:~# echo 'CMVW''JOOOMN'
CMVWJOOOMN
root@arm:~# MARKER='UFBJ''GGOPPG' run 'test -f /proc/device-tree/ocp/interconnectt\@48000000/segment\@0/target-module\@2a000/i2c\@0/pmic\@4b/regulators/BUCK3/rohmm,no-regulator-enable-control ;echo $?'
UFBJGGOPPG0
UFBJGGOPPG 0
root@arm:~# echo 'VHAX''QKXTOE'
VHAXQKXTOE
root@arm:~# MARKER='LLYE''TWNYFU' run 'grep -r -l rohm,bd71847 /proc/device-tree  | sed '"'"'s![^/]*$!!'"'"''
LLYETWNYFU/proc/device-tree/ocp/interconnect@48000000/segment@0/target-module@2a000/i2c@0/pmic@4b/
LLYETWNYFU 0
root@arm:~# echo 'HUAG''OGOCVO'
HUAGOGOCVO
root@arm:~# MARKER='PQMZ''XUAQVC' run 'test -f /proc/device-tree/ocp/interconnectt\@48000000/segment\@0/target-module\@2a000/i2c\@0/pmic\@4b/regulators/BUCK4/rohmm,no-regulator-enable-control ;echo $?'
PQMZXUAQVC1
PQMZXUAQVC 0
root@arm:~# echo 'OCQY''PTSKBT'
OCQYPTSKBT
root@arm:~# MARKER='OYOQ''VJJTHV' run 'echo 1 > /sys/kernel/mva_test/regulators/bbuck4_en'
OYOQVJJTHVOYOQVJJTHV 0
root@arm:~# echo 'BELV''NTUKFY'
BELVNTUKFY
root@arm:~# MARKER='JECZ''LLUAMZ' run 'i2cget -y -f 1 0x4b 0xa'
JECZLLUAMZ0x03
JECZLLUAMZ 0
root@arm:~# echo 'GYUZ''KSKYYF'
GYUZKSKYYF
root@arm:~# MARKER='YFCX''GPQBMV' run 'grep -r -l rohm,bd71847 /proc/device-tree  | sed '"'"'s![^/]*$!!'"'"''
YFCXGPQBMV/proc/device-tree/ocp/interconnect@48000000/segment@0/target-module@2a000/i2c@0/pmic@4b/
YFCXGPQBMV 0
root@arm:~# echo 'FOUA''FZKGWN'
FOUAFZKGWN
root@arm:~# MARKER='FVSV''NOOPJK' run 'test -f /proc/device-tree/ocp/interconnectt\@48000000/segment\@0/target-module\@2a000/i2c\@0/pmic\@4b/regulators/BUCK4/rohmm,no-regulator-enable-control ;echo $?'
FVSVNOOPJK1
FVSVNOOPJK 0
root@arm:~# echo 'OYOX''MJWWVK'
OYOXMJWWVK
root@arm:~# MARKER='GWGM''ZYHUEH' run 'grep -r -l rohm,bd71847 /proc/device-tree  | sed '"'"'s![^/]*$!!'"'"''
GWGMZYHUEH/proc/device-tree/ocp/interconnect@48000000/segment@0/target-module@2a000/i2c@0/pmic@4b/
GWGMZYHUEH 0
root@arm:~# echo 'HOGT''JJVJWZ'
HOGTJJVJWZ
root@arm:~# MARKER='PNBF''SZPOXW' run 'test -f /proc/device-tree/ocp/interconnectt\@48000000/segment\@0/target-module\@2a000/i2c\@0/pmic\@4b/regulators/BUCK4/reguulator-always-on ;echo $?'
PNBFSZPOXW1
PNBFSZPOXW 0
root@arm:~# echo 'QBLJ''CYJJMV'
QBLJCYJJMV
root@arm:~# MARKER='TXYN''TAWTYE' run 'echo 0 > /sys/kernel/mva_test/regulators/bbuck4_en'
TXYNTAWTYETXYNTAWTYE 0
root@arm:~# echo 'APOY''FVQFAS'
APOYFVQFAS
root@arm:~# MARKER='QNWY''TMQQQA' run 'i2cget -y -f 1 0x4b 0xa'
QNWYTMQQQA0x02
QNWYTMQQQA 0
root@arm:~# echo 'ZMYA''VPBFWQ'
ZMYAVPBFWQ
root@arm:~# MARKER='PQSY''CEOLEH' run 'grep -r -l rohm,bd71847 /proc/device-tree  | sed '"'"'s![^/]*$!!'"'"''
PQSYCEOLEH/proc/device-tree/ocp/interconnect@48000000/segment@0/target-module@2a000/i2c@0/pmic@4b/
PQSYCEOLEH 0
root@arm:~# echo 'EPEQ''JKQFEZ'
EPEQJKQFEZ
root@arm:~# MARKER='BEFC''BKXCFJ' run 'test -f /proc/device-tree/ocp/interconnectt\@48000000/segment\@0/target-module\@2a000/i2c\@0/pmic\@4b/regulators/BUCK5/rohmm,no-regulator-enable-control ;echo $?'
BEFCBKXCFJ1
BEFCBKXCFJ 0
root@arm:~# echo 'SWJQ''TOEYAB'
SWJQTOEYAB
root@arm:~# MARKER='QCJW''QCQBFG' run 'echo 1 > /sys/kernel/mva_test/regulators/bbuck5_en'
QCJWQCQBFGQCJWQCQBFG 0
root@arm:~# echo 'LAGB''CMTBZO'
LAGBCMTBZO
root@arm:~# MARKER='VVFO''VGEVKT' run 'i2cget -y -f 1 0x4b 0xb'
VVFOVGEVKT0x03
VVFOVGEVKT 0
root@arm:~# echo 'OYXW''TQLSYY'
OYXWTQLSYY
root@arm:~# MARKER='LUMH''ACJEPN' run 'grep -r -l rohm,bd71847 /proc/device-tree  | sed '"'"'s![^/]*$!!'"'"''
LUMHACJEPN/proc/device-tree/ocp/interconnect@48000000/segment@0/target-module@2a000/i2c@0/pmic@4b/
LUMHACJEPN 0
root@arm:~# echo 'JGOU''NZJOYM'
JGOUNZJOYM
root@arm:~# MARKER='FNTX''CLFLFW' run 'test -f /proc/device-tree/ocp/interconnectt\@48000000/segment\@0/target-module\@2a000/i2c\@0/pmic\@4b/regulators/BUCK5/rohmm,no-regulator-enable-control ;echo $?'
FNTXCLFLFW1
FNTXCLFLFW 0
root@arm:~# echo 'OPAG''WHYYUW'
OPAGWHYYUW
root@arm:~# MARKER='SXOO''XVYJUC' run 'grep -r -l rohm,bd71847 /proc/device-tree  | sed '"'"'s![^/]*$!!'"'"''
SXOOXVYJUC/proc/device-tree/ocp/interconnect@48000000/segment@0/target-module@2a000/i2c@0/pmic@4b/
SXOOXVYJUC 0
root@arm:~# echo 'COTN''EUFBZB'
COTNEUFBZB
root@arm:~# MARKER='MYXG''YTJZUK' run 'test -f /proc/device-tree/ocp/interconnectt\@48000000/segment\@0/target-module\@2a000/i2c\@0/pmic\@4b/regulators/BUCK5/reguulator-always-on ;echo $?'
MYXGYTJZUK1
MYXGYTJZUK 0
root@arm:~# echo 'TYXH''CVEBEP'
TYXHCVEBEP
root@arm:~# MARKER='LNSV''LSUKMO' run 'echo 0 > /sys/kernel/mva_test/regulators/bbuck5_en'
LNSVLSUKMOLNSVLSUKMO 0
root@arm:~# echo 'WHSL''YZNPFZ'
WHSLYZNPFZ
root@arm:~# MARKER='OSLZ''QPJLEW' run 'i2cget -y -f 1 0x4b 0xb'
OSLZQPJLEW0x02
OSLZQPJLEW 0
root@arm:~# echo 'YZJO''JYMUTL'
YZJOJYMUTL
root@arm:~# MARKER='PJGK''KVMQWT' run 'grep -r -l rohm,bd71847 /proc/device-tree  | sed '"'"'s![^/]*$!!'"'"''
PJGKKVMQWT/proc/device-tree/ocp/interconnect@48000000/segment@0/target-module@2a000/i2c@0/pmic@4b/
PJGKKVMQWT 0
root@arm:~# echo 'MUTM''ZKHOAU'
MUTMZKHOAU
root@arm:~# MARKER='CPNT''QHCCSE' run 'test -f /proc/device-tree/ocp/interconnectt\@48000000/segment\@0/target-module\@2a000/i2c\@0/pmic\@4b/regulators/BUCK6/rohmm,no-regulator-enable-control ;echo $?'
CPNTQHCCSE1
CPNTQHCCSE 0
root@arm:~# echo 'FVZX''GGNKSX'
FVZXGGNKSX
root@arm:~# MARKER='TPJC''THOBZH' run 'echo 1 > /sys/kernel/mva_test/regulators/bbuck6_en'
TPJCTHOBZHTPJCTHOBZH 0
root@arm:~# echo 'NXPA''ENAGEP'
NXPAENAGEP
root@arm:~# MARKER='KGLG''WVGOVL' run 'i2cget -y -f 1 0x4b 0xc'
KGLGWVGOVL0x03
KGLGWVGOVL 0
root@arm:~# echo 'KPKL''WLUXPV'
KPKLWLUXPV
root@arm:~# MARKER='AOGM''JXTHMB' run 'grep -r -l rohm,bd71847 /proc/device-tree  | sed '"'"'s![^/]*$!!'"'"''
AOGMJXTHMB/proc/device-tree/ocp/interconnect@48000000/segment@0/target-module@2a000/i2c@0/pmic@4b/
AOGMJXTHMB 0
root@arm:~# echo 'KAYP''HOEGWN'
KAYPHOEGWN
root@arm:~# MARKER='OASX''ZHUFQZ' run 'test -f /proc/device-tree/ocp/interconnectt\@48000000/segment\@0/target-module\@2a000/i2c\@0/pmic\@4b/regulators/BUCK6/rohmm,no-regulator-enable-control ;echo $?'
OASXZHUFQZ1
OASXZHUFQZ 0
root@arm:~# echo 'HVHX''QEMXCO'
HVHXQEMXCO
root@arm:~# MARKER='FFYT''YJWLLY' run 'grep -r -l rohm,bd71847 /proc/device-tree  | sed '"'"'s![^/]*$!!'"'"''
FFYTYJWLLY/proc/device-tree/ocp/interconnect@48000000/segment@0/target-module@2a000/i2c@0/pmic@4b/
FFYTYJWLLY 0
root@arm:~# echo 'QLAL''PWYQOP'
QLALPWYQOP
root@arm:~# MARKER='ECNK''KBKFXN' run 'test -f /proc/device-tree/ocp/interconnectt\@48000000/segment\@0/target-module\@2a000/i2c\@0/pmic\@4b/regulators/BUCK6/reguulator-always-on ;echo $?'
ECNKKBKFXN1
ECNKKBKFXN 0
root@arm:~# echo 'ENCS''VMLOWN'
ENCSVMLOWN
root@arm:~# MARKER='LTLX''BNOQOQ' run 'echo 0 > /sys/kernel/mva_test/regulators/bbuck6_en'
LTLXBNOQOQLTLXBNOQOQ 0
root@arm:~# echo 'SHFH''BHZZYT'
SHFHBHZZYT
root@arm:~# MARKER='NEYH''KMHQHN' run 'i2cget -y -f 1 0x4b 0xc'
NEYHKMHQHN0x02
NEYHKMHQHN 0
root@arm:~# echo 'EFXK''GLJAWC'
EFXKGLJAWC
root@arm:~# MARKER='GZFS''MSAUHE' run 'grep -r -l rohm,bd71847 /proc/device-tree  | sed '"'"'s![^/]*$!!'"'"''
GZFSMSAUHE/proc/device-tree/ocp/interconnect@48000000/segment@0/target-module@2a000/i2c@0/pmic@4b/
GZFSMSAUHE 0
root@arm:~# echo 'WWWW''AKOBKV'
WWWWAKOBKV
root@arm:~# MARKER='AYJJ''WFBULH' run 'test -f /proc/device-tree/ocp/interconnectt\@48000000/segment\@0/target-module\@2a000/i2c\@0/pmic\@4b/regulators/LDO1/rohm,,no-regulator-enable-control ;echo $?'
AYJJWFBULH1
AYJJWFBULH 0
root@arm:~# echo 'PUNN''FVFWFZ'
PUNNFVFWFZ
root@arm:~# MARKER='AHMA''ZUGWQY' run 'echo 1 > /sys/kernel/mva_test/regulators/bbuck7_en'
AHMAZUGWQYAHMAZUGWQY 0
root@arm:~# echo 'AGAY''EJXCPS'
AGAYEJXCPS
root@arm:~# MARKER='WSNU''NAHBPF' run 'i2cget -y -f 1 0x4b 0x18'
WSNUNAHBPF0xe2
WSNUNAHBPF 0
root@arm:~# echo 'TUBM''VBAKGE'
TUBMVBAKGE
root@arm:~# MARKER='CTBP''SXGBHB' run 'grep -r -l rohm,bd71847 /proc/device-tree  | sed '"'"'s![^/]*$!!'"'"''
CTBPSXGBHB/proc/device-tree/ocp/interconnect@48000000/segment@0/target-module@2a000/i2c@0/pmic@4b/
CTBPSXGBHB 0
root@arm:~# echo 'CFJJ''SHYLMU'
CFJJSHYLMU
root@arm:~# MARKER='SZBB''CKBPQA' run 'test -f /proc/device-tree/ocp/interconnectt\@48000000/segment\@0/target-module\@2a000/i2c\@0/pmic\@4b/regulators/LDO1/rohm,,no-regulator-enable-control ;echo $?'
SZBBCKBPQA1
SZBBCKBPQA 0
root@arm:~# echo 'KOKP''XAQLQM'
KOKPXAQLQM
root@arm:~# MARKER='JUUN''YSWSLS' run 'grep -r -l rohm,bd71847 /proc/device-tree  | sed '"'"'s![^/]*$!!'"'"''
JUUNYSWSLS/proc/device-tree/ocp/interconnect@48000000/segment@0/target-module@2a000/i2c@0/pmic@4b/
JUUNYSWSLS 0
root@arm:~# echo 'ZVUA''PQCMFX'
ZVUAPQCMFX
root@arm:~# MARKER='PTCK''QZVPQN' run 'test -f /proc/device-tree/ocp/interconnectt\@48000000/segment\@0/target-module\@2a000/i2c\@0/pmic\@4b/regulators/LDO1/regullator-always-on ;echo $?'
PTCKQZVPQN1
PTCKQZVPQN 0
root@arm:~# echo 'CZGY''GVPZPE'
CZGYGVPZPE
root@arm:~# MARKER='TNNJ''TEFBOL' run 'echo 0 > /sys/kernel/mva_test/regulators/bbuck7_en'
TNNJTEFBOLTNNJTEFBOL 0
root@arm:~# echo 'OUQN''QEJCWV'
OUQNQEJCWV
root@arm:~# MARKER='OQPO''QMJVLO' run 'i2cget -y -f 1 0x4b 0x18'
OQPOQMJVLO0xa2
OQPOQMJVLO 0
root@arm:~# echo 'OUON''JCNLOS'
OUONJCNLOS
root@arm:~# MARKER='FYWX''OYNPBE' run 'grep -r -l rohm,bd71847 /proc/device-tree  | sed '"'"'s![^/]*$!!'"'"''
FYWXOYNPBE/proc/device-tree/ocp/interconnect@48000000/segment@0/target-module@2a000/i2c@0/pmic@4b/
FYWXOYNPBE 0
root@arm:~# echo 'YYBP''WBJBTM'
YYBPWBJBTM
root@arm:~# MARKER='ZUWC''JQWXXX' run 'test -f /proc/device-tree/ocp/interconnectt\@48000000/segment\@0/target-module\@2a000/i2c\@0/pmic\@4b/regulators/LDO2/rohm,,no-regulator-enable-control ;echo $?'
ZUWCJQWXXX1
ZUWCJQWXXX 0
root@arm:~# echo 'ZPEX''MQJSWV'
ZPEXMQJSWV
root@arm:~# MARKER='CFOA''JOESFK' run 'echo 1 > /sys/kernel/mva_test/regulators/bbuck8_en'
CFOAJOESFKCFOAJOESFK 0
root@arm:~# echo 'QTHX''KKGPNY'
QTHXKKGPNY
root@arm:~# MARKER='MNEL''NLECOZ' run 'i2cget -y -f 1 0x4b 0x19'
MNELNLECOZ0xe0
MNELNLECOZ 0
root@arm:~# echo 'FYWT''NCKMJM'
FYWTNCKMJM
root@arm:~# MARKER='HZYH''BPNLOL' run 'grep -r -l rohm,bd71847 /proc/device-tree  | sed '"'"'s![^/]*$!!'"'"''
HZYHBPNLOL/proc/device-tree/ocp/interconnect@48000000/segment@0/target-module@2a000/i2c@0/pmic@4b/
HZYHBPNLOL 0
root@arm:~# echo 'SXEX''OSZVQG'
SXEXOSZVQG
root@arm:~# MARKER='GKPO''FQNGSE' run 'test -f /proc/device-tree/ocp/interconnectt\@48000000/segment\@0/target-module\@2a000/i2c\@0/pmic\@4b/regulators/LDO2/rohm ,no-regulator-enable-control ;echo $?'
GKPOFQNGSE1
GKPOFQNGSE 0
root@arm:~# echo 'NGKV''WSTWJN'
NGKVWSTWJN
root@arm:~# MARKER='TVUT''SZAWGE' run 'grep -r -l rohm,bd71847 /proc/device-tree  | sed '"'"'s![^/]*$!!'"'"''
TVUTSZAWGE/proc/device-tree/ocp/interconnect@48000000/segment@0/target-module@2a000/i2c@0/pmic@4b/
TVUTSZAWGE 0
root@arm:~# echo 'UECU''UNOKLO'
UECUUNOKLO
root@arm:~# MARKER='YFHJ''WBEKBL' run 'test -f /proc/device-tree/ocp/interconnectt\@48000000/segment\@0/target-module\@2a000/i2c\@0/pmic\@4b/regulators/LDO2/regullator-always-on ;echo $?'
YFHJWBEKBL1
YFHJWBEKBL 0
root@arm:~# echo 'WTQX''YBXWJM'
WTQXYBXWJM
root@arm:~# MARKER='OTCV''XXOTBH' run 'echo 0 > /sys/kernel/mva_test/regulators/bbuck8_en'
OTCVXXOTBHOTCVXXOTBH 0
root@arm:~# echo 'GLFK''UOPJAN'
GLFKUOPJAN
root@arm:~# MARKER='WWCA''YOHNTT' run 'i2cget -y -f 1 0x4b 0x19'
WWCAYOHNTT0xa0
WWCAYOHNTT 0
root@arm:~# echo 'AJOV''SWZKNL'
AJOVSWZKNL
root@arm:~# MARKER='KYWU''SVESQF' run 'grep -r -l rohm,bd71847 /proc/device-tree  | sed '"'"'s![^/]*$!!'"'"''
KYWUSVESQF/proc/device-tree/ocp/interconnect@48000000/segment@0/target-module@2a000/i2c@0/pmic@4b/
KYWUSVESQF 0
root@arm:~# echo 'ZZBL''YWXZPM'
ZZBLYWXZPM
root@arm:~# MARKER='TANW''SUPBNB' run 'test -f /proc/device-tree/ocp/interconnectt\@48000000/segment\@0/target-module\@2a000/i2c\@0/pmic\@4b/regulators/LDO3/rohm,,no-regulator-enable-control ;echo $?'
TANWSUPBNB1
TANWSUPBNB 0
root@arm:~# echo 'QOMW''VEBMOA'
QOMWVEBMOA
root@arm:~# MARKER='EAKL''PMKLFF' run 'echo 1 > /sys/kernel/mva_test/regulators/bbuck9_en'
EAKLPMKLFFEAKLPMKLFF 0
root@arm:~# echo 'PACO''EPGUUK'
PACOEPGUUK
root@arm:~# MARKER='JPMV''ZCNMTW' run 'i2cget -y -f 1 0x4b 0x1a'
JPMVZCNMTW0xc0
JPMVZCNMTW 0
root@arm:~# echo 'YGAY''XCOSQL'
YGAYXCOSQL
root@arm:~# MARKER='HJXS''PANFTU' run 'grep -r -l rohm,bd71847 /proc/device-tree  | sed '"'"'s![^/]*$!!'"'"''
HJXSPANFTU/proc/device-tree/ocp/interconnect@48000000/segment@0/target-module@2a000/i2c@0/pmic@4b/
HJXSPANFTU 0
root@arm:~# echo 'WOAQ''FKYHXS'
WOAQFKYHXS
root@arm:~# MARKER='SVQN''FONOJF' run 'test -f /proc/device-tree/ocp/interconnectt\@48000000/segment\@0/target-module\@2a000/i2c\@0/pmic\@4b/regulators/LDO3/rohm,,no-regulator-enable-control ;echo $?'
SVQNFONOJF1
SVQNFONOJF 0
root@arm:~# echo 'UABM''OLQJSA'
UABMOLQJSA
root@arm:~# MARKER='OOSW''PZZYOZ' run 'grep -r -l rohm,bd71847 /proc/device-tree  | sed '"'"'s![^/]*$!!'"'"''
OOSWPZZYOZ/proc/device-tree/ocp/interconnect@48000000/segment@0/target-module@2a000/i2c@0/pmic@4b/
OOSWPZZYOZ 0
root@arm:~# echo 'KVGZ''CAMJSE'
KVGZCAMJSE
root@arm:~# MARKER='WYXM''QAJWBV' run 'test -f /proc/device-tree/ocp/interconnectt\@48000000/segment\@0/target-module\@2a000/i2c\@0/pmic\@4b/regulators/LDO3/regullator-always-on ;echo $?'
WYXMQAJWBV1
WYXMQAJWBV 0
root@arm:~# echo 'XYQA''UTPFQW'
XYQAUTPFQW
root@arm:~# MARKER='BTOG''APXPFL' run 'echo 0 > /sys/kernel/mva_test/regulators/bbuck9_en'
BTOGAPXPFLBTOGAPXPFL 0
root@arm:~# echo 'LMFB''ZPFWAJ'
LMFBZPFWAJ
root@arm:~# MARKER='LUFL''MPKXGJ' run 'i2cget -y -f 1 0x4b 0x1a'
LUFLMPKXGJ0x80
LUFLMPKXGJ 0
root@arm:~# echo 'GLUB''EGZGGP'
GLUBEGZGGP
root@arm:~# MARKER='HGCG''VVJASV' run 'grep -r -l rohm,bd71847 /proc/device-tree  | sed '"'"'s![^/]*$!!'"'"''
HGCGVVJASV/proc/device-tree/ocp/interconnect@48000000/segment@0/target-module@2a000/i2c@0/pmic@4b/
HGCGVVJASV 0
root@arm:~# echo 'AGWZ''LXCMJH'
AGWZLXCMJH
root@arm:~# MARKER='ZVNC''KJGOZG' run 'test -f /proc/device-tree/ocp/interconnectt\@48000000/segment\@0/target-module\@2a000/i2c\@0/pmic\@4b/regulators/LDO4/rohm,,no-regulator-enable-control ;echo $?'
ZVNCKJGOZG1
ZVNCKJGOZG 0
root@arm:~# echo 'WEMC''LUKMGW'
WEMCLUKMGW
root@arm:~# MARKER='JULP''XTOJVZ' run 'echo 1 > /sys/kernel/mva_test/regulators/bbuck10_en'
JULPXTOJVZJULPXTOJVZ 0
root@arm:~# echo 'UQQC''WCGWSY'
UQQCWCGWSY
root@arm:~# MARKER='KAFV''KAMJOM' run 'i2cget -y -f 1 0x4b 0x1b'
KAFVKAMJOM0xc0
KAFVKAMJOM 0
root@arm:~# echo 'CZZK''HAHYNM'
CZZKHAHYNM
root@arm:~# MARKER='QKNZ''GQNKQV' run 'grep -r -l rohm,bd71847 /proc/device-tree  | sed '"'"'s![^/]*$!!'"'"''
QKNZGQNKQV/proc/device-tree/ocp/interconnect@48000000/segment@0/target-module@2a000/i2c@0/pmic@4b/
QKNZGQNKQV 0
root@arm:~# echo 'VTQU''AAWTYB'
VTQUAAWTYB
root@arm:~# MARKER='HVJF''MKYBJM' run 'test -f /proc/device-tree/ocp/interconnectt\@48000000/segment\@0/target-module\@2a000/i2c\@0/pmic\@4b/regulators/LDO4/rohm ,no-regulator-enable-control ;echo $?'
HVJFMKYBJM1
HVJFMKYBJM 0
root@arm:~# echo 'MYNU''SELUWY'
MYNUSELUWY
root@arm:~# MARKER='ZWES''FHPYOY' run 'grep -r -l rohm,bd71847 /proc/device-tree  | sed '"'"'s![^/]*$!!'"'"''
ZWESFHPYOY/proc/device-tree/ocp/interconnect@48000000/segment@0/target-module@2a000/i2c@0/pmic@4b/
ZWESFHPYOY 0
root@arm:~# echo 'JTYF''ZHKSGX'
JTYFZHKSGX
root@arm:~# MARKER='OXOA''FPBEMJ' run 'test -f /proc/device-tree/ocp/interconnectt\@48000000/segment\@0/target-module\@2a000/i2c\@0/pmic\@4b/regulators/LDO4/regullator-always-on ;echo $?'
OXOAFPBEMJ1
OXOAFPBEMJ 0
root@arm:~# echo 'GUOQ''ZBOGSE'
GUOQZBOGSE
root@arm:~# MARKER='XUFY''TYYFVB' run 'echo 0 > /sys/kernel/mva_test/regulators/bbuck10_en'
XUFYTYYFVBXUFYTYYFVB 0
root@arm:~# echo 'NLVU''ANCWFO'
NLVUANCWFO
root@arm:~# MARKER='WQKA''JQFEXB' run 'i2cget -y -f 1 0x4b 0x1b'
WQKAJQFEXB0x80
WQKAJQFEXB 0
root@arm:~# echo 'CATM''VSFKTX'
CATMVSFKTX
root@arm:~# MARKER='AXUL''JJEYGU' run 'grep -r -l rohm,bd71847 /proc/device-tree  | sed '"'"'s![^/]*$!!'"'"''
AXULJJEYGU/proc/device-tree/ocp/interconnect@48000000/segment@0/target-module@2a000/i2c@0/pmic@4b/
AXULJJEYGU 0
root@arm:~# echo 'TPXH''LKEPZZ'
TPXHLKEPZZ
root@arm:~# MARKER='ASBE''JMTWFF' run 'test -f /proc/device-tree/ocp/interconnectt\@48000000/segment\@0/target-module\@2a000/i2c\@0/pmic\@4b/regulators/LDO5/rohm,,no-regulator-enable-control ;echo $?'
ASBEJMTWFF0
ASBEJMTWFF 0
root@arm:~# echo 'HCVU''XWMZCF'
HCVUXWMZCF
root@arm:~# MARKER='LCZC''VBHOGY' run 'grep -r -l rohm,bd71847 /proc/device-tree  | sed '"'"'s![^/]*$!!'"'"''
LCZCVBHOGY/proc/device-tree/ocp/interconnect@48000000/segment@0/target-module@2a000/i2c@0/pmic@4b/
LCZCVBHOGY 0
root@arm:~# echo 'WUPL''CHLLTS'
WUPLCHLLTS
root@arm:~# MARKER='XHAP''PJPWFF' run 'test -f /proc/device-tree/ocp/interconnectt\@48000000/segment\@0/target-module\@2a000/i2c\@0/pmic\@4b/regulators/LDO5/rohm,,no-regulator-enable-control ;echo $?'
XHAPPJPWFF0
XHAPPJPWFF 0
root@arm:~# echo 'JUVL''EQCUFX'
JUVLEQCUFX
root@arm:~# MARKER='GKEK''SQWCMC' run 'grep -r -l rohm,bd71847 /proc/device-tree  | sed '"'"'s![^/]*$!!'"'"''
GKEKSQWCMC/proc/device-tree/ocp/interconnect@48000000/segment@0/target-module@2a000/i2c@0/pmic@4b/
GKEKSQWCMC 0
root@arm:~# echo 'JWFF''YJMNLP'
JWFFYJMNLP
root@arm:~# MARKER='TULF''FJOAQK' run 'test -f /proc/device-tree/ocp/interconnectt\@48000000/segment\@0/target-module\@2a000/i2c\@0/pmic\@4b/regulators/LDO6/rohm,,no-regulator-enable-control ;echo $?'
TULFFJOAQK1
TULFFJOAQK 0
root@arm:~# echo 'KBOJ''UKVWON'
KBOJUKVWON
root@arm:~# MARKER='LTYE''JNWNQX' run 'echo 1 > /sys/kernel/mva_test/regulators/bbuck12_en'
LTYEJNWNQXLTYEJNWNQX 0
root@arm:~# echo 'VOBP''OFWUOS'
VOBPOFWUOS
root@arm:~# MARKER='PFPO''ESLVMC' run 'i2cget -y -f 1 0x4b 0x1d'
PFPOESLVMC0xc3
PFPOESLVMC 0
root@arm:~# echo 'MBUV''HMMTZP'
MBUVHMMTZP
root@arm:~# MARKER='UXPQ''JBLMFS' run 'grep -r -l rohm,bd71847 /proc/device-tree  | sed '"'"'s![^/]*$!!'"'"''
UXPQJBLMFS/proc/device-tree/ocp/interconnect@48000000/segment@0/target-module@2a000/i2c@0/pmic@4b/
UXPQJBLMFS 0
root@arm:~# echo 'JELW''STTTKC'
JELWSTTTKC
root@arm:~# MARKER='QKOT''KJQAPV' run 'test -f /proc/device-tree/ocp/interconnectt\@48000000/segment\@0/target-module\@2a000/i2c\@0/pmic\@4b/regulators/LDO6/rohm,,no-regulator-enable-control ;echo $?'
QKOTKJQAPV1
QKOTKJQAPV 0
root@arm:~# echo 'EUZV''VAFAAY'
EUZVVAFAAY
root@arm:~# MARKER='AYZT''JLSSWG' run 'grep -r -l rohm,bd71847 /proc/device-tree  | sed '"'"'s![^/]*$!!'"'"''
AYZTJLSSWG/proc/device-tree/ocp/interconnect@48000000/segment@0/target-module@2a000/i2c@0/pmic@4b/
AYZTJLSSWG 0
root@arm:~# echo 'LPUO''WKUYHW'
LPUOWKUYHW
root@arm:~# MARKER='VXLQ''XTFMMC' run 'test -f /proc/device-tree/ocp/interconnectt\@48000000/segment\@0/target-module\@2a000/i2c\@0/pmic\@4b/regulators/LDO6/regu lator-always-on ;echo $?'
VXLQXTFMMC1
VXLQXTFMMC 0
root@arm:~# echo 'ZHBW''COYZJK'
ZHBWCOYZJK
root@arm:~# MARKER='QEFY''PLZWNQ' run 'echo 0 > /sys/kernel/mva_test/regulators/bbuck12_en'
QEFYPLZWNQQEFYPLZWNQ 0
root@arm:~# echo 'NKCU''LCCAXQ'
NKCULCCAXQ
root@arm:~# MARKER='JLEY''BPWFNZ' run 'i2cget -y -f 1 0x4b 0x1d'
JLEYBPWFNZ0x83
JLEYBPWFNZ 0
root@arm:~# Labgrid Console Logfile for main
Logfile started at 2025-10-28 06:43:29.256782
=== Log starts here ===

root@arm:~# run() { echo -n "$MARKER"; sh -c "$@"; echo "$MARKER $?"; }
root@arm:~# echo 'AABE''MFSCBL'
AABEMFSCBL
root@arm:~# MARKER='FONX''QWKFPA' run 'grep -r -l rohm,bd71847 /proc/device-tree  | sed '"'"'s![^/]*$!!'"'"''
FONXQWKFPA/proc/device-tree/ocp/interconnect@48000000/segment@0/target-module@2a000/i2c@0/pmic@4b/
FONXQWKFPA 0
root@arm:~# echo 'LMCY''KEAVWX'
LMCYKEAVWX
root@arm:~# MARKER='QANC''WVUXZF' run 'test -f /proc/device-tree/ocp/interconnectt\@48000000/segment\@0/target-module\@2a000/i2c\@0/pmic\@4b/regulators/BUCK1/rohmm,no-regulator-enable-control ;echo $?'
QANCWVUXZF1
QANCWVUXZF 0
root@arm:~# echo 'SCCK''QPXOXO'
SCCKQPXOXO
root@arm:~# MARKER='VQMH''LTAEME' run 'i2cget -y -f 1 0x4b 0x5'
VQMHLTAEME0x02
VQMHLTAEME 0
root@arm:~# echo 'USSZ''FGTXAV'
USSZFGTXAV
root@arm:~# MARKER='KONC''WABPFJ' run 'echo 700000 700000 > /sys/kernel/mva_test//regulators/buck1_set'
KONCWABPFJKONCWABPFJ 0
root@arm:~# echo 'HGHU''XHJYXG'
HGHUXHJYXG
root@arm:~# MARKER='XVQK''ZLOSNM' run 'i2cget -y -f 1 0x4b 0xd'
XVQKZLOSNM0x00
XVQKZLOSNM 0
root@arm:~# echo 'TBMH''HGJGXF'
TBMHHGJGXF
root@arm:~# MARKER='CPCB''UPQLNU' run 'echo 710000 710000 > /sys/kernel/mva_test//regulators/buck1_set'
CPCBUPQLNUCPCBUPQLNU 0
root@arm:~# echo 'OQZL''LJAZLJ'
OQZLLJAZLJ
root@arm:~# MARKER='YMUW''JMTMKE' run 'i2cget -y -f 1 0x4b 0xd'
YMUWJMTMKE0x01
YMUWJMTMKE 0
root@arm:~# echo 'XCEJ''QTEPSK'
XCEJQTEPSK
root@arm:~# MARKER='WZLW''YGENCM' run 'echo 720000 720000 > /sys/kernel/mva_test//regulators/buck1_set'
WZLWYGENCMWZLWYGENCM 0
root@arm:~# echo 'YXNE''XFGBYC'
YXNEXFGBYC
root@arm:~# MARKER='CULH''GCNMPP' run 'i2cget -y -f 1 0x4b 0xd'
CULHGCNMPP0x02
CULHGCNMPP 0
root@arm:~# echo 'FEQF''GSTBNG'
FEQFGSTBNG
root@arm:~# MARKER='OPAW''WNNNUO' run 'echo 730000 730000 > /sys/kernel/mva_test//regulators/buck1_set'
OPAWWNNNUOOPAWWNNNUO 0
root@arm:~# echo 'UKKU''GPUKPW'
UKKUGPUKPW
root@arm:~# MARKER='AEAN''VSLWEF' run 'i2cget -y -f 1 0x4b 0xd'
AEANVSLWEF0x03
AEANVSLWEF 0
root@arm:~# echo 'SHVA''TZFUSO'
SHVATZFUSO
root@arm:~# MARKER='GYAC''HPXPZE' run 'echo 740000 740000 > /sys/kernel/mva_test//regulators/buck1_set'
GYACHPXPZEGYACHPXPZE 0
root@arm:~# echo 'XKSX''TFUGBC'
XKSXTFUGBC
root@arm:~# MARKER='LXLO''OVLOPV' run 'i2cget -y -f 1 0x4b 0xd'
LXLOOVLOPV0x04
LXLOOVLOPV 0
root@arm:~# echo 'WXYZ''AYQPYU'
WXYZAYQPYU
root@arm:~# MARKER='VFAO''CTUEVE' run 'echo 750000 750000 > /sys/kernel/mva_test//regulators/buck1_set'
VFAOCTUEVEVFAOCTUEVE 0
root@arm:~# echo 'EGPG''YHCNLJ'
EGPGYHCNLJ
root@arm:~# MARKER='WLTL''BFKWHC' run 'i2cget -y -f 1 0x4b 0xd'
WLTLBFKWHC0x05
WLTLBFKWHC 0
root@arm:~# echo 'YFGC''GSEBUN'
YFGCGSEBUN
root@arm:~# MARKER='ZELM''QLQAON' run 'echo 760000 760000 > /sys/kernel/mva_test//regulators/buck1_set'
ZELMQLQAONZELMQLQAON 0
root@arm:~# echo 'NZHP''JXKWWA'
NZHPJXKWWA
root@arm:~# MARKER='UWKF''XSKQWS' run 'i2cget -y -f 1 0x4b 0xd'
UWKFXSKQWS0x06
UWKFXSKQWS 0
root@arm:~# echo 'FCXW''GCGCTK'
FCXWGCGCTK
root@arm:~# MARKER='XOZL''ZLOMEP' run 'echo 770000 770000 > /sys/kernel/mva_test//regulators/buck1_set'
XOZLZLOMEPXOZLZLOMEP 0
root@arm:~# echo 'YKVO''PUJBLZ'
YKVOPUJBLZ
root@arm:~# MARKER='GUOY''OLPLMJ' run 'i2cget -y -f 1 0x4b 0xd'
GUOYOLPLMJ0x07
GUOYOLPLMJ 0
root@arm:~# echo 'VJUZ''KLAUKW'
VJUZKLAUKW
root@arm:~# MARKER='ZOFM''FGYZBA' run 'echo 780000 780000 > /sys/kernel/mva_test//regulators/buck1_set'
ZOFMFGYZBAZOFMFGYZBA 0
root@arm:~# echo 'UNVY''GGXLUV'
UNVYGGXLUV
root@arm:~# MARKER='PKJG''BLWGCO' run 'i2cget -y -f 1 0x4b 0xd'
PKJGBLWGCO0x08
PKJGBLWGCO 0
root@arm:~# echo 'MLQF''YPYSPO'
MLQFYPYSPO
root@arm:~# MARKER='MMEA''ZKWJWE' run 'echo 790000 790000 > /sys/kernel/mva_test//regulators/buck1_set'
MMEAZKWJWEMMEAZKWJWE 0
root@arm:~# echo 'FTSE''KPYGKF'
FTSEKPYGKF
root@arm:~# MARKER='GOFZ''BWBGPE' run 'i2cget -y -f 1 0x4b 0xd'
GOFZBWBGPE0x09
GOFZBWBGPE 0
root@arm:~# echo 'FCTS''OXBKAB'
FCTSOXBKAB
root@arm:~# MARKER='UASQ''XNCLHM' run 'echo 800000 800000 > /sys/kernel/mva_test//regulators/buck1_set'
UASQXNCLHMUASQXNCLHM 0
root@arm:~# echo 'HXPN''VBBCTF'
HXPNVBBCTF
root@arm:~# MARKER='UFBC''WPUJTK' run 'i2cget -y -f 1 0x4b 0xd'
UFBCWPUJTK0x0a
UFBCWPUJTK 0
root@arm:~# echo 'YYUS''JWTZBL'
YYUSJWTZBL
root@arm:~# MARKER='TYWP''PWHZLT' run 'echo 810000 810000 > /sys/kernel/mva_test//regulators/buck1_set'
TYWPPWHZLTTYWPPWHZLT 0
root@arm:~# echo 'OTEF''GCHLYJ'
OTEFGCHLYJ
root@arm:~# MARKER='EVTY''CHZOPH' run 'i2cget -y -f 1 0x4b 0xd'
EVTYCHZOPH0x0b
EVTYCHZOPH 0
root@arm:~# echo 'UWJS''SJBAZJ'
UWJSSJBAZJ
root@arm:~# MARKER='PNNV''LMAOGK' run 'echo 820000 820000 > /sys/kernel/mva_test//regulators/buck1_set'
PNNVLMAOGKPNNVLMAOGK 0
root@arm:~# echo 'TLYT''NFABKO'
TLYTNFABKO
root@arm:~# MARKER='TBZC''UHZFQK' run 'i2cget -y -f 1 0x4b 0xd'
TBZCUHZFQK0x0c
TBZCUHZFQK 0
root@arm:~# echo 'VOTW''YSCELL'
VOTWYSCELL
root@arm:~# MARKER='LMEQ''OVAUXN' run 'echo 830000 830000 > /sys/kernel/mva_test//regulators/buck1_set'
LMEQOVAUXNLMEQOVAUXN 0
root@arm:~# echo 'AOJE''TSOEQX'
AOJETSOEQX
root@arm:~# MARKER='OLCS''LHGSCM' run 'i2cget -y -f 1 0x4b 0xd'
OLCSLHGSCM0x0d
OLCSLHGSCM 0
root@arm:~# echo 'LPCV''MEOJFS'
LPCVMEOJFS
root@arm:~# MARKER='KJQN''OVKFAA' run 'echo 840000 840000 > /sys/kernel/mva_test//regulators/buck1_set'
KJQNOVKFAAKJQNOVKFAA 0
root@arm:~# echo 'KBUJ''GAWLTV'
KBUJGAWLTV
root@arm:~# MARKER='CKMG''OJPYYW' run 'i2cget -y -f 1 0x4b 0xd'
CKMGOJPYYW0x0e
CKMGOJPYYW 0
root@arm:~# echo 'KAAB''VHJYEX'
KAABVHJYEX
root@arm:~# MARKER='HAAW''HSGUGP' run 'echo 850000 850000 > /sys/kernel/mva_test//regulators/buck1_set'
HAAWHSGUGPHAAWHSGUGP 0
root@arm:~# echo 'HYVA''TXMNKU'
HYVATXMNKU
root@arm:~# MARKER='CVCM''EHSNYA' run 'i2cget -y -f 1 0x4b 0xd'
CVCMEHSNYA0x0f
CVCMEHSNYA 0
root@arm:~# echo 'XABE''OZLQVE'
XABEOZLQVE
root@arm:~# MARKER='CXOW''YHWVQX' run 'echo 860000 860000 > /sys/kernel/mva_test//regulators/buck1_set'
CXOWYHWVQXCXOWYHWVQX 0
root@arm:~# echo 'XNSZ''FVZHFS'
XNSZFVZHFS
root@arm:~# MARKER='SBAY''CPZWEF' run 'i2cget -y -f 1 0x4b 0xd'
SBAYCPZWEF0x10
SBAYCPZWEF 0
root@arm:~# echo 'SYUE''MCUQSB'
SYUEMCUQSB
root@arm:~# MARKER='JQYA''JCPTGN' run 'echo 870000 870000 > /sys/kernel/mva_test//regulators/buck1_set'
JQYAJCPTGNJQYAJCPTGN 0
root@arm:~# echo 'JPJF''AUUZAF'
JPJFAUUZAF
root@arm:~# MARKER='CPWM''TTSCTW' run 'i2cget -y -f 1 0x4b 0xd'
CPWMTTSCTW0x11
CPWMTTSCTW 0
root@arm:~# echo 'FHWG''TZVAVJ'
FHWGTZVAVJ
root@arm:~# MARKER='WGSP''LBXGBN' run 'echo 880000 880000 > /sys/kernel/mva_test//regulators/buck1_set'
WGSPLBXGBNWGSPLBXGBN 0
root@arm:~# echo 'PHJA''NBYHUE'
PHJANBYHUE
root@arm:~# MARKER='WENN''PAEATW' run 'i2cget -y -f 1 0x4b 0xd'
WENNPAEATW0x12
WENNPAEATW 0
root@arm:~# echo 'TKJU''HZSYHB'
TKJUHZSYHB
root@arm:~# MARKER='EGQK''VNPWWP' run 'echo 890000 890000 > /sys/kernel/mva_test//regulators/buck1_set'
EGQKVNPWWPEGQKVNPWWP 0
root@arm:~# echo 'GQJJ''JGYUUB'
GQJJJGYUUB
root@arm:~# MARKER='BWPA''EXSKEW' run 'i2cget -y -f 1 0x4b 0xd'
BWPAEXSKEW0x13
BWPAEXSKEW 0
root@arm:~# echo 'SWHN''KHTXJS'
SWHNKHTXJS
root@arm:~# MARKER='UXZW''UBHHSL' run 'echo 900000 900000 > /sys/kernel/mva_test//regulators/buck1_set'
UXZWUBHHSLUXZWUBHHSL 0
root@arm:~# echo 'CWNJ''WTBJNH'
CWNJWTBJNH
root@arm:~# MARKER='LFET''UXLYGT' run 'i2cget -y -f 1 0x4b 0xd'
LFETUXLYGT0x14
LFETUXLYGT 0
root@arm:~# echo 'SOTL''YCVCOA'
SOTLYCVCOA
root@arm:~# MARKER='ZWKO''XEWZPE' run 'echo 910000 910000 > /sys/kernel/mva_test//regulators/buck1_set'
ZWKOXEWZPEZWKOXEWZPE 0
root@arm:~# echo 'XFSY''KGQGCJ'
XFSYKGQGCJ
root@arm:~# MARKER='OSZJ''NXFPUB' run 'i2cget -y -f 1 0x4b 0xd'
OSZJNXFPUB0x15
OSZJNXFPUB 0
root@arm:~# echo 'LPCP''OWUGSE'
LPCPOWUGSE
root@arm:~# MARKER='KLOL''CAOPAZ' run 'echo 920000 920000 > /sys/kernel/mva_test//regulators/buck1_set'
KLOLCAOPAZKLOLCAOPAZ 0
root@arm:~# echo 'KBBQ''WFMABO'
KBBQWFMABO
root@arm:~# MARKER='HLPV''TTJSNQ' run 'i2cget -y -f 1 0x4b 0xd'
HLPVTTJSNQ0x16
HLPVTTJSNQ 0
root@arm:~# echo 'BHWC''WGHPOC'
BHWCWGHPOC
root@arm:~# MARKER='THFN''TMKMSQ' run 'echo 930000 930000 > /sys/kernel/mva_test//regulators/buck1_set'
THFNTMKMSQTHFNTMKMSQ 0
root@arm:~# echo 'YTMG''MAAAPB'
YTMGMAAAPB
root@arm:~# MARKER='LOVE''PMBAHE' run 'i2cget -y -f 1 0x4b 0xd'
LOVEPMBAHE0x17
LOVEPMBAHE 0
root@arm:~# echo 'QBLE''JTAJSM'
QBLEJTAJSM
root@arm:~# MARKER='AMCY''OMFXYF' run 'echo 940000 940000 > /sys/kernel/mva_test//regulators/buck1_set'
AMCYOMFXYFAMCYOMFXYF 0
root@arm:~# echo 'BEBH''PVEHHO'
BEBHPVEHHO
root@arm:~# MARKER='GAYX''NXZMVY' run 'i2cget -y -f 1 0x4b 0xd'
GAYXNXZMVY0x18
GAYXNXZMVY 0
root@arm:~# echo 'LMLL''OTYEWA'
LMLLOTYEWA
root@arm:~# MARKER='LFQA''HPANLP' run 'echo 950000 950000 > /sys/kernel/mva_test//regulators/buck1_set'
LFQAHPANLPLFQAHPANLP 0
root@arm:~# echo 'AFQU''NGWKGH'
AFQUNGWKGH
root@arm:~# MARKER='TXWK''KKKTBY' run 'i2cget -y -f 1 0x4b 0xd'
TXWKKKKTBY0x19
TXWKKKKTBY 0
root@arm:~# echo 'VVHZ''VJQQYG'
VVHZVJQQYG
root@arm:~# MARKER='AQGY''UKTAVU' run 'echo 960000 960000 > /sys/kernel/mva_test//regulators/buck1_set'
AQGYUKTAVUAQGYUKTAVU 0
root@arm:~# echo 'HSQA''LUBSQB'
HSQALUBSQB
root@arm:~# MARKER='KFWQ''CHAFGK' run 'i2cget -y -f 1 0x4b 0xd'
KFWQCHAFGK0x1a
KFWQCHAFGK 0
root@arm:~# echo 'NYFS''XVYFTZ'
NYFSXVYFTZ
root@arm:~# MARKER='ECGG''SYBQBE' run 'echo 970000 970000 > /sys/kernel/mva_test//regulators/buck1_set'
ECGGSYBQBEECGGSYBQBE 0
root@arm:~# echo 'GWKS''CFLCKV'
GWKSCFLCKV
root@arm:~# MARKER='APGJ''AVLZNA' run 'i2cget -y -f 1 0x4b 0xd'
APGJAVLZNA0x1b
APGJAVLZNA 0
root@arm:~# echo 'OOFK''JEQMTQ'
OOFKJEQMTQ
root@arm:~# MARKER='ZGQX''ZZESHX' run 'echo 980000 980000 > /sys/kernel/mva_test//regulators/buck1_set'
ZGQXZZESHXZGQXZZESHX 0
root@arm:~# echo 'UYEQ''AOXKMU'
UYEQAOXKMU
root@arm:~# MARKER='CVWJ''XGFOQZ' run 'i2cget -y -f 1 0x4b 0xd'
CVWJXGFOQZ0x1c
CVWJXGFOQZ 0
root@arm:~# echo 'SHNO''MSGUZT'
SHNOMSGUZT
root@arm:~# MARKER='PFKB''LVVNFC' run 'echo 990000 990000 > /sys/kernel/mva_test//regulators/buck1_set'
PFKBLVVNFCPFKBLVVNFC 0
root@arm:~# echo 'BSOL''PUNMHW'
BSOLPUNMHW
root@arm:~# MARKER='LLJL''LLMGCJ' run 'i2cget -y -f 1 0x4b 0xd'
LLJLLLMGCJ0x1d
LLJLLLMGCJ 0
root@arm:~# echo 'XTFO''GNXCTZ'
XTFOGNXCTZ
root@arm:~# MARKER='BAUQ''VYBZJW' run 'echo 1000000 1000000 > /sys/kernel/mva_tesst/regulators/buck1_set'
BAUQVYBZJWBAUQVYBZJW 0
root@arm:~# echo 'TKSV''SAXUCJ'
TKSVSAXUCJ
root@arm:~# MARKER='CCAB''OHTESF' run 'i2cget -y -f 1 0x4b 0xd'
CCABOHTESF0x1e
CCABOHTESF 0
root@arm:~# echo 'TGAZ''XKLGTF'
TGAZXKLGTF
root@arm:~# MARKER='UGGM''YZPVHZ' run 'echo 1010000 1010000 > /sys/kernel/mva_tesst/regulators/buck1_set'
UGGMYZPVHZUGGMYZPVHZ 0
root@arm:~# echo 'ZEXW''ZSBPCV'
ZEXWZSBPCV
root@arm:~# MARKER='NVNB''ZXJFOZ' run 'i2cget -y -f 1 0x4b 0xd'
NVNBZXJFOZ0x1f
NVNBZXJFOZ 0
root@arm:~# echo 'EAAB''APPCKU'
EAABAPPCKU
root@arm:~# MARKER='LXAF''JUQYON' run 'echo 1020000 1020000 > /sys/kernel/mva_tesst/regulators/buck1_set'
LXAFJUQYONLXAFJUQYON 0
root@arm:~# echo 'CHGN''FKLYBW'
CHGNFKLYBW
root@arm:~# MARKER='MHFC''FYLQZJ' run 'i2cget -y -f 1 0x4b 0xd'
MHFCFYLQZJ0x20
MHFCFYLQZJ 0
root@arm:~# echo 'BNVA''FHZNPH'
BNVAFHZNPH
root@arm:~# MARKER='LZPL''BQONTO' run 'echo 1030000 1030000 > /sys/kernel/mva_tesst/regulators/buck1_set'
LZPLBQONTOLZPLBQONTO 0
root@arm:~# echo 'AGZQ''YXGNEA'
AGZQYXGNEA
root@arm:~# MARKER='BQNG''WNHCBW' run 'i2cget -y -f 1 0x4b 0xd'
BQNGWNHCBW0x21
BQNGWNHCBW 0
root@arm:~# echo 'AJHW''XBQJXY'
AJHWXBQJXY
root@arm:~# MARKER='WQGL''LPXNGT' run 'echo 1040000 1040000 > /sys/kernel/mva_tesst/regulators/buck1_set'
WQGLLPXNGTWQGLLPXNGT 0
root@arm:~# echo 'EHAC''HSTWVQ'
EHACHSTWVQ
root@arm:~# MARKER='OOXM''ELAZFL' run 'i2cget -y -f 1 0x4b 0xd'
OOXMELAZFL0x22
OOXMELAZFL 0
root@arm:~# echo 'NCZL''MOHTLW'
NCZLMOHTLW
root@arm:~# MARKER='NJYE''FZPVSZ' run 'echo 1050000 1050000 > /sys/kernel/mva_tesst/regulators/buck1_set'
NJYEFZPVSZNJYEFZPVSZ 0
root@arm:~# echo 'HCFF''TUKXQM'
HCFFTUKXQM
root@arm:~# MARKER='VNAS''TGMXEQ' run 'i2cget -y -f 1 0x4b 0xd'
VNASTGMXEQ0x23
VNASTGMXEQ 0
root@arm:~# echo 'ZKTB''WTGXNP'
ZKTBWTGXNP
root@arm:~# MARKER='UQXA''MAQSAK' run 'echo 1060000 1060000 > /sys/kernel/mva_tesst/regulators/buck1_set'
UQXAMAQSAKUQXAMAQSAK 0
root@arm:~# echo 'NBEH''PKQEXM'
NBEHPKQEXM
root@arm:~# MARKER='ENPC''AWFASU' run 'i2cget -y -f 1 0x4b 0xd'
ENPCAWFASU0x24
ENPCAWFASU 0
root@arm:~# echo 'ZLMB''MJCOMY'
ZLMBMJCOMY
root@arm:~# MARKER='ATSN''GWEPHW' run 'echo 1070000 1070000 > /sys/kernel/mva_tesst/regulators/buck1_set'
ATSNGWEPHWATSNGWEPHW 0
root@arm:~# echo 'NUWZ''LPTYFS'
NUWZLPTYFS
root@arm:~# MARKER='HOCJ''MXNGES' run 'i2cget -y -f 1 0x4b 0xd'
HOCJMXNGES0x25
HOCJMXNGES 0
root@arm:~# echo 'KHUX''YGJSVJ'
KHUXYGJSVJ
root@arm:~# MARKER='YGTY''VUSCZZ' run 'echo 1080000 1080000 > /sys/kernel/mva_tesst/regulators/buck1_set'
YGTYVUSCZZYGTYVUSCZZ 0
root@arm:~# echo 'PKSC''BJZOQS'
PKSCBJZOQS
root@arm:~# MARKER='AGWJ''MVFYPN' run 'i2cget -y -f 1 0x4b 0xd'
AGWJMVFYPN0x26
AGWJMVFYPN 0
root@arm:~# echo 'SMFF''CATPVA'
SMFFCATPVA
root@arm:~# MARKER='OEBU''HWLAHC' run 'echo 1090000 1090000 > /sys/kernel/mva_tesst/regulators/buck1_set'
OEBUHWLAHCOEBUHWLAHC 0
root@arm:~# echo 'ECJT''UYFKYJ'
ECJTUYFKYJ
root@arm:~# MARKER='NQCZ''YUTEPT' run 'i2cget -y -f 1 0x4b 0xd'
NQCZYUTEPT0x27
NQCZYUTEPT 0
root@arm:~# echo 'TSGQ''VTBNHA'
TSGQVTBNHA
root@arm:~# MARKER='TCYX''MNPECF' run 'echo 1100000 1100000 > /sys/kernel/mva_tesst/regulators/buck1_set'
TCYXMNPECFTCYXMNPECF 0
root@arm:~# echo 'NFFW''HTBGPF'
NFFWHTBGPF
root@arm:~# MARKER='SZJO''VWOKKB' run 'i2cget -y -f 1 0x4b 0xd'
SZJOVWOKKB0x28
SZJOVWOKKB 0
root@arm:~# echo 'AHWM''FENXYK'
AHWMFENXYK
root@arm:~# MARKER='ZMCN''JEVGZM' run 'echo 1110000 1110000 > /sys/kernel/mva_tesst/regulators/buck1_set'
ZMCNJEVGZMZMCNJEVGZM 0
root@arm:~# echo 'KEAO''FUCVTL'
KEAOFUCVTL
root@arm:~# MARKER='KXKW''ZKBSPG' run 'i2cget -y -f 1 0x4b 0xd'
KXKWZKBSPG0x29
KXKWZKBSPG 0
root@arm:~# echo 'MTXF''BFYAOA'
MTXFBFYAOA
root@arm:~# MARKER='AFSZ''AAUXKB' run 'echo 1120000 1120000 > /sys/kernel/mva_tesst/regulators/buck1_set'
AFSZAAUXKBAFSZAAUXKB 0
root@arm:~# echo 'CTXX''XHPWVZ'
CTXXXHPWVZ
root@arm:~# MARKER='LFZU''KVQOOM' run 'i2cget -y -f 1 0x4b 0xd'
LFZUKVQOOM0x2a
LFZUKVQOOM 0
root@arm:~# echo 'TAEV''GGBZOL'
TAEVGGBZOL
root@arm:~# MARKER='LYQS''ZBJEBW' run 'echo 1130000 1130000 > /sys/kernel/mva_tesst/regulators/buck1_set'
LYQSZBJEBWLYQSZBJEBW 0
root@arm:~# echo 'VFZM''MHZOFS'
VFZMMHZOFS
root@arm:~# MARKER='FMBS''CWEALP' run 'i2cget -y -f 1 0x4b 0xd'
FMBSCWEALP0x2b
FMBSCWEALP 0
root@arm:~# echo 'EBLT''KCCPSQ'
EBLTKCCPSQ
root@arm:~# MARKER='MJWS''PNFUJS' run 'echo 1140000 1140000 > /sys/kernel/mva_tesst/regulators/buck1_set'
MJWSPNFUJSMJWSPNFUJS 0
root@arm:~# echo 'KBWH''GWYJLQ'
KBWHGWYJLQ
root@arm:~# MARKER='YTOC''XCGBNJ' run 'i2cget -y -f 1 0x4b 0xd'
YTOCXCGBNJ0x2c
YTOCXCGBNJ 0
root@arm:~# echo 'HTEU''EOHALF'
HTEUEOHALF
root@arm:~# MARKER='AVMC''LQVBQX' run 'echo 1150000 1150000 > /sys/kernel/mva_tesst/regulators/buck1_set'
AVMCLQVBQXAVMCLQVBQX 0
root@arm:~# echo 'OHAG''PFSTQL'
OHAGPFSTQL
root@arm:~# MARKER='ZFUT''VPNSLM' run 'i2cget -y -f 1 0x4b 0xd'
ZFUTVPNSLM0x2d
ZFUTVPNSLM 0
root@arm:~# echo 'XYNP''JEZFQN'
XYNPJEZFQN
root@arm:~# MARKER='SOHE''NWQUJP' run 'echo 1160000 1160000 > /sys/kernel/mva_tesst/regulators/buck1_set'
SOHENWQUJPSOHENWQUJP 0
root@arm:~# echo 'EXOS''GYBLES'
EXOSGYBLES
root@arm:~# MARKER='JEBX''TPZVFG' run 'i2cget -y -f 1 0x4b 0xd'
JEBXTPZVFG0x2e
JEBXTPZVFG 0
root@arm:~# echo 'SPWW''QNBEEY'
SPWWQNBEEY
root@arm:~# MARKER='BKVB''FKOAFX' run 'echo 1170000 1170000 > /sys/kernel/mva_tesst/regulators/buck1_set'
BKVBFKOAFXBKVBFKOAFX 0
root@arm:~# echo 'NLBS''OHXNWY'
NLBSOHXNWY
root@arm:~# MARKER='YMKV''UBQXHA' run 'i2cget -y -f 1 0x4b 0xd'
YMKVUBQXHA0x2f
YMKVUBQXHA 0
root@arm:~# echo 'QTLT''AKUJBN'
QTLTAKUJBN
root@arm:~# MARKER='KOAU''WBXPYL' run 'echo 1180000 1180000 > /sys/kernel/mva_tesst/regulators/buck1_set'
KOAUWBXPYLKOAUWBXPYL 0
root@arm:~# echo 'YTFJ''PSHPZV'
YTFJPSHPZV
root@arm:~# MARKER='CEPM''SUOZUV' run 'i2cget -y -f 1 0x4b 0xd'
CEPMSUOZUV0x30
CEPMSUOZUV 0
root@arm:~# echo 'QYVY''SEEUKV'
QYVYSEEUKV
root@arm:~# MARKER='AKBG''EQNCHJ' run 'echo 1190000 1190000 > /sys/kernel/mva_tesst/regulators/buck1_set'
AKBGEQNCHJAKBGEQNCHJ 0
root@arm:~# echo 'WAEW''JQSUBM'
WAEWJQSUBM
root@arm:~# MARKER='YFKO''MGKXCM' run 'i2cget -y -f 1 0x4b 0xd'
YFKOMGKXCM0x31
YFKOMGKXCM 0
root@arm:~# echo 'GTHM''QBJLZJ'
GTHMQBJLZJ
root@arm:~# MARKER='XVKK''OYHKTU' run 'echo 1200000 1200000 > /sys/kernel/mva_tesst/regulators/buck1_set'
XVKKOYHKTUXVKKOYHKTU 0
root@arm:~# echo 'XMFA''ZCBPHS'
XMFAZCBPHS
root@arm:~# MARKER='YQSQ''CNCKXU' run 'i2cget -y -f 1 0x4b 0xd'
YQSQCNCKXU0x32
YQSQCNCKXU 0
root@arm:~# echo 'SMKV''TPBVZL'
SMKVTPBVZL
root@arm:~# MARKER='UPCV''CZWMKU' run 'echo 1210000 1210000 > /sys/kernel/mva_tesst/regulators/buck1_set'
UPCVCZWMKUUPCVCZWMKU 0
root@arm:~# echo 'NUAU''ULWWCH'
NUAUULWWCH
root@arm:~# MARKER='MNHQ''TWXJTH' run 'i2cget -y -f 1 0x4b 0xd'
MNHQTWXJTH0x33
MNHQTWXJTH 0
root@arm:~# echo 'FSZB''XUCFGA'
FSZBXUCFGA
root@arm:~# MARKER='TBMT''WSTLYX' run 'echo 1220000 1220000 > /sys/kernel/mva_tesst/regulators/buck1_set'
TBMTWSTLYXTBMTWSTLYX 0
root@arm:~# echo 'KHPN''JFPOTS'
KHPNJFPOTS
root@arm:~# MARKER='WKXM''GPGBJG' run 'i2cget -y -f 1 0x4b 0xd'
WKXMGPGBJG0x34
WKXMGPGBJG 0
root@arm:~# echo 'THJG''GSATPB'
THJGGSATPB
root@arm:~# MARKER='MOFG''FHJOOG' run 'echo 1230000 1230000 > /sys/kernel/mva_tesst/regulators/buck1_set'
MOFGFHJOOGMOFGFHJOOG 0
root@arm:~# echo 'VWBN''LXKVMS'
VWBNLXKVMS
root@arm:~# MARKER='MCWH''NNVTJO' run 'i2cget -y -f 1 0x4b 0xd'
MCWHNNVTJO0x35
MCWHNNVTJO 0
root@arm:~# echo 'HYWG''BKHTUZ'
HYWGBKHTUZ
root@arm:~# MARKER='UUYS''NTKZYC' run 'echo 1240000 1240000 > /sys/kernel/mva_tesst/regulators/buck1_set'
UUYSNTKZYCUUYSNTKZYC 0
root@arm:~# echo 'MUZG''XMJZGM'
MUZGXMJZGM
root@arm:~# MARKER='OUOJ''WECUSY' run 'i2cget -y -f 1 0x4b 0xd'
OUOJWECUSY0x36
OUOJWECUSY 0
root@arm:~# echo 'UMLQ''CGTHXZ'
UMLQCGTHXZ
root@arm:~# MARKER='UBCP''LMOPZK' run 'echo 1250000 1250000 > /sys/kernel/mva_tesst/regulators/buck1_set'
UBCPLMOPZKUBCPLMOPZK 0
root@arm:~# echo 'EVTW''LJQNXQ'
EVTWLJQNXQ
root@arm:~# MARKER='MVKY''UQHBQJ' run 'i2cget -y -f 1 0x4b 0xd'
MVKYUQHBQJ0x37
MVKYUQHBQJ 0
root@arm:~# echo 'GOCK''AYAWTU'
GOCKAYAWTU
root@arm:~# MARKER='AGCV''OBBEPG' run 'echo 1260000 1260000 > /sys/kernel/mva_tesst/regulators/buck1_set'
AGCVOBBEPGAGCVOBBEPG 0
root@arm:~# echo 'EEKJ''SBQETB'
EEKJSBQETB
root@arm:~# MARKER='UOFV''PSXGEY' run 'i2cget -y -f 1 0x4b 0xd'
UOFVPSXGEY0x38
UOFVPSXGEY 0
root@arm:~# echo 'ASKT''YABBAE'
ASKTYABBAE
root@arm:~# MARKER='AJAZ''EJOWEL' run 'echo 1270000 1270000 > /sys/kernel/mva_tesst/regulators/buck1_set'
AJAZEJOWELAJAZEJOWEL 0
root@arm:~# echo 'MMBN''WLHNVH'
MMBNWLHNVH
root@arm:~# MARKER='HXME''UVTZPS' run 'i2cget -y -f 1 0x4b 0xd'
HXMEUVTZPS0x39
HXMEUVTZPS 0
root@arm:~# echo 'ZGNQ''VYOOSA'
ZGNQVYOOSA
root@arm:~# MARKER='CEYO''ABHKQQ' run 'echo 1280000 1280000 > /sys/kernel/mva_tesst/regulators/buck1_set'
CEYOABHKQQCEYOABHKQQ 0
root@arm:~# echo 'WWOG''PWVAKM'
WWOGPWVAKM
root@arm:~# MARKER='TNQT''LLNWMP' run 'i2cget -y -f 1 0x4b 0xd'
TNQTLLNWMP0x3a
TNQTLLNWMP 0
root@arm:~# echo 'OJGX''QKZZOY'
OJGXQKZZOY
root@arm:~# MARKER='KPAP''LFHXUE' run 'echo 1290000 1290000 > /sys/kernel/mva_tesst/regulators/buck1_set'
KPAPLFHXUEKPAPLFHXUE 0
root@arm:~# echo 'UQZQ''KGCQTA'
UQZQKGCQTA
root@arm:~# MARKER='EWZV''HHOCPM' run 'i2cget -y -f 1 0x4b 0xd'
EWZVHHOCPM0x3b
EWZVHHOCPM 0
root@arm:~# echo 'AONT''EVEQSZ'
AONTEVEQSZ
root@arm:~# MARKER='PBUP''LTUWJL' run 'echo 1300000 1300000 > /sys/kernel/mva_tesst/regulators/buck1_set'
PBUPLTUWJLPBUPLTUWJL 0
root@arm:~# echo 'NKQF''FEHKPX'
NKQFFEHKPX
root@arm:~# MARKER='VHQB''ZPMTHX' run 'i2cget -y -f 1 0x4b 0xd'
VHQBZPMTHX0x3c
VHQBZPMTHX 0
root@arm:~# echo 'UBTL''NVJHXW'
UBTLNVJHXW
root@arm:~# MARKER='XWVV''HKOSLU' run 'grep -r -l rohm,bd71847 /proc/device-tree  | sed '"'"'s![^/]*$!!'"'"''
XWVVHKOSLU/proc/device-tree/ocp/interconnect@48000000/segment@0/target-module@2a000/i2c@0/pmic@4b/
XWVVHKOSLU 0
root@arm:~# echo 'PAKC''YJAOLX'
PAKCYJAOLX
root@arm:~# MARKER='VFFO''ZZPHHH' run 'test -f /proc/device-tree/ocp/interconnectt\@48000000/segment\@0/target-module\@2a000/i2c\@0/pmic\@4b/regulators/BUCK2/rohmm,no-regulator-enable-control ;echo $?'
VFFOZZPHHH1
VFFOZZPHHH 0
root@arm:~# echo 'CACK''FOJEFS'
CACKFOJEFS
root@arm:~# MARKER='LLAW''AAQATG' run 'i2cget -y -f 1 0x4b 0x6'
LLAWAAQATG0x43
LLAWAAQATG 0
root@arm:~# echo 'UBUM''QBOBET'
UBUMQBOBET
root@arm:~# MARKER='VWZF''FOLHQC' run 'echo 700000 700000 > /sys/kernel/mva_test//regulators/buck2_set'
VWZFFOLHQCVWZFFOLHQC 0
root@arm:~# echo 'XSKS''LOJYUZ'
XSKSLOJYUZ
root@arm:~# MARKER='JFGY''LGLTHX' run 'i2cget -y -f 1 0x4b 0x10'
JFGYLGLTHX0x00
JFGYLGLTHX 0
root@arm:~# echo 'SUJF''XBVAAU'
SUJFXBVAAU
root@arm:~# MARKER='YBLW''NBANNJ' run 'echo 710000 710000 > /sys/kernel/mva_test//regulators/buck2_set'
YBLWNBANNJYBLWNBANNJ 0
root@arm:~# echo 'ZVTP''MKKAWG'
ZVTPMKKAWG
root@arm:~# MARKER='CNKS''WKYYKT' run 'i2cget -y -f 1 0x4b 0x10'
CNKSWKYYKT0x01
CNKSWKYYKT 0
root@arm:~# echo 'BJAG''QVZTAY'
BJAGQVZTAY
root@arm:~# MARKER='CQTP''QZTEAL' run 'echo 720000 720000 > /sys/kernel/mva_test//regulators/buck2_set'
CQTPQZTEALCQTPQZTEAL 0
root@arm:~# echo 'OFUT''AXOLYF'
OFUTAXOLYF
root@arm:~# MARKER='OBKB''YQJXXH' run 'i2cget -y -f 1 0x4b 0x10'
OBKBYQJXXH0x02
OBKBYQJXXH 0
root@arm:~# echo 'HBUY''UCLXUV'
HBUYUCLXUV
root@arm:~# MARKER='VCSM''BJGBSG' run 'echo 730000 730000 > /sys/kernel/mva_test//regulators/buck2_set'
VCSMBJGBSGVCSMBJGBSG 0
root@arm:~# echo 'NZOC''XLAZWS'
NZOCXLAZWS
root@arm:~# MARKER='LESW''BEJLGN' run 'i2cget -y -f 1 0x4b 0x10'
LESWBEJLGN0x03
LESWBEJLGN 0
root@arm:~# echo 'MJWO''HJHZPC'
MJWOHJHZPC
root@arm:~# MARKER='OUAF''HWTQTE' run 'echo 740000 740000 > /sys/kernel/mva_test//regulators/buck2_set'
OUAFHWTQTEOUAFHWTQTE 0
root@arm:~# echo 'NHJQ''LCNVBB'
NHJQLCNVBB
root@arm:~# MARKER='SEUE''GXEVVS' run 'i2cget -y -f 1 0x4b 0x10'
SEUEGXEVVS0x04
SEUEGXEVVS 0
root@arm:~# echo 'NAFB''OMKBEB'
NAFBOMKBEB
root@arm:~# MARKER='ZXQT''WZLXTN' run 'echo 750000 750000 > /sys/kernel/mva_test//regulators/buck2_set'
ZXQTWZLXTNZXQTWZLXTN 0
root@arm:~# echo 'NMCA''PUPQEW'
NMCAPUPQEW
root@arm:~# MARKER='ZLFF''KBNFVT' run 'i2cget -y -f 1 0x4b 0x10'
ZLFFKBNFVT0x05
ZLFFKBNFVT 0
root@arm:~# echo 'CLEX''ETKBWL'
CLEXETKBWL
root@arm:~# MARKER='JONC''KQTPNL' run 'echo 760000 760000 > /sys/kernel/mva_test//regulators/buck2_set'
JONCKQTPNLJONCKQTPNL 0
root@arm:~# echo 'BJZZ''AWWTQT'
BJZZAWWTQT
root@arm:~# MARKER='QGGY''WGAUYO' run 'i2cget -y -f 1 0x4b 0x10'
QGGYWGAUYO0x06
QGGYWGAUYO 0
root@arm:~# echo 'CCBO''PNGFCC'
CCBOPNGFCC
root@arm:~# MARKER='PCNM''ZUUZBL' run 'echo 770000 770000 > /sys/kernel/mva_test//regulators/buck2_set'
PCNMZUUZBLPCNMZUUZBL 0
root@arm:~# echo 'VFVT''OPWQUH'
VFVTOPWQUH
root@arm:~# MARKER='MYUW''SAAUOL' run 'i2cget -y -f 1 0x4b 0x10'
MYUWSAAUOL0x07
MYUWSAAUOL 0
root@arm:~# echo 'BVGY''GKHWXJ'
BVGYGKHWXJ
root@arm:~# MARKER='ZPQK''JSWNAN' run 'echo 780000 780000 > /sys/kernel/mva_test//regulators/buck2_set'
ZPQKJSWNANZPQKJSWNAN 0
root@arm:~# echo 'OCEL''PCMZVJ'
OCELPCMZVJ
root@arm:~# MARKER='KGOG''KOMBFE' run 'i2cget -y -f 1 0x4b 0x10'
KGOGKOMBFE0x08
KGOGKOMBFE 0
root@arm:~# echo 'NONZ''YHNEUA'
NONZYHNEUA
root@arm:~# MARKER='LGUH''SSLEPH' run 'echo 790000 790000 > /sys/kernel/mva_test//regulators/buck2_set'
LGUHSSLEPHLGUHSSLEPH 0
root@arm:~# echo 'VTET''GNTNZM'
VTETGNTNZM
root@arm:~# MARKER='LQUY''TVMPFG' run 'i2cget -y -f 1 0x4b 0x10'
LQUYTVMPFG0x09
LQUYTVMPFG 0
root@arm:~# echo 'ZESS''TGWWJQ'
ZESSTGWWJQ
root@arm:~# MARKER='FVLN''QZVNFU' run 'echo 800000 800000 > /sys/kernel/mva_test//regulators/buck2_set'
FVLNQZVNFUFVLNQZVNFU 0
root@arm:~# echo 'KGUH''APUOVZ'
KGUHAPUOVZ
root@arm:~# MARKER='NEFB''CPMXMW' run 'i2cget -y -f 1 0x4b 0x10'
NEFBCPMXMW0x0a
NEFBCPMXMW 0
root@arm:~# echo 'BPUH''NOXVPS'
BPUHNOXVPS
root@arm:~# MARKER='UEPX''QYHGOA' run 'echo 810000 810000 > /sys/kernel/mva_test//regulators/buck2_set'
UEPXQYHGOAUEPXQYHGOA 0
root@arm:~# echo 'TEQV''ZLPQEV'
TEQVZLPQEV
root@arm:~# MARKER='CBJN''ALHSPP' run 'i2cget -y -f 1 0x4b 0x10'
CBJNALHSPP0x0b
CBJNALHSPP 0
root@arm:~# echo 'UNOP''KBQNNH'
UNOPKBQNNH
root@arm:~# MARKER='KKBE''WQYLLT' run 'echo 820000 820000 > /sys/kernel/mva_test//regulators/buck2_set'
KKBEWQYLLTKKBEWQYLLT 0
root@arm:~# echo 'ZTCZ''GEEFBM'
ZTCZGEEFBM
root@arm:~# MARKER='TNNA''PTBWWJ' run 'i2cget -y -f 1 0x4b 0x10'
TNNAPTBWWJ0x0c
TNNAPTBWWJ 0
root@arm:~# echo 'JEVV''OWTGWM'
JEVVOWTGWM
root@arm:~# MARKER='XXQT''HEXPKB' run 'echo 830000 830000 > /sys/kernel/mva_test//regulators/buck2_set'
XXQTHEXPKBXXQTHEXPKB 0
root@arm:~# echo 'GXVA''OOYJAT'
GXVAOOYJAT
root@arm:~# MARKER='ASXH''QFZZLB' run 'i2cget -y -f 1 0x4b 0x10'
ASXHQFZZLB0x0d
ASXHQFZZLB 0
root@arm:~# echo 'SHZT''USFXEX'
SHZTUSFXEX
root@arm:~# MARKER='USUZ''FZXUHU' run 'echo 840000 840000 > /sys/kernel/mva_test//regulators/buck2_set'
USUZFZXUHUUSUZFZXUHU 0
root@arm:~# echo 'WKJA''AAATHK'
WKJAAAATHK
root@arm:~# MARKER='MGHP''TZQXHG' run 'i2cget -y -f 1 0x4b 0x10'
MGHPTZQXHG0x0e
MGHPTZQXHG 0
root@arm:~# echo 'MPJM''XUGQGY'
MPJMXUGQGY
root@arm:~# MARKER='HHNC''HUXMLL' run 'echo 850000 850000 > /sys/kernel/mva_test//regulators/buck2_set'
HHNCHUXMLLHHNCHUXMLL 0
root@arm:~# echo 'WHSV''PAOVEM'
WHSVPAOVEM
root@arm:~# MARKER='CVLF''ZMFWTS' run 'i2cget -y -f 1 0x4b 0x10'
CVLFZMFWTS0x0f
CVLFZMFWTS 0
root@arm:~# echo 'PKJJ''LULBHC'
PKJJLULBHC
root@arm:~# MARKER='PWNA''MKCSPC' run 'echo 860000 860000 > /sys/kernel/mva_test//regulators/buck2_set'
PWNAMKCSPCPWNAMKCSPC 0
root@arm:~# echo 'JMQV''KUWOTY'
JMQVKUWOTY
root@arm:~# MARKER='OAJP''TLEUYC' run 'i2cget -y -f 1 0x4b 0x10'
OAJPTLEUYC0x10
OAJPTLEUYC 0
root@arm:~# echo 'QENO''TWFOSO'
QENOTWFOSO
root@arm:~# MARKER='NGGM''ECHCAP' run 'echo 870000 870000 > /sys/kernel/mva_test//regulators/buck2_set'
NGGMECHCAPNGGMECHCAP 0
root@arm:~# echo 'NTMW''WSAGWC'
NTMWWSAGWC
root@arm:~# MARKER='BVJA''KLFEKM' run 'i2cget -y -f 1 0x4b 0x10'
BVJAKLFEKM0x11
BVJAKLFEKM 0
root@arm:~# echo 'HZKA''APHKNJ'
HZKAAPHKNJ
root@arm:~# MARKER='OUMU''KGTTYB' run 'echo 880000 880000 > /sys/kernel/mva_test//regulators/buck2_set'
OUMUKGTTYBOUMUKGTTYB 0
root@arm:~# echo 'FEBJ''XLMWZO'
FEBJXLMWZO
root@arm:~# MARKER='ZAXC''FLFSZV' run 'i2cget -y -f 1 0x4b 0x10'
ZAXCFLFSZV0x12
ZAXCFLFSZV 0
root@arm:~# echo 'QYZG''SPVBLS'
QYZGSPVBLS
root@arm:~# MARKER='UGSP''KJKSJQ' run 'echo 890000 890000 > /sys/kernel/mva_test//regulators/buck2_set'
UGSPKJKSJQUGSPKJKSJQ 0
root@arm:~# echo 'ZGSL''WYTVEJ'
ZGSLWYTVEJ
root@arm:~# MARKER='NHZO''UNMPXK' run 'i2cget -y -f 1 0x4b 0x10'
NHZOUNMPXK0x13
NHZOUNMPXK 0
root@arm:~# echo 'AZJF''BCOQKA'
AZJFBCOQKA
root@arm:~# MARKER='AEJJ''SPWZUC' run 'echo 900000 900000 > /sys/kernel/mva_test//regulators/buck2_set'
AEJJSPWZUCAEJJSPWZUC 0
root@arm:~# echo 'FETC''LTETNV'
FETCLTETNV
root@arm:~# MARKER='HZFN''MHLOQS' run 'i2cget -y -f 1 0x4b 0x10'
HZFNMHLOQS0x14
HZFNMHLOQS 0
root@arm:~# echo 'MQTS''GJAGEJ'
MQTSGJAGEJ
root@arm:~# MARKER='PPLW''JYMGCS' run 'echo 910000 910000 > /sys/kernel/mva_test//regulators/buck2_set'
PPLWJYMGCSPPLWJYMGCS 0
root@arm:~# echo 'FEQG''MNJJMN'
FEQGMNJJMN
root@arm:~# MARKER='YHJV''EUBSGF' run 'i2cget -y -f 1 0x4b 0x10'
YHJVEUBSGF0x15
YHJVEUBSGF 0
root@arm:~# echo 'GOVQ''VJSQOU'
GOVQVJSQOU
root@arm:~# MARKER='WHSC''JPPQTV' run 'echo 920000 920000 > /sys/kernel/mva_test//regulators/buck2_set'
WHSCJPPQTVWHSCJPPQTV 0
root@arm:~# echo 'GYSO''LEHCNB'
GYSOLEHCNB
root@arm:~# MARKER='ZPQC''TYFCSN' run 'i2cget -y -f 1 0x4b 0x10'
ZPQCTYFCSN0x16
ZPQCTYFCSN 0
root@arm:~# echo 'GQEQ''FTBCEB'
GQEQFTBCEB
root@arm:~# MARKER='STVB''JWAMJT' run 'echo 930000 930000 > /sys/kernel/mva_test//regulators/buck2_set'
STVBJWAMJTSTVBJWAMJT 0
root@arm:~# echo 'FMWQ''TWSNQL'
FMWQTWSNQL
root@arm:~# MARKER='HYGP''GFVHFZ' run 'i2cget -y -f 1 0x4b 0x10'
HYGPGFVHFZ0x17
HYGPGFVHFZ 0
root@arm:~# echo 'ZTXA''QXTJLB'
ZTXAQXTJLB
root@arm:~# MARKER='CAUF''JFGVPS' run 'echo 940000 940000 > /sys/kernel/mva_test//regulators/buck2_set'
CAUFJFGVPSCAUFJFGVPS 0
root@arm:~# echo 'QLVU''EYOZZP'
QLVUEYOZZP
root@arm:~# MARKER='FJXK''YUFYUX' run 'i2cget -y -f 1 0x4b 0x10'
FJXKYUFYUX0x18
FJXKYUFYUX 0
root@arm:~# echo 'VHTF''OTTPVM'
VHTFOTTPVM
root@arm:~# MARKER='HTOM''SCEBOZ' run 'echo 950000 950000 > /sys/kernel/mva_test//regulators/buck2_set'
HTOMSCEBOZHTOMSCEBOZ 0
root@arm:~# echo 'PQME''AXTMHH'
PQMEAXTMHH
root@arm:~# MARKER='ZMPZ''WSBKLE' run 'i2cget -y -f 1 0x4b 0x10'
ZMPZWSBKLE0x19
ZMPZWSBKLE 0
root@arm:~# echo 'HVYN''VSLPFY'
HVYNVSLPFY
root@arm:~# MARKER='VQBA''SJSKNQ' run 'echo 960000 960000 > /sys/kernel/mva_test//regulators/buck2_set'
VQBASJSKNQVQBASJSKNQ 0
root@arm:~# echo 'HLKG''MMSAOJ'
HLKGMMSAOJ
root@arm:~# MARKER='AQXY''PFMSZX' run 'i2cget -y -f 1 0x4b 0x10'
AQXYPFMSZX0x1a
AQXYPFMSZX 0
root@arm:~# echo 'UBVM''SNTXHT'
UBVMSNTXHT
root@arm:~# MARKER='CMOV''QNKTZJ' run 'echo 970000 970000 > /sys/kernel/mva_test//regulators/buck2_set'
CMOVQNKTZJCMOVQNKTZJ 0
root@arm:~# echo 'TSAZ''YAMUXZ'
TSAZYAMUXZ
root@arm:~# MARKER='CZXY''JCLXQM' run 'i2cget -y -f 1 0x4b 0x10'
CZXYJCLXQM0x1b
CZXYJCLXQM 0
root@arm:~# echo 'VXKJ''HXTZTF'
VXKJHXTZTF
root@arm:~# MARKER='YMJO''OSKNXQ' run 'echo 980000 980000 > /sys/kernel/mva_test//regulators/buck2_set'
YMJOOSKNXQYMJOOSKNXQ 0
root@arm:~# echo 'AHSQ''NQBEFK'
AHSQNQBEFK
root@arm:~# MARKER='WGUZ''WPVZGP' run 'i2cget -y -f 1 0x4b 0x10'
WGUZWPVZGP0x1c
WGUZWPVZGP 0
root@arm:~# echo 'FUNC''GYABJO'
FUNCGYABJO
root@arm:~# MARKER='HUAQ''OWUVUM' run 'echo 990000 990000 > /sys/kernel/mva_test//regulators/buck2_set'
HUAQOWUVUMHUAQOWUVUM 0
root@arm:~# echo 'GPYV''GJTMUW'
GPYVGJTMUW
root@arm:~# MARKER='QPXB''MGHJHJ' run 'i2cget -y -f 1 0x4b 0x10'
QPXBMGHJHJ0x1d
QPXBMGHJHJ 0
root@arm:~# echo 'ZXPT''NJMNTC'
ZXPTNJMNTC
root@arm:~# MARKER='GNKH''UAGLWT' run 'echo 1000000 1000000 > /sys/kernel/mva_tesst/regulators/buck2_set'
GNKHUAGLWTGNKHUAGLWT 0
root@arm:~# echo 'VVVM''KPLYEO'
VVVMKPLYEO
root@arm:~# MARKER='UPWY''SWVFNG' run 'i2cget -y -f 1 0x4b 0x10'
UPWYSWVFNG0x1e
UPWYSWVFNG 0
root@arm:~# echo 'APKU''ZQHFPO'
APKUZQHFPO
root@arm:~# MARKER='GXZJ''OYKNUK' run 'echo 1010000 1010000 > /sys/kernel/mva_tesst/regulators/buck2_set'
GXZJOYKNUKGXZJOYKNUK 0
root@arm:~# echo 'ZGSX''UNHSSC'
ZGSXUNHSSC
root@arm:~# MARKER='WUHS''XGKPXX' run 'i2cget -y -f 1 0x4b 0x10'
WUHSXGKPXX0x1f
WUHSXGKPXX 0
root@arm:~# echo 'QUNS''JBQFGL'
QUNSJBQFGL
root@arm:~# MARKER='XEPM''QPCAZX' run 'echo 1020000 1020000 > /sys/kernel/mva_tesst/regulators/buck2_set'
XEPMQPCAZXXEPMQPCAZX 0
root@arm:~# echo 'PTXV''JFKBOW'
PTXVJFKBOW
root@arm:~# MARKER='VWCH''MEGZXG' run 'i2cget -y -f 1 0x4b 0x10'
VWCHMEGZXG0x20
VWCHMEGZXG 0
root@arm:~# echo 'LNBT''BWPMGQ'
LNBTBWPMGQ
root@arm:~# MARKER='MMVY''JFCKUJ' run 'echo 1030000 1030000 > /sys/kernel/mva_tesst/regulators/buck2_set'
MMVYJFCKUJMMVYJFCKUJ 0
root@arm:~# echo 'OKPV''KOWUUC'
OKPVKOWUUC
root@arm:~# MARKER='QVOT''NSQJJN' run 'i2cget -y -f 1 0x4b 0x10'
QVOTNSQJJN0x21
QVOTNSQJJN 0
root@arm:~# echo 'SZQQ''JCBNPW'
SZQQJCBNPW
root@arm:~# MARKER='NZVQ''SCPYTO' run 'echo 1040000 1040000 > /sys/kernel/mva_tesst/regulators/buck2_set'
NZVQSCPYTONZVQSCPYTO 0
root@arm:~# echo 'WKCX''PYQNLY'
WKCXPYQNLY
root@arm:~# MARKER='UWHC''QUBYGL' run 'i2cget -y -f 1 0x4b 0x10'
UWHCQUBYGL0x22
UWHCQUBYGL 0
root@arm:~# echo 'AZJO''VOMSEP'
AZJOVOMSEP
root@arm:~# MARKER='XBQW''HVAYJO' run 'echo 1050000 1050000 > /sys/kernel/mva_tesst/regulators/buck2_set'
XBQWHVAYJOXBQWHVAYJO 0
root@arm:~# echo 'MHYO''NCVCUM'
MHYONCVCUM
root@arm:~# MARKER='XCHZ''XVBBVO' run 'i2cget -y -f 1 0x4b 0x10'
XCHZXVBBVO0x23
XCHZXVBBVO 0
root@arm:~# echo 'JUYH''YHMNEW'
JUYHYHMNEW
root@arm:~# MARKER='GTYZ''WZVLZX' run 'echo 1060000 1060000 > /sys/kernel/mva_tesst/regulators/buck2_set'
GTYZWZVLZXGTYZWZVLZX 0
root@arm:~# echo 'APFE''JCKCFP'
APFEJCKCFP
root@arm:~# MARKER='MPJP''SCHMWV' run 'i2cget -y -f 1 0x4b 0x10'
MPJPSCHMWV0x24
MPJPSCHMWV 0
root@arm:~# echo 'UZLB''SUCWNJ'
UZLBSUCWNJ
root@arm:~# MARKER='OPMH''HUWVJS' run 'echo 1070000 1070000 > /sys/kernel/mva_tesst/regulators/buck2_set'
OPMHHUWVJSOPMHHUWVJS 0
root@arm:~# echo 'UPQC''CWLCTV'
UPQCCWLCTV
root@arm:~# MARKER='QJMO''GWMKAC' run 'i2cget -y -f 1 0x4b 0x10'
QJMOGWMKAC0x25
QJMOGWMKAC 0
root@arm:~# echo 'OWEQ''VLMJHZ'
OWEQVLMJHZ
root@arm:~# MARKER='AFQX''XWFKLQ' run 'echo 1080000 1080000 > /sys/kernel/mva_tesst/regulators/buck2_set'
AFQXXWFKLQAFQXXWFKLQ 0
root@arm:~# echo 'FYPC''TWEGQY'
FYPCTWEGQY
root@arm:~# MARKER='ATOG''LAUUCT' run 'i2cget -y -f 1 0x4b 0x10'
ATOGLAUUCT0x26
ATOGLAUUCT 0
root@arm:~# echo 'EVAA''JCYYMQ'
EVAAJCYYMQ
root@arm:~# MARKER='LQKS''YOMOBE' run 'echo 1090000 1090000 > /sys/kernel/mva_tesst/regulators/buck2_set'
LQKSYOMOBELQKSYOMOBE 0
root@arm:~# echo 'GZPS''VYEXTG'
GZPSVYEXTG
root@arm:~# MARKER='EOVO''XGFCUT' run 'i2cget -y -f 1 0x4b 0x10'
EOVOXGFCUT0x27
EOVOXGFCUT 0
root@arm:~# echo 'ATSA''PYTBGS'
ATSAPYTBGS
root@arm:~# MARKER='QEPB''BOSJWC' run 'echo 1100000 1100000 > /sys/kernel/mva_tesst/regulators/buck2_set'
QEPBBOSJWCQEPBBOSJWC 0
root@arm:~# echo 'ZXVO''QNJBHA'
ZXVOQNJBHA
root@arm:~# MARKER='ATPC''UAWKGF' run 'i2cget -y -f 1 0x4b 0x10'
ATPCUAWKGF0x28
ATPCUAWKGF 0
root@arm:~# echo 'AXLP''LUPZFE'
AXLPLUPZFE
root@arm:~# MARKER='KMHM''NJJFSW' run 'echo 1110000 1110000 > /sys/kernel/mva_tesst/regulators/buck2_set'
KMHMNJJFSWKMHMNJJFSW 0
root@arm:~# echo 'KXXP''JVGSZY'
KXXPJVGSZY
root@arm:~# MARKER='EFAW''JEHHMA' run 'i2cget -y -f 1 0x4b 0x10'
EFAWJEHHMA0x29
EFAWJEHHMA 0
root@arm:~# echo 'EJST''VLCYBT'
EJSTVLCYBT
root@arm:~# MARKER='FSLU''ZNACJS' run 'echo 1120000 1120000 > /sys/kernel/mva_tesst/regulators/buck2_set'
FSLUZNACJSFSLUZNACJS 0
root@arm:~# echo 'NFQT''SUXGGQ'
NFQTSUXGGQ
root@arm:~# MARKER='KPJH''NTWMGQ' run 'i2cget -y -f 1 0x4b 0x10'
KPJHNTWMGQ0x2a
KPJHNTWMGQ 0
root@arm:~# echo 'XOFE''JTPCCV'
XOFEJTPCCV
root@arm:~# MARKER='HBGT''TUFWPP' run 'echo 1130000 1130000 > /sys/kernel/mva_tesst/regulators/buck2_set'
HBGTTUFWPPHBGTTUFWPP 0
root@arm:~# echo 'PLJL''CAUHVM'
PLJLCAUHVM
root@arm:~# MARKER='BQKP''NQYTMG' run 'i2cget -y -f 1 0x4b 0x10'
BQKPNQYTMG0x2b
BQKPNQYTMG 0
root@arm:~# echo 'VYWO''BWTPAN'
VYWOBWTPAN
root@arm:~# MARKER='ZNOP''YJCOVG' run 'echo 1140000 1140000 > /sys/kernel/mva_tesst/regulators/buck2_set'
ZNOPYJCOVGZNOPYJCOVG 0
root@arm:~# echo 'QPES''TAGEWW'
QPESTAGEWW
root@arm:~# MARKER='SNOW''GGFOXG' run 'i2cget -y -f 1 0x4b 0x10'
SNOWGGFOXG0x2c
SNOWGGFOXG 0
root@arm:~# echo 'XHFK''BTTBLC'
XHFKBTTBLC
root@arm:~# MARKER='BJJO''YMZYHU' run 'echo 1150000 1150000 > /sys/kernel/mva_tesst/regulators/buck2_set'
BJJOYMZYHUBJJOYMZYHU 0
root@arm:~# echo 'ENKC''FVCBKF'
ENKCFVCBKF
root@arm:~# MARKER='UKLH''FTBUPE' run 'i2cget -y -f 1 0x4b 0x10'
UKLHFTBUPE0x2d
UKLHFTBUPE 0
root@arm:~# echo 'HGLM''TCZJFN'
HGLMTCZJFN
root@arm:~# MARKER='JSSM''LBHJMW' run 'echo 1160000 1160000 > /sys/kernel/mva_tesst/regulators/buck2_set'
JSSMLBHJMWJSSMLBHJMW 0
root@arm:~# echo 'PMYC''QPBTON'
PMYCQPBTON
root@arm:~# MARKER='AEJE''EJCCYN' run 'i2cget -y -f 1 0x4b 0x10'
AEJEEJCCYN0x2e
AEJEEJCCYN 0
root@arm:~# echo 'MLTW''HYGYSQ'
MLTWHYGYSQ
root@arm:~# MARKER='JGSF''PLCUSN' run 'echo 1170000 1170000 > /sys/kernel/mva_tesst/regulators/buck2_set'
JGSFPLCUSNJGSFPLCUSN 0
root@arm:~# echo 'YCMB''GMJGKS'
YCMBGMJGKS
root@arm:~# MARKER='SBAX''SMYBYA' run 'i2cget -y -f 1 0x4b 0x10'
SBAXSMYBYA0x2f
SBAXSMYBYA 0
root@arm:~# echo 'QGXB''TVQBFQ'
QGXBTVQBFQ
root@arm:~# MARKER='XECY''AEUGPQ' run 'echo 1180000 1180000 > /sys/kernel/mva_tesst/regulators/buck2_set'
XECYAEUGPQXECYAEUGPQ 0
root@arm:~# echo 'CBYE''MOAGFQ'
CBYEMOAGFQ
root@arm:~# MARKER='JXZA''STXCNJ' run 'i2cget -y -f 1 0x4b 0x10'
JXZASTXCNJ0x30
JXZASTXCNJ 0
root@arm:~# echo 'HENL''ZVMQNY'
HENLZVMQNY
root@arm:~# MARKER='FWOS''WVPWNC' run 'echo 1190000 1190000 > /sys/kernel/mva_tesst/regulators/buck2_set'
FWOSWVPWNCFWOSWVPWNC 0
root@arm:~# echo 'TTUB''ZHBYWB'
TTUBZHBYWB
root@arm:~# MARKER='HJSU''TYLTTX' run 'i2cget -y -f 1 0x4b 0x10'
HJSUTYLTTX0x31
HJSUTYLTTX 0
root@arm:~# echo 'NKTE''AVVQGN'
NKTEAVVQGN
root@arm:~# MARKER='KLQM''PNPJYT' run 'echo 1200000 1200000 > /sys/kernel/mva_tesst/regulators/buck2_set'
KLQMPNPJYTKLQMPNPJYT 0
root@arm:~# echo 'KNXG''YTJYYP'
KNXGYTJYYP
root@arm:~# MARKER='AYAW''ZBGMTO' run 'i2cget -y -f 1 0x4b 0x10'
AYAWZBGMTO0x32
AYAWZBGMTO 0
root@arm:~# echo 'JWQU''SZQOTH'
JWQUSZQOTH
root@arm:~# MARKER='TAYN''EOXOYT' run 'echo 1210000 1210000 > /sys/kernel/mva_tesst/regulators/buck2_set'
TAYNEOXOYTTAYNEOXOYT 0
root@arm:~# echo 'HWJV''ZXHYWP'
HWJVZXHYWP
root@arm:~# MARKER='QAEV''EOGJPS' run 'i2cget -y -f 1 0x4b 0x10'
QAEVEOGJPS0x33
QAEVEOGJPS 0
root@arm:~# echo 'JQGA''EATLMN'
JQGAEATLMN
root@arm:~# MARKER='ZVAH''JKEXSS' run 'echo 1220000 1220000 > /sys/kernel/mva_tesst/regulators/buck2_set'
ZVAHJKEXSSZVAHJKEXSS 0
root@arm:~# echo 'QWWO''FJPUUW'
QWWOFJPUUW
root@arm:~# MARKER='ZLKG''VMVBGL' run 'i2cget -y -f 1 0x4b 0x10'
ZLKGVMVBGL0x34
ZLKGVMVBGL 0
root@arm:~# echo 'HENV''WBVNQM'
HENVWBVNQM
root@arm:~# MARKER='XVGS''XBCLNH' run 'echo 1230000 1230000 > /sys/kernel/mva_tesst/regulators/buck2_set'
XVGSXBCLNHXVGSXBCLNH 0
root@arm:~# echo 'EUCU''MUMONW'
EUCUMUMONW
root@arm:~# MARKER='CJBQ''VLXOMU' run 'i2cget -y -f 1 0x4b 0x10'
CJBQVLXOMU0x35
CJBQVLXOMU 0
root@arm:~# echo 'EGKX''WTYGZS'
EGKXWTYGZS
root@arm:~# MARKER='PXOQ''KAGZAU' run 'echo 1240000 1240000 > /sys/kernel/mva_tesst/regulators/buck2_set'
PXOQKAGZAUPXOQKAGZAU 0
root@arm:~# echo 'FSBY''NFTOWY'
FSBYNFTOWY
root@arm:~# MARKER='MPUA''TALKJG' run 'i2cget -y -f 1 0x4b 0x10'
MPUATALKJG0x36
MPUATALKJG 0
root@arm:~# echo 'USKE''SVZAXX'
USKESVZAXX
root@arm:~# MARKER='XLVW''JSTXXT' run 'echo 1250000 1250000 > /sys/kernel/mva_tesst/regulators/buck2_set'
XLVWJSTXXTXLVWJSTXXT 0
root@arm:~# echo 'XUNT''ZJJLTY'
XUNTZJJLTY
root@arm:~# MARKER='VHZJ''UXTTCX' run 'i2cget -y -f 1 0x4b 0x10'
VHZJUXTTCX0x37
VHZJUXTTCX 0
root@arm:~# echo 'KGVL''SYFWGN'
KGVLSYFWGN
root@arm:~# MARKER='HGBG''ZVSQNM' run 'echo 1260000 1260000 > /sys/kernel/mva_tesst/regulators/buck2_set'
HGBGZVSQNMHGBGZVSQNM 0
root@arm:~# echo 'PVHK''YEPOFC'
PVHKYEPOFC
root@arm:~# MARKER='LLYA''YOMHWS' run 'i2cget -y -f 1 0x4b 0x10'
LLYAYOMHWS0x38
LLYAYOMHWS 0
root@arm:~# echo 'CPBH''SLFOKS'
CPBHSLFOKS
root@arm:~# MARKER='CWSN''SWFCBH' run 'echo 1270000 1270000 > /sys/kernel/mva_tesst/regulators/buck2_set'
CWSNSWFCBHCWSNSWFCBH 0
root@arm:~# echo 'PNWO''ETBYWS'
PNWOETBYWS
root@arm:~# MARKER='HMKE''KWEBCA' run 'i2cget -y -f 1 0x4b 0x10'
HMKEKWEBCA0x39
HMKEKWEBCA 0
root@arm:~# echo 'BHYT''TJGPZZ'
BHYTTJGPZZ
root@arm:~# MARKER='NHCQ''FMAELX' run 'echo 1280000 1280000 > /sys/kernel/mva_tesst/regulators/buck2_set'
NHCQFMAELXNHCQFMAELX 0
root@arm:~# echo 'QVKM''AOAHYU'
QVKMAOAHYU
root@arm:~# MARKER='QXMT''EEPHPW' run 'i2cget -y -f 1 0x4b 0x10'
QXMTEEPHPW0x3a
QXMTEEPHPW 0
root@arm:~# echo 'JEVN''GVBOFY'
JEVNGVBOFY
root@arm:~# MARKER='VQHE''WBMGEF' run 'echo 1290000 1290000 > /sys/kernel/mva_tesst/regulators/buck2_set'
VQHEWBMGEFVQHEWBMGEF 0
root@arm:~# echo 'HKTG''XCAMFP'
HKTGXCAMFP
root@arm:~# MARKER='LQTM''AAWVYM' run 'i2cget -y -f 1 0x4b 0x10'
LQTMAAWVYM0x3b
LQTMAAWVYM 0
root@arm:~# echo 'MZHT''SEEWNJ'
MZHTSEEWNJ
root@arm:~# MARKER='FOJM''AHPXWP' run 'echo 1300000 1300000 > /sys/kernel/mva_tesst/regulators/buck2_set'
FOJMAHPXWPFOJMAHPXWP 0
root@arm:~# echo 'HHAS''LPBECC'
HHASLPBECC
root@arm:~# MARKER='XVFE''ZGZBBF' run 'i2cget -y -f 1 0x4b 0x10'
XVFEZGZBBF0x3c
XVFEZGZBBF 0
root@arm:~# echo 'XGMZ''FWYPMF'
XGMZFWYPMF
root@arm:~# MARKER='USSJ''LWSFOQ' run 'grep -r -l rohm,bd71847 /proc/device-tree  | sed '"'"'s![^/]*$!!'"'"''
USSJLWSFOQ/proc/device-tree/ocp/interconnect@48000000/segment@0/target-module@2a000/i2c@0/pmic@4b/
USSJLWSFOQ 0
root@arm:~# echo 'NPXT''POLUGW'
NPXTPOLUGW
root@arm:~# MARKER='GUOM''FKOEXJ' run 'test -f /proc/device-tree/ocp/interconnectt\@48000000/segment\@0/target-module\@2a000/i2c\@0/pmic\@4b/regulators/BUCK3/rohmm,no-regulator-enable-control ;echo $?'
GUOMFKOEXJ0
GUOMFKOEXJ 0
root@arm:~# echo 'BQWF''FMALXX'
BQWFFMALXX
root@arm:~# MARKER='YOOO''TJXCTY' run 'echo 700000 700000 > /sys/kernel/mva_test//regulators/buck3_set'
YOOOTJXCTYYOOOTJXCTY 0
root@arm:~# echo 'UUFB''QPHXLZ'
UUFBQPHXLZ
root@arm:~# MARKER='GGJF''GNMEUB' run 'i2cget -y -f 1 0x4b 0x14'
GGJFGNMEUB0x00
GGJFGNMEUB 0
root@arm:~# echo 'MOOP''XULWEO'
MOOPXULWEO
root@arm:~# MARKER='XBFY''PVAPSZ' run 'echo 800000 800000 > /sys/kernel/mva_test//regulators/buck3_set'
XBFYPVAPSZXBFYPVAPSZ 0
root@arm:~# echo 'VVQA''UKOWUC'
VVQAUKOWUC
root@arm:~# MARKER='XQQQ''EUGEZQ' run 'i2cget -y -f 1 0x4b 0x14'
XQQQEUGEZQ0x01
XQQQEUGEZQ 0
root@arm:~# echo 'SNWK''PZNXEW'
SNWKPZNXEW
root@arm:~# MARKER='ANNK''YLQYGF' run 'echo 900000 900000 > /sys/kernel/mva_test//regulators/buck3_set'
ANNKYLQYGFANNKYLQYGF 0
root@arm:~# echo 'EVYA''JSKCBG'
EVYAJSKCBG
root@arm:~# MARKER='ZNZQ''PUHVMU' run 'i2cget -y -f 1 0x4b 0x14'
ZNZQPUHVMU0x02
ZNZQPUHVMU 0
root@arm:~# echo 'CTWX''CMXCOY'
CTWXCMXCOY
root@arm:~# MARKER='XYNF''LXGYEE' run 'echo 1000000 1000000 > /sys/kernel/mva_tesst/regulators/buck3_set'
XYNFLXGYEEXYNFLXGYEE 0
root@arm:~# echo 'KGVV''SHBATG'
KGVVSHBATG
root@arm:~# MARKER='ZHKY''EMSLBN' run 'i2cget -y -f 1 0x4b 0x14'
ZHKYEMSLBN0x03
ZHKYEMSLBN 0
root@arm:~# echo 'BWPC''OXSMOJ'
BWPCOXSMOJ
root@arm:~# MARKER='CFYY''KWHAPB' run 'echo 1050000 1050000 > /sys/kernel/mva_tesst/regulators/buck3_set'
CFYYKWHAPBCFYYKWHAPB 0
root@arm:~# echo 'QSHF''UFVNJX'
QSHFUFVNJX
root@arm:~# MARKER='EQSZ''TPKXKE' run 'i2cget -y -f 1 0x4b 0x14'
EQSZTPKXKE0x04
EQSZTPKXKE 0
root@arm:~# echo 'FWBL''HMPQXX'
FWBLHMPQXX
root@arm:~# MARKER='WLXL''EGOHGC' run 'echo 1100000 1100000 > /sys/kernel/mva_tesst/regulators/buck3_set'
WLXLEGOHGCWLXLEGOHGC 0
root@arm:~# echo 'GUSW''BKNBEK'
GUSWBKNBEK
root@arm:~# MARKER='NZLM''EWXSGU' run 'i2cget -y -f 1 0x4b 0x14'
NZLMEWXSGU0x05
NZLMEWXSGU 0
root@arm:~# echo 'JPBX''VGXUCT'
JPBXVGXUCT
root@arm:~# MARKER='XSVO''ZZTWYG' run 'echo 1200000 1200000 > /sys/kernel/mva_tesst/regulators/buck3_set'
XSVOZZTWYGXSVOZZTWYG 0
root@arm:~# echo 'NPKY''AMUJYM'
NPKYAMUJYM
root@arm:~# MARKER='JEOO''XEYJCW' run 'i2cget -y -f 1 0x4b 0x14'
JEOOXEYJCW0x06
JEOOXEYJCW 0
root@arm:~# echo 'WFTC''LCCOCE'
WFTCLCCOCE
root@arm:~# MARKER='NPBC''KUFZQK' run 'echo 1350000 1350000 > /sys/kernel/mva_tesst/regulators/buck3_set'
NPBCKUFZQKNPBCKUFZQK 0
root@arm:~# echo 'UBCM''AMZGYK'
UBCMAMZGYK
root@arm:~# MARKER='WWKH''UVSJNO' run 'i2cget -y -f 1 0x4b 0x14'
WWKHUVSJNO0x07
WWKHUVSJNO 0
root@arm:~# echo 'OQXJ''LBCFNK'
OQXJLBCFNK
root@arm:~# MARKER='MAPP''EBSGVO' run 'echo 550000 550000 > /sys/kernel/mva_test//regulators/buck3_set'
MAPPEBSGVOMAPPEBSGVO 0
root@arm:~# echo 'WTUL''NWFMLY'
WTULNWFMLY
root@arm:~# MARKER='KYUS''FCSHZZ' run 'i2cget -y -f 1 0x4b 0x14'
KYUSFCSHZZ0x40
KYUSFCSHZZ 0
root@arm:~# echo 'POOZ''VCAGUQ'
POOZVCAGUQ
root@arm:~# MARKER='ETUN''VBJLGO' run 'echo 600000 600000 > /sys/kernel/mva_test//regulators/buck3_set'
ETUNVBJLGOETUNVBJLGO 0
root@arm:~# echo 'WPEV''LQMKHW'
WPEVLQMKHW
root@arm:~# MARKER='JHJE''SYVOLH' run 'i2cget -y -f 1 0x4b 0x14'
JHJESYVOLH0x41
JHJESYVOLH 0
root@arm:~# echo 'MLLE''YHJOLN'
MLLEYHJOLN
root@arm:~# MARKER='SWWH''KEUSCA' run 'echo 650000 650000 > /sys/kernel/mva_test//regulators/buck3_set'
SWWHKEUSCASWWHKEUSCA 0
root@arm:~# echo 'OPUX''FWJSEO'
OPUXFWJSEO
root@arm:~# MARKER='MVEX''JKLVSA' run 'i2cget -y -f 1 0x4b 0x14'
MVEXJKLVSA0x42
MVEXJKLVSA 0
root@arm:~# echo 'HNTB''UYMOUL'
HNTBUYMOUL
root@arm:~# MARKER='UXUY''KTKTTE' run 'echo 700000 700000 > /sys/kernel/mva_test//regulators/buck3_set'
UXUYKTKTTEUXUYKTKTTE 0
root@arm:~# echo 'AHZS''QBHGQX'
AHZSQBHGQX
root@arm:~# MARKER='LQYJ''QYJWNX' run 'i2cget -y -f 1 0x4b 0x14'
LQYJQYJWNX0x00
LQYJQYJWNX 0
root@arm:~# echo 'KEUH''BZLYEB'
KEUHBZLYEB
root@arm:~# MARKER='ENYW''AFWEVV' run 'echo 750000 750000 > /sys/kernel/mva_test//regulators/buck3_set'
ENYWAFWEVVENYWAFWEVV 0
root@arm:~# echo 'YXMG''QGAQHU'
YXMGQGAQHU
root@arm:~# MARKER='HCJJ''KXBGEL' run 'i2cget -y -f 1 0x4b 0x14'
HCJJKXBGEL0x44
HCJJKXBGEL 0
root@arm:~# echo 'EKQU''ZPLVTB'
EKQUZPLVTB
root@arm:~# MARKER='YMCA''FVTJEO' run 'echo 800000 800000 > /sys/kernel/mva_test//regulators/buck3_set'
YMCAFVTJEOYMCAFVTJEO 0
root@arm:~# echo 'UVMH''ZPOFTL'
UVMHZPOFTL
root@arm:~# MARKER='NLHP''UENOXE' run 'i2cget -y -f 1 0x4b 0x14'
NLHPUENOXE0x01
NLHPUENOXE 0
root@arm:~# echo 'SMLO''UYEZXV'
SMLOUYEZXV
root@arm:~# MARKER='QTFC''HOWWXH' run 'echo 850000 850000 > /sys/kernel/mva_test//regulators/buck3_set'
QTFCHOWWXHQTFCHOWWXH 0
root@arm:~# echo 'UJPT''LZPFYK'
UJPTLZPFYK
root@arm:~# MARKER='QJQY''LLTSJQ' run 'i2cget -y -f 1 0x4b 0x14'
QJQYLLTSJQ0x46
QJQYLLTSJQ 0
root@arm:~# echo 'HHWT''JSKYGH'
HHWTJSKYGH
root@arm:~# MARKER='YFAU''PEXQET' run 'echo 900000 900000 > /sys/kernel/mva_test//regulators/buck3_set'
YFAUPEXQETYFAUPEXQET 0
root@arm:~# echo 'WHSN''HPBLFG'
WHSNHPBLFG
root@arm:~# MARKER='TAFX''LXEJQF' run 'i2cget -y -f 1 0x4b 0x14'
TAFXLXEJQF0x02
TAFXLXEJQF 0
root@arm:~# echo 'PVHA''UCLFQA'
PVHAUCLFQA
root@arm:~# MARKER='NZMF''JWYGQQ' run 'echo 675000 675000 > /sys/kernel/mva_test//regulators/buck3_set'
NZMFJWYGQQNZMFJWYGQQ 0
root@arm:~# echo 'NTNC''HUFEYW'
NTNCHUFEYW
root@arm:~# MARKER='SZGJ''VJPLFL' run 'i2cget -y -f 1 0x4b 0x14'
SZGJVJPLFL0x80
SZGJVJPLFL 0
root@arm:~# echo 'CNGP''OWZEEQ'
CNGPOWZEEQ
root@arm:~# MARKER='JHOK''QZNYLC' run 'echo 775000 775000 > /sys/kernel/mva_test//regulators/buck3_set'
JHOKQZNYLCJHOKQZNYLC 0
root@arm:~# echo 'NXET''OEUBLU'
NXETOEUBLU
root@arm:~# MARKER='EMWK''CTHEBM' run 'i2cget -y -f 1 0x4b 0x14'
EMWKCTHEBM0x81
EMWKCTHEBM 0
root@arm:~# echo 'MYJM''XWCNQZ'
MYJMXWCNQZ
root@arm:~# MARKER='HQYG''JOTLKE' run 'echo 875000 875000 > /sys/kernel/mva_test//regulators/buck3_set'
HQYGJOTLKEHQYGJOTLKE 0
root@arm:~# echo 'GKQN''WYNOGP'
GKQNWYNOGP
root@arm:~# MARKER='LBXA''BNYLEY' run 'i2cget -y -f 1 0x4b 0x14'
LBXABNYLEY0x82
LBXABNYLEY 0
root@arm:~# echo 'GFMA''CFYWZK'
GFMACFYWZK
root@arm:~# MARKER='AAXC''UXMMOK' run 'echo 975000 975000 > /sys/kernel/mva_test//regulators/buck3_set'
AAXCUXMMOKAAXCUXMMOK 0
root@arm:~# echo 'HCOE''WNEYSP'
HCOEWNEYSP
root@arm:~# MARKER='AGEK''CMGKEU' run 'i2cget -y -f 1 0x4b 0x14'
AGEKCMGKEU0x83
AGEKCMGKEU 0
root@arm:~# echo 'SFAT''MWANBE'
SFATMWANBE
root@arm:~# MARKER='YHGP''AVOCUK' run 'echo 1025000 1025000 > /sys/kernel/mva_tesst/regulators/buck3_set'
YHGPAVOCUKYHGPAVOCUK 0
root@arm:~# echo 'NNMN''QOJYVT'
NNMNQOJYVT
root@arm:~# MARKER='JYZN''UZTJYL' run 'i2cget -y -f 1 0x4b 0x14'
JYZNUZTJYL0x84
JYZNUZTJYL 0
root@arm:~# echo 'SVKU''AMJVZY'
SVKUAMJVZY
root@arm:~# MARKER='ZOGP''XKEBWZ' run 'echo 1075000 1075000 > /sys/kernel/mva_tesst/regulators/buck3_set'
ZOGPXKEBWZZOGPXKEBWZ 0
root@arm:~# echo 'BXKT''FLKWMX'
BXKTFLKWMX
root@arm:~# MARKER='ANBY''WAPQFX' run 'i2cget -y -f 1 0x4b 0x14'
ANBYWAPQFX0x85
ANBYWAPQFX 0
root@arm:~# echo 'JNBS''GLFKTT'
JNBSGLFKTT
root@arm:~# MARKER='EBVU''JEJKCB' run 'echo 1175000 1175000 > /sys/kernel/mva_tesst/regulators/buck3_set'
EBVUJEJKCBEBVUJEJKCB 0
root@arm:~# echo 'UMPJ''FWQVLG'
UMPJFWQVLG
root@arm:~# MARKER='SKYH''JYFAKG' run 'i2cget -y -f 1 0x4b 0x14'
SKYHJYFAKG0x86
SKYHJYFAKG 0
root@arm:~# echo 'MZHU''HMNGMA'
MZHUHMNGMA
root@arm:~# MARKER='FNSX''XWUZFF' run 'echo 1325000 1325000 > /sys/kernel/mva_tesst/regulators/buck3_set'
FNSXXWUZFFFNSXXWUZFF 0
root@arm:~# echo 'PJNO''WCMBEU'
PJNOWCMBEU
root@arm:~# MARKER='FUUB''ZNPXQY' run 'i2cget -y -f 1 0x4b 0x14'
FUUBZNPXQY0x87
FUUBZNPXQY 0
root@arm:~# echo 'YAYA''HMTJJT'
YAYAHMTJJT
root@arm:~# MARKER='YENC''KQYBQC' run 'grep -r -l rohm,bd71847 /proc/device-tree  | sed '"'"'s![^/]*$!!'"'"''
YENCKQYBQC/proc/device-tree/ocp/interconnect@48000000/segment@0/target-module@2a000/i2c@0/pmic@4b/
YENCKQYBQC 0
root@arm:~# echo 'KYHP''BGQJAH'
KYHPBGQJAH
root@arm:~# MARKER='ZEPM''CEKJMQ' run 'test -f /proc/device-tree/ocp/interconnectt\@48000000/segment\@0/target-module\@2a000/i2c\@0/pmic\@4b/regulators/BUCK4/roh m,no-regulator-enable-control ;echo $?'
ZEPMCEKJMQ1
ZEPMCEKJMQ 0
root@arm:~# echo 'WZUJ''TPKJSL'
WZUJTPKJSL
root@arm:~# MARKER='LSHG''MCUSGK' run 'i2cget -y -f 1 0x4b 0xa'
LSHGMCUSGK0x02
LSHGMCUSGK 0
root@arm:~# echo 'FEJZ''LJQZGQ'
FEJZLJQZGQ
root@arm:~# MARKER='KQTX''KXUWXX' run 'echo 3000000 3000000 > /sys/kernel/mva_tesst/regulators/buck4_set'
KQTXKXUWXXKQTXKXUWXX 0
root@arm:~# echo 'UQET''XLVYNB'
UQETXLVYNB
root@arm:~# MARKER='XPHQ''PZHNBT' run 'i2cget -y -f 1 0x4b 0x15'
XPHQPZHNBT0x00
XPHQPZHNBT 0
root@arm:~# echo 'AJTB''PKAEJP'
AJTBPKAEJP
root@arm:~# MARKER='JUVA''ZGYTBZ' run 'echo 3100000 3100000 > /sys/kernel/mva_tesst/regulators/buck4_set'
JUVAZGYTBZJUVAZGYTBZ 0
root@arm:~# echo 'GWZT''KHOJEA'
GWZTKHOJEA
root@arm:~# MARKER='CZLJ''NNECUC' run 'i2cget -y -f 1 0x4b 0x15'
CZLJNNECUC0x01
CZLJNNECUC 0
root@arm:~# echo 'NQPB''BSPBSX'
NQPBBSPBSX
root@arm:~# MARKER='ZMAL''AETSXF' run 'echo 3200000 3200000 > /sys/kernel/mva_tesst/regulators/buck4_set'
ZMALAETSXFZMALAETSXF 0
root@arm:~# echo 'AVQA''MCJUZG'
AVQAMCJUZG
root@arm:~# MARKER='OZOX''ZNJMJW' run 'i2cget -y -f 1 0x4b 0x15'
OZOXZNJMJW0x02
OZOXZNJMJW 0
root@arm:~# echo 'ACFZ''CMGTSX'
ACFZCMGTSX
root@arm:~# MARKER='XEOJ''ZYFZHW' run 'echo 3300000 3300000 > /sys/kernel/mva_tesst/regulators/buck4_set'
XEOJZYFZHWXEOJZYFZHW 0
root@arm:~# echo 'KJNA''BSANOG'
KJNABSANOG
root@arm:~# MARKER='QLBK''CGEAAY' run 'i2cget -y -f 1 0x4b 0x15'
QLBKCGEAAY0x03
QLBKCGEAAY 0
root@arm:~# echo 'WKSS''XJJQUV'
WKSSXJJQUV
root@arm:~# MARKER='TYMC''VTBQAL' run 'echo 2600000 2600000 > /sys/kernel/mva_tesst/regulators/buck4_set'
TYMCVTBQALTYMCVTBQAL 0
root@arm:~# echo 'YGKG''VGACCM'
YGKGVGACCM
root@arm:~# MARKER='BESW''ZUTCZB' run 'i2cget -y -f 1 0x4b 0x15'
BESWZUTCZB0x40
BESWZUTCZB 0
root@arm:~# echo 'FGES''KMMXGU'
FGESKMMXGU
root@arm:~# MARKER='ATNY''OBWBUS' run 'echo 2700000 2700000 > /sys/kernel/mva_tesst/regulators/buck4_set'
ATNYOBWBUSATNYOBWBUS 0
root@arm:~# echo 'AKQP''TNGWTQ'
AKQPTNGWTQ
root@arm:~# MARKER='TYTE''OHAJZU' run 'i2cget -y -f 1 0x4b 0x15'
TYTEOHAJZU0x41
TYTEOHAJZU 0
root@arm:~# echo 'TYYT''QOOHHO'
TYYTQOOHHO
root@arm:~# MARKER='YZHO''WHKAJJ' run 'echo 2800000 2800000 > /sys/kernel/mva_tesst/regulators/buck4_set'
YZHOWHKAJJYZHOWHKAJJ 0
root@arm:~# echo 'PNCB''VPXKPP'
PNCBVPXKPP
root@arm:~# MARKER='BEKY''JUHZYE' run 'i2cget -y -f 1 0x4b 0x15'
BEKYJUHZYE0x42
BEKYJUHZYE 0
root@arm:~# echo 'LBGG''HELULM'
LBGGHELULM
root@arm:~# MARKER='YUWB''PVXLYC' run 'echo 2900000 2900000 > /sys/kernel/mva_tesst/regulators/buck4_set'
YUWBPVXLYCYUWBPVXLYC 0
root@arm:~# echo 'POBZ''YZXBXJ'
POBZYZXBXJ
root@arm:~# MARKER='WGVH''CNKCOC' run 'i2cget -y -f 1 0x4b 0x15'
WGVHCNKCOC0x43
WGVHCNKCOC 0
root@arm:~# echo 'CSJS''FSJQVS'
CSJSFSJQVS
root@arm:~# MARKER='BPKS''FJOLQE' run 'grep -r -l rohm,bd71847 /proc/device-tree  | sed '"'"'s![^/]*$!!'"'"''
BPKSFJOLQE/proc/device-tree/ocp/interconnect@48000000/segment@0/target-module@2a000/i2c@0/pmic@4b/
BPKSFJOLQE 0
root@arm:~# echo 'MBTN''NOHKQC'
MBTNNOHKQC
root@arm:~# MARKER='VNCL''XEGOUZ' run 'test -f /proc/device-tree/ocp/interconnectt\@48000000/segment\@0/target-module\@2a000/i2c\@0/pmic\@4b/regulators/BUCK5/rohmm,no-regulator-enable-control ;echo $?'
VNCLXEGOUZ1
VNCLXEGOUZ 0
root@arm:~# echo 'KKFZ''JPVVCV'
KKFZJPVVCV
root@arm:~# MARKER='SJQA''SYLVAY' run 'i2cget -y -f 1 0x4b 0xb'
SJQASYLVAY0x02
SJQASYLVAY 0
root@arm:~# echo 'VWSU''QMQXPV'
VWSUQMQXPV
root@arm:~# MARKER='TZCE''UQKKEW' run 'echo 1605000 1605000 > /sys/kernel/mva_tesst/regulators/buck5_set'
TZCEUQKKEWTZCEUQKKEW 0
root@arm:~# echo 'GTUT''VUGFMF'
GTUTVUGFMF
root@arm:~# MARKER='GQOK''CNWGLV' run 'i2cget -y -f 1 0x4b 0x16'
GQOKCNWGLV0x00
GQOKCNWGLV 0
root@arm:~# echo 'XQJG''VNVBQT'
XQJGVNVBQT
root@arm:~# MARKER='QOAS''QNPOTL' run 'echo 1695000 1695000 > /sys/kernel/mva_tesst/regulators/buck5_set'
QOASQNPOTLQOASQNPOTL 0
root@arm:~# echo 'BMMS''TNYPBC'
BMMSTNYPBC
root@arm:~# MARKER='LWGP''PTVFOL' run 'i2cget -y -f 1 0x4b 0x16'
LWGPPTVFOL0x01
LWGPPTVFOL 0
root@arm:~# echo 'SAUP''QMUJFZ'
SAUPQMUJFZ
root@arm:~# MARKER='NNZC''AWLBLA' run 'echo 1755000 1755000 > /sys/kernel/mva_tesst/regulators/buck5_set'
NNZCAWLBLANNZCAWLBLA 0
root@arm:~# echo 'ONKX''CFNFBJ'
ONKXCFNFBJ
root@arm:~# MARKER='OCJQ''GXTCGO' run 'i2cget -y -f 1 0x4b 0x16'
OCJQGXTCGO0x02
OCJQGXTCGO 0
root@arm:~# echo 'NPMS''TYANHF'
NPMSTYANHF
root@arm:~# MARKER='EFES''QFSZBN' run 'echo 1800000 1800000 > /sys/kernel/mva_tesst/regulators/buck5_set'
EFESQFSZBNEFESQFSZBN 0
root@arm:~# echo 'JJGH''JCUNSC'
JJGHJCUNSC
root@arm:~# MARKER='XYNY''UYJBMM' run 'i2cget -y -f 1 0x4b 0x16'
XYNYUYJBMM0x03
XYNYUYJBMM 0
root@arm:~# echo 'PNLX''HFHBGH'
PNLXHFHBGH
root@arm:~# MARKER='MEBM''XKQCZQ' run 'echo 1845000 1845000 > /sys/kernel/mva_tesst/regulators/buck5_set'
MEBMXKQCZQMEBMXKQCZQ 0
root@arm:~# echo 'WJUA''WXLOMS'
WJUAWXLOMS
root@arm:~# MARKER='BBQW''AGWVHO' run 'i2cget -y -f 1 0x4b 0x16'
BBQWAGWVHO0x04
BBQWAGWVHO 0
root@arm:~# echo 'PTBF''AWBXMT'
PTBFAWBXMT
root@arm:~# MARKER='MTOQ''KMYFPA' run 'echo 1905000 1905000 > /sys/kernel/mva_tesst/regulators/buck5_set'
MTOQKMYFPAMTOQKMYFPA 0
root@arm:~# echo 'KMCF''BVXZFG'
KMCFBVXZFG
root@arm:~# MARKER='XEBM''VBGZXY' run 'i2cget -y -f 1 0x4b 0x16'
XEBMVBGZXY0x05
XEBMVBGZXY 0
root@arm:~# echo 'NXTB''MXEBCP'
NXTBMXEBCP
root@arm:~# MARKER='KEVA''WOAXHV' run 'echo 1950000 1950000 > /sys/kernel/mva_tesst/regulators/buck5_set'
KEVAWOAXHVKEVAWOAXHV 0
root@arm:~# echo 'EOAJ''PZHOAY'
EOAJPZHOAY
root@arm:~# MARKER='YQAB''OUKSXF' run 'i2cget -y -f 1 0x4b 0x16'
YQABOUKSXF0x06
YQABOUKSXF 0
root@arm:~# echo 'SYEP''JOXYWF'
SYEPJOXYWF
root@arm:~# MARKER='BFMN''VEEJNS' run 'echo 1995000 1995000 > /sys/kernel/mva_tesst/regulators/buck5_set'
BFMNVEEJNSBFMNVEEJNS 0
root@arm:~# echo 'TNTY''YUTZBZ'
TNTYYUTZBZ
root@arm:~# MARKER='JWZL''PYLBWU' run 'i2cget -y -f 1 0x4b 0x16'
JWZLPYLBWU0x07
JWZLPYLBWU 0
root@arm:~# echo 'AWPZ''TPUOLK'
AWPZTPUOLK
root@arm:~# MARKER='BLYE''MXGOMB' run 'grep -r -l rohm,bd71847 /proc/device-tree  | sed '"'"'s![^/]*$!!'"'"''
BLYEMXGOMB/proc/device-tree/ocp/interconnect@48000000/segment@0/target-module@2a000/i2c@0/pmic@4b/
BLYEMXGOMB 0
root@arm:~# echo 'CUZF''OHQMQB'
CUZFOHQMQB
root@arm:~# MARKER='GEPY''KMXSQY' run 'test -f /proc/device-tree/ocp/interconnectt\@48000000/segment\@0/target-module\@2a000/i2c\@0/pmic\@4b/regulators/BUCK6/rohmm,no-regulator-enable-control ;echo $?'
GEPYKMXSQY1
GEPYKMXSQY 0
root@arm:~# echo 'TLPJ''UYCZMW'
TLPJUYCZMW
root@arm:~# MARKER='QNBB''KLBMYW' run 'i2cget -y -f 1 0x4b 0xc'
QNBBKLBMYW0x02
QNBBKLBMYW 0
root@arm:~# echo 'PEPP''BUBLEU'
PEPPBUBLEU
root@arm:~# MARKER='SJYO''YWOTWC' run 'echo 800000 800000 > /sys/kernel/mva_test//regulators/buck6_set'
SJYOYWOTWCSJYOYWOTWC 0
root@arm:~# echo 'PVJB''PFTUXP'
PVJBPFTUXP
root@arm:~# MARKER='KGPT''ZABPCY' run 'i2cget -y -f 1 0x4b 0x17'
KGPTZABPCY0x00
KGPTZABPCY 0
root@arm:~# echo 'VUTK''OZEVHM'
VUTKOZEVHM
root@arm:~# MARKER='JMYA''UZFWOX' run 'echo 810000 810000 > /sys/kernel/mva_test//regulators/buck6_set'
JMYAUZFWOXJMYAUZFWOX 0
root@arm:~# echo 'HZWE''HHGFNL'
HZWEHHGFNL
root@arm:~# MARKER='ZJAY''KBMLBL' run 'i2cget -y -f 1 0x4b 0x17'
ZJAYKBMLBL0x01
ZJAYKBMLBL 0
root@arm:~# echo 'SNZG''APVPWL'
SNZGAPVPWL
root@arm:~# MARKER='PEVV''NZBKJM' run 'echo 820000 820000 > /sys/kernel/mva_test//regulators/buck6_set'
PEVVNZBKJMPEVVNZBKJM 0
root@arm:~# echo 'KFMK''TPWYXF'
KFMKTPWYXF
root@arm:~# MARKER='ATVM''UKZATO' run 'i2cget -y -f 1 0x4b 0x17'
ATVMUKZATO0x02
ATVMUKZATO 0
root@arm:~# echo 'MBAN''NWZSPE'
MBANNWZSPE
root@arm:~# MARKER='UNKS''UMAXGU' run 'echo 830000 830000 > /sys/kernel/mva_test//regulators/buck6_set'
UNKSUMAXGUUNKSUMAXGU 0
root@arm:~# echo 'ZVUO''QOHHVM'
ZVUOQOHHVM
root@arm:~# MARKER='NGPZ''YUUAHX' run 'i2cget -y -f 1 0x4b 0x17'
NGPZYUUAHX0x03
NGPZYUUAHX 0
root@arm:~# echo 'NWHC''VQVQVX'
NWHCVQVQVX
root@arm:~# MARKER='FTKC''YUBJOJ' run 'echo 840000 840000 > /sys/kernel/mva_test//regulators/buck6_set'
FTKCYUBJOJFTKCYUBJOJ 0
root@arm:~# echo 'EAJZ''NTKTLH'
EAJZNTKTLH
root@arm:~# MARKER='WGCK''GSMZAJ' run 'i2cget -y -f 1 0x4b 0x17'
WGCKGSMZAJ0x04
WGCKGSMZAJ 0
root@arm:~# echo 'HPNA''BMTSBF'
HPNABMTSBF
root@arm:~# MARKER='HJMJ''GCEMMB' run 'echo 850000 850000 > /sys/kernel/mva_test//regulators/buck6_set'
HJMJGCEMMBHJMJGCEMMB 0
root@arm:~# echo 'KNVJ''KYAKYO'
KNVJKYAKYO
root@arm:~# MARKER='EVYE''GEFMYJ' run 'i2cget -y -f 1 0x4b 0x17'
EVYEGEFMYJ0x05
EVYEGEFMYJ 0
root@arm:~# echo 'BJYT''VSYTVT'
BJYTVSYTVT
root@arm:~# MARKER='VKQF''JVAMWV' run 'echo 860000 860000 > /sys/kernel/mva_test//regulators/buck6_set'
VKQFJVAMWVVKQFJVAMWV 0
root@arm:~# echo 'GAPX''TXQHFL'
GAPXTXQHFL
root@arm:~# MARKER='SYBV''WBSOBH' run 'i2cget -y -f 1 0x4b 0x17'
SYBVWBSOBH0x06
SYBVWBSOBH 0
root@arm:~# echo 'AOCE''ABJPMS'
AOCEABJPMS
root@arm:~# MARKER='WXFM''LWLBOU' run 'echo 870000 870000 > /sys/kernel/mva_test//regulators/buck6_set'
WXFMLWLBOUWXFMLWLBOU 0
root@arm:~# echo 'ZETP''TJEZYS'
ZETPTJEZYS
root@arm:~# MARKER='ZSMO''MZUPMN' run 'i2cget -y -f 1 0x4b 0x17'
ZSMOMZUPMN0x07
ZSMOMZUPMN 0
root@arm:~# echo 'ELAQ''FKXXZY'
ELAQFKXXZY
root@arm:~# MARKER='ZEOG''JNXEEC' run 'echo 880000 880000 > /sys/kernel/mva_test//regulators/buck6_set'
ZEOGJNXEECZEOGJNXEEC 0
root@arm:~# echo 'KMQB''ZOZZJL'
KMQBZOZZJL
root@arm:~# MARKER='QCZC''HFMGYV' run 'i2cget -y -f 1 0x4b 0x17'
QCZCHFMGYV0x08
QCZCHFMGYV 0
root@arm:~# echo 'YMYX''FZQNVC'
YMYXFZQNVC
root@arm:~# MARKER='HGBL''VAQJZM' run 'echo 890000 890000 > /sys/kernel/mva_test//regulators/buck6_set'
HGBLVAQJZMHGBLVAQJZM 0
root@arm:~# echo 'ZULK''LXXETQ'
ZULKLXXETQ
root@arm:~# MARKER='YTJT''BHONJG' run 'i2cget -y -f 1 0x4b 0x17'
YTJTBHONJG0x09
YTJTBHONJG 0
root@arm:~# echo 'UALO''EJVBCM'
UALOEJVBCM
root@arm:~# MARKER='CSZZ''QLGQAS' run 'echo 900000 900000 > /sys/kernel/mva_test//regulators/buck6_set'
CSZZQLGQASCSZZQLGQAS 0
root@arm:~# echo 'NWWO''QLFMKH'
NWWOQLFMKH
root@arm:~# MARKER='OTTX''GMEMCN' run 'i2cget -y -f 1 0x4b 0x17'
OTTXGMEMCN0x0a
OTTXGMEMCN 0
root@arm:~# echo 'NHAT''VVAOAZ'
NHATVVAOAZ
root@arm:~# MARKER='TONK''JYSLJE' run 'echo 910000 910000 > /sys/kernel/mva_test//regulators/buck6_set'
TONKJYSLJETONKJYSLJE 0
root@arm:~# echo 'SUYF''QXTCBB'
SUYFQXTCBB
root@arm:~# MARKER='OGZS''HZJNAA' run 'i2cget -y -f 1 0x4b 0x17'
OGZSHZJNAA0x0b
OGZSHZJNAA 0
root@arm:~# echo 'VNHL''WWSFGA'
VNHLWWSFGA
root@arm:~# MARKER='FZJS''BFXPXS' run 'echo 920000 920000 > /sys/kernel/mva_test//regulators/buck6_set'
FZJSBFXPXSFZJSBFXPXS 0
root@arm:~# echo 'JSPH''JNPYQZ'
JSPHJNPYQZ
root@arm:~# MARKER='YMPS''NQJAAE' run 'i2cget -y -f 1 0x4b 0x17'
YMPSNQJAAE0x0c
YMPSNQJAAE 0
root@arm:~# echo 'QYLK''BSSESG'
QYLKBSSESG
root@arm:~# MARKER='PGVE''GZKOJB' run 'echo 930000 930000 > /sys/kernel/mva_test//regulators/buck6_set'
PGVEGZKOJBPGVEGZKOJB 0
root@arm:~# echo 'NJEW''WOKGCV'
NJEWWOKGCV
root@arm:~# MARKER='AEQX''ZMEZAM' run 'i2cget -y -f 1 0x4b 0x17'
AEQXZMEZAM0x0d
AEQXZMEZAM 0
root@arm:~# echo 'JVKY''XAUFFA'
JVKYXAUFFA
root@arm:~# MARKER='FOQV''UFTHYN' run 'echo 940000 940000 > /sys/kernel/mva_test//regulators/buck6_set'
FOQVUFTHYNFOQVUFTHYN 0
root@arm:~# echo 'PZSH''YVGFWP'
PZSHYVGFWP
root@arm:~# MARKER='HZXJ''SWFTTK' run 'i2cget -y -f 1 0x4b 0x17'
HZXJSWFTTK0x0e
HZXJSWFTTK 0
root@arm:~# echo 'BAEG''VLASEM'
BAEGVLASEM
root@arm:~# MARKER='MLKL''WPPXPL' run 'echo 950000 950000 > /sys/kernel/mva_test//regulators/buck6_set'
MLKLWPPXPLMLKLWPPXPL 0
root@arm:~# echo 'ZVVG''VYVKME'
ZVVGVYVKME
root@arm:~# MARKER='POAJ''YLENMW' run 'i2cget -y -f 1 0x4b 0x17'
POAJYLENMW0x0f
POAJYLENMW 0
root@arm:~# echo 'HLKX''SJLZWF'
HLKXSJLZWF
root@arm:~# MARKER='ZNLC''PCXJZO' run 'echo 960000 960000 > /sys/kernel/mva_test//regulators/buck6_set'
ZNLCPCXJZOZNLCPCXJZO 0
root@arm:~# echo 'XPVQ''NVLGPQ'
XPVQNVLGPQ
root@arm:~# MARKER='FBGY''JMXCUE' run 'i2cget -y -f 1 0x4b 0x17'
FBGYJMXCUE0x10
FBGYJMXCUE 0
root@arm:~# echo 'KYOZ''KZBSYT'
KYOZKZBSYT
root@arm:~# MARKER='VCXK''KWFJPE' run 'echo 970000 970000 > /sys/kernel/mva_test//regulators/buck6_set'
VCXKKWFJPEVCXKKWFJPE 0
root@arm:~# echo 'VMOC''TJXAWT'
VMOCTJXAWT
root@arm:~# MARKER='YAKU''NAUQFY' run 'i2cget -y -f 1 0x4b 0x17'
YAKUNAUQFY0x11
YAKUNAUQFY 0
root@arm:~# echo 'ULPF''JVYNWK'
ULPFJVYNWK
root@arm:~# MARKER='XBEM''QQGAUS' run 'echo 980000 980000 > /sys/kernel/mva_test//regulators/buck6_set'
XBEMQQGAUSXBEMQQGAUS 0
root@arm:~# echo 'FTVF''PEGJGG'
FTVFPEGJGG
root@arm:~# MARKER='HXBT''NQCHJA' run 'i2cget -y -f 1 0x4b 0x17'
HXBTNQCHJA0x12
HXBTNQCHJA 0
root@arm:~# echo 'WBQO''ZSGZXA'
WBQOZSGZXA
root@arm:~# MARKER='UBYB''GZVLOX' run 'echo 990000 990000 > /sys/kernel/mva_test//regulators/buck6_set'
UBYBGZVLOXUBYBGZVLOX 0
root@arm:~# echo 'HNMA''QKMBXY'
HNMAQKMBXY
root@arm:~# MARKER='YOJZ''NVWMHU' run 'i2cget -y -f 1 0x4b 0x17'
YOJZNVWMHU0x13
YOJZNVWMHU 0
root@arm:~# echo 'CUKQ''EYVCLY'
CUKQEYVCLY
root@arm:~# MARKER='TXPJ''YQGCWL' run 'echo 1000000 1000000 > /sys/kernel/mva_tesst/regulators/buck6_set'
TXPJYQGCWLTXPJYQGCWL 0
root@arm:~# echo 'THVL''YTFKSA'
THVLYTFKSA
root@arm:~# MARKER='HZZS''BOBZZX' run 'i2cget -y -f 1 0x4b 0x17'
HZZSBOBZZX0x14
HZZSBOBZZX 0
root@arm:~# echo 'XGAO''TOOHYC'
XGAOTOOHYC
root@arm:~# MARKER='CWYE''XBFXON' run 'echo 1010000 1010000 > /sys/kernel/mva_tesst/regulators/buck6_set'
CWYEXBFXONCWYEXBFXON 0
root@arm:~# echo 'WPWU''GMTBMS'
WPWUGMTBMS
root@arm:~# MARKER='MNEC''WBNHGA' run 'i2cget -y -f 1 0x4b 0x17'
MNECWBNHGA0x15
MNECWBNHGA 0
root@arm:~# echo 'KBSS''ZTCAHB'
KBSSZTCAHB
root@arm:~# MARKER='XCEJ''OPPLKA' run 'echo 1020000 1020000 > /sys/kernel/mva_tesst/regulators/buck6_set'
XCEJOPPLKAXCEJOPPLKA 0
root@arm:~# echo 'SUYX''MQJKJE'
SUYXMQJKJE
root@arm:~# MARKER='HGXX''TLOUMT' run 'i2cget -y -f 1 0x4b 0x17'
HGXXTLOUMT0x16
HGXXTLOUMT 0
root@arm:~# echo 'ZJGJ''MPJXFZ'
ZJGJMPJXFZ
root@arm:~# MARKER='VBYF''JHUXAW' run 'echo 1030000 1030000 > /sys/kernel/mva_tesst/regulators/buck6_set'
VBYFJHUXAWVBYFJHUXAW 0
root@arm:~# echo 'ZXLY''VTBCYL'
ZXLYVTBCYL
root@arm:~# MARKER='ZPUB''MGAKQG' run 'i2cget -y -f 1 0x4b 0x17'
ZPUBMGAKQG0x17
ZPUBMGAKQG 0
root@arm:~# echo 'MYHS''CPWJMK'
MYHSCPWJMK
root@arm:~# MARKER='SWUH''HNZCTY' run 'echo 1040000 1040000 > /sys/kernel/mva_tesst/regulators/buck6_set'
SWUHHNZCTYSWUHHNZCTY 0
root@arm:~# echo 'GQGF''OZALXS'
GQGFOZALXS
root@arm:~# MARKER='VQFT''NPPJHW' run 'i2cget -y -f 1 0x4b 0x17'
VQFTNPPJHW0x18
VQFTNPPJHW 0
root@arm:~# echo 'TNYP''ETZJVY'
TNYPETZJVY
root@arm:~# MARKER='NNWT''BGUSPE' run 'echo 1050000 1050000 > /sys/kernel/mva_tesst/regulators/buck6_set'
NNWTBGUSPENNWTBGUSPE 0
root@arm:~# echo 'UOEZ''TBBMHG'
UOEZTBBMHG
root@arm:~# MARKER='MTJC''KTSHAL' run 'i2cget -y -f 1 0x4b 0x17'
MTJCKTSHAL0x19
MTJCKTSHAL 0
root@arm:~# echo 'PMSQ''FHKAFC'
PMSQFHKAFC
root@arm:~# MARKER='ZJFT''UOSJGY' run 'echo 1060000 1060000 > /sys/kernel/mva_tesst/regulators/buck6_set'
ZJFTUOSJGYZJFTUOSJGY 0
root@arm:~# echo 'YUXA''CVVKWA'
YUXACVVKWA
root@arm:~# MARKER='THLQ''ACZPGX' run 'i2cget -y -f 1 0x4b 0x17'
THLQACZPGX0x1a
THLQACZPGX 0
root@arm:~# echo 'NNXM''CLKGJA'
NNXMCLKGJA
root@arm:~# MARKER='NNSE''YGXSAY' run 'echo 1070000 1070000 > /sys/kernel/mva_tesst/regulators/buck6_set'
NNSEYGXSAYNNSEYGXSAY 0
root@arm:~# echo 'WZLE''SBVZKU'
WZLESBVZKU
root@arm:~# MARKER='JJBB''MFYEWC' run 'i2cget -y -f 1 0x4b 0x17'
JJBBMFYEWC0x1b
JJBBMFYEWC 0
root@arm:~# echo 'VTFF''XHKPTK'
VTFFXHKPTK
root@arm:~# MARKER='WNNP''UQTPEK' run 'echo 1080000 1080000 > /sys/kernel/mva_tesst/regulators/buck6_set'
WNNPUQTPEKWNNPUQTPEK 0
root@arm:~# echo 'KCHQ''YNCUYS'
KCHQYNCUYS
root@arm:~# MARKER='AYJN''NNEKXW' run 'i2cget -y -f 1 0x4b 0x17'
AYJNNNEKXW0x1c
AYJNNNEKXW 0
root@arm:~# echo 'OCXJ''KBGECM'
OCXJKBGECM
root@arm:~# MARKER='BXWF''AFGVPM' run 'echo 1090000 1090000 > /sys/kernel/mva_tesst/regulators/buck6_set'
BXWFAFGVPMBXWFAFGVPM 0
root@arm:~# echo 'SEOA''SEZYMB'
SEOASEZYMB
root@arm:~# MARKER='MEVG''NXFJCJ' run 'i2cget -y -f 1 0x4b 0x17'
MEVGNXFJCJ0x1d
MEVGNXFJCJ 0
root@arm:~# echo 'JBZQ''KQYXTL'
JBZQKQYXTL
root@arm:~# MARKER='NOJE''SPXLWX' run 'echo 1100000 1100000 > /sys/kernel/mva_tesst/regulators/buck6_set'
NOJESPXLWXNOJESPXLWX 0
root@arm:~# echo 'NFYU''MQFWTV'
NFYUMQFWTV
root@arm:~# MARKER='TSUL''VBKLVF' run 'i2cget -y -f 1 0x4b 0x17'
TSULVBKLVF0x1e
TSULVBKLVF 0
root@arm:~# echo 'FMBF''OHBAXB'
FMBFOHBAXB
root@arm:~# MARKER='MYQN''AGJQBZ' run 'echo 1110000 1110000 > /sys/kernel/mva_tesst/regulators/buck6_set'
MYQNAGJQBZMYQNAGJQBZ 0
root@arm:~# echo 'XZMY''HCECVU'
XZMYHCECVU
root@arm:~# MARKER='NZFK''ALSYLV' run 'i2cget -y -f 1 0x4b 0x17'
NZFKALSYLV0x1f
NZFKALSYLV 0
root@arm:~# echo 'NOVY''QOPJAY'
NOVYQOPJAY
root@arm:~# MARKER='OQWH''SCXBYY' run 'echo 1120000 1120000 > /sys/kernel/mva_tesst/regulators/buck6_set'
OQWHSCXBYYOQWHSCXBYY 0
root@arm:~# echo 'GLJF''EBTFUP'
GLJFEBTFUP
root@arm:~# MARKER='EVYG''OWJBLV' run 'i2cget -y -f 1 0x4b 0x17'
EVYGOWJBLV0x20
EVYGOWJBLV 0
root@arm:~# echo 'YXCG''QABPNS'
YXCGQABPNS
root@arm:~# MARKER='HKQE''GSHJBK' run 'echo 1130000 1130000 > /sys/kernel/mva_tesst/regulators/buck6_set'
HKQEGSHJBKHKQEGSHJBK 0
root@arm:~# echo 'CZSX''LFFOLM'
CZSXLFFOLM
root@arm:~# MARKER='PPCU''NWYYFY' run 'i2cget -y -f 1 0x4b 0x17'
PPCUNWYYFY0x21
PPCUNWYYFY 0
root@arm:~# echo 'LFHU''YFEMHM'
LFHUYFEMHM
root@arm:~# MARKER='JSAC''CTZLSP' run 'echo 1140000 1140000 > /sys/kernel/mva_tesst/regulators/buck6_set'
JSACCTZLSPJSACCTZLSP 0
root@arm:~# echo 'WHLX''NUGOKT'
WHLXNUGOKT
root@arm:~# MARKER='FVGJ''EJNXLV' run 'i2cget -y -f 1 0x4b 0x17'
FVGJEJNXLV0x22
FVGJEJNXLV 0
root@arm:~# echo 'LAQW''CBXOAK'
LAQWCBXOAK
root@arm:~# MARKER='JHYX''LSVPKV' run 'echo 1150000 1150000 > /sys/kernel/mva_tesst/regulators/buck6_set'
JHYXLSVPKVJHYXLSVPKV 0
root@arm:~# echo 'VWPF''JOXTWH'
VWPFJOXTWH
root@arm:~# MARKER='SOJH''AKANOC' run 'i2cget -y -f 1 0x4b 0x17'
SOJHAKANOC0x23
SOJHAKANOC 0
root@arm:~# echo 'PNPX''HBXKFL'
PNPXHBXKFL
root@arm:~# MARKER='BOSF''ELJUQA' run 'echo 1160000 1160000 > /sys/kernel/mva_tesst/regulators/buck6_set'
BOSFELJUQABOSFELJUQA 0
root@arm:~# echo 'CTTM''CAHXBG'
CTTMCAHXBG
root@arm:~# MARKER='HUXS''MNXAYE' run 'i2cget -y -f 1 0x4b 0x17'
HUXSMNXAYE0x24
HUXSMNXAYE 0
root@arm:~# echo 'WFJF''FBPXQL'
WFJFFBPXQL
root@arm:~# MARKER='VMVH''TCXYAS' run 'echo 1170000 1170000 > /sys/kernel/mva_tesst/regulators/buck6_set'
VMVHTCXYASVMVHTCXYAS 0
root@arm:~# echo 'PQKB''PLXVPB'
PQKBPLXVPB
root@arm:~# MARKER='GSXM''HNJMHQ' run 'i2cget -y -f 1 0x4b 0x17'
GSXMHNJMHQ0x25
GSXMHNJMHQ 0
root@arm:~# echo 'JPJL''JXKYMU'
JPJLJXKYMU
root@arm:~# MARKER='QCWX''AFMCCB' run 'echo 1180000 1180000 > /sys/kernel/mva_tesst/regulators/buck6_set'
QCWXAFMCCBQCWXAFMCCB 0
root@arm:~# echo 'XCBC''HSMBKQ'
XCBCHSMBKQ
root@arm:~# MARKER='FMTX''UTZKXY' run 'i2cget -y -f 1 0x4b 0x17'
FMTXUTZKXY0x26
FMTXUTZKXY 0
root@arm:~# echo 'YSLT''AGTQQA'
YSLTAGTQQA
root@arm:~# MARKER='JJPW''MVBYNO' run 'echo 1190000 1190000 > /sys/kernel/mva_tesst/regulators/buck6_set'
JJPWMVBYNOJJPWMVBYNO 0
root@arm:~# echo 'OEKU''XAQQLJ'
OEKUXAQQLJ
root@arm:~# MARKER='FPZC''ZTZPEP' run 'i2cget -y -f 1 0x4b 0x17'
FPZCZTZPEP0x27
FPZCZTZPEP 0
root@arm:~# echo 'YMXX''BUFFXC'
YMXXBUFFXC
root@arm:~# MARKER='XVVE''MBHUQY' run 'echo 1200000 1200000 > /sys/kernel/mva_tesst/regulators/buck6_set'
XVVEMBHUQYXVVEMBHUQY 0
root@arm:~# echo 'TLXC''PFCJLK'
TLXCPFCJLK
root@arm:~# MARKER='JXQC''UHFQVK' run 'i2cget -y -f 1 0x4b 0x17'
JXQCUHFQVK0x28
JXQCUHFQVK 0
root@arm:~# echo 'NZSX''KEXPJU'
NZSXKEXPJU
root@arm:~# MARKER='TKNL''SNQGCX' run 'echo 1210000 1210000 > /sys/kernel/mva_tesst/regulators/buck6_set'
TKNLSNQGCXTKNLSNQGCX 0
root@arm:~# echo 'CFFS''ZBQEFL'
CFFSZBQEFL
root@arm:~# MARKER='GHGK''YVLWJO' run 'i2cget -y -f 1 0x4b 0x17'
GHGKYVLWJO0x29
GHGKYVLWJO 0
root@arm:~# echo 'YJWM''HOZBGQ'
YJWMHOZBGQ
root@arm:~# MARKER='WHTK''ZPVUOW' run 'echo 1220000 1220000 > /sys/kernel/mva_tesst/regulators/buck6_set'
WHTKZPVUOWWHTKZPVUOW 0
root@arm:~# echo 'LOBN''PFXOFG'
LOBNPFXOFG
root@arm:~# MARKER='NUJP''VYMUJP' run 'i2cget -y -f 1 0x4b 0x17'
NUJPVYMUJP0x2a
NUJPVYMUJP 0
root@arm:~# echo 'VSAP''GHSJBS'
VSAPGHSJBS
root@arm:~# MARKER='JVPA''MLGTYT' run 'echo 1230000 1230000 > /sys/kernel/mva_tesst/regulators/buck6_set'
JVPAMLGTYTJVPAMLGTYT 0
root@arm:~# echo 'XZJW''NUCKBF'
XZJWNUCKBF
root@arm:~# MARKER='POFU''QQLHHX' run 'i2cget -y -f 1 0x4b 0x17'
POFUQQLHHX0x2b
POFUQQLHHX 0
root@arm:~# echo 'EXES''SJSAWV'
EXESSJSAWV
root@arm:~# MARKER='ZCWF''YPVZWM' run 'echo 1240000 1240000 > /sys/kernel/mva_tesst/regulators/buck6_set'
ZCWFYPVZWMZCWFYPVZWM 0
root@arm:~# echo 'WXCG''VKUKTP'
WXCGVKUKTP
root@arm:~# MARKER='GZGY''HQPZQU' run 'i2cget -y -f 1 0x4b 0x17'
GZGYHQPZQU0x2c
GZGYHQPZQU 0
root@arm:~# echo 'FQTP''OGJJAW'
FQTPOGJJAW
root@arm:~# MARKER='ZLOP''ZEKSZZ' run 'echo 1250000 1250000 > /sys/kernel/mva_tesst/regulators/buck6_set'
ZLOPZEKSZZZLOPZEKSZZ 0
root@arm:~# echo 'VAOV''SNOLEC'
VAOVSNOLEC
root@arm:~# MARKER='YJCP''NWNLTV' run 'i2cget -y -f 1 0x4b 0x17'
YJCPNWNLTV0x2d
YJCPNWNLTV 0
root@arm:~# echo 'PCTA''UUBQKG'
PCTAUUBQKG
root@arm:~# MARKER='SXKO''UOVXNL' run 'echo 1260000 1260000 > /sys/kernel/mva_tesst/regulators/buck6_set'
SXKOUOVXNLSXKOUOVXNL 0
root@arm:~# echo 'NKSA''LPBBMU'
NKSALPBBMU
root@arm:~# MARKER='QSUK''WEJYAY' run 'i2cget -y -f 1 0x4b 0x17'
QSUKWEJYAY0x2e
QSUKWEJYAY 0
root@arm:~# echo 'TPQS''NZOGML'
TPQSNZOGML
root@arm:~# MARKER='STMS''CQVCKV' run 'echo 1270000 1270000 > /sys/kernel/mva_tesst/regulators/buck6_set'
STMSCQVCKVSTMSCQVCKV 0
root@arm:~# echo 'XTVV''GSYWXL'
XTVVGSYWXL
root@arm:~# MARKER='JVOG''LCYZFS' run 'i2cget -y -f 1 0x4b 0x17'
JVOGLCYZFS0x2f
JVOGLCYZFS 0
root@arm:~# echo 'EZUK''KABVTJ'
EZUKKABVTJ
root@arm:~# MARKER='JTVB''FQFSBT' run 'echo 1280000 1280000 > /sys/kernel/mva_tesst/regulators/buck6_set'
JTVBFQFSBTJTVBFQFSBT 0
root@arm:~# echo 'PJNF''BBXGBC'
PJNFBBXGBC
root@arm:~# MARKER='OMET''KTZLWN' run 'i2cget -y -f 1 0x4b 0x17'
OMETKTZLWN0x30
OMETKTZLWN 0
root@arm:~# echo 'UHEW''CMWXCJ'
UHEWCMWXCJ
root@arm:~# MARKER='TBCW''TXGKNN' run 'echo 1290000 1290000 > /sys/kernel/mva_tesst/regulators/buck6_set'
TBCWTXGKNNTBCWTXGKNN 0
root@arm:~# echo 'LZBY''OHJSNG'
LZBYOHJSNG
root@arm:~# MARKER='PHFL''EFXBLN' run 'i2cget -y -f 1 0x4b 0x17'
PHFLEFXBLN0x31
PHFLEFXBLN 0
root@arm:~# echo 'XLXW''JQJZKN'
XLXWJQJZKN
root@arm:~# MARKER='XCXU''PFJJLU' run 'echo 1300000 1300000 > /sys/kernel/mva_tesst/regulators/buck6_set'
XCXUPFJJLUXCXUPFJJLU 0
root@arm:~# echo 'UTCA''SHACUF'
UTCASHACUF
root@arm:~# MARKER='QNPB''KBLVFE' run 'i2cget -y -f 1 0x4b 0x17'
QNPBKBLVFE0x32
QNPBKBLVFE 0
root@arm:~# echo 'NETC''NKQZJF'
NETCNKQZJF
root@arm:~# MARKER='GGHH''AYHBJL' run 'echo 1310000 1310000 > /sys/kernel/mva_tesst/regulators/buck6_set'
GGHHAYHBJLGGHHAYHBJL 0
root@arm:~# echo 'EHNU''EYSXSF'
EHNUEYSXSF
root@arm:~# MARKER='OUYH''XZOKWT' run 'i2cget -y -f 1 0x4b 0x17'
OUYHXZOKWT0x33
OUYHXZOKWT 0
root@arm:~# echo 'NZUH''XSVKYC'
NZUHXSVKYC
root@arm:~# MARKER='YGBG''AGPXWJ' run 'echo 1320000 1320000 > /sys/kernel/mva_tesst/regulators/buck6_set'
YGBGAGPXWJYGBGAGPXWJ 0
root@arm:~# echo 'NFKW''YSNJST'
NFKWYSNJST
root@arm:~# MARKER='CWZY''LQOSQB' run 'i2cget -y -f 1 0x4b 0x17'
CWZYLQOSQB0x34
CWZYLQOSQB 0
root@arm:~# echo 'UGFE''QXFBOY'
UGFEQXFBOY
root@arm:~# MARKER='KBKN''GGLGSA' run 'echo 1330000 1330000 > /sys/kernel/mva_tesst/regulators/buck6_set'
KBKNGGLGSAKBKNGGLGSA 0
root@arm:~# echo 'ZNBB''YTBCNT'
ZNBBYTBCNT
root@arm:~# MARKER='PNYQ''PQZAQV' run 'i2cget -y -f 1 0x4b 0x17'
PNYQPQZAQV0x35
PNYQPQZAQV 0
root@arm:~# echo 'XNXV''SXNVOS'
XNXVSXNVOS
root@arm:~# MARKER='WJAF''KFYNOJ' run 'echo 1340000 1340000 > /sys/kernel/mva_tesst/regulators/buck6_set'
WJAFKFYNOJWJAFKFYNOJ 0
root@arm:~# echo 'WPOT''WEUHBB'
WPOTWEUHBB
root@arm:~# MARKER='FLUQ''UNNVMP' run 'i2cget -y -f 1 0x4b 0x17'
FLUQUNNVMP0x36
FLUQUNNVMP 0
root@arm:~# echo 'VBPP''BQNMQN'
VBPPBQNMQN
root@arm:~# MARKER='JOPZ''BZEHAU' run 'echo 1350000 1350000 > /sys/kernel/mva_tesst/regulators/buck6_set'
JOPZBZEHAUJOPZBZEHAU 0
root@arm:~# echo 'CNML''OLULOH'
CNMLOLULOH
root@arm:~# MARKER='OCTO''OFHGOT' run 'i2cget -y -f 1 0x4b 0x17'
OCTOOFHGOT0x37
OCTOOFHGOT 0
root@arm:~# echo 'LCQA''BGMJYH'
LCQABGMJYH
root@arm:~# MARKER='OAQY''LBOQZL' run 'echo 1360000 1360000 > /sys/kernel/mva_tesst/regulators/buck6_set'
OAQYLBOQZLOAQYLBOQZL 0
root@arm:~# echo 'NLAZ''ZCSKVH'
NLAZZCSKVH
root@arm:~# MARKER='TCMJ''BGGAZN' run 'i2cget -y -f 1 0x4b 0x17'
TCMJBGGAZN0x38
TCMJBGGAZN 0
root@arm:~# echo 'OOSB''BTYUAJ'
OOSBBTYUAJ
root@arm:~# MARKER='XWNX''MXCOES' run 'echo 1370000 1370000 > /sys/kernel/mva_tesst/regulators/buck6_set'
XWNXMXCOESXWNXMXCOES 0
root@arm:~# echo 'HLQG''QFSGPK'
HLQGQFSGPK
root@arm:~# MARKER='GPYH''PMJAWS' run 'i2cget -y -f 1 0x4b 0x17'
GPYHPMJAWS0x39
GPYHPMJAWS 0
root@arm:~# echo 'VCGZ''HOEUCJ'
VCGZHOEUCJ
root@arm:~# MARKER='FSKW''PWTXUY' run 'echo 1380000 1380000 > /sys/kernel/mva_tesst/regulators/buck6_set'
FSKWPWTXUYFSKWPWTXUY 0
root@arm:~# echo 'PUNK''QTFPNV'
PUNKQTFPNV
root@arm:~# MARKER='QCPH''JYUGYA' run 'i2cget -y -f 1 0x4b 0x17'
QCPHJYUGYA0x3a
QCPHJYUGYA 0
root@arm:~# echo 'SMZK''ACLVSF'
SMZKACLVSF
root@arm:~# MARKER='FQXW''EOUTSF' run 'echo 1390000 1390000 > /sys/kernel/mva_tesst/regulators/buck6_set'
FQXWEOUTSFFQXWEOUTSF 0
root@arm:~# echo 'VFCQ''PWUAHH'
VFCQPWUAHH
root@arm:~# MARKER='KLNQ''VMTPAV' run 'i2cget -y -f 1 0x4b 0x17'
KLNQVMTPAV0x3b
KLNQVMTPAV 0
root@arm:~# echo 'LJTS''QKUVGS'
LJTSQKUVGS
root@arm:~# MARKER='HBKM''ZAZPGX' run 'echo 1400000 1400000 > /sys/kernel/mva_tesst/regulators/buck6_set'
HBKMZAZPGXHBKMZAZPGX 0
root@arm:~# echo 'UBKY''JEVSEM'
UBKYJEVSEM
root@arm:~# MARKER='OMWU''VNYSZM' run 'i2cget -y -f 1 0x4b 0x17'
OMWUVNYSZM0x3c
OMWUVNYSZM 0
root@arm:~# echo 'EWGJ''THQPBL'
EWGJTHQPBL
root@arm:~# MARKER='YAPQ''GTLLMH' run 'grep -r -l rohm,bd71847 /proc/device-tree  | sed '"'"'s![^/]*$!!'"'"''
YAPQGTLLMH/proc/device-tree/ocp/interconnect@48000000/segment@0/target-module@2a000/i2c@0/pmic@4b/
YAPQGTLLMH 0
root@arm:~# echo 'HNFP''XSAZYG'
HNFPXSAZYG
root@arm:~# MARKER='JYAL''MOAACV' run 'test -f /proc/device-tree/ocp/interconnectt\@48000000/segment\@0/target-module\@2a000/i2c\@0/pmic\@4b/regulators/LDO1/rohm,,no-regulator-enable-control ;echo $?'
JYALMOAACV1
JYALMOAACV 0
root@arm:~# echo 'ZUCU''ECLQMF'
ZUCUECLQMF
root@arm:~# MARKER='TEZW''AVALZY' run 'i2cget -y -f 1 0x4b 0x18'
TEZWAVALZY0xa2
TEZWAVALZY 0
root@arm:~# echo 'NSXA''LLBZZE'
NSXALLBZZE
