Labgrid Console Logfile for main
Logfile started at 2026-02-18 16:46:22.210141
=== Log starts here ===

root@arm:~# run() { echo -n "$MARKER"; sh -c "$@"; echo "$MARKER $?"; }
root@arm:~# echo 'CSXM''CTVQCT'
CSXMCTVQCT
root@arm:~# MARKER='NFUY''PACLNU' run 'grep -r -l rohm,bd71837 /proc/device-tree  | sed '"'"'s![^/]*$!!'"'"''
NFUYPACLNU/proc/device-tree/ocp/interconnect@48000000/segment@100000/target-module@9c000/i2c@0/pmic@4b/
NFUYPACLNU 0
root@arm:~# echo 'KXEN''LKOJMT'
KXENLKOJMT
root@arm:~# MARKER='HAZS''MACWLU' run 'test -f /proc/device-tree/ocp/interconnectt\@48000000/segment\@100000/target-module\@9c000/i2c\@0/pmic\@4b/regulators/BUCK11/rohm,no-regulator-enable-control ;echo $?'
HAZSMACWLU1
HAZSMACWLU 0
root@arm:~# echo 'UGXC''JNTQSO'
UGXCJNTQSO
root@arm:~# MARKER='BABS''GJWCTG' run 'echo 1 > /sys/kernel/mva_test/regulators/bbuck1_en'
BABSGJWCTGBABSGJWCTG 0
root@arm:~# echo 'YQNA''QOPEJT'
YQNAQOPEJT
root@arm:~# MARKER='BNZW''LMSCJL' run 'i2cget -y -f 2 0x4b 0x5'
BNZWLMSCJL0x03
BNZWLMSCJL 0
root@arm:~# echo 'USFB''MYHJTC'
USFBMYHJTC
root@arm:~# MARKER='NCZL''WBJNZY' run 'grep -r -l rohm,bd71837 /proc/device-tree  | sed '"'"'s![^/]*$!!'"'"''
NCZLWBJNZY/proc/device-tree/ocp/interconnect@48000000/segment@100000/target-module@9c000/i2c@0/pmic@4b/
NCZLWBJNZY 0
root@arm:~# echo 'EPGA''VKKZNM'
EPGAVKKZNM
root@arm:~# MARKER='QPWF''HSKSWO' run 'test -f /proc/device-tree/ocp/interconnectt\@48000000/segment\@100000/target-module\@9c000/i2c\@0/pmic\@4b/regulators/BUCK11/rohm,no-regulator-enable-control ;echo $?'
QPWFHSKSWO1
QPWFHSKSWO 0
root@arm:~# echo 'YWGS''AYTMYW'
YWGSAYTMYW
root@arm:~# MARKER='QPGQ''SUHXQM' run 'grep -r -l rohm,bd71837 /proc/device-tree  | sed '"'"'s![^/]*$!!'"'"''
QPGQSUHXQM/proc/device-tree/ocp/interconnect@48000000/segment@100000/target-module@9c000/i2c@0/pmic@4b/
QPGQSUHXQM 0
root@arm:~# echo 'LCKF''ZQGEOQ'
LCKFZQGEOQ
root@arm:~# MARKER='XYOQ''XFPXOX' run 'test -f /proc/device-tree/ocp/interconnectt\@48000000/segment\@100000/target-module\@9c000/i2c\@0/pmic\@4b/regulators/BUCK11/regulator-always-on ;echo $?'
XYOQXFPXOX1
XYOQXFPXOX 0
root@arm:~# echo 'NULK''TUSYOV'
NULKTUSYOV
root@arm:~# MARKER='HJWH''YHNVFQ' run 'echo 0 > /sys/kernel/mva_test/regulators/bbuck1_en'
HJWHYHNVFQHJWHYHNVFQ 0
root@arm:~# echo 'SMEX''BUOSCN'
SMEXBUOSCN
root@arm:~# MARKER='MMSF''ZZHBUH' run 'i2cget -y -f 2 0x4b 0x5'
MMSFZZHBUH0x02
MMSFZZHBUH 0
root@arm:~# echo 'HTQY''MXNEEX'
HTQYMXNEEX
root@arm:~# MARKER='MTUW''HQJKCB' run 'grep -r -l rohm,bd71837 /proc/device-tree  | sed '"'"'s![^/]*$!!'"'"''
MTUWHQJKCB/proc/device-tree/ocp/interconnect@48000000/segment@100000/target-module@9c000/i2c@0/pmic@4b/
MTUWHQJKCB 0
root@arm:~# echo 'XNOV''XHFYMK'
XNOVXHFYMK
root@arm:~# MARKER='HNCF''QSCOZO' run 'test -f /proc/device-tree/ocp/interconnectt\@48000000/segment\@100000/target-module\@9c000/i2c\@0/pmic\@4b/regulators/BUCK22/rohm,no-regulator-enable-control ;echo $?'
HNCFQSCOZO1
HNCFQSCOZO 0
root@arm:~# echo 'JHHL''YTMXXK'
JHHLYTMXXK
root@arm:~# MARKER='MLEB''KWVPAA' run 'echo 1 > /sys/kernel/mva_test/regulators/bbuck2_en'
MLEBKWVPAAMLEBKWVPAA 0
root@arm:~# echo 'ZBBG''KPVBWA'
ZBBGKPVBWA
root@arm:~# MARKER='ETUV''MLNQNO' run 'i2cget -y -f 2 0x4b 0x6'
ETUVMLNQNO0x43
ETUVMLNQNO 0
root@arm:~# echo 'SGLY''ACAGBC'
SGLYACAGBC
root@arm:~# MARKER='CCHE''NYZNZP' run 'grep -r -l rohm,bd71837 /proc/device-tree  | sed '"'"'s![^/]*$!!'"'"''
CCHENYZNZP/proc/device-tree/ocp/interconnect@48000000/segment@100000/target-module@9c000/i2c@0/pmic@4b/
CCHENYZNZP 0
root@arm:~# echo 'GPQA''UEMHYB'
GPQAUEMHYB
root@arm:~# MARKER='MTSZ''MFQXPG' run 'test -f /proc/device-tree/ocp/interconnectt\@48000000/segment\@100000/target-module\@9c000/i2c\@0/pmic\@4b/regulators/BUCK22/rohm,no-regulator-enable-control ;echo $?'
MTSZMFQXPG1
MTSZMFQXPG 0
root@arm:~# echo 'TQFO''GYGGWV'
TQFOGYGGWV
root@arm:~# MARKER='UQWG''VLTWSK' run 'grep -r -l rohm,bd71837 /proc/device-tree  | sed '"'"'s![^/]*$!!'"'"''
UQWGVLTWSK/proc/device-tree/ocp/interconnect@48000000/segment@100000/target-module@9c000/i2c@0/pmic@4b/
UQWGVLTWSK 0
root@arm:~# echo 'EPOP''GGEYSV'
EPOPGGEYSV
root@arm:~# MARKER='WAMJ''JOFAKF' run 'test -f /proc/device-tree/ocp/interconnectt\@48000000/segment\@100000/target-module\@9c000/i2c\@0/pmic\@4b/regulators/BUCK22/regulator-always-on ;echo $?'
WAMJJOFAKF0
WAMJJOFAKF 0
root@arm:~# echo 'VTEW''QHSHAS'
VTEWQHSHAS
root@arm:~# MARKER='UVVP''UZPMNT' run 'grep -r -l rohm,bd71837 /proc/device-tree  | sed '"'"'s![^/]*$!!'"'"''
UVVPUZPMNT/proc/device-tree/ocp/interconnect@48000000/segment@100000/target-module@9c000/i2c@0/pmic@4b/
UVVPUZPMNT 0
root@arm:~# echo 'EHHL''BFFZGG'
EHHLBFFZGG
root@arm:~# MARKER='NHLX''GKMXNM' run 'test -f /proc/device-tree/ocp/interconnectt\@48000000/segment\@100000/target-module\@9c000/i2c\@0/pmic\@4b/regulators/BUCK33/rohm,no-regulator-enable-control ;echo $?'
NHLXGKMXNM0
NHLXGKMXNM 0
root@arm:~# echo 'PCXQ''OFEXYB'
PCXQOFEXYB
root@arm:~# MARKER='CSAL''FNBANF' run 'grep -r -l rohm,bd71837 /proc/device-tree  | sed '"'"'s![^/]*$!!'"'"''
CSALFNBANF/proc/device-tree/ocp/interconnect@48000000/segment@100000/target-module@9c000/i2c@0/pmic@4b/
CSALFNBANF 0
root@arm:~# echo 'VPXM''XXFBUG'
VPXMXXFBUG
root@arm:~# MARKER='OFNS''AHLFLV' run 'test -f /proc/device-tree/ocp/interconnectt\@48000000/segment\@100000/target-module\@9c000/i2c\@0/pmic\@4b/regulators/BUCK33/rohm,no-regulator-enable-control ;echo $?'
OFNSAHLFLV0
OFNSAHLFLV 0
root@arm:~# echo 'FUAL''UKWKXA'
FUALUKWKXA
root@arm:~# MARKER='GQZS''NFCEYL' run 'grep -r -l rohm,bd71837 /proc/device-tree  | sed '"'"'s![^/]*$!!'"'"''
GQZSNFCEYL/proc/device-tree/ocp/interconnect@48000000/segment@100000/target-module@9c000/i2c@0/pmic@4b/
GQZSNFCEYL 0
root@arm:~# echo 'NXFG''OGGYCZ'
NXFGOGGYCZ
root@arm:~# MARKER='MXKT''MNKUSB' run 'test -f /proc/device-tree/ocp/interconnectt\@48000000/segment\@100000/target-module\@9c000/i2c\@0/pmic\@4b/regulators/BUCK44/rohm,no-regulator-enable-control ;echo $?'
MXKTMNKUSB1
MXKTMNKUSB 0
root@arm:~# echo 'GYNU''JHNJQL'
GYNUJHNJQL
root@arm:~# MARKER='HFZP''SATUEM' run 'echo 1 > /sys/kernel/mva_test/regulators/bbuck4_en'
HFZPSATUEMHFZPSATUEM 0
root@arm:~# echo 'EVFW''GQFSFE'
EVFWGQFSFE
root@arm:~# MARKER='CAJF''QKFXWT' run 'i2cget -y -f 2 0x4b 0x8'
CAJFQKFXWT0xc7
CAJFQKFXWT 0
root@arm:~# echo 'VUWS''UUSGBM'
VUWSUUSGBM
root@arm:~# MARKER='XVTN''ZGUPZV' run 'grep -r -l rohm,bd71837 /proc/device-tree  | sed '"'"'s![^/]*$!!'"'"''
XVTNZGUPZV/proc/device-tree/ocp/interconnect@48000000/segment@100000/target-module@9c000/i2c@0/pmic@4b/
XVTNZGUPZV 0
root@arm:~# echo 'FCVG''PJGGWL'
FCVGPJGGWL
root@arm:~# MARKER='CFXC''MPKFSA' run 'test -f /proc/device-tree/ocp/interconnectt\@48000000/segment\@100000/target-module\@9c000/i2c\@0/pmic\@4b/regulators/BUCK44/rohm,no-regulator-enable-control ;echo $?'
CFXCMPKFSA1
CFXCMPKFSA 0
root@arm:~# echo 'YBWO''ANPXEE'
YBWOANPXEE
root@arm:~# MARKER='EVPZ''MKHUTJ' run 'grep -r -l rohm,bd71837 /proc/device-tree  | sed '"'"'s![^/]*$!!'"'"''
EVPZMKHUTJ/proc/device-tree/ocp/interconnect@48000000/segment@100000/target-module@9c000/i2c@0/pmic@4b/
EVPZMKHUTJ 0
root@arm:~# echo 'KUMN''VGOATP'
KUMNVGOATP
root@arm:~# MARKER='TOBS''OTVMSW' run 'test -f /proc/device-tree/ocp/interconnectt\@48000000/segment\@100000/target-module\@9c000/i2c\@0/pmic\@4b/regulators/BUCK44/regulator-always-on ;echo $?'
TOBSOTVMSW1
TOBSOTVMSW 0
root@arm:~# echo 'ZWBB''BCXYFV'
ZWBBBCXYFV
root@arm:~# MARKER='HHTN''GTZEAL' run 'echo 0 > /sys/kernel/mva_test/regulators/bbuck4_en'
HHTNGTZEALHHTNGTZEAL 0
root@arm:~# echo 'TUGH''MWGQYM'
TUGHMWGQYM
root@arm:~# MARKER='HLQF''SZJBEV' run 'i2cget -y -f 2 0x4b 0x8'
HLQFSZJBEV0xc6
HLQFSZJBEV 0
root@arm:~# echo 'QQMF''ZUWSUB'
QQMFZUWSUB
root@arm:~# MARKER='TUTB''OXGFXZ' run 'grep -r -l rohm,bd71837 /proc/device-tree  | sed '"'"'s![^/]*$!!'"'"''
TUTBOXGFXZ/proc/device-tree/ocp/interconnect@48000000/segment@100000/target-module@9c000/i2c@0/pmic@4b/
TUTBOXGFXZ 0
root@arm:~# echo 'ZGSO''FHUUXC'
ZGSOFHUUXC
root@arm:~# MARKER='FEWW''LJBEYJ' run 'test -f /proc/device-tree/ocp/interconnectt\@48000000/segment\@100000/target-module\@9c000/i2c\@0/pmic\@4b/regulators/BUCK55/rohm,no-regulator-enable-control ;echo $?'
FEWWLJBEYJ1
FEWWLJBEYJ 0
root@arm:~# echo 'SGLS''KOFBEP'
SGLSKOFBEP
root@arm:~# MARKER='OFJU''GCMALF' run 'echo 1 > /sys/kernel/mva_test/regulators/bbuck5_en'
OFJUGCMALFOFJUGCMALF 0
root@arm:~# echo 'NJKY''SHNZOB'
NJKYSHNZOB
root@arm:~# MARKER='XASE''CGSLTA' run 'i2cget -y -f 2 0x4b 0x9'
XASECGSLTA0x03
XASECGSLTA 0
root@arm:~# echo 'LJWL''QJJNYB'
LJWLQJJNYB
root@arm:~# MARKER='JPHM''WWGUGW' run 'grep -r -l rohm,bd71837 /proc/device-tree  | sed '"'"'s![^/]*$!!'"'"''
JPHMWWGUGW/proc/device-tree/ocp/interconnect@48000000/segment@100000/target-module@9c000/i2c@0/pmic@4b/
JPHMWWGUGW 0
root@arm:~# echo 'FWHJ''KCOBHW'
FWHJKCOBHW
root@arm:~# MARKER='SSYZ''MJESES' run 'test -f /proc/device-tree/ocp/interconnectt\@48000000/segment\@100000/target-module\@9c000/i2c\@0/pmic\@4b/regulators/BUCK55/rohm,no-regulator-enable-control ;echo $?'
SSYZMJESES1
SSYZMJESES 0
root@arm:~# echo 'OABP''KSQPCS'
OABPKSQPCS
root@arm:~# MARKER='KLTT''YCHSWH' run 'grep -r -l rohm,bd71837 /proc/device-tree  | sed '"'"'s![^/]*$!!'"'"''
KLTTYCHSWH/proc/device-tree/ocp/interconnect@48000000/segment@100000/target-module@9c000/i2c@0/pmic@4b/
KLTTYCHSWH 0
root@arm:~# echo 'UHNN''XCVPZJ'
UHNNXCVPZJ
root@arm:~# MARKER='VGOV''AJTGXN' run 'test -f /proc/device-tree/ocp/interconnectt\@48000000/segment\@100000/target-module\@9c000/i2c\@0/pmic\@4b/regulators/BUCK55/regulator-always-on ;echo $?'
VGOVAJTGXN1
VGOVAJTGXN 0
root@arm:~# echo 'BFWU''NUWZBK'
BFWUNUWZBK
root@arm:~# MARKER='ACXB''BXXNWC' run 'echo 0 > /sys/kernel/mva_test/regulators/bbuck5_en'
ACXBBXXNWCACXBBXXNWC 0
root@arm:~# echo 'SBJX''HLNOBN'
SBJXHLNOBN
root@arm:~# MARKER='VNKV''XEXGWP' run 'i2cget -y -f 2 0x4b 0x9'
VNKVXEXGWP0x02
VNKVXEXGWP 0
root@arm:~# echo 'JHZW''AJZZTM'
JHZWAJZZTM
root@arm:~# MARKER='XKXL''BKUEBA' run 'grep -r -l rohm,bd71837 /proc/device-tree  | sed '"'"'s![^/]*$!!'"'"''
XKXLBKUEBA/proc/device-tree/ocp/interconnect@48000000/segment@100000/target-module@9c000/i2c@0/pmic@4b/
XKXLBKUEBA 0
root@arm:~# echo 'VQNY''XVQHNM'
VQNYXVQHNM
root@arm:~# MARKER='JMMX''ANBLYH' run 'test -f /proc/device-tree/ocp/interconnectt\@48000000/segment\@100000/target-module\@9c000/i2c\@0/pmic\@4b/regulators/BUCK66/rohm,no-regulator-enable-control ;echo $?'
JMMXANBLYH1
JMMXANBLYH 0
root@arm:~# echo 'TBNK''OWHZYV'
TBNKOWHZYV
root@arm:~# MARKER='SWMS''JQQPGF' run 'echo 1 > /sys/kernel/mva_test/regulators/bbuck6_en'
SWMSJQQPGFSWMSJQQPGF 0
root@arm:~# echo 'XUOZ''SHEHFM'
XUOZSHEHFM
root@arm:~# MARKER='CQSZ''QHZPWC' run 'i2cget -y -f 2 0x4b 0xa'
CQSZQHZPWC0x03
CQSZQHZPWC 0
root@arm:~# echo 'GLEQ''BLWHGS'
GLEQBLWHGS
root@arm:~# MARKER='QHUO''KEACNQ' run 'grep -r -l rohm,bd71837 /proc/device-tree  | sed '"'"'s![^/]*$!!'"'"''
QHUOKEACNQ/proc/device-tree/ocp/interconnect@48000000/segment@100000/target-module@9c000/i2c@0/pmic@4b/
QHUOKEACNQ 0
root@arm:~# echo 'PYJN''MSUWEO'
PYJNMSUWEO
root@arm:~# MARKER='AKVG''BMLBJO' run 'test -f /proc/device-tree/ocp/interconnectt\@48000000/segment\@100000/target-module\@9c000/i2c\@0/pmic\@4b/regulators/BUCK66/rohm,no-regulator-enable-control ;echo $?'
AKVGBMLBJO1
AKVGBMLBJO 0
root@arm:~# echo 'XOFB''HJYQYB'
XOFBHJYQYB
root@arm:~# MARKER='HNTT''SVOCUE' run 'grep -r -l rohm,bd71837 /proc/device-tree  | sed '"'"'s![^/]*$!!'"'"''
HNTTSVOCUE/proc/device-tree/ocp/interconnect@48000000/segment@100000/target-module@9c000/i2c@0/pmic@4b/
HNTTSVOCUE 0
root@arm:~# echo 'OLZS''NTKXOW'
OLZSNTKXOW
root@arm:~# MARKER='EWZX''VCHOVN' run 'test -f /proc/device-tree/ocp/interconnectt\@48000000/segment\@100000/target-module\@9c000/i2c\@0/pmic\@4b/regulators/BUCK66/regulator-always-on ;echo $?'
EWZXVCHOVN1
EWZXVCHOVN 0
root@arm:~# echo 'BLSJ''TFHPZE'
BLSJTFHPZE
root@arm:~# MARKER='MSWW''MFFWBJ' run 'echo 0 > /sys/kernel/mva_test/regulators/bbuck6_en'
MSWWMFFWBJMSWWMFFWBJ 0
root@arm:~# echo 'HAVN''BFYOQW'
HAVNBFYOQW
root@arm:~# MARKER='TFFO''ESWXUA' run 'i2cget -y -f 2 0x4b 0xa'
TFFOESWXUA0x02
TFFOESWXUA 0
root@arm:~# echo 'VHPC''MXBZUF'
VHPCMXBZUF
root@arm:~# MARKER='OEUB''QPXJUM' run 'grep -r -l rohm,bd71837 /proc/device-tree  | sed '"'"'s![^/]*$!!'"'"''
OEUBQPXJUM/proc/device-tree/ocp/interconnect@48000000/segment@100000/target-module@9c000/i2c@0/pmic@4b/
OEUBQPXJUM 0
root@arm:~# echo 'NBOS''EMVEEQ'
NBOSEMVEEQ
root@arm:~# MARKER='NQPY''AKXYKK' run 'test -f /proc/device-tree/ocp/interconnectt\@48000000/segment\@100000/target-module\@9c000/i2c\@0/pmic\@4b/regulators/BUCK77/rohm,no-regulator-enable-control ;echo $?'
NQPYAKXYKK1
NQPYAKXYKK 0
root@arm:~# echo 'KWCK''GHAPZV'
KWCKGHAPZV
root@arm:~# MARKER='WKSO''EUPEGN' run 'echo 1 > /sys/kernel/mva_test/regulators/bbuck7_en'
WKSOEUPEGNWKSOEUPEGN 0
root@arm:~# echo 'NYZO''NOYOEL'
NYZONOYOEL
root@arm:~# MARKER='YZTC''WVKEMA' run 'i2cget -y -f 2 0x4b 0xb'
YZTCWVKEMA0x03
YZTCWVKEMA 0
root@arm:~# echo 'JTYZ''EVTXCE'
JTYZEVTXCE
root@arm:~# MARKER='LSKX''PHBMXW' run 'grep -r -l rohm,bd71837 /proc/device-tree  | sed '"'"'s![^/]*$!!'"'"''
LSKXPHBMXW/proc/device-tree/ocp/interconnect@48000000/segment@100000/target-module@9c000/i2c@0/pmic@4b/
LSKXPHBMXW 0
root@arm:~# echo 'AMAF''EBHXEJ'
AMAFEBHXEJ
root@arm:~# MARKER='PTCO''NWEZAU' run 'test -f /proc/device-tree/ocp/interconnectt\@48000000/segment\@100000/target-module\@9c000/i2c\@0/pmic\@4b/regulators/BUCK77/rohm,no-regulator-enable-control ;echo $?'
PTCONWEZAU1
PTCONWEZAU 0
root@arm:~# echo 'WLBJ''BZPCXP'
WLBJBZPCXP
root@arm:~# MARKER='AALS''HSJAFL' run 'grep -r -l rohm,bd71837 /proc/device-tree  | sed '"'"'s![^/]*$!!'"'"''
AALSHSJAFL/proc/device-tree/ocp/interconnect@48000000/segment@100000/target-module@9c000/i2c@0/pmic@4b/
AALSHSJAFL 0
root@arm:~# echo 'HZXX''EVYGMO'
HZXXEVYGMO
root@arm:~# MARKER='OUYY''BHFZYO' run 'test -f /proc/device-tree/ocp/interconnectt\@48000000/segment\@100000/target-module\@9c000/i2c\@0/pmic\@4b/regulators/BUCK77/regulator-always-on ;echo $?'
OUYYBHFZYO1
OUYYBHFZYO 0
root@arm:~# echo 'JESJ''CKLYFX'
JESJCKLYFX
root@arm:~# MARKER='EFJS''YHWKOL' run 'echo 0 > /sys/kernel/mva_test/regulators/bbuck7_en'
EFJSYHWKOLEFJSYHWKOL 0
root@arm:~# echo 'XCMN''QPEXGX'
XCMNQPEXGX
root@arm:~# MARKER='ZEZB''PXJFKC' run 'i2cget -y -f 2 0x4b 0xb'
ZEZBPXJFKC0x02
ZEZBPXJFKC 0
root@arm:~# echo 'GVES''PQFSQM'
GVESPQFSQM
root@arm:~# MARKER='PTEB''MJNEGQ' run 'grep -r -l rohm,bd71837 /proc/device-tree  | sed '"'"'s![^/]*$!!'"'"''
PTEBMJNEGQ/proc/device-tree/ocp/interconnect@48000000/segment@100000/target-module@9c000/i2c@0/pmic@4b/
PTEBMJNEGQ 0
root@arm:~# echo 'BGJV''SAAWQQ'
BGJVSAAWQQ
root@arm:~# MARKER='MKNL''HFTEGB' run 'test -f /proc/device-tree/ocp/interconnectt\@48000000/segment\@100000/target-module\@9c000/i2c\@0/pmic\@4b/regulators/BUCK88/rohm,no-regulator-enable-control ;echo $?'
MKNLHFTEGB1
MKNLHFTEGB 0
root@arm:~# echo 'FPBP''FXELBX'
FPBPFXELBX
root@arm:~# MARKER='JAWC''CJONOX' run 'echo 1 > /sys/kernel/mva_test/regulators/bbuck8_en'
JAWCCJONOXJAWCCJONOX 0
root@arm:~# echo 'EEUB''XGBMZX'
EEUBXGBMZX
root@arm:~# MARKER='GWPS''WUVFYA' run 'i2cget -y -f 2 0x4b 0xc'
GWPSWUVFYA0x03
GWPSWUVFYA 0
root@arm:~# echo 'YJJS''TLSHVQ'
YJJSTLSHVQ
root@arm:~# MARKER='NFOO''TPTGYE' run 'grep -r -l rohm,bd71837 /proc/device-tree  | sed '"'"'s![^/]*$!!'"'"''
NFOOTPTGYE/proc/device-tree/ocp/interconnect@48000000/segment@100000/target-module@9c000/i2c@0/pmic@4b/
NFOOTPTGYE 0
root@arm:~# echo 'SHLH''NAOGWT'
SHLHNAOGWT
root@arm:~# MARKER='LFEF''WSUMAO' run 'test -f /proc/device-tree/ocp/interconnectt\@48000000/segment\@100000/target-module\@9c000/i2c\@0/pmic\@4b/regulators/BUCK88/rohm,no-regulator-enable-control ;echo $?'
LFEFWSUMAO1
LFEFWSUMAO 0
root@arm:~# echo 'ZPCU''KPPJQT'
ZPCUKPPJQT
root@arm:~# MARKER='FGJG''OLPZNA' run 'grep -r -l rohm,bd71837 /proc/device-tree  | sed '"'"'s![^/]*$!!'"'"''
FGJGOLPZNA/proc/device-tree/ocp/interconnect@48000000/segment@100000/target-module@9c000/i2c@0/pmic@4b/
FGJGOLPZNA 0
root@arm:~# echo 'TOSN''NLNGGH'
TOSNNLNGGH
root@arm:~# MARKER='HFQH''TPACCO' run 'test -f /proc/device-tree/ocp/interconnectt\@48000000/segment\@100000/target-module\@9c000/i2c\@0/pmic\@4b/regulators/BUCK88/regulator-always-on ;echo $?'
HFQHTPACCO1
HFQHTPACCO 0
root@arm:~# echo 'HVHM''ANLTHH'
HVHMANLTHH
root@arm:~# MARKER='WQSK''SFECNQ' run 'echo 0 > /sys/kernel/mva_test/regulators/bbuck8_en'
WQSKSFECNQWQSKSFECNQ 0
root@arm:~# echo 'USQS''JSHZAO'
USQSJSHZAO
root@arm:~# MARKER='FKQG''ETMXZF' run 'i2cget -y -f 2 0x4b 0xc'
FKQGETMXZF0x02
FKQGETMXZF 0
root@arm:~# echo 'HHVS''EHUAKP'
HHVSEHUAKP
root@arm:~# MARKER='TABG''KPXVKM' run 'grep -r -l rohm,bd71837 /proc/device-tree  | sed '"'"'s![^/]*$!!'"'"''
TABGKPXVKM/proc/device-tree/ocp/interconnect@48000000/segment@100000/target-module@9c000/i2c@0/pmic@4b/
TABGKPXVKM 0
root@arm:~# echo 'GAZN''AVMPON'
GAZNAVMPON
root@arm:~# MARKER='VOTN''BFOAQP' run 'test -f /proc/device-tree/ocp/interconnectt\@48000000/segment\@100000/target-module\@9c000/i2c\@0/pmic\@4b/regulators/LDO1//rohm,no-regulator-enable-control ;echo $?'
VOTNBFOAQP1
VOTNBFOAQP 0
root@arm:~# echo 'BBVB''CSJQZX'
BBVBCSJQZX
root@arm:~# MARKER='YPAX''WWFFNF' run 'echo 1 > /sys/kernel/mva_test/regulators/bbuck9_en'
YPAXWWFFNFYPAXWWFFNF 0
root@arm:~# echo 'VOLK''SSUWBL'
VOLKSSUWBL
root@arm:~# MARKER='HTJU''QWBMZG' run 'i2cget -y -f 2 0x4b 0x18'
HTJUQWBMZG0xc3
HTJUQWBMZG 0
root@arm:~# echo 'TZEU''QMWXGH'
TZEUQMWXGH
root@arm:~# MARKER='NQWL''VUUXCQ' run 'grep -r -l rohm,bd71837 /proc/device-tree  | sed '"'"'s![^/]*$!!'"'"''
NQWLVUUXCQ/proc/device-tree/ocp/interconnect@48000000/segment@100000/target-module@9c000/i2c@0/pmic@4b/
NQWLVUUXCQ 0
root@arm:~# echo 'GLTE''UPQHMV'
GLTEUPQHMV
root@arm:~# MARKER='LLKX''BKZJFT' run 'test -f /proc/device-tree/ocp/interconnectt\@48000000/segment\@100000/target-module\@9c000/i2c\@0/pmic\@4b/regulators/LDO1//rohm,no-regulator-enable-control ;echo $?'
LLKXBKZJFT1
LLKXBKZJFT 0
root@arm:~# echo 'YAYJ''TQEPVN'
YAYJTQEPVN
root@arm:~# MARKER='GLSC''GMKNXQ' run 'grep -r -l rohm,bd71837 /proc/device-tree  | sed '"'"'s![^/]*$!!'"'"''
GLSCGMKNXQ/proc/device-tree/ocp/interconnect@48000000/segment@100000/target-module@9c000/i2c@0/pmic@4b/
GLSCGMKNXQ 0
root@arm:~# echo 'SVVG''MCMUMF'
SVVGMCMUMF
root@arm:~# MARKER='FCYA''NJULNM' run 'test -f /proc/device-tree/ocp/interconnectt\@48000000/segment\@100000/target-module\@9c000/i2c\@0/pmic\@4b/regulators/LDO1//regulator-always-on ;echo $?'
FCYANJULNM1
FCYANJULNM 0
root@arm:~# echo 'CNXV''TOEYSK'
CNXVTOEYSK
root@arm:~# MARKER='BOFN''FUOCEG' run 'echo 0 > /sys/kernel/mva_test/regulators/bbuck9_en'
BOFNFUOCEGBOFNFUOCEG 0
root@arm:~# echo 'JBOU''CWNPQX'
JBOUCWNPQX
root@arm:~# MARKER='KZZH''TGPTUC' run 'i2cget -y -f 2 0x4b 0x18'
KZZHTGPTUC0x83
KZZHTGPTUC 0
root@arm:~# echo 'KOGA''YQTMHY'
KOGAYQTMHY
root@arm:~# MARKER='CFTN''VBJTHJ' run 'grep -r -l rohm,bd71837 /proc/device-tree  | sed '"'"'s![^/]*$!!'"'"''
CFTNVBJTHJ/proc/device-tree/ocp/interconnect@48000000/segment@100000/target-module@9c000/i2c@0/pmic@4b/
CFTNVBJTHJ 0
root@arm:~# echo 'BLQF''HHMEOF'
BLQFHHMEOF
root@arm:~# MARKER='VSTA''CPVWVJ' run 'test -f /proc/device-tree/ocp/interconnectt\@48000000/segment\@100000/target-module\@9c000/i2c\@0/pmic\@4b/regulators/LDO2//rohm,no-regulator-enable-control ;echo $?'
VSTACPVWVJ1
VSTACPVWVJ 0
root@arm:~# echo 'UFCL''BEUGJE'
UFCLBEUGJE
root@arm:~# MARKER='KBHQ''NBUEKG' run 'echo 1 > /sys/kernel/mva_test/regulators/bbuck10_en'
KBHQNBUEKGKBHQNBUEKG 0
root@arm:~# echo 'NLFL''UQTEEH'
NLFLUQTEEH
root@arm:~# MARKER='FZQA''OGCUQY' run 'i2cget -y -f 2 0x4b 0x19'
FZQAOGCUQY0xc0
FZQAOGCUQY 0
root@arm:~# echo 'SLKQ''FUFVWL'
SLKQFUFVWL
root@arm:~# MARKER='JOSL''EGNMXS' run 'grep -r -l rohm,bd71837 /proc/device-tree  | sed '"'"'s![^/]*$!!'"'"''
JOSLEGNMXS/proc/device-tree/ocp/interconnect@48000000/segment@100000/target-module@9c000/i2c@0/pmic@4b/
JOSLEGNMXS 0
root@arm:~# echo 'VKGK''NCXEJM'
VKGKNCXEJM
root@arm:~# MARKER='VGPN''GWNUFL' run 'test -f /proc/device-tree/ocp/interconnectt\@48000000/segment\@100000/target-module\@9c000/i2c\@0/pmic\@4b/regulators/LDO2//rohm,no-regulator-enable-control ;echo $?'
VGPNGWNUFL1
VGPNGWNUFL 0
root@arm:~# echo 'SUEB''VBZLFO'
SUEBVBZLFO
root@arm:~# MARKER='MYKB''XKKHWL' run 'grep -r -l rohm,bd71837 /proc/device-tree  | sed '"'"'s![^/]*$!!'"'"''
MYKBXKKHWL/proc/device-tree/ocp/interconnect@48000000/segment@100000/target-module@9c000/i2c@0/pmic@4b/
MYKBXKKHWL 0
root@arm:~# echo 'QYQF''OFGYZZ'
QYQFOFGYZZ
root@arm:~# MARKER='BZXX''MSMJCQ' run 'test -f /proc/device-tree/ocp/interconnectt\@48000000/segment\@100000/target-module\@9c000/i2c\@0/pmic\@4b/regulators/LDO2//regulator-always-on ;echo $?'
BZXXMSMJCQ1
BZXXMSMJCQ 0
root@arm:~# echo 'GSHP''JWKXVW'
GSHPJWKXVW
root@arm:~# MARKER='GKKT''AHTANU' run 'echo 0 > /sys/kernel/mva_test/regulators/bbuck10_en'
GKKTAHTANUGKKTAHTANU 0
root@arm:~# echo 'AJUZ''CVJLYV'
AJUZCVJLYV
root@arm:~# MARKER='APTZ''JCCXNP' run 'i2cget -y -f 2 0x4b 0x19'
APTZJCCXNP0x80
APTZJCCXNP 0
root@arm:~# echo 'TLOP''HXSHBM'
TLOPHXSHBM
root@arm:~# MARKER='CZVS''QXJVMG' run 'grep -r -l rohm,bd71837 /proc/device-tree  | sed '"'"'s![^/]*$!!'"'"''
CZVSQXJVMG/proc/device-tree/ocp/interconnect@48000000/segment@100000/target-module@9c000/i2c@0/pmic@4b/
CZVSQXJVMG 0
root@arm:~# echo 'STPY''UGULSJ'
STPYUGULSJ
root@arm:~# MARKER='YBFW''MOJGEU' run 'test -f /proc/device-tree/ocp/interconnectt\@48000000/segment\@100000/target-module\@9c000/i2c\@0/pmic\@4b/regulators/LDO3//rohm,no-regulator-enable-control ;echo $?'
YBFWMOJGEU1
YBFWMOJGEU 0
root@arm:~# echo 'SFXP''TVEMTE'
SFXPTVEMTE
root@arm:~# MARKER='WOLM''YPZXVA' run 'echo 1 > /sys/kernel/mva_test/regulators/bbuck11_en'
WOLMYPZXVAWOLMYPZXVA 0
root@arm:~# echo 'XYKA''CUXAOB'
XYKACUXAOB
root@arm:~# MARKER='WYPN''NAXQFN' run 'i2cget -y -f 2 0x4b 0x1a'
WYPNNAXQFN0xc0
WYPNNAXQFN 0
root@arm:~# echo 'FCNZ''FBJUEW'
FCNZFBJUEW
root@arm:~# MARKER='HLNM''JOMMZZ' run 'grep -r -l rohm,bd71837 /proc/device-tree  | sed '"'"'s![^/]*$!!'"'"''
HLNMJOMMZZ/proc/device-tree/ocp/interconnect@48000000/segment@100000/target-module@9c000/i2c@0/pmic@4b/
HLNMJOMMZZ 0
root@arm:~# echo 'XCOQ''WXMBEA'
XCOQWXMBEA
root@arm:~# MARKER='FWXP''GWBHFV' run 'test -f /proc/device-tree/ocp/interconnectt\@48000000/segment\@100000/target-module\@9c000/i2c\@0/pmic\@4b/regulators/LDO3//rohm,no-regulator-enable-control ;echo $?'
FWXPGWBHFV1
FWXPGWBHFV 0
root@arm:~# echo 'LKQK''WLGGYC'
LKQKWLGGYC
root@arm:~# MARKER='BJGE''GCAOTK' run 'grep -r -l rohm,bd71837 /proc/device-tree  | sed '"'"'s![^/]*$!!'"'"''
BJGEGCAOTK/proc/device-tree/ocp/interconnect@48000000/segment@100000/target-module@9c000/i2c@0/pmic@4b/
BJGEGCAOTK 0
root@arm:~# echo 'AEPQ''VTWNNT'
AEPQVTWNNT
root@arm:~# MARKER='OXPJ''JLVWVC' run 'test -f /proc/device-tree/ocp/interconnectt\@48000000/segment\@100000/target-module\@9c000/i2c\@0/pmic\@4b/regulators/LDO3//regulator-always-on ;echo $?'
OXPJJLVWVC1
OXPJJLVWVC 0
root@arm:~# echo 'HEQG''NJAUOB'
HEQGNJAUOB
root@arm:~# MARKER='XGCO''FNFWNV' run 'echo 0 > /sys/kernel/mva_test/regulators/bbuck11_en'
XGCOFNFWNVXGCOFNFWNV 0
root@arm:~# echo 'LZQM''HPYAZX'
LZQMHPYAZX
root@arm:~# MARKER='BXVA''XQHOVE' run 'i2cget -y -f 2 0x4b 0x1a'
BXVAXQHOVE0x80
BXVAXQHOVE 0
root@arm:~# echo 'YLTY''SPMZYL'
YLTYSPMZYL
root@arm:~# MARKER='BNQM''LGYPUY' run 'grep -r -l rohm,bd71837 /proc/device-tree  | sed '"'"'s![^/]*$!!'"'"''
BNQMLGYPUY/proc/device-tree/ocp/interconnect@48000000/segment@100000/target-module@9c000/i2c@0/pmic@4b/
BNQMLGYPUY 0
root@arm:~# echo 'WBZB''MVFWWF'
WBZBMVFWWF
root@arm:~# MARKER='OBZO''TZWFOE' run 'test -f /proc/device-tree/ocp/interconnectt\@48000000/segment\@100000/target-module\@9c000/i2c\@0/pmic\@4b/regulators/LDO4//rohm,no-regulator-enable-control ;echo $?'
OBZOTZWFOE1
OBZOTZWFOE 0
root@arm:~# echo 'FGVH''SOEJTU'
FGVHSOEJTU
root@arm:~# MARKER='OEKT''YCFTCE' run 'echo 1 > /sys/kernel/mva_test/regulators/bbuck12_en'
OEKTYCFTCEOEKTYCFTCE 0
root@arm:~# echo 'PQHG''QCCUNA'
PQHGQCCUNA
root@arm:~# MARKER='SXFF''BGXKJO' run 'i2cget -y -f 2 0x4b 0x1b'
SXFFBGXKJO0xc0
SXFFBGXKJO 0
root@arm:~# echo 'EANL''QPBQMX'
EANLQPBQMX
root@arm:~# MARKER='ZXJQ''ESGOKJ' run 'grep -r -l rohm,bd71837 /proc/device-tree  | sed '"'"'s![^/]*$!!'"'"''
ZXJQESGOKJ/proc/device-tree/ocp/interconnect@48000000/segment@100000/target-module@9c000/i2c@0/pmic@4b/
ZXJQESGOKJ 0
root@arm:~# echo 'FZSL''KWSTSC'
FZSLKWSTSC
root@arm:~# MARKER='PCJM''HNTFEU' run 'test -f /proc/device-tree/ocp/interconnectt\@48000000/segment\@100000/target-module\@9c000/i2c\@0/pmic\@4b/regulators/LDO4//rohm,no-regulator-enable-control ;echo $?'
PCJMHNTFEU1
PCJMHNTFEU 0
root@arm:~# echo 'ZQPL''JCFKFN'
ZQPLJCFKFN
root@arm:~# MARKER='TZJJ''OELFES' run 'grep -r -l rohm,bd71837 /proc/device-tree  | sed '"'"'s![^/]*$!!'"'"''
TZJJOELFES/proc/device-tree/ocp/interconnect@48000000/segment@100000/target-module@9c000/i2c@0/pmic@4b/
TZJJOELFES 0
root@arm:~# echo 'CNBW''LZTWCN'
CNBWLZTWCN
root@arm:~# MARKER='BBBS''OEPKAE' run 'test -f /proc/device-tree/ocp/interconnectt\@48000000/segment\@100000/target-module\@9c000/i2c\@0/pmic\@4b/regulators/LDO4//regulator-always-on ;echo $?'
BBBSOEPKAE1
BBBSOEPKAE 0
root@arm:~# echo 'FYMN''EHKBUE'
FYMNEHKBUE
root@arm:~# MARKER='MXOS''HYHMEN' run 'echo 0 > /sys/kernel/mva_test/regulators/bbuck12_en'
MXOSHYHMENMXOSHYHMEN 0
root@arm:~# echo 'CYSY''SHGWST'
CYSYSHGWST
root@arm:~# MARKER='CVHC''NZSBFE' run 'i2cget -y -f 2 0x4b 0x1b'
CVHCNZSBFE0x80
CVHCNZSBFE 0
root@arm:~# echo 'KCQO''QKBAUY'
KCQOQKBAUY
root@arm:~# MARKER='XHKX''YYHLVJ' run 'grep -r -l rohm,bd71837 /proc/device-tree  | sed '"'"'s![^/]*$!!'"'"''
XHKXYYHLVJ/proc/device-tree/ocp/interconnect@48000000/segment@100000/target-module@9c000/i2c@0/pmic@4b/
XHKXYYHLVJ 0
root@arm:~# echo 'HGQW''HJVBUO'
HGQWHJVBUO
root@arm:~# MARKER='ZCHQ''FZANMW' run 'test -f /proc/device-tree/ocp/interconnectt\@48000000/segment\@100000/target-module\@9c000/i2c\@0/pmic\@4b/regulators/LDO5//rohm,no-regulator-enable-control ;echo $?'
ZCHQFZANMW0
ZCHQFZANMW 0
root@arm:~# echo 'XWZL''BNCHSP'
XWZLBNCHSP
root@arm:~# MARKER='AFEN''EZWACQ' run 'grep -r -l rohm,bd71837 /proc/device-tree  | sed '"'"'s![^/]*$!!'"'"''
AFENEZWACQ/proc/device-tree/ocp/interconnect@48000000/segment@100000/target-module@9c000/i2c@0/pmic@4b/
AFENEZWACQ 0
root@arm:~# echo 'YMAX''COHKFV'
YMAXCOHKFV
root@arm:~# MARKER='KGXF''YVNZVH' run 'test -f /proc/device-tree/ocp/interconnectt\@48000000/segment\@100000/target-module\@9c000/i2c\@0/pmic\@4b/regulators/LDO5//rohm,no-regulator-enable-control ;echo $?'
KGXFYVNZVH0
KGXFYVNZVH 0
root@arm:~# echo 'SBPG''UJFEVX'
SBPGUJFEVX
root@arm:~# MARKER='OYWF''XCVTTY' run 'grep -r -l rohm,bd71837 /proc/device-tree  | sed '"'"'s![^/]*$!!'"'"''
OYWFXCVTTY/proc/device-tree/ocp/interconnect@48000000/segment@100000/target-module@9c000/i2c@0/pmic@4b/
OYWFXCVTTY 0
root@arm:~# echo 'VZBF''JNSWGY'
VZBFJNSWGY
root@arm:~# MARKER='MPUQ''SHVFWG' run 'test -f /proc/device-tree/ocp/interconnectt\@48000000/segment\@100000/target-module\@9c000/i2c\@0/pmic\@4b/regulators/LDO6//rohm,no-regulator-enable-control ;echo $?'
MPUQSHVFWG1
MPUQSHVFWG 0
root@arm:~# echo 'GPOW''XVPHJV'
GPOWXVPHJV
root@arm:~# MARKER='PNBF''ASEHZP' run 'echo 1 > /sys/kernel/mva_test/regulators/bbuck14_en'
PNBFASEHZPPNBFASEHZP 0
root@arm:~# echo 'CSVX''UXFZJF'
CSVXUXFZJF
root@arm:~# MARKER='FZOS''MYLZGT' run 'i2cget -y -f 2 0x4b 0x1d'
FZOSMYLZGT0xc0
FZOSMYLZGT 0
root@arm:~# echo 'CHPK''BSENFJ'
CHPKBSENFJ
root@arm:~# MARKER='PVKJ''WKWLJT' run 'grep -r -l rohm,bd71837 /proc/device-tree  | sed '"'"'s![^/]*$!!'"'"''
PVKJWKWLJT/proc/device-tree/ocp/interconnect@48000000/segment@100000/target-module@9c000/i2c@0/pmic@4b/
PVKJWKWLJT 0
root@arm:~# echo 'UFGK''YECQXP'
UFGKYECQXP
root@arm:~# MARKER='KASO''UFXEOE' run 'test -f /proc/device-tree/ocp/interconnectt\@48000000/segment\@100000/target-module\@9c000/i2c\@0/pmic\@4b/regulators/LDO6//rohm,no-regulator-enable-control ;echo $?'
KASOUFXEOE1
KASOUFXEOE 0
root@arm:~# echo 'KXJU''HUPKGX'
KXJUHUPKGX
root@arm:~# MARKER='EHAL''OZQJLP' run 'grep -r -l rohm,bd71837 /proc/device-tree  | sed '"'"'s![^/]*$!!'"'"''
EHALOZQJLP/proc/device-tree/ocp/interconnect@48000000/segment@100000/target-module@9c000/i2c@0/pmic@4b/
EHALOZQJLP 0
root@arm:~# echo 'SJCL''MNQANN'
SJCLMNQANN
root@arm:~# MARKER='NQKH''OZMWFH' run 'test -f /proc/device-tree/ocp/interconnectt\@48000000/segment\@100000/target-module\@9c000/i2c\@0/pmic\@4b/regulators/LDO6//regulator-always-on ;echo $?'
NQKHOZMWFH1
NQKHOZMWFH 0
root@arm:~# echo 'FWKO''EUAYGB'
FWKOEUAYGB
root@arm:~# MARKER='XMMT''AQEUQE' run 'echo 0 > /sys/kernel/mva_test/regulators/bbuck14_en'
XMMTAQEUQEXMMTAQEUQE 0
root@arm:~# echo 'HBSA''YVWQBS'
HBSAYVWQBS
root@arm:~# MARKER='JKBS''TYJULP' run 'i2cget -y -f 2 0x4b 0x1d'
JKBSTYJULP0x80
JKBSTYJULP 0
root@arm:~# echo 'OCQV''KHPWXB'
OCQVKHPWXB
root@arm:~# MARKER='SSMF''ECTFJE' run 'grep -r -l rohm,bd71837 /proc/device-tree  | sed '"'"'s![^/]*$!!'"'"''
SSMFECTFJE/proc/device-tree/ocp/interconnect@48000000/segment@100000/target-module@9c000/i2c@0/pmic@4b/
SSMFECTFJE 0
root@arm:~# echo 'JPKB''GCJGUW'
JPKBGCJGUW
root@arm:~# MARKER='YPFS''VBBUPL' run 'test -f /proc/device-tree/ocp/interconnectt\@48000000/segment\@100000/target-module\@9c000/i2c\@0/pmic\@4b/regulators/LDO7//rohm,no-regulator-enable-control ;echo $?'
YPFSVBBUPL1
YPFSVBBUPL 0
root@arm:~# echo 'TMBS''PYUNOH'
TMBSPYUNOH
root@arm:~# MARKER='AJXG''SNKUXJ' run 'echo 1 > /sys/kernel/mva_test/regulators/bbuck15_en'
AJXGSNKUXJAJXGSNKUXJ 0
root@arm:~# echo 'ELQB''SWKVVK'
ELQBSWKVVK
root@arm:~# MARKER='OUYL''QVHMWC' run 'i2cget -y -f 2 0x4b 0x1e'
OUYLQVHMWC0xcf
OUYLQVHMWC 0
root@arm:~# echo 'SYNM''BZMVAG'
SYNMBZMVAG
root@arm:~# MARKER='TCEU''JBCZYN' run 'grep -r -l rohm,bd71837 /proc/device-tree  | sed '"'"'s![^/]*$!!'"'"''
TCEUJBCZYN/proc/device-tree/ocp/interconnect@48000000/segment@100000/target-module@9c000/i2c@0/pmic@4b/
TCEUJBCZYN 0
root@arm:~# echo 'UGKA''JXMCOT'
UGKAJXMCOT
root@arm:~# MARKER='WQHW''WLZYPG' run 'test -f /proc/device-tree/ocp/interconnectt\@48000000/segment\@100000/target-module\@9c000/i2c\@0/pmic\@4b/regulators/LDO7//rohm,no-regulator-enable-control ;echo $?'
WQHWWLZYPG1
WQHWWLZYPG 0
root@arm:~# echo 'TCOY''UVZWXV'
TCOYUVZWXV
root@arm:~# MARKER='QVJU''JCAJZA' run 'grep -r -l rohm,bd71837 /proc/device-tree  | sed '"'"'s![^/]*$!!'"'"''
QVJUJCAJZA/proc/device-tree/ocp/interconnect@48000000/segment@100000/target-module@9c000/i2c@0/pmic@4b/
QVJUJCAJZA 0
root@arm:~# echo 'MYHT''AHUSQB'
MYHTAHUSQB
root@arm:~# MARKER='GYSW''GEKAYS' run 'test -f /proc/device-tree/ocp/interconnectt\@48000000/segment\@100000/target-module\@9c000/i2c\@0/pmic\@4b/regulators/LDO7//regulator-always-on ;echo $?'
GYSWGEKAYS1
GYSWGEKAYS 0
root@arm:~# echo 'YWNO''CFCNEX'
YWNOCFCNEX
root@arm:~# MARKER='TAQX''UBNSAK' run 'echo 0 > /sys/kernel/mva_test/regulators/bbuck15_en'
TAQXUBNSAKTAQXUBNSAK 0
root@arm:~# echo 'WSXG''JWUCEU'
WSXGJWUCEU
root@arm:~# MARKER='AJON''GAGLVT' run 'i2cget -y -f 2 0x4b 0x1e'
AJONGAGLVT0x8f
AJONGAGLVT 0
root@arm:~# Labgrid Console Logfile for main
Logfile started at 2026-02-18 16:46:56.846695
=== Log starts here ===

root@arm:~# run() { echo -n "$MARKER"; sh -c "$@"; echo "$MARKER $?"; }
root@arm:~# echo 'JCOS''CXQYLS'
JCOSCXQYLS
root@arm:~# MARKER='FVGJ''FZUJMT' run 'grep -r -l rohm,bd71837 /proc/device-tree  | sed '"'"'s![^/]*$!!'"'"''
FVGJFZUJMT/proc/device-tree/ocp/interconnect@48000000/segment@100000/target-module@9c000/i2c@0/pmic@4b/
FVGJFZUJMT 0
root@arm:~# echo 'UTCB''EJUQSM'
UTCBEJUQSM
root@arm:~# MARKER='MWGE''PWKGBZ' run 'test -f /proc/device-tree/ocp/interconnectt\@48000000/segment\@100000/target-module\@9c000/i2c\@0/pmic\@4b/regulators/BUCK11/rohm,no-regulator-enable-control ;echo $?'
MWGEPWKGBZ1
MWGEPWKGBZ 0
root@arm:~# echo 'ZXNZ''NTMWBG'
ZXNZNTMWBG
root@arm:~# MARKER='SBKM''XVTXQT' run 'i2cget -y -f 2 0x4b 0x5'
SBKMXVTXQT0x02
SBKMXVTXQT 0
root@arm:~# echo 'TOAX''HOOQOC'
TOAXHOOQOC
root@arm:~# MARKER='SZHT''XLYJOT' run 'echo 700000 700000 > /sys/kernel/mva_test//regulators/buck1_set'
SZHTXLYJOTSZHTXLYJOT 0
root@arm:~# echo 'QAQC''TEAKXT'
QAQCTEAKXT
root@arm:~# MARKER='HZZS''MMVEZO' run 'i2cget -y -f 2 0x4b 0xd'
HZZSMMVEZO0x00
HZZSMMVEZO 0
root@arm:~# echo 'FZVY''ALAVEN'
FZVYALAVEN
root@arm:~# MARKER='JEML''VBPLPW' run 'echo 710000 710000 > /sys/kernel/mva_test//regulators/buck1_set'
JEMLVBPLPWJEMLVBPLPW 0
root@arm:~# echo 'JGJY''VZXVJA'
JGJYVZXVJA
root@arm:~# MARKER='KWQG''TUFBYU' run 'i2cget -y -f 2 0x4b 0xd'
KWQGTUFBYU0x01
KWQGTUFBYU 0
root@arm:~# echo 'GKYW''JGXOFN'
GKYWJGXOFN
root@arm:~# MARKER='GUML''UUWOSJ' run 'echo 720000 720000 > /sys/kernel/mva_test//regulators/buck1_set'
GUMLUUWOSJGUMLUUWOSJ 0
root@arm:~# echo 'NGVE''FENNEG'
NGVEFENNEG
root@arm:~# MARKER='TYLA''MYMJNC' run 'i2cget -y -f 2 0x4b 0xd'
TYLAMYMJNC0x02
TYLAMYMJNC 0
root@arm:~# echo 'JFGB''GQUEAX'
JFGBGQUEAX
root@arm:~# MARKER='AKGO''ZFKCVZ' run 'echo 730000 730000 > /sys/kernel/mva_test//regulators/buck1_set'
AKGOZFKCVZAKGOZFKCVZ 0
root@arm:~# echo 'XQYA''WSHAFZ'
XQYAWSHAFZ
root@arm:~# MARKER='CHEL''LEVEKA' run 'i2cget -y -f 2 0x4b 0xd'
CHELLEVEKA0x03
CHELLEVEKA 0
root@arm:~# echo 'FQJP''GFGUUM'
FQJPGFGUUM
root@arm:~# MARKER='UBNE''KHEMAE' run 'echo 740000 740000 > /sys/kernel/mva_test//regulators/buck1_set'
UBNEKHEMAEUBNEKHEMAE 0
root@arm:~# echo 'VWJN''AATNSJ'
VWJNAATNSJ
root@arm:~# MARKER='VAMZ''JYAQGV' run 'i2cget -y -f 2 0x4b 0xd'
VAMZJYAQGV0x04
VAMZJYAQGV 0
root@arm:~# echo 'WMOV''MHZLLX'
WMOVMHZLLX
root@arm:~# MARKER='FMXM''TEYKSA' run 'echo 750000 750000 > /sys/kernel/mva_test//regulators/buck1_set'
FMXMTEYKSAFMXMTEYKSA 0
root@arm:~# echo 'WQYS''AKQJQF'
WQYSAKQJQF
root@arm:~# MARKER='AYPK''WAZGYO' run 'i2cget -y -f 2 0x4b 0xd'
AYPKWAZGYO0x05
AYPKWAZGYO 0
root@arm:~# echo 'LSOP''MPFVNL'
LSOPMPFVNL
root@arm:~# MARKER='CXHP''ZTASWG' run 'echo 760000 760000 > /sys/kernel/mva_test//regulators/buck1_set'
CXHPZTASWGCXHPZTASWG 0
root@arm:~# echo 'BUJY''NESCLG'
BUJYNESCLG
root@arm:~# MARKER='BLMP''KAOKLB' run 'i2cget -y -f 2 0x4b 0xd'
BLMPKAOKLB0x06
BLMPKAOKLB 0
root@arm:~# echo 'PEHX''MHEPFJ'
PEHXMHEPFJ
root@arm:~# MARKER='ELBB''ONPKLW' run 'echo 770000 770000 > /sys/kernel/mva_test//regulators/buck1_set'
ELBBONPKLWELBBONPKLW 0
root@arm:~# echo 'FJAO''BKCHNF'
FJAOBKCHNF
root@arm:~# MARKER='MAAV''MENKSF' run 'i2cget -y -f 2 0x4b 0xd'
MAAVMENKSF0x07
MAAVMENKSF 0
root@arm:~# echo 'YGLX''TTSOTF'
YGLXTTSOTF
root@arm:~# MARKER='PXLL''LOVZLL' run 'echo 780000 780000 > /sys/kernel/mva_test//regulators/buck1_set'
PXLLLOVZLLPXLLLOVZLL 0
root@arm:~# echo 'VJSO''NNNTVS'
VJSONNNTVS
root@arm:~# MARKER='BYMQ''XYJYZL' run 'i2cget -y -f 2 0x4b 0xd'
BYMQXYJYZL0x08
BYMQXYJYZL 0
root@arm:~# echo 'NYHM''NKVOTK'
NYHMNKVOTK
root@arm:~# MARKER='KPMK''KMYXEQ' run 'echo 790000 790000 > /sys/kernel/mva_test//regulators/buck1_set'
KPMKKMYXEQKPMKKMYXEQ 0
root@arm:~# echo 'JUPJ''HJFWPC'
JUPJHJFWPC
root@arm:~# MARKER='FFWW''MNUKCY' run 'i2cget -y -f 2 0x4b 0xd'
FFWWMNUKCY0x09
FFWWMNUKCY 0
root@arm:~# echo 'XHCS''AGEVSE'
XHCSAGEVSE
root@arm:~# MARKER='MKSG''OPOHZA' run 'echo 800000 800000 > /sys/kernel/mva_test//regulators/buck1_set'
MKSGOPOHZAMKSGOPOHZA 0
root@arm:~# echo 'HJJQ''SYMVUC'
HJJQSYMVUC
root@arm:~# MARKER='AFQF''TAEBGG' run 'i2cget -y -f 2 0x4b 0xd'
AFQFTAEBGG0x0a
AFQFTAEBGG 0
root@arm:~# echo 'XVHG''NCWXYU'
XVHGNCWXYU
root@arm:~# MARKER='HKLE''NTOZBS' run 'echo 810000 810000 > /sys/kernel/mva_test//regulators/buck1_set'
HKLENTOZBSHKLENTOZBS 0
root@arm:~# echo 'TPNK''BEJPEH'
TPNKBEJPEH
root@arm:~# MARKER='QLVY''QQPSSB' run 'i2cget -y -f 2 0x4b 0xd'
QLVYQQPSSB0x0b
QLVYQQPSSB 0
root@arm:~# echo 'VXZK''NNLQWL'
VXZKNNLQWL
root@arm:~# MARKER='MFPT''FUTOOC' run 'echo 820000 820000 > /sys/kernel/mva_test//regulators/buck1_set'
MFPTFUTOOCMFPTFUTOOC 0
root@arm:~# echo 'NKUT''OWGBVF'
NKUTOWGBVF
root@arm:~# MARKER='HSQQ''BVUZCL' run 'i2cget -y -f 2 0x4b 0xd'
HSQQBVUZCL0x0c
HSQQBVUZCL 0
root@arm:~# echo 'WTTZ''LYMTCN'
WTTZLYMTCN
root@arm:~# MARKER='YHBW''BGGZYG' run 'echo 830000 830000 > /sys/kernel/mva_test//regulators/buck1_set'
YHBWBGGZYGYHBWBGGZYG 0
root@arm:~# echo 'PLZW''UJMFEU'
PLZWUJMFEU
root@arm:~# MARKER='ZAMK''CXMBHM' run 'i2cget -y -f 2 0x4b 0xd'
ZAMKCXMBHM0x0d
ZAMKCXMBHM 0
root@arm:~# echo 'UPOC''OJEQZA'
UPOCOJEQZA
root@arm:~# MARKER='KLJB''OQYBLF' run 'echo 840000 840000 > /sys/kernel/mva_test//regulators/buck1_set'
KLJBOQYBLFKLJBOQYBLF 0
root@arm:~# echo 'KABY''TVSHJA'
KABYTVSHJA
root@arm:~# MARKER='WZOT''LBYOTN' run 'i2cget -y -f 2 0x4b 0xd'
WZOTLBYOTN0x0e
WZOTLBYOTN 0
root@arm:~# echo 'CMCA''SLAMTN'
CMCASLAMTN
root@arm:~# MARKER='XJXF''UWGEVK' run 'echo 850000 850000 > /sys/kernel/mva_test//regulators/buck1_set'
XJXFUWGEVKXJXFUWGEVK 0
root@arm:~# echo 'YYVY''XBHQZW'
YYVYXBHQZW
root@arm:~# MARKER='JZWT''ZUOSMX' run 'i2cget -y -f 2 0x4b 0xd'
JZWTZUOSMX0x0f
JZWTZUOSMX 0
root@arm:~# echo 'ZNEO''HBCBXF'
ZNEOHBCBXF
root@arm:~# MARKER='ETNA''MGNCOJ' run 'echo 860000 860000 > /sys/kernel/mva_test//regulators/buck1_set'
ETNAMGNCOJETNAMGNCOJ 0
root@arm:~# echo 'BUKA''PGBEPQ'
BUKAPGBEPQ
root@arm:~# MARKER='MBVG''XHNGNM' run 'i2cget -y -f 2 0x4b 0xd'
MBVGXHNGNM0x10
MBVGXHNGNM 0
root@arm:~# echo 'WTUG''HZULHW'
WTUGHZULHW
root@arm:~# MARKER='QGSF''SZFBFL' run 'echo 870000 870000 > /sys/kernel/mva_test//regulators/buck1_set'
QGSFSZFBFLQGSFSZFBFL 0
root@arm:~# echo 'QOGW''ZTUWYL'
QOGWZTUWYL
root@arm:~# MARKER='NNAU''BKNKEK' run 'i2cget -y -f 2 0x4b 0xd'
NNAUBKNKEK0x11
NNAUBKNKEK 0
root@arm:~# echo 'TWVH''UVYUHH'
TWVHUVYUHH
root@arm:~# MARKER='WEMX''YOPXBH' run 'echo 880000 880000 > /sys/kernel/mva_test//regulators/buck1_set'
WEMXYOPXBHWEMXYOPXBH 0
root@arm:~# echo 'AQCA''WAMXCF'
AQCAWAMXCF
root@arm:~# MARKER='PAGG''WFWEGA' run 'i2cget -y -f 2 0x4b 0xd'
PAGGWFWEGA0x12
PAGGWFWEGA 0
root@arm:~# echo 'BWVG''UYLXUM'
BWVGUYLXUM
root@arm:~# MARKER='OWVP''LZZUFX' run 'echo 890000 890000 > /sys/kernel/mva_test//regulators/buck1_set'
OWVPLZZUFXOWVPLZZUFX 0
root@arm:~# echo 'ANWC''GXSYXB'
ANWCGXSYXB
root@arm:~# MARKER='FBBN''NFYWGH' run 'i2cget -y -f 2 0x4b 0xd'
FBBNNFYWGH0x13
FBBNNFYWGH 0
root@arm:~# echo 'MTXY''PGGLUZ'
MTXYPGGLUZ
root@arm:~# MARKER='EZME''EVUOHY' run 'echo 900000 900000 > /sys/kernel/mva_test//regulators/buck1_set'
EZMEEVUOHYEZMEEVUOHY 0
root@arm:~# echo 'GETF''MNXAVX'
GETFMNXAVX
root@arm:~# MARKER='MAUG''ALOSYQ' run 'i2cget -y -f 2 0x4b 0xd'
MAUGALOSYQ0x14
MAUGALOSYQ 0
root@arm:~# echo 'BFVJ''UFLOWY'
BFVJUFLOWY
root@arm:~# MARKER='LSKV''HNOHAE' run 'echo 910000 910000 > /sys/kernel/mva_test//regulators/buck1_set'
LSKVHNOHAELSKVHNOHAE 0
root@arm:~# echo 'CSKQ''HXSEFH'
CSKQHXSEFH
root@arm:~# MARKER='KEZU''YNAVVL' run 'i2cget -y -f 2 0x4b 0xd'
KEZUYNAVVL0x15
KEZUYNAVVL 0
root@arm:~# echo 'XPFF''OYTJZH'
XPFFOYTJZH
root@arm:~# MARKER='OSGH''ZOLEPM' run 'echo 920000 920000 > /sys/kernel/mva_test//regulators/buck1_set'
OSGHZOLEPMOSGHZOLEPM 0
root@arm:~# echo 'LYHZ''CCSAHH'
LYHZCCSAHH
root@arm:~# MARKER='UYLB''PKEUKX' run 'i2cget -y -f 2 0x4b 0xd'
UYLBPKEUKX0x16
UYLBPKEUKX 0
root@arm:~# echo 'EJTT''YMLSLP'
EJTTYMLSLP
root@arm:~# MARKER='GTAP''TFXTKW' run 'echo 930000 930000 > /sys/kernel/mva_test//regulators/buck1_set'
GTAPTFXTKWGTAPTFXTKW 0
root@arm:~# echo 'QFNA''JZGMGP'
QFNAJZGMGP
root@arm:~# MARKER='ZJWU''FUJAVC' run 'i2cget -y -f 2 0x4b 0xd'
ZJWUFUJAVC0x17
ZJWUFUJAVC 0
root@arm:~# echo 'GQGH''EAJXKZ'
GQGHEAJXKZ
root@arm:~# MARKER='USAS''GGGJBP' run 'echo 940000 940000 > /sys/kernel/mva_test//regulators/buck1_set'
USASGGGJBPUSASGGGJBP 0
root@arm:~# echo 'ZWZL''XJZXXQ'
ZWZLXJZXXQ
root@arm:~# MARKER='KHNF''PSVGZU' run 'i2cget -y -f 2 0x4b 0xd'
KHNFPSVGZU0x18
KHNFPSVGZU 0
root@arm:~# echo 'ETQW''OCAAVW'
ETQWOCAAVW
root@arm:~# MARKER='PKGF''YBMKBB' run 'echo 950000 950000 > /sys/kernel/mva_test//regulators/buck1_set'
PKGFYBMKBBPKGFYBMKBB 0
root@arm:~# echo 'CHMV''JYQXBW'
CHMVJYQXBW
root@arm:~# MARKER='CSKQ''KJWBSK' run 'i2cget -y -f 2 0x4b 0xd'
CSKQKJWBSK0x19
CSKQKJWBSK 0
root@arm:~# echo 'OQMY''FXMPHP'
OQMYFXMPHP
root@arm:~# MARKER='KHAP''XNJSON' run 'echo 960000 960000 > /sys/kernel/mva_test//regulators/buck1_set'
KHAPXNJSONKHAPXNJSON 0
root@arm:~# echo 'YNHT''OPGZUF'
YNHTOPGZUF
root@arm:~# MARKER='APYX''HGYJNX' run 'i2cget -y -f 2 0x4b 0xd'
APYXHGYJNX0x1a
APYXHGYJNX 0
root@arm:~# echo 'ZMVH''TSWOJW'
ZMVHTSWOJW
root@arm:~# MARKER='PCUJ''BVZLQE' run 'echo 970000 970000 > /sys/kernel/mva_test//regulators/buck1_set'
PCUJBVZLQEPCUJBVZLQE 0
root@arm:~# echo 'XGUX''SABZEZ'
XGUXSABZEZ
root@arm:~# MARKER='FYUH''LCOHCM' run 'i2cget -y -f 2 0x4b 0xd'
FYUHLCOHCM0x1b
FYUHLCOHCM 0
root@arm:~# echo 'JPYO''BCCTHJ'
JPYOBCCTHJ
root@arm:~# MARKER='JCWX''LFCHZG' run 'echo 980000 980000 > /sys/kernel/mva_test//regulators/buck1_set'
JCWXLFCHZGJCWXLFCHZG 0
root@arm:~# echo 'GLWA''QQSMSM'
GLWAQQSMSM
root@arm:~# MARKER='FQUN''JUKZVX' run 'i2cget -y -f 2 0x4b 0xd'
FQUNJUKZVX0x1c
FQUNJUKZVX 0
root@arm:~# echo 'FMTF''UCFCWL'
FMTFUCFCWL
root@arm:~# MARKER='XCKP''BOEGZF' run 'echo 990000 990000 > /sys/kernel/mva_test//regulators/buck1_set'
XCKPBOEGZFXCKPBOEGZF 0
root@arm:~# echo 'UGOC''LYYEWK'
UGOCLYYEWK
root@arm:~# MARKER='MGBT''GMHPVH' run 'i2cget -y -f 2 0x4b 0xd'
MGBTGMHPVH0x1d
MGBTGMHPVH 0
root@arm:~# echo 'PBBM''GKPBPN'
PBBMGKPBPN
root@arm:~# MARKER='TSTH''JPECWP' run 'echo 1000000 1000000 > /sys/kernel/mva_tesst/regulators/buck1_set'
TSTHJPECWPTSTHJPECWP 0
root@arm:~# echo 'LULS''KJTVTO'
LULSKJTVTO
root@arm:~# MARKER='FNAW''AMGAQF' run 'i2cget -y -f 2 0x4b 0xd'
FNAWAMGAQF0x1e
FNAWAMGAQF 0
root@arm:~# echo 'PUGP''PNELKL'
PUGPPNELKL
root@arm:~# MARKER='CVTC''FJCWVT' run 'echo 1010000 1010000 > /sys/kernel/mva_tesst/regulators/buck1_set'
CVTCFJCWVTCVTCFJCWVT 0
root@arm:~# echo 'QMSS''NJWBFF'
QMSSNJWBFF
root@arm:~# MARKER='XCVE''LJNBCY' run 'i2cget -y -f 2 0x4b 0xd'
XCVELJNBCY0x1f
XCVELJNBCY 0
root@arm:~# echo 'XZYO''FHFLMT'
XZYOFHFLMT
root@arm:~# MARKER='WNGT''VXVNES' run 'echo 1020000 1020000 > /sys/kernel/mva_tesst/regulators/buck1_set'
WNGTVXVNESWNGTVXVNES 0
root@arm:~# echo 'WMSU''SYTXHU'
WMSUSYTXHU
root@arm:~# MARKER='FFJH''VWAPBL' run 'i2cget -y -f 2 0x4b 0xd'
FFJHVWAPBL0x20
FFJHVWAPBL 0
root@arm:~# echo 'JPAP''PZWSWZ'
JPAPPZWSWZ
root@arm:~# MARKER='XGJV''WUQETG' run 'echo 1030000 1030000 > /sys/kernel/mva_tesst/regulators/buck1_set'
XGJVWUQETGXGJVWUQETG 0
root@arm:~# echo 'SCWL''LKWZCU'
SCWLLKWZCU
root@arm:~# MARKER='MEUF''SLKOCG' run 'i2cget -y -f 2 0x4b 0xd'
MEUFSLKOCG0x21
MEUFSLKOCG 0
root@arm:~# echo 'WTMB''ZLSPHZ'
WTMBZLSPHZ
root@arm:~# MARKER='MMXW''BZFCXE' run 'echo 1040000 1040000 > /sys/kernel/mva_tesst/regulators/buck1_set'
MMXWBZFCXEMMXWBZFCXE 0
root@arm:~# echo 'MUMA''CVSJAY'
MUMACVSJAY
root@arm:~# MARKER='ZOSW''VUQHGY' run 'i2cget -y -f 2 0x4b 0xd'
ZOSWVUQHGY0x22
ZOSWVUQHGY 0
root@arm:~# echo 'OEUY''KYGOAY'
OEUYKYGOAY
root@arm:~# MARKER='JZUA''TFABTG' run 'echo 1050000 1050000 > /sys/kernel/mva_tesst/regulators/buck1_set'
JZUATFABTGJZUATFABTG 0
root@arm:~# echo 'MLCZ''YNLZCF'
MLCZYNLZCF
root@arm:~# MARKER='PSYP''YQKAZS' run 'i2cget -y -f 2 0x4b 0xd'
PSYPYQKAZS0x23
PSYPYQKAZS 0
root@arm:~# echo 'VKPT''JWFEKW'
VKPTJWFEKW
root@arm:~# MARKER='QNWY''WQXFWS' run 'echo 1060000 1060000 > /sys/kernel/mva_tesst/regulators/buck1_set'
QNWYWQXFWSQNWYWQXFWS 0
root@arm:~# echo 'JTPO''CUNPLM'
JTPOCUNPLM
root@arm:~# MARKER='VFBF''XCOMEB' run 'i2cget -y -f 2 0x4b 0xd'
VFBFXCOMEB0x24
VFBFXCOMEB 0
root@arm:~# echo 'GVHO''AKVMGO'
GVHOAKVMGO
root@arm:~# MARKER='TXLV''WJLAWQ' run 'echo 1070000 1070000 > /sys/kernel/mva_tesst/regulators/buck1_set'
TXLVWJLAWQTXLVWJLAWQ 0
root@arm:~# echo 'FZKH''QFXENO'
FZKHQFXENO
root@arm:~# MARKER='ONXS''MVHBGP' run 'i2cget -y -f 2 0x4b 0xd'
ONXSMVHBGP0x25
ONXSMVHBGP 0
root@arm:~# echo 'CXYX''KSHSUV'
CXYXKSHSUV
root@arm:~# MARKER='PGVQ''PPQHBG' run 'echo 1080000 1080000 > /sys/kernel/mva_tesst/regulators/buck1_set'
PGVQPPQHBGPGVQPPQHBG 0
root@arm:~# echo 'BJYF''KUPWGU'
BJYFKUPWGU
root@arm:~# MARKER='MXHF''XNBOWO' run 'i2cget -y -f 2 0x4b 0xd'
MXHFXNBOWO0x26
MXHFXNBOWO 0
root@arm:~# echo 'PVLK''JWHPYB'
PVLKJWHPYB
root@arm:~# MARKER='EXHF''ZYFKPW' run 'echo 1090000 1090000 > /sys/kernel/mva_tesst/regulators/buck1_set'
EXHFZYFKPWEXHFZYFKPW 0
root@arm:~# echo 'MJAL''OOEHYJ'
MJALOOEHYJ
root@arm:~# MARKER='TJCB''LGNAVF' run 'i2cget -y -f 2 0x4b 0xd'
TJCBLGNAVF0x27
TJCBLGNAVF 0
root@arm:~# echo 'XONN''CLOCJP'
XONNCLOCJP
root@arm:~# MARKER='QJVE''GZVQMZ' run 'echo 1100000 1100000 > /sys/kernel/mva_tesst/regulators/buck1_set'
QJVEGZVQMZQJVEGZVQMZ 0
root@arm:~# echo 'BYFH''FZNGZJ'
BYFHFZNGZJ
root@arm:~# MARKER='ZMTH''ZZLYXN' run 'i2cget -y -f 2 0x4b 0xd'
ZMTHZZLYXN0x28
ZMTHZZLYXN 0
root@arm:~# echo 'AUEL''VVLPOS'
AUELVVLPOS
root@arm:~# MARKER='JYPN''HSWGUB' run 'echo 1110000 1110000 > /sys/kernel/mva_tesst/regulators/buck1_set'
JYPNHSWGUBJYPNHSWGUB 0
root@arm:~# echo 'OACY''KSLMFP'
OACYKSLMFP
root@arm:~# MARKER='POPX''YLQABE' run 'i2cget -y -f 2 0x4b 0xd'
POPXYLQABE0x29
POPXYLQABE 0
root@arm:~# echo 'BFOJ''JQBVTM'
BFOJJQBVTM
root@arm:~# MARKER='BVNO''USCWZY' run 'echo 1120000 1120000 > /sys/kernel/mva_tesst/regulators/buck1_set'
BVNOUSCWZYBVNOUSCWZY 0
root@arm:~# echo 'YJYG''CCGBWL'
YJYGCCGBWL
root@arm:~# MARKER='AOPM''VJNFFS' run 'i2cget -y -f 2 0x4b 0xd'
AOPMVJNFFS0x2a
AOPMVJNFFS 0
root@arm:~# echo 'WGJM''HVPKBN'
WGJMHVPKBN
root@arm:~# MARKER='QUOX''USMZQM' run 'echo 1130000 1130000 > /sys/kernel/mva_tesst/regulators/buck1_set'
QUOXUSMZQMQUOXUSMZQM 0
root@arm:~# echo 'BSHS''COFMXV'
BSHSCOFMXV
root@arm:~# MARKER='FJEQ''LMANLU' run 'i2cget -y -f 2 0x4b 0xd'
FJEQLMANLU0x2b
FJEQLMANLU 0
root@arm:~# echo 'SCNP''QSNENV'
SCNPQSNENV
root@arm:~# MARKER='YBYN''TZQLSH' run 'echo 1140000 1140000 > /sys/kernel/mva_tesst/regulators/buck1_set'
YBYNTZQLSHYBYNTZQLSH 0
root@arm:~# echo 'LHXX''QCTWNM'
LHXXQCTWNM
root@arm:~# MARKER='KFXP''HJOMUK' run 'i2cget -y -f 2 0x4b 0xd'
KFXPHJOMUK0x2c
KFXPHJOMUK 0
root@arm:~# echo 'MBAH''COHOYU'
MBAHCOHOYU
root@arm:~# MARKER='QYON''MNPYVL' run 'echo 1150000 1150000 > /sys/kernel/mva_tesst/regulators/buck1_set'
QYONMNPYVLQYONMNPYVL 0
root@arm:~# echo 'AYMY''NPKYLL'
AYMYNPKYLL
root@arm:~# MARKER='VBNB''WBEWXB' run 'i2cget -y -f 2 0x4b 0xd'
VBNBWBEWXB0x2d
VBNBWBEWXB 0
root@arm:~# echo 'CYHZ''GTWQWG'
CYHZGTWQWG
root@arm:~# MARKER='ESAT''KYVLKX' run 'echo 1160000 1160000 > /sys/kernel/mva_tesst/regulators/buck1_set'
ESATKYVLKXESATKYVLKX 0
root@arm:~# echo 'VJBQ''ZTTWXL'
VJBQZTTWXL
root@arm:~# MARKER='XFVJ''BACEPQ' run 'i2cget -y -f 2 0x4b 0xd'
XFVJBACEPQ0x2e
XFVJBACEPQ 0
root@arm:~# echo 'JGWA''ZJKLQF'
JGWAZJKLQF
root@arm:~# MARKER='SKNB''CVXECV' run 'echo 1170000 1170000 > /sys/kernel/mva_tesst/regulators/buck1_set'
SKNBCVXECVSKNBCVXECV 0
root@arm:~# echo 'ZXEG''QHCETT'
ZXEGQHCETT
root@arm:~# MARKER='SAVV''JAYPYK' run 'i2cget -y -f 2 0x4b 0xd'
SAVVJAYPYK0x2f
SAVVJAYPYK 0
root@arm:~# echo 'BWUG''JKVZAN'
BWUGJKVZAN
root@arm:~# MARKER='AMVE''BXJMLM' run 'echo 1180000 1180000 > /sys/kernel/mva_tesst/regulators/buck1_set'
AMVEBXJMLMAMVEBXJMLM 0
root@arm:~# echo 'WNYU''AOAXAC'
WNYUAOAXAC
root@arm:~# MARKER='ZLHA''AOFXBG' run 'i2cget -y -f 2 0x4b 0xd'
ZLHAAOFXBG0x30
ZLHAAOFXBG 0
root@arm:~# echo 'UAPV''MYMKYG'
UAPVMYMKYG
root@arm:~# MARKER='YQHS''XWJPWE' run 'echo 1190000 1190000 > /sys/kernel/mva_tesst/regulators/buck1_set'
YQHSXWJPWEYQHSXWJPWE 0
root@arm:~# echo 'MHPP''AUYOAJ'
MHPPAUYOAJ
root@arm:~# MARKER='WCLP''UFYABM' run 'i2cget -y -f 2 0x4b 0xd'
WCLPUFYABM0x31
WCLPUFYABM 0
root@arm:~# echo 'OKWJ''GSJKMP'
OKWJGSJKMP
root@arm:~# MARKER='UFLC''GVAPCV' run 'echo 1200000 1200000 > /sys/kernel/mva_tesst/regulators/buck1_set'
UFLCGVAPCVUFLCGVAPCV 0
root@arm:~# echo 'ZWUE''WCGMYG'
ZWUEWCGMYG
root@arm:~# MARKER='CFVS''MMLKHX' run 'i2cget -y -f 2 0x4b 0xd'
CFVSMMLKHX0x32
CFVSMMLKHX 0
root@arm:~# echo 'FLNC''SNNTEM'
FLNCSNNTEM
root@arm:~# MARKER='BXAU''CYEZPO' run 'echo 1210000 1210000 > /sys/kernel/mva_tesst/regulators/buck1_set'
BXAUCYEZPOBXAUCYEZPO 0
root@arm:~# echo 'ZVTK''MGUGQZ'
ZVTKMGUGQZ
root@arm:~# MARKER='HCPT''TGCLAZ' run 'i2cget -y -f 2 0x4b 0xd'
HCPTTGCLAZ0x33
HCPTTGCLAZ 0
root@arm:~# echo 'FWUY''AHBXYT'
FWUYAHBXYT
root@arm:~# MARKER='LKXJ''ELCNSO' run 'echo 1220000 1220000 > /sys/kernel/mva_tesst/regulators/buck1_set'
LKXJELCNSOLKXJELCNSO 0
root@arm:~# echo 'OYZT''VAGKXY'
OYZTVAGKXY
root@arm:~# MARKER='WLBQ''LJNAYW' run 'i2cget -y -f 2 0x4b 0xd'
WLBQLJNAYW0x34
WLBQLJNAYW 0
root@arm:~# echo 'GAZX''NWPEUS'
GAZXNWPEUS
root@arm:~# MARKER='CWQC''LENUEK' run 'echo 1230000 1230000 > /sys/kernel/mva_tesst/regulators/buck1_set'
CWQCLENUEKCWQCLENUEK 0
root@arm:~# echo 'HEAS''UNAQLV'
HEASUNAQLV
root@arm:~# MARKER='QZNZ''PQPBVZ' run 'i2cget -y -f 2 0x4b 0xd'
QZNZPQPBVZ0x35
QZNZPQPBVZ 0
root@arm:~# echo 'PZWS''EXYJKU'
PZWSEXYJKU
root@arm:~# MARKER='MZKF''JUUWQZ' run 'echo 1240000 1240000 > /sys/kernel/mva_tesst/regulators/buck1_set'
MZKFJUUWQZMZKFJUUWQZ 0
root@arm:~# echo 'YOKN''JGZTFC'
YOKNJGZTFC
root@arm:~# MARKER='MEPP''SCWGEX' run 'i2cget -y -f 2 0x4b 0xd'
MEPPSCWGEX0x36
MEPPSCWGEX 0
root@arm:~# echo 'TZQY''ANOOQA'
TZQYANOOQA
root@arm:~# MARKER='GGQJ''CVCSNZ' run 'echo 1250000 1250000 > /sys/kernel/mva_tesst/regulators/buck1_set'
GGQJCVCSNZGGQJCVCSNZ 0
root@arm:~# echo 'GBTC''TOBXXC'
GBTCTOBXXC
root@arm:~# MARKER='UQSM''EECNAF' run 'i2cget -y -f 2 0x4b 0xd'
UQSMEECNAF0x37
UQSMEECNAF 0
root@arm:~# echo 'ZFSB''CQAYHA'
ZFSBCQAYHA
root@arm:~# MARKER='PUEO''VHYAHZ' run 'echo 1260000 1260000 > /sys/kernel/mva_tesst/regulators/buck1_set'
PUEOVHYAHZPUEOVHYAHZ 0
root@arm:~# echo 'PUZY''VEMWEA'
PUZYVEMWEA
root@arm:~# MARKER='NQOM''EKOQNG' run 'i2cget -y -f 2 0x4b 0xd'
NQOMEKOQNG0x38
NQOMEKOQNG 0
root@arm:~# echo 'FMEX''ZQLYQN'
FMEXZQLYQN
root@arm:~# MARKER='LWME''QYLKEG' run 'echo 1270000 1270000 > /sys/kernel/mva_tesst/regulators/buck1_set'
LWMEQYLKEGLWMEQYLKEG 0
root@arm:~# echo 'OHEY''HGZZXO'
OHEYHGZZXO
root@arm:~# MARKER='PFSB''CJZYET' run 'i2cget -y -f 2 0x4b 0xd'
PFSBCJZYET0x39
PFSBCJZYET 0
root@arm:~# echo 'XNHK''BSMTEM'
XNHKBSMTEM
root@arm:~# MARKER='CBTH''BFKSMG' run 'echo 1280000 1280000 > /sys/kernel/mva_tesst/regulators/buck1_set'
CBTHBFKSMGCBTHBFKSMG 0
root@arm:~# echo 'TYTX''FUMPLT'
TYTXFUMPLT
root@arm:~# MARKER='AQCN''GNBVAP' run 'i2cget -y -f 2 0x4b 0xd'
AQCNGNBVAP0x3a
AQCNGNBVAP 0
root@arm:~# echo 'HSHH''TMLCHA'
HSHHTMLCHA
root@arm:~# MARKER='PYYB''TNCGHH' run 'echo 1290000 1290000 > /sys/kernel/mva_tesst/regulators/buck1_set'
PYYBTNCGHHPYYBTNCGHH 0
root@arm:~# echo 'UWUA''NVNETE'
UWUANVNETE
root@arm:~# MARKER='CSWG''WQZCJK' run 'i2cget -y -f 2 0x4b 0xd'
CSWGWQZCJK0x3b
CSWGWQZCJK 0
root@arm:~# echo 'OYJS''WNJKYY'
OYJSWNJKYY
root@arm:~# MARKER='ASXS''LLOEHJ' run 'echo 1300000 1300000 > /sys/kernel/mva_tesst/regulators/buck1_set'
ASXSLLOEHJASXSLLOEHJ 0
root@arm:~# echo 'UJNV''PEEOYA'
UJNVPEEOYA
root@arm:~# MARKER='PWKH''VJSQXU' run 'i2cget -y -f 2 0x4b 0xd'
PWKHVJSQXU0x3c
PWKHVJSQXU 0
root@arm:~# echo 'AJOK''GLFVHO'
AJOKGLFVHO
root@arm:~# MARKER='JJXJ''VAHSVP' run 'grep -r -l rohm,bd71837 /proc/device-tree  | sed '"'"'s![^/]*$!!'"'"''
JJXJVAHSVP/proc/device-tree/ocp/interconnect@48000000/segment@100000/target-module@9c000/i2c@0/pmic@4b/
JJXJVAHSVP 0
root@arm:~# echo 'MMJF''GNQCPV'
MMJFGNQCPV
root@arm:~# MARKER='LZZW''YAKMHV' run 'test -f /proc/device-tree/ocp/interconnectt\@48000000/segment\@100000/target-module\@9c000/i2c\@0/pmic\@4b/regulators/BUCK22/rohm,no-regulator-enable-control ;echo $?'
LZZWYAKMHV1
LZZWYAKMHV 0
root@arm:~# echo 'KJEX''ZMLFES'
KJEXZMLFES
root@arm:~# MARKER='GSZS''MHEBPW' run 'i2cget -y -f 2 0x4b 0x6'
GSZSMHEBPW0x43
GSZSMHEBPW 0
root@arm:~# echo 'PMAN''GQXSGX'
PMANGQXSGX
root@arm:~# MARKER='YVQU''NEWOFF' run 'echo 700000 700000 > /sys/kernel/mva_test//regulators/buck2_set'
YVQUNEWOFFYVQUNEWOFF 0
root@arm:~# echo 'TPOB''ENKOHF'
TPOBENKOHF
root@arm:~# MARKER='JUEP''EOGMKY' run 'i2cget -y -f 2 0x4b 0x10'
JUEPEOGMKY0x00
JUEPEOGMKY 0
root@arm:~# echo 'MSWM''HGQELU'
MSWMHGQELU
root@arm:~# MARKER='WXXJ''GBQNGZ' run 'echo 710000 710000 > /sys/kernel/mva_test//regulators/buck2_set'
WXXJGBQNGZWXXJGBQNGZ 0
root@arm:~# echo 'AHCZ''HTLZSH'
AHCZHTLZSH
root@arm:~# MARKER='SKGU''WJUZQV' run 'i2cget -y -f 2 0x4b 0x10'
SKGUWJUZQV0x01
SKGUWJUZQV 0
root@arm:~# echo 'CQXX''OSNGWV'
CQXXOSNGWV
root@arm:~# MARKER='GOZQ''JLXQQO' run 'echo 720000 720000 > /sys/kernel/mva_test//regulators/buck2_set'
GOZQJLXQQOGOZQJLXQQO 0
root@arm:~# echo 'NHQO''ZKVTTW'
NHQOZKVTTW
root@arm:~# MARKER='QUWK''JEHSML' run 'i2cget -y -f 2 0x4b 0x10'
QUWKJEHSML0x02
QUWKJEHSML 0
root@arm:~# echo 'AUZT''MQJFVM'
AUZTMQJFVM
root@arm:~# MARKER='EXBK''NCKLUA' run 'echo 730000 730000 > /sys/kernel/mva_test//regulators/buck2_set'
EXBKNCKLUAEXBKNCKLUA 0
root@arm:~# echo 'ZVYK''EJAFLN'
ZVYKEJAFLN
root@arm:~# MARKER='BWAO''ZQVHVN' run 'i2cget -y -f 2 0x4b 0x10'
BWAOZQVHVN0x03
BWAOZQVHVN 0
root@arm:~# echo 'YQMW''MWQKHX'
YQMWMWQKHX
root@arm:~# MARKER='YSMQ''LSCACF' run 'echo 740000 740000 > /sys/kernel/mva_test//regulators/buck2_set'
YSMQLSCACFYSMQLSCACF 0
root@arm:~# echo 'FOCZ''BOLNUE'
FOCZBOLNUE
root@arm:~# MARKER='ULTT''FUPKQJ' run 'i2cget -y -f 2 0x4b 0x10'
ULTTFUPKQJ0x04
ULTTFUPKQJ 0
root@arm:~# echo 'SSZM''TYBYGC'
SSZMTYBYGC
root@arm:~# MARKER='GEBC''NSAPQU' run 'echo 750000 750000 > /sys/kernel/mva_test//regulators/buck2_set'
GEBCNSAPQUGEBCNSAPQU 0
root@arm:~# echo 'ZHEZ''XUEGSW'
ZHEZXUEGSW
root@arm:~# MARKER='LHZT''ZVSZJV' run 'i2cget -y -f 2 0x4b 0x10'
LHZTZVSZJV0x05
LHZTZVSZJV 0
root@arm:~# echo 'ECGS''SYJJPT'
ECGSSYJJPT
root@arm:~# MARKER='JTZG''OUAYKC' run 'echo 760000 760000 > /sys/kernel/mva_test//regulators/buck2_set'
JTZGOUAYKCJTZGOUAYKC 0
root@arm:~# echo 'KAGO''WALNHV'
KAGOWALNHV
root@arm:~# MARKER='XEGY''OQHFCH' run 'i2cget -y -f 2 0x4b 0x10'
XEGYOQHFCH0x06
XEGYOQHFCH 0
root@arm:~# echo 'NXNY''AGLGUT'
NXNYAGLGUT
root@arm:~# MARKER='ZMNB''CJSFNG' run 'echo 770000 770000 > /sys/kernel/mva_test//regulators/buck2_set'
ZMNBCJSFNGZMNBCJSFNG 0
root@arm:~# echo 'YXZU''GNQSUO'
YXZUGNQSUO
root@arm:~# MARKER='PJAK''VYUVFF' run 'i2cget -y -f 2 0x4b 0x10'
PJAKVYUVFF0x07
PJAKVYUVFF 0
root@arm:~# echo 'GKGT''JTEOUC'
GKGTJTEOUC
root@arm:~# MARKER='CNVV''VSNKCV' run 'echo 780000 780000 > /sys/kernel/mva_test//regulators/buck2_set'
CNVVVSNKCVCNVVVSNKCV 0
root@arm:~# echo 'XJWM''WTKJHV'
XJWMWTKJHV
root@arm:~# MARKER='ETHL''KQBBVO' run 'i2cget -y -f 2 0x4b 0x10'
ETHLKQBBVO0x08
ETHLKQBBVO 0
root@arm:~# echo 'AQXV''TSZEOZ'
AQXVTSZEOZ
root@arm:~# MARKER='MZCV''SLQQKM' run 'echo 790000 790000 > /sys/kernel/mva_test//regulators/buck2_set'
MZCVSLQQKMMZCVSLQQKM 0
root@arm:~# echo 'ZCTZ''STOXAY'
ZCTZSTOXAY
root@arm:~# MARKER='BVQS''SEXJMB' run 'i2cget -y -f 2 0x4b 0x10'
BVQSSEXJMB0x09
BVQSSEXJMB 0
root@arm:~# echo 'HWEW''AJEWHY'
HWEWAJEWHY
root@arm:~# MARKER='QTKE''CUBZOG' run 'echo 800000 800000 > /sys/kernel/mva_test//regulators/buck2_set'
QTKECUBZOGQTKECUBZOG 0
root@arm:~# echo 'SCSJ''SEBBEM'
SCSJSEBBEM
root@arm:~# MARKER='VLTE''VUZGOM' run 'i2cget -y -f 2 0x4b 0x10'
VLTEVUZGOM0x0a
VLTEVUZGOM 0
root@arm:~# echo 'HTMP''ZYVACO'
HTMPZYVACO
root@arm:~# MARKER='TNZQ''GVWTJO' run 'echo 810000 810000 > /sys/kernel/mva_test//regulators/buck2_set'
TNZQGVWTJOTNZQGVWTJO 0
root@arm:~# echo 'XTLL''SUXQNL'
XTLLSUXQNL
root@arm:~# MARKER='VXHN''TMWBUL' run 'i2cget -y -f 2 0x4b 0x10'
VXHNTMWBUL0x0b
VXHNTMWBUL 0
root@arm:~# echo 'TJFP''CKKOXS'
TJFPCKKOXS
root@arm:~# MARKER='PSTS''OGZMMG' run 'echo 820000 820000 > /sys/kernel/mva_test//regulators/buck2_set'
PSTSOGZMMGPSTSOGZMMG 0
root@arm:~# echo 'MLYT''CXZEAN'
MLYTCXZEAN
root@arm:~# MARKER='LVBE''XQEGYE' run 'i2cget -y -f 2 0x4b 0x10'
LVBEXQEGYE0x0c
LVBEXQEGYE 0
root@arm:~# echo 'NENG''HKTGSJ'
NENGHKTGSJ
root@arm:~# MARKER='ZVXT''SPOEBV' run 'echo 830000 830000 > /sys/kernel/mva_test//regulators/buck2_set'
ZVXTSPOEBVZVXTSPOEBV 0
root@arm:~# echo 'KGWE''VZTPYT'
KGWEVZTPYT
root@arm:~# MARKER='YQNM''TVKGTU' run 'i2cget -y -f 2 0x4b 0x10'
YQNMTVKGTU0x0d
YQNMTVKGTU 0
root@arm:~# echo 'WVXQ''SUTJCY'
WVXQSUTJCY
root@arm:~# MARKER='GBYL''LJAVVZ' run 'echo 840000 840000 > /sys/kernel/mva_test//regulators/buck2_set'
GBYLLJAVVZGBYLLJAVVZ 0
root@arm:~# echo 'VTTU''JUGHEA'
VTTUJUGHEA
root@arm:~# MARKER='ZLFJ''FNZOMB' run 'i2cget -y -f 2 0x4b 0x10'
ZLFJFNZOMB0x0e
ZLFJFNZOMB 0
root@arm:~# echo 'VPES''OVOPAS'
VPESOVOPAS
root@arm:~# MARKER='LZQC''WBEQQE' run 'echo 850000 850000 > /sys/kernel/mva_test//regulators/buck2_set'
LZQCWBEQQELZQCWBEQQE 0
root@arm:~# echo 'TCEK''BMZCCC'
TCEKBMZCCC
root@arm:~# MARKER='KVOZ''QSOSPC' run 'i2cget -y -f 2 0x4b 0x10'
KVOZQSOSPC0x0f
KVOZQSOSPC 0
root@arm:~# echo 'ENNY''PMBXOJ'
ENNYPMBXOJ
root@arm:~# MARKER='JLAO''VBBVVC' run 'echo 860000 860000 > /sys/kernel/mva_test//regulators/buck2_set'
JLAOVBBVVCJLAOVBBVVC 0
root@arm:~# echo 'JJYT''SUWXNY'
JJYTSUWXNY
root@arm:~# MARKER='OSVH''OOPTYC' run 'i2cget -y -f 2 0x4b 0x10'
OSVHOOPTYC0x10
OSVHOOPTYC 0
root@arm:~# echo 'KGBT''HLZUVX'
KGBTHLZUVX
root@arm:~# MARKER='FQVC''VHEBTV' run 'echo 870000 870000 > /sys/kernel/mva_test//regulators/buck2_set'
FQVCVHEBTVFQVCVHEBTV 0
root@arm:~# echo 'ZWZB''UAEPXN'
ZWZBUAEPXN
root@arm:~# MARKER='QCAV''QTOEVA' run 'i2cget -y -f 2 0x4b 0x10'
QCAVQTOEVA0x11
QCAVQTOEVA 0
root@arm:~# echo 'ZCSG''NTLLOH'
ZCSGNTLLOH
root@arm:~# MARKER='MNQC''CFWAOQ' run 'echo 880000 880000 > /sys/kernel/mva_test//regulators/buck2_set'
MNQCCFWAOQMNQCCFWAOQ 0
root@arm:~# echo 'BSYY''KTNKYE'
BSYYKTNKYE
root@arm:~# MARKER='QYOO''NFEPCU' run 'i2cget -y -f 2 0x4b 0x10'
QYOONFEPCU0x12
QYOONFEPCU 0
root@arm:~# echo 'LVXX''ZEVTYQ'
LVXXZEVTYQ
root@arm:~# MARKER='FGBQ''KEPQAZ' run 'echo 890000 890000 > /sys/kernel/mva_test//regulators/buck2_set'
FGBQKEPQAZFGBQKEPQAZ 0
root@arm:~# echo 'GOBQ''PWETPU'
GOBQPWETPU
root@arm:~# MARKER='OGCF''NFKWPG' run 'i2cget -y -f 2 0x4b 0x10'
OGCFNFKWPG0x13
OGCFNFKWPG 0
root@arm:~# echo 'NKON''LJYYJT'
NKONLJYYJT
root@arm:~# MARKER='QNXG''WKAAQQ' run 'echo 900000 900000 > /sys/kernel/mva_test//regulators/buck2_set'
QNXGWKAAQQQNXGWKAAQQ 0
root@arm:~# echo 'KQHE''XPQLOA'
KQHEXPQLOA
root@arm:~# MARKER='OYUM''LJQHGK' run 'i2cget -y -f 2 0x4b 0x10'
OYUMLJQHGK0x14
OYUMLJQHGK 0
root@arm:~# echo 'VZGU''QQQKCX'
VZGUQQQKCX
root@arm:~# MARKER='MJUV''BZSYHY' run 'echo 910000 910000 > /sys/kernel/mva_test//regulators/buck2_set'
MJUVBZSYHYMJUVBZSYHY 0
root@arm:~# echo 'HSPS''QSWOTT'
HSPSQSWOTT
root@arm:~# MARKER='UUXV''EVHYVX' run 'i2cget -y -f 2 0x4b 0x10'
UUXVEVHYVX0x15
UUXVEVHYVX 0
root@arm:~# echo 'HCMX''PGULZX'
HCMXPGULZX
root@arm:~# MARKER='OWSH''ONEBWK' run 'echo 920000 920000 > /sys/kernel/mva_test//regulators/buck2_set'
OWSHONEBWKOWSHONEBWK 0
root@arm:~# echo 'GJPT''FVLQGU'
GJPTFVLQGU
root@arm:~# MARKER='BXJX''WJMQUY' run 'i2cget -y -f 2 0x4b 0x10'
BXJXWJMQUY0x16
BXJXWJMQUY 0
root@arm:~# echo 'XPFQ''FNZZQC'
XPFQFNZZQC
root@arm:~# MARKER='ECCY''EKWFYS' run 'echo 930000 930000 > /sys/kernel/mva_test//regulators/buck2_set'
ECCYEKWFYSECCYEKWFYS 0
root@arm:~# echo 'GPZA''TGXQKW'
GPZATGXQKW
root@arm:~# MARKER='UALO''WVJLJQ' run 'i2cget -y -f 2 0x4b 0x10'
UALOWVJLJQ0x17
UALOWVJLJQ 0
root@arm:~# echo 'NQVT''YKZWUQ'
NQVTYKZWUQ
root@arm:~# MARKER='OBSX''WYMBLG' run 'echo 940000 940000 > /sys/kernel/mva_test//regulators/buck2_set'
OBSXWYMBLGOBSXWYMBLG 0
root@arm:~# echo 'XFLE''MHQMSA'
XFLEMHQMSA
root@arm:~# MARKER='OQJU''PLNKBN' run 'i2cget -y -f 2 0x4b 0x10'
OQJUPLNKBN0x18
OQJUPLNKBN 0
root@arm:~# echo 'MBFH''HNXAWO'
MBFHHNXAWO
root@arm:~# MARKER='JYPB''WFOXHZ' run 'echo 950000 950000 > /sys/kernel/mva_test//regulators/buck2_set'
JYPBWFOXHZJYPBWFOXHZ 0
root@arm:~# echo 'YQLX''NKMCEO'
YQLXNKMCEO
root@arm:~# MARKER='TFWC''CZQBOK' run 'i2cget -y -f 2 0x4b 0x10'
TFWCCZQBOK0x19
TFWCCZQBOK 0
root@arm:~# echo 'BSXY''JJPCYY'
BSXYJJPCYY
root@arm:~# MARKER='BBZZ''WYMNGX' run 'echo 960000 960000 > /sys/kernel/mva_test//regulators/buck2_set'
BBZZWYMNGXBBZZWYMNGX 0
root@arm:~# echo 'EWAZ''JJZOMM'
EWAZJJZOMM
root@arm:~# MARKER='PAKJ''LMEQSQ' run 'i2cget -y -f 2 0x4b 0x10'
PAKJLMEQSQ0x1a
PAKJLMEQSQ 0
root@arm:~# echo 'OHUX''OLZCTE'
OHUXOLZCTE
root@arm:~# MARKER='QHAB''QXAJWM' run 'echo 970000 970000 > /sys/kernel/mva_test//regulators/buck2_set'
QHABQXAJWMQHABQXAJWM 0
root@arm:~# echo 'ZPHL''VEOXXX'
ZPHLVEOXXX
root@arm:~# MARKER='NCXE''ELHFXL' run 'i2cget -y -f 2 0x4b 0x10'
NCXEELHFXL0x1b
NCXEELHFXL 0
root@arm:~# echo 'WEQS''OSOFYA'
WEQSOSOFYA
root@arm:~# MARKER='BJZQ''GMAASV' run 'echo 980000 980000 > /sys/kernel/mva_test//regulators/buck2_set'
BJZQGMAASVBJZQGMAASV 0
root@arm:~# echo 'BFXO''ENJPKM'
BFXOENJPKM
root@arm:~# MARKER='MUYL''HCSOGO' run 'i2cget -y -f 2 0x4b 0x10'
MUYLHCSOGO0x1c
MUYLHCSOGO 0
root@arm:~# echo 'GKSU''KPHYJL'
GKSUKPHYJL
root@arm:~# MARKER='SNZS''WCVFUY' run 'echo 990000 990000 > /sys/kernel/mva_test//regulators/buck2_set'
SNZSWCVFUYSNZSWCVFUY 0
root@arm:~# echo 'QAQQ''ZBMTSK'
QAQQZBMTSK
root@arm:~# MARKER='QOMT''YMLLKQ' run 'i2cget -y -f 2 0x4b 0x10'
QOMTYMLLKQ0x1d
QOMTYMLLKQ 0
root@arm:~# echo 'NNZU''NWSPNA'
NNZUNWSPNA
root@arm:~# MARKER='CHOF''CMQGJZ' run 'echo 1000000 1000000 > /sys/kernel/mva_tesst/regulators/buck2_set'
CHOFCMQGJZCHOFCMQGJZ 0
root@arm:~# echo 'KQNZ''XVJMQW'
KQNZXVJMQW
root@arm:~# MARKER='JFVA''QMQNTP' run 'i2cget -y -f 2 0x4b 0x10'
JFVAQMQNTP0x1e
JFVAQMQNTP 0
root@arm:~# echo 'PVXN''QOZLQL'
PVXNQOZLQL
root@arm:~# MARKER='ZCVK''VNWKMT' run 'echo 1010000 1010000 > /sys/kernel/mva_tesst/regulators/buck2_set'
ZCVKVNWKMTZCVKVNWKMT 0
root@arm:~# echo 'QUBX''TXTQKK'
QUBXTXTQKK
root@arm:~# MARKER='BZOF''GAAYPK' run 'i2cget -y -f 2 0x4b 0x10'
BZOFGAAYPK0x1f
BZOFGAAYPK 0
root@arm:~# echo 'JBLY''TGJVKV'
JBLYTGJVKV
root@arm:~# MARKER='EVQK''GSCETO' run 'echo 1020000 1020000 > /sys/kernel/mva_tesst/regulators/buck2_set'
EVQKGSCETOEVQKGSCETO 0
root@arm:~# echo 'AEUY''CEQOHW'
AEUYCEQOHW
root@arm:~# MARKER='AHCL''BHAXBZ' run 'i2cget -y -f 2 0x4b 0x10'
AHCLBHAXBZ0x20
AHCLBHAXBZ 0
root@arm:~# echo 'VQJB''ZQBPTC'
VQJBZQBPTC
root@arm:~# MARKER='CHFC''AVEOUP' run 'echo 1030000 1030000 > /sys/kernel/mva_tesst/regulators/buck2_set'
CHFCAVEOUPCHFCAVEOUP 0
root@arm:~# echo 'EMKG''KUYNPH'
EMKGKUYNPH
root@arm:~# MARKER='JMUF''SBBFOQ' run 'i2cget -y -f 2 0x4b 0x10'
JMUFSBBFOQ0x21
JMUFSBBFOQ 0
root@arm:~# echo 'NEGW''SAWBJB'
NEGWSAWBJB
root@arm:~# MARKER='EXGX''PCQZMQ' run 'echo 1040000 1040000 > /sys/kernel/mva_tesst/regulators/buck2_set'
EXGXPCQZMQEXGXPCQZMQ 0
root@arm:~# echo 'FTNG''OPTFKB'
FTNGOPTFKB
root@arm:~# MARKER='HMSM''CGQVTM' run 'i2cget -y -f 2 0x4b 0x10'
HMSMCGQVTM0x22
HMSMCGQVTM 0
root@arm:~# echo 'ENCV''QWEYMU'
ENCVQWEYMU
root@arm:~# MARKER='BBXS''ECWOSH' run 'echo 1050000 1050000 > /sys/kernel/mva_tesst/regulators/buck2_set'
BBXSECWOSHBBXSECWOSH 0
root@arm:~# echo 'BUJJ''UWMJES'
BUJJUWMJES
root@arm:~# MARKER='CUKK''QNOGWY' run 'i2cget -y -f 2 0x4b 0x10'
CUKKQNOGWY0x23
CUKKQNOGWY 0
root@arm:~# echo 'EJNM''SGUZAJ'
EJNMSGUZAJ
root@arm:~# MARKER='ABUY''TBBEFW' run 'echo 1060000 1060000 > /sys/kernel/mva_tesst/regulators/buck2_set'
ABUYTBBEFWABUYTBBEFW 0
root@arm:~# echo 'PTKW''LTNMGY'
PTKWLTNMGY
root@arm:~# MARKER='TEUV''WKLEEN' run 'i2cget -y -f 2 0x4b 0x10'
TEUVWKLEEN0x24
TEUVWKLEEN 0
root@arm:~# echo 'NLJG''CMYGTG'
NLJGCMYGTG
root@arm:~# MARKER='GUCF''VJOYFM' run 'echo 1070000 1070000 > /sys/kernel/mva_tesst/regulators/buck2_set'
GUCFVJOYFMGUCFVJOYFM 0
root@arm:~# echo 'AZPL''GTKQMA'
AZPLGTKQMA
root@arm:~# MARKER='WLPZ''ZUMWGC' run 'i2cget -y -f 2 0x4b 0x10'
WLPZZUMWGC0x25
WLPZZUMWGC 0
root@arm:~# echo 'KGUE''HHFPGE'
KGUEHHFPGE
root@arm:~# MARKER='QEXC''ZPVPGQ' run 'echo 1080000 1080000 > /sys/kernel/mva_tesst/regulators/buck2_set'
QEXCZPVPGQQEXCZPVPGQ 0
root@arm:~# echo 'UTLA''UNVWNF'
UTLAUNVWNF
root@arm:~# MARKER='GXXC''GKKPBU' run 'i2cget -y -f 2 0x4b 0x10'
GXXCGKKPBU0x26
GXXCGKKPBU 0
root@arm:~# echo 'JGHM''BKCBML'
JGHMBKCBML
root@arm:~# MARKER='ETTV''JPSENO' run 'echo 1090000 1090000 > /sys/kernel/mva_tesst/regulators/buck2_set'
ETTVJPSENOETTVJPSENO 0
root@arm:~# echo 'PWYV''ESNFHP'
PWYVESNFHP
root@arm:~# MARKER='FUGS''LKTLXG' run 'i2cget -y -f 2 0x4b 0x10'
FUGSLKTLXG0x27
FUGSLKTLXG 0
root@arm:~# echo 'WQHB''MHFLMA'
WQHBMHFLMA
root@arm:~# MARKER='QTET''KHVHPK' run 'echo 1100000 1100000 > /sys/kernel/mva_tesst/regulators/buck2_set'
QTETKHVHPKQTETKHVHPK 0
root@arm:~# echo 'AGUU''WLKQPT'
AGUUWLKQPT
root@arm:~# MARKER='BEVQ''GKGQBW' run 'i2cget -y -f 2 0x4b 0x10'
BEVQGKGQBW0x28
BEVQGKGQBW 0
root@arm:~# echo 'XHFL''SNKJSU'
XHFLSNKJSU
root@arm:~# MARKER='AVUZ''QYZKNB' run 'echo 1110000 1110000 > /sys/kernel/mva_tesst/regulators/buck2_set'
AVUZQYZKNBAVUZQYZKNB 0
root@arm:~# echo 'QYYP''XBQBTM'
QYYPXBQBTM
root@arm:~# MARKER='NVHK''WPGBQF' run 'i2cget -y -f 2 0x4b 0x10'
NVHKWPGBQF0x29
NVHKWPGBQF 0
root@arm:~# echo 'EHAQ''CXSHUT'
EHAQCXSHUT
root@arm:~# MARKER='OBCH''OEKMJJ' run 'echo 1120000 1120000 > /sys/kernel/mva_tesst/regulators/buck2_set'
OBCHOEKMJJOBCHOEKMJJ 0
root@arm:~# echo 'GWZV''QGUXYB'
GWZVQGUXYB
root@arm:~# MARKER='TUQN''KZLLQK' run 'i2cget -y -f 2 0x4b 0x10'
TUQNKZLLQK0x2a
TUQNKZLLQK 0
root@arm:~# echo 'KBKL''BVAFFS'
KBKLBVAFFS
root@arm:~# MARKER='CQVV''AJXTOO' run 'echo 1130000 1130000 > /sys/kernel/mva_tesst/regulators/buck2_set'
CQVVAJXTOOCQVVAJXTOO 0
root@arm:~# echo 'FPPE''ZVOVZE'
FPPEZVOVZE
root@arm:~# MARKER='JCNP''YKCJHM' run 'i2cget -y -f 2 0x4b 0x10'
JCNPYKCJHM0x2b
JCNPYKCJHM 0
root@arm:~# echo 'VQOX''WKETZM'
VQOXWKETZM
root@arm:~# MARKER='UNSN''JYAUCO' run 'echo 1140000 1140000 > /sys/kernel/mva_tesst/regulators/buck2_set'
UNSNJYAUCOUNSNJYAUCO 0
root@arm:~# echo 'AWLC''HHBKKB'
AWLCHHBKKB
root@arm:~# MARKER='TLVW''WLUVFK' run 'i2cget -y -f 2 0x4b 0x10'
TLVWWLUVFK0x2c
TLVWWLUVFK 0
root@arm:~# echo 'ZFFT''QNZJBB'
ZFFTQNZJBB
root@arm:~# MARKER='QGXY''MHJXAB' run 'echo 1150000 1150000 > /sys/kernel/mva_tesst/regulators/buck2_set'
QGXYMHJXABQGXYMHJXAB 0
root@arm:~# echo 'CSKV''CGXLTT'
CSKVCGXLTT
root@arm:~# MARKER='VXSW''XXBAWE' run 'i2cget -y -f 2 0x4b 0x10'
VXSWXXBAWE0x2d
VXSWXXBAWE 0
root@arm:~# echo 'WZHF''NZOGJO'
WZHFNZOGJO
root@arm:~# MARKER='TOPK''JYCEUE' run 'echo 1160000 1160000 > /sys/kernel/mva_tesst/regulators/buck2_set'
TOPKJYCEUETOPKJYCEUE 0
root@arm:~# echo 'QGLB''TEENHJ'
QGLBTEENHJ
root@arm:~# MARKER='BOPV''VOXJFL' run 'i2cget -y -f 2 0x4b 0x10'
BOPVVOXJFL0x2e
BOPVVOXJFL 0
root@arm:~# echo 'MYHY''LWGCOV'
MYHYLWGCOV
root@arm:~# MARKER='KQHQ''FHQCCC' run 'echo 1170000 1170000 > /sys/kernel/mva_tesst/regulators/buck2_set'
KQHQFHQCCCKQHQFHQCCC 0
root@arm:~# echo 'TPCF''JHSHAH'
TPCFJHSHAH
root@arm:~# MARKER='OPHB''XVENMX' run 'i2cget -y -f 2 0x4b 0x10'
OPHBXVENMX0x2f
OPHBXVENMX 0
root@arm:~# echo 'WBSQ''ZJOZGA'
WBSQZJOZGA
root@arm:~# MARKER='HSKY''WABWGG' run 'echo 1180000 1180000 > /sys/kernel/mva_tesst/regulators/buck2_set'
HSKYWABWGGHSKYWABWGG 0
root@arm:~# echo 'KMST''QANBKX'
KMSTQANBKX
root@arm:~# MARKER='FSWW''KMWFKZ' run 'i2cget -y -f 2 0x4b 0x10'
FSWWKMWFKZ0x30
FSWWKMWFKZ 0
root@arm:~# echo 'UMGC''KLFEVY'
UMGCKLFEVY
root@arm:~# MARKER='TWYX''EWWBHG' run 'echo 1190000 1190000 > /sys/kernel/mva_tesst/regulators/buck2_set'
TWYXEWWBHGTWYXEWWBHG 0
root@arm:~# echo 'ZYXW''CNSKKP'
ZYXWCNSKKP
root@arm:~# MARKER='ZCFU''APBASH' run 'i2cget -y -f 2 0x4b 0x10'
ZCFUAPBASH0x31
ZCFUAPBASH 0
root@arm:~# echo 'KLMK''UYFAHM'
KLMKUYFAHM
root@arm:~# MARKER='YSBP''ENYHMQ' run 'echo 1200000 1200000 > /sys/kernel/mva_tesst/regulators/buck2_set'
YSBPENYHMQYSBPENYHMQ 0
root@arm:~# echo 'EXJE''PEPZYK'
EXJEPEPZYK
root@arm:~# MARKER='LQVV''COOFQH' run 'i2cget -y -f 2 0x4b 0x10'
LQVVCOOFQH0x32
LQVVCOOFQH 0
root@arm:~# echo 'YFGJ''KNBTQQ'
YFGJKNBTQQ
root@arm:~# MARKER='THYK''CXXPMK' run 'echo 1210000 1210000 > /sys/kernel/mva_tesst/regulators/buck2_set'
THYKCXXPMKTHYKCXXPMK 0
root@arm:~# echo 'NCVM''KQJLGK'
NCVMKQJLGK
root@arm:~# MARKER='AXBO''FFKEHB' run 'i2cget -y -f 2 0x4b 0x10'
AXBOFFKEHB0x33
AXBOFFKEHB 0
root@arm:~# echo 'FOBL''BQKYJU'
FOBLBQKYJU
root@arm:~# MARKER='EJKQ''ZEPYCU' run 'echo 1220000 1220000 > /sys/kernel/mva_tesst/regulators/buck2_set'
EJKQZEPYCUEJKQZEPYCU 0
root@arm:~# echo 'JFCO''KWPNMX'
JFCOKWPNMX
root@arm:~# MARKER='TEQV''FKAMWP' run 'i2cget -y -f 2 0x4b 0x10'
TEQVFKAMWP0x34
TEQVFKAMWP 0
root@arm:~# echo 'YWJH''EQMUTJ'
YWJHEQMUTJ
root@arm:~# MARKER='VXCJ''EUPWWT' run 'echo 1230000 1230000 > /sys/kernel/mva_tesst/regulators/buck2_set'
VXCJEUPWWTVXCJEUPWWT 0
root@arm:~# echo 'MXLF''JEAEVF'
MXLFJEAEVF
root@arm:~# MARKER='CKMX''XAOVUC' run 'i2cget -y -f 2 0x4b 0x10'
CKMXXAOVUC0x35
CKMXXAOVUC 0
root@arm:~# echo 'OLCB''BSEQHA'
OLCBBSEQHA
root@arm:~# MARKER='OPFC''EWNLMG' run 'echo 1240000 1240000 > /sys/kernel/mva_tesst/regulators/buck2_set'
OPFCEWNLMGOPFCEWNLMG 0
root@arm:~# echo 'JOSL''JNLCBC'
JOSLJNLCBC
root@arm:~# MARKER='LVZB''TEVSOS' run 'i2cget -y -f 2 0x4b 0x10'
LVZBTEVSOS0x36
LVZBTEVSOS 0
root@arm:~# echo 'APNO''WKFTCL'
APNOWKFTCL
root@arm:~# MARKER='MSXY''ELQYLP' run 'echo 1250000 1250000 > /sys/kernel/mva_tesst/regulators/buck2_set'
MSXYELQYLPMSXYELQYLP 0
root@arm:~# echo 'HOZG''ZCLGKV'
HOZGZCLGKV
root@arm:~# MARKER='FJTU''SWSSKH' run 'i2cget -y -f 2 0x4b 0x10'
FJTUSWSSKH0x37
FJTUSWSSKH 0
root@arm:~# echo 'FTCO''ZTJWAY'
FTCOZTJWAY
root@arm:~# MARKER='UZCJ''TFCFZY' run 'echo 1260000 1260000 > /sys/kernel/mva_tesst/regulators/buck2_set'
UZCJTFCFZYUZCJTFCFZY 0
root@arm:~# echo 'JPBX''CQLGTP'
JPBXCQLGTP
root@arm:~# MARKER='WTUC''NGZNHM' run 'i2cget -y -f 2 0x4b 0x10'
WTUCNGZNHM0x38
WTUCNGZNHM 0
root@arm:~# echo 'PNNE''QEHHVW'
PNNEQEHHVW
root@arm:~# MARKER='LOON''NKVOYL' run 'echo 1270000 1270000 > /sys/kernel/mva_tesst/regulators/buck2_set'
LOONNKVOYLLOONNKVOYL 0
root@arm:~# echo 'QLLS''BQBAFL'
QLLSBQBAFL
root@arm:~# MARKER='ANHZ''FFYXGY' run 'i2cget -y -f 2 0x4b 0x10'
ANHZFFYXGY0x39
ANHZFFYXGY 0
root@arm:~# echo 'NOVM''AMYNAF'
NOVMAMYNAF
root@arm:~# MARKER='ENEM''GWYZKZ' run 'echo 1280000 1280000 > /sys/kernel/mva_tesst/regulators/buck2_set'
ENEMGWYZKZENEMGWYZKZ 0
root@arm:~# echo 'BKVQ''CZJEHK'
BKVQCZJEHK
root@arm:~# MARKER='CMSN''KVZJZF' run 'i2cget -y -f 2 0x4b 0x10'
CMSNKVZJZF0x3a
CMSNKVZJZF 0
root@arm:~# echo 'THKJ''FESQZV'
THKJFESQZV
root@arm:~# MARKER='VOTT''YJPKLJ' run 'echo 1290000 1290000 > /sys/kernel/mva_tesst/regulators/buck2_set'
VOTTYJPKLJVOTTYJPKLJ 0
root@arm:~# echo 'LKCU''FBQOUZ'
LKCUFBQOUZ
root@arm:~# MARKER='OLWH''VZJHWL' run 'i2cget -y -f 2 0x4b 0x10'
OLWHVZJHWL0x3b
OLWHVZJHWL 0
root@arm:~# echo 'KQMZ''TGFTEP'
KQMZTGFTEP
root@arm:~# MARKER='MHZU''VEMKHW' run 'echo 1300000 1300000 > /sys/kernel/mva_tesst/regulators/buck2_set'
MHZUVEMKHWMHZUVEMKHW 0
root@arm:~# echo 'WPHV''HCWJHU'
WPHVHCWJHU
root@arm:~# MARKER='AMOL''MCSSUO' run 'i2cget -y -f 2 0x4b 0x10'
AMOLMCSSUO0x3c
AMOLMCSSUO 0
root@arm:~# echo 'CBGY''EWSNBH'
CBGYEWSNBH
root@arm:~# MARKER='QZQH''WLWLJH' run 'grep -r -l rohm,bd71837 /proc/device-tree  | sed '"'"'s![^/]*$!!'"'"''
QZQHWLWLJH/proc/device-tree/ocp/interconnect@48000000/segment@100000/target-module@9c000/i2c@0/pmic@4b/
QZQHWLWLJH 0
root@arm:~# echo 'GJXC''AXXLOB'
GJXCAXXLOB
root@arm:~# MARKER='OPQW''VEXEHK' run 'test -f /proc/device-tree/ocp/interconnectt\@48000000/segment\@100000/target-module\@9c000/i2c\@0/pmic\@4b/regulators/BUCK33/rohm,no-regulator-enable-control ;echo $?'
OPQWVEXEHK0
OPQWVEXEHK 0
root@arm:~# echo 'GVKU''SZWTPE'
GVKUSZWTPE
root@arm:~# MARKER='XWCG''FLGQWJ' run 'echo 700000 700000 > /sys/kernel/mva_test//regulators/buck3_set'
XWCGFLGQWJXWCGFLGQWJ 0
root@arm:~# echo 'KUNJ''VJBGLQ'
KUNJVJBGLQ
root@arm:~# MARKER='CGZW''YSFULX' run 'i2cget -y -f 2 0x4b 0x12'
CGZWYSFULX0x00
CGZWYSFULX 0
root@arm:~# echo 'MMNW''MHKWJL'
MMNWMHKWJL
root@arm:~# MARKER='XAET''VZXGSS' run 'echo 710000 710000 > /sys/kernel/mva_test//regulators/buck3_set'
XAETVZXGSSXAETVZXGSS 0
root@arm:~# echo 'STVO''GMALSQ'
STVOGMALSQ
root@arm:~# MARKER='LFFS''EHXUXZ' run 'i2cget -y -f 2 0x4b 0x12'
LFFSEHXUXZ0x01
LFFSEHXUXZ 0
root@arm:~# echo 'TYON''YUWHFV'
TYONYUWHFV
root@arm:~# MARKER='NBTW''ZTBXGA' run 'echo 720000 720000 > /sys/kernel/mva_test//regulators/buck3_set'
NBTWZTBXGANBTWZTBXGA 0
root@arm:~# echo 'FWNP''GXHUYQ'
FWNPGXHUYQ
root@arm:~# MARKER='HSSY''ZXVLBM' run 'i2cget -y -f 2 0x4b 0x12'
HSSYZXVLBM0x02
HSSYZXVLBM 0
root@arm:~# echo 'SZWM''KUBGFC'
SZWMKUBGFC
root@arm:~# MARKER='LZWU''PFYVOP' run 'echo 730000 730000 > /sys/kernel/mva_test//regulators/buck3_set'
LZWUPFYVOPLZWUPFYVOP 0
root@arm:~# echo 'TUGE''KBNKTJ'
TUGEKBNKTJ
root@arm:~# MARKER='UJHA''NKGUJH' run 'i2cget -y -f 2 0x4b 0x12'
UJHANKGUJH0x03
UJHANKGUJH 0
root@arm:~# echo 'MYZE''EGQXTU'
MYZEEGQXTU
root@arm:~# MARKER='NBXG''PJNSFU' run 'echo 740000 740000 > /sys/kernel/mva_test//regulators/buck3_set'
NBXGPJNSFUNBXGPJNSFU 0
root@arm:~# echo 'OCJJ''UUKTEC'
OCJJUUKTEC
root@arm:~# MARKER='VCQQ''SWHAYU' run 'i2cget -y -f 2 0x4b 0x12'
VCQQSWHAYU0x04
VCQQSWHAYU 0
root@arm:~# echo 'WQCX''NVQAOG'
WQCXNVQAOG
root@arm:~# MARKER='BBXW''WKQTTX' run 'echo 750000 750000 > /sys/kernel/mva_test//regulators/buck3_set'
BBXWWKQTTXBBXWWKQTTX 0
root@arm:~# echo 'FMQL''WSMGKF'
FMQLWSMGKF
root@arm:~# MARKER='SGPW''FLNPKJ' run 'i2cget -y -f 2 0x4b 0x12'
SGPWFLNPKJ0x05
SGPWFLNPKJ 0
root@arm:~# echo 'QFLJ''CFZPGT'
QFLJCFZPGT
root@arm:~# MARKER='USET''SZHECP' run 'echo 760000 760000 > /sys/kernel/mva_test//regulators/buck3_set'
USETSZHECPUSETSZHECP 0
root@arm:~# echo 'PFGP''WBYXNO'
PFGPWBYXNO
root@arm:~# MARKER='HSVP''PSQHAO' run 'i2cget -y -f 2 0x4b 0x12'
HSVPPSQHAO0x06
HSVPPSQHAO 0
root@arm:~# echo 'OOTU''COQPMC'
OOTUCOQPMC
root@arm:~# MARKER='AANA''GNLUVT' run 'echo 770000 770000 > /sys/kernel/mva_test//regulators/buck3_set'
AANAGNLUVTAANAGNLUVT 0
root@arm:~# echo 'QMJS''YZWLNJ'
QMJSYZWLNJ
root@arm:~# MARKER='QEUY''OAFKYA' run 'i2cget -y -f 2 0x4b 0x12'
QEUYOAFKYA0x07
QEUYOAFKYA 0
root@arm:~# echo 'FNSB''BYVFAH'
FNSBBYVFAH
root@arm:~# MARKER='HJCM''KVLCKW' run 'echo 780000 780000 > /sys/kernel/mva_test//regulators/buck3_set'
HJCMKVLCKWHJCMKVLCKW 0
root@arm:~# echo 'BSKC''XOMSUF'
BSKCXOMSUF
root@arm:~# MARKER='ACFP''WTEPXE' run 'i2cget -y -f 2 0x4b 0x12'
ACFPWTEPXE0x08
ACFPWTEPXE 0
root@arm:~# echo 'MLWW''UBPLSA'
MLWWUBPLSA
root@arm:~# MARKER='HGFT''EHZXZF' run 'echo 790000 790000 > /sys/kernel/mva_test//regulators/buck3_set'
HGFTEHZXZFHGFTEHZXZF 0
root@arm:~# echo 'FVEU''AJTANY'
FVEUAJTANY
root@arm:~# MARKER='WGBB''QBEVXK' run 'i2cget -y -f 2 0x4b 0x12'
WGBBQBEVXK0x09
WGBBQBEVXK 0
root@arm:~# echo 'UCAA''NYYBGG'
UCAANYYBGG
root@arm:~# MARKER='SLHO''ZTAVOS' run 'echo 800000 800000 > /sys/kernel/mva_test//regulators/buck3_set'
SLHOZTAVOSSLHOZTAVOS 0
root@arm:~# echo 'CGLQ''BAMSCS'
CGLQBAMSCS
root@arm:~# MARKER='OPET''ASQUYN' run 'i2cget -y -f 2 0x4b 0x12'
OPETASQUYN0x0a
OPETASQUYN 0
root@arm:~# echo 'JWQO''ZKFOYT'
JWQOZKFOYT
root@arm:~# MARKER='PEOQ''ZENUBP' run 'echo 810000 810000 > /sys/kernel/mva_test//regulators/buck3_set'
PEOQZENUBPPEOQZENUBP 0
root@arm:~# echo 'NQEO''NPQMHG'
NQEONPQMHG
root@arm:~# MARKER='TLGK''MMSGVQ' run 'i2cget -y -f 2 0x4b 0x12'
TLGKMMSGVQ0x0b
TLGKMMSGVQ 0
root@arm:~# echo 'QHTO''QVYLQL'
QHTOQVYLQL
root@arm:~# MARKER='UJCT''CPOGXX' run 'echo 820000 820000 > /sys/kernel/mva_test//regulators/buck3_set'
UJCTCPOGXXUJCTCPOGXX 0
root@arm:~# echo 'MPCZ''WPJXPC'
MPCZWPJXPC
root@arm:~# MARKER='HUUH''CAUJNU' run 'i2cget -y -f 2 0x4b 0x12'
HUUHCAUJNU0x0c
HUUHCAUJNU 0
root@arm:~# echo 'APCJ''BNYBAW'
APCJBNYBAW
root@arm:~# MARKER='MMTG''VBLWCL' run 'echo 830000 830000 > /sys/kernel/mva_test//regulators/buck3_set'
MMTGVBLWCLMMTGVBLWCL 0
root@arm:~# echo 'GKJL''OHJWFQ'
GKJLOHJWFQ
root@arm:~# MARKER='YVQB''SSTOWZ' run 'i2cget -y -f 2 0x4b 0x12'
YVQBSSTOWZ0x0d
YVQBSSTOWZ 0
root@arm:~# echo 'VHAT''CEYYPN'
VHATCEYYPN
root@arm:~# MARKER='BBQU''JOZCTX' run 'echo 840000 840000 > /sys/kernel/mva_test//regulators/buck3_set'
BBQUJOZCTXBBQUJOZCTX 0
root@arm:~# echo 'QUOY''AXOCKC'
QUOYAXOCKC
root@arm:~# MARKER='KVTS''FGBLZV' run 'i2cget -y -f 2 0x4b 0x12'
KVTSFGBLZV0x0e
KVTSFGBLZV 0
root@arm:~# echo 'FWSW''SNOXCA'
FWSWSNOXCA
root@arm:~# MARKER='BEQV''JWZMQL' run 'echo 850000 850000 > /sys/kernel/mva_test//regulators/buck3_set'
BEQVJWZMQLBEQVJWZMQL 0
root@arm:~# echo 'LOEG''GEQTUZ'
LOEGGEQTUZ
root@arm:~# MARKER='XMMV''SMGSSG' run 'i2cget -y -f 2 0x4b 0x12'
XMMVSMGSSG0x0f
XMMVSMGSSG 0
root@arm:~# echo 'SBNM''MPHWJZ'
SBNMMPHWJZ
root@arm:~# MARKER='TQZN''YPKLAE' run 'echo 860000 860000 > /sys/kernel/mva_test//regulators/buck3_set'
TQZNYPKLAETQZNYPKLAE 0
root@arm:~# echo 'ZZSG''SPHBKU'
ZZSGSPHBKU
root@arm:~# MARKER='TYUT''SCBVNV' run 'i2cget -y -f 2 0x4b 0x12'
TYUTSCBVNV0x10
TYUTSCBVNV 0
root@arm:~# echo 'QGVK''BVABHM'
QGVKBVABHM
root@arm:~# MARKER='SYCW''YELHXJ' run 'echo 870000 870000 > /sys/kernel/mva_test//regulators/buck3_set'
SYCWYELHXJSYCWYELHXJ 0
root@arm:~# echo 'ZPTX''LNSUSM'
ZPTXLNSUSM
root@arm:~# MARKER='QANF''JOSONX' run 'i2cget -y -f 2 0x4b 0x12'
QANFJOSONX0x11
QANFJOSONX 0
root@arm:~# echo 'HMAA''EYUOPM'
HMAAEYUOPM
root@arm:~# MARKER='JGYZ''GKWCPK' run 'echo 880000 880000 > /sys/kernel/mva_test//regulators/buck3_set'
JGYZGKWCPKJGYZGKWCPK 0
root@arm:~# echo 'THFY''FPWEBZ'
THFYFPWEBZ
root@arm:~# MARKER='NAGY''AZFSAG' run 'i2cget -y -f 2 0x4b 0x12'
NAGYAZFSAG0x12
NAGYAZFSAG 0
root@arm:~# echo 'CHYQ''GGHUVH'
CHYQGGHUVH
root@arm:~# MARKER='ZWPC''UJKHHT' run 'echo 890000 890000 > /sys/kernel/mva_test//regulators/buck3_set'
ZWPCUJKHHTZWPCUJKHHT 0
root@arm:~# echo 'HEJZ''UYVABN'
HEJZUYVABN
root@arm:~# MARKER='LKMC''MZCLPX' run 'i2cget -y -f 2 0x4b 0x12'
LKMCMZCLPX0x13
LKMCMZCLPX 0
root@arm:~# echo 'QAGO''GBYGAF'
QAGOGBYGAF
root@arm:~# MARKER='ZMXZ''KZFUKZ' run 'echo 900000 900000 > /sys/kernel/mva_test//regulators/buck3_set'
ZMXZKZFUKZZMXZKZFUKZ 0
root@arm:~# echo 'VAVU''QYFNYH'
VAVUQYFNYH
root@arm:~# MARKER='SPAA''WUWHFB' run 'i2cget -y -f 2 0x4b 0x12'
SPAAWUWHFB0x14
SPAAWUWHFB 0
root@arm:~# echo 'WOST''JNMCAL'
WOSTJNMCAL
root@arm:~# MARKER='SNAH''SFLCVE' run 'echo 910000 910000 > /sys/kernel/mva_test//regulators/buck3_set'
SNAHSFLCVESNAHSFLCVE 0
root@arm:~# echo 'BBAW''XKTOGS'
BBAWXKTOGS
root@arm:~# MARKER='OXCQ''FLNPKV' run 'i2cget -y -f 2 0x4b 0x12'
OXCQFLNPKV0x15
OXCQFLNPKV 0
root@arm:~# echo 'YVLO''MGPGPH'
YVLOMGPGPH
root@arm:~# MARKER='UQCS''FHYKCE' run 'echo 920000 920000 > /sys/kernel/mva_test//regulators/buck3_set'
UQCSFHYKCEUQCSFHYKCE 0
root@arm:~# echo 'KCGO''YNVFAC'
KCGOYNVFAC
root@arm:~# MARKER='QNNX''FQSYSS' run 'i2cget -y -f 2 0x4b 0x12'
QNNXFQSYSS0x16
QNNXFQSYSS 0
root@arm:~# echo 'UZSP''OGUGWA'
UZSPOGUGWA
root@arm:~# MARKER='BPXO''ASEFLK' run 'echo 930000 930000 > /sys/kernel/mva_test//regulators/buck3_set'
BPXOASEFLKBPXOASEFLK 0
root@arm:~# echo 'TMUY''CVVHWM'
TMUYCVVHWM
root@arm:~# MARKER='KPSE''ECWKZN' run 'i2cget -y -f 2 0x4b 0x12'
KPSEECWKZN0x17
KPSEECWKZN 0
root@arm:~# echo 'JOJQ''SNWWUN'
JOJQSNWWUN
root@arm:~# MARKER='NUPV''MLPFVM' run 'echo 940000 940000 > /sys/kernel/mva_test//regulators/buck3_set'
NUPVMLPFVMNUPVMLPFVM 0
root@arm:~# echo 'PCKT''TQGEUK'
PCKTTQGEUK
root@arm:~# MARKER='YEBG''FZXYVL' run 'i2cget -y -f 2 0x4b 0x12'
YEBGFZXYVL0x18
YEBGFZXYVL 0
root@arm:~# echo 'GVHE''NOSTFF'
GVHENOSTFF
root@arm:~# MARKER='GASO''MQQMCN' run 'echo 950000 950000 > /sys/kernel/mva_test//regulators/buck3_set'
GASOMQQMCNGASOMQQMCN 0
root@arm:~# echo 'MNXQ''FGJOBT'
MNXQFGJOBT
root@arm:~# MARKER='QWEU''FSOGMO' run 'i2cget -y -f 2 0x4b 0x12'
QWEUFSOGMO0x19
QWEUFSOGMO 0
root@arm:~# echo 'NXOH''QHEVPQ'
NXOHQHEVPQ
root@arm:~# MARKER='WCCB''POECVF' run 'echo 960000 960000 > /sys/kernel/mva_test//regulators/buck3_set'
WCCBPOECVFWCCBPOECVF 0
root@arm:~# echo 'NOZU''PYLJKB'
NOZUPYLJKB
root@arm:~# MARKER='OSTN''BPTCQY' run 'i2cget -y -f 2 0x4b 0x12'
OSTNBPTCQY0x1a
OSTNBPTCQY 0
root@arm:~# echo 'NCFT''JSUKAO'
NCFTJSUKAO
root@arm:~# MARKER='AJLU''NXWZZB' run 'echo 970000 970000 > /sys/kernel/mva_test//regulators/buck3_set'
AJLUNXWZZBAJLUNXWZZB 0
root@arm:~# echo 'JHCL''UBGETH'
JHCLUBGETH
root@arm:~# MARKER='MKNO''OJYOES' run 'i2cget -y -f 2 0x4b 0x12'
MKNOOJYOES0x1b
MKNOOJYOES 0
root@arm:~# echo 'CHLG''EVTGBK'
CHLGEVTGBK
root@arm:~# MARKER='MBGO''MKVCVP' run 'echo 980000 980000 > /sys/kernel/mva_test//regulators/buck3_set'
MBGOMKVCVPMBGOMKVCVP 0
root@arm:~# echo 'WWBF''JXHATW'
WWBFJXHATW
root@arm:~# MARKER='BKZA''SJPFEO' run 'i2cget -y -f 2 0x4b 0x12'
BKZASJPFEO0x1c
BKZASJPFEO 0
root@arm:~# echo 'VXHM''JOBWBW'
VXHMJOBWBW
root@arm:~# MARKER='MTNV''LXBOJS' run 'echo 990000 990000 > /sys/kernel/mva_test//regulators/buck3_set'
MTNVLXBOJSMTNVLXBOJS 0
root@arm:~# echo 'ZLPA''FULFPT'
ZLPAFULFPT
root@arm:~# MARKER='AGGA''ZLMKXW' run 'i2cget -y -f 2 0x4b 0x12'
AGGAZLMKXW0x1d
AGGAZLMKXW 0
root@arm:~# echo 'SVTL''EVBXYJ'
SVTLEVBXYJ
root@arm:~# MARKER='KCAX''UGGBGG' run 'echo 1000000 1000000 > /sys/kernel/mva_tesst/regulators/buck3_set'
KCAXUGGBGGKCAXUGGBGG 0
root@arm:~# echo 'HGQQ''HCGAHK'
HGQQHCGAHK
root@arm:~# MARKER='TTAA''ZJCWEZ' run 'i2cget -y -f 2 0x4b 0x12'
TTAAZJCWEZ0x1e
TTAAZJCWEZ 0
root@arm:~# echo 'JYQE''HCQOXO'
JYQEHCQOXO
root@arm:~# MARKER='VBSX''GOJONW' run 'echo 1010000 1010000 > /sys/kernel/mva_tesst/regulators/buck3_set'
VBSXGOJONWVBSXGOJONW 0
root@arm:~# echo 'SMPO''ACULTH'
SMPOACULTH
root@arm:~# MARKER='YWLP''QNNBJS' run 'i2cget -y -f 2 0x4b 0x12'
YWLPQNNBJS0x1f
YWLPQNNBJS 0
root@arm:~# echo 'KZKT''NFZYCH'
KZKTNFZYCH
root@arm:~# MARKER='AZPL''LUMPOP' run 'echo 1020000 1020000 > /sys/kernel/mva_tesst/regulators/buck3_set'
AZPLLUMPOPAZPLLUMPOP 0
root@arm:~# echo 'FEPF''KXVNKJ'
FEPFKXVNKJ
root@arm:~# MARKER='BNHB''HZBWXK' run 'i2cget -y -f 2 0x4b 0x12'
BNHBHZBWXK0x20
BNHBHZBWXK 0
root@arm:~# echo 'VJHE''HLANYQ'
VJHEHLANYQ
root@arm:~# MARKER='GCXN''WMHWSS' run 'echo 1030000 1030000 > /sys/kernel/mva_tesst/regulators/buck3_set'
GCXNWMHWSSGCXNWMHWSS 0
root@arm:~# echo 'GXTG''OUULBG'
GXTGOUULBG
root@arm:~# MARKER='JQYY''SPXATK' run 'i2cget -y -f 2 0x4b 0x12'
JQYYSPXATK0x21
JQYYSPXATK 0
root@arm:~# echo 'GMNG''OUSZKN'
GMNGOUSZKN
root@arm:~# MARKER='MLTU''HOQMWH' run 'echo 1040000 1040000 > /sys/kernel/mva_tesst/regulators/buck3_set'
MLTUHOQMWHMLTUHOQMWH 0
root@arm:~# echo 'UPTP''ZATTNO'
UPTPZATTNO
root@arm:~# MARKER='FFFS''MKTKFM' run 'i2cget -y -f 2 0x4b 0x12'
FFFSMKTKFM0x22
FFFSMKTKFM 0
root@arm:~# echo 'FAAW''LEKBHN'
FAAWLEKBHN
root@arm:~# MARKER='APMZ''BUEHHG' run 'echo 1050000 1050000 > /sys/kernel/mva_tesst/regulators/buck3_set'
APMZBUEHHGAPMZBUEHHG 0
root@arm:~# echo 'BVVB''BHMJHY'
BVVBBHMJHY
root@arm:~# MARKER='ESWQ''ATLJPV' run 'i2cget -y -f 2 0x4b 0x12'
ESWQATLJPV0x23
ESWQATLJPV 0
root@arm:~# echo 'PQYL''YNCMAH'
PQYLYNCMAH
root@arm:~# MARKER='JAJF''AWCETE' run 'echo 1060000 1060000 > /sys/kernel/mva_tesst/regulators/buck3_set'
JAJFAWCETEJAJFAWCETE 0
root@arm:~# echo 'FZWM''QOQFKW'
FZWMQOQFKW
root@arm:~# MARKER='XUKC''ANGQTK' run 'i2cget -y -f 2 0x4b 0x12'
XUKCANGQTK0x24
XUKCANGQTK 0
root@arm:~# echo 'WANX''MHGTCK'
WANXMHGTCK
root@arm:~# MARKER='KVZZ''PTJZZK' run 'echo 1070000 1070000 > /sys/kernel/mva_tesst/regulators/buck3_set'
KVZZPTJZZKKVZZPTJZZK 0
root@arm:~# echo 'JEBS''JTXXQN'
JEBSJTXXQN
root@arm:~# MARKER='OVWM''LHYGOT' run 'i2cget -y -f 2 0x4b 0x12'
OVWMLHYGOT0x25
OVWMLHYGOT 0
root@arm:~# echo 'GOTC''CPPLSH'
GOTCCPPLSH
root@arm:~# MARKER='XHYZ''HZQFOZ' run 'echo 1080000 1080000 > /sys/kernel/mva_tesst/regulators/buck3_set'
XHYZHZQFOZXHYZHZQFOZ 0
root@arm:~# echo 'CJUG''FMWNTE'
CJUGFMWNTE
root@arm:~# MARKER='SOGP''PSQMKG' run 'i2cget -y -f 2 0x4b 0x12'
SOGPPSQMKG0x26
SOGPPSQMKG 0
root@arm:~# echo 'YOYM''ONFOCH'
YOYMONFOCH
root@arm:~# MARKER='VQYU''XSCZJV' run 'echo 1090000 1090000 > /sys/kernel/mva_tesst/regulators/buck3_set'
VQYUXSCZJVVQYUXSCZJV 0
root@arm:~# echo 'MJZL''SHEOBP'
MJZLSHEOBP
root@arm:~# MARKER='FCAZ''WPNQKZ' run 'i2cget -y -f 2 0x4b 0x12'
FCAZWPNQKZ0x27
FCAZWPNQKZ 0
root@arm:~# echo 'JLZV''CJZWSF'
JLZVCJZWSF
root@arm:~# MARKER='ZLBW''ENZBCK' run 'echo 1100000 1100000 > /sys/kernel/mva_tesst/regulators/buck3_set'
ZLBWENZBCKZLBWENZBCK 0
root@arm:~# echo 'PQUE''EBUEFJ'
PQUEEBUEFJ
root@arm:~# MARKER='FOHT''LMKJYJ' run 'i2cget -y -f 2 0x4b 0x12'
FOHTLMKJYJ0x28
FOHTLMKJYJ 0
root@arm:~# echo 'BGWX''EXFUJF'
BGWXEXFUJF
root@arm:~# MARKER='TJCK''UWUMBM' run 'echo 1110000 1110000 > /sys/kernel/mva_tesst/regulators/buck3_set'
TJCKUWUMBMTJCKUWUMBM 0
root@arm:~# echo 'BALO''PNTMCK'
BALOPNTMCK
root@arm:~# MARKER='QAFW''ZNUMYC' run 'i2cget -y -f 2 0x4b 0x12'
QAFWZNUMYC0x29
QAFWZNUMYC 0
root@arm:~# echo 'PJWC''QXNXBY'
PJWCQXNXBY
root@arm:~# MARKER='FYTY''FEQQSH' run 'echo 1120000 1120000 > /sys/kernel/mva_tesst/regulators/buck3_set'
FYTYFEQQSHFYTYFEQQSH 0
root@arm:~# echo 'EZFP''FYGGWN'
EZFPFYGGWN
root@arm:~# MARKER='HOTH''NQFXTX' run 'i2cget -y -f 2 0x4b 0x12'
HOTHNQFXTX0x2a
HOTHNQFXTX 0
root@arm:~# echo 'UWKJ''TZZKQK'
UWKJTZZKQK
root@arm:~# MARKER='BELZ''CBAYJK' run 'echo 1130000 1130000 > /sys/kernel/mva_tesst/regulators/buck3_set'
BELZCBAYJKBELZCBAYJK 0
root@arm:~# echo 'MNWN''SEUTEB'
MNWNSEUTEB
root@arm:~# MARKER='BOUQ''OMGMEA' run 'i2cget -y -f 2 0x4b 0x12'
BOUQOMGMEA0x2b
BOUQOMGMEA 0
root@arm:~# echo 'SZQG''VUCMZM'
SZQGVUCMZM
root@arm:~# MARKER='ATFL''BHNZPP' run 'echo 1140000 1140000 > /sys/kernel/mva_tesst/regulators/buck3_set'
ATFLBHNZPPATFLBHNZPP 0
root@arm:~# echo 'QGOY''QUQSUZ'
QGOYQUQSUZ
root@arm:~# MARKER='ZQBM''QWZUHQ' run 'i2cget -y -f 2 0x4b 0x12'
ZQBMQWZUHQ0x2c
ZQBMQWZUHQ 0
root@arm:~# echo 'ESVT''FVSUHN'
ESVTFVSUHN
root@arm:~# MARKER='KLVL''QMGAVB' run 'echo 1150000 1150000 > /sys/kernel/mva_tesst/regulators/buck3_set'
KLVLQMGAVBKLVLQMGAVB 0
root@arm:~# echo 'UUAN''YTYPEZ'
UUANYTYPEZ
root@arm:~# MARKER='FUVQ''OHLZKM' run 'i2cget -y -f 2 0x4b 0x12'
FUVQOHLZKM0x2d
FUVQOHLZKM 0
root@arm:~# echo 'PCQA''FNYFBH'
PCQAFNYFBH
root@arm:~# MARKER='YPSF''VBWKBW' run 'echo 1160000 1160000 > /sys/kernel/mva_tesst/regulators/buck3_set'
YPSFVBWKBWYPSFVBWKBW 0
root@arm:~# echo 'GETT''GVQCJN'
GETTGVQCJN
root@arm:~# MARKER='XPAO''VNGNAY' run 'i2cget -y -f 2 0x4b 0x12'
XPAOVNGNAY0x2e
XPAOVNGNAY 0
root@arm:~# echo 'NVSH''CJOHMT'
NVSHCJOHMT
root@arm:~# MARKER='HALQ''ZTYWWQ' run 'echo 1170000 1170000 > /sys/kernel/mva_tesst/regulators/buck3_set'
HALQZTYWWQHALQZTYWWQ 0
root@arm:~# echo 'JNWL''WNZOEZ'
JNWLWNZOEZ
root@arm:~# MARKER='TMJJ''NZAUUB' run 'i2cget -y -f 2 0x4b 0x12'
TMJJNZAUUB0x2f
TMJJNZAUUB 0
root@arm:~# echo 'SNSB''LVLCLA'
SNSBLVLCLA
root@arm:~# MARKER='EQSO''KJYHBV' run 'echo 1180000 1180000 > /sys/kernel/mva_tesst/regulators/buck3_set'
EQSOKJYHBVEQSOKJYHBV 0
root@arm:~# echo 'TYPN''UTCFKJ'
TYPNUTCFKJ
root@arm:~# MARKER='LSXJ''POXHZQ' run 'i2cget -y -f 2 0x4b 0x12'
LSXJPOXHZQ0x30
LSXJPOXHZQ 0
root@arm:~# echo 'OMBS''KUJZPJ'
OMBSKUJZPJ
root@arm:~# MARKER='UQKG''UKLJWB' run 'echo 1190000 1190000 > /sys/kernel/mva_tesst/regulators/buck3_set'
UQKGUKLJWBUQKGUKLJWB 0
root@arm:~# echo 'JMWE''PACABP'
JMWEPACABP
root@arm:~# MARKER='FCCG''ABVSYY' run 'i2cget -y -f 2 0x4b 0x12'
FCCGABVSYY0x31
FCCGABVSYY 0
root@arm:~# echo 'AZZT''LXSGEE'
AZZTLXSGEE
root@arm:~# MARKER='GVYG''ASNBMS' run 'echo 1200000 1200000 > /sys/kernel/mva_tesst/regulators/buck3_set'
GVYGASNBMSGVYGASNBMS 0
root@arm:~# echo 'WGVC''HPSEBU'
WGVCHPSEBU
root@arm:~# MARKER='GQHV''PXYGLX' run 'i2cget -y -f 2 0x4b 0x12'
GQHVPXYGLX0x32
GQHVPXYGLX 0
root@arm:~# echo 'EBFV''OUYZCX'
EBFVOUYZCX
root@arm:~# MARKER='KLWN''BXFZJQ' run 'echo 1210000 1210000 > /sys/kernel/mva_tesst/regulators/buck3_set'
KLWNBXFZJQKLWNBXFZJQ 0
root@arm:~# echo 'LKEW''AQCYQU'
LKEWAQCYQU
root@arm:~# MARKER='FOME''HBSSEP' run 'i2cget -y -f 2 0x4b 0x12'
FOMEHBSSEP0x33
FOMEHBSSEP 0
root@arm:~# echo 'XKMK''QGUETK'
XKMKQGUETK
root@arm:~# MARKER='WCFE''LATTFJ' run 'echo 1220000 1220000 > /sys/kernel/mva_tesst/regulators/buck3_set'
WCFELATTFJWCFELATTFJ 0
root@arm:~# echo 'XUVB''JSSXPV'
XUVBJSSXPV
root@arm:~# MARKER='CVHK''BJCCQL' run 'i2cget -y -f 2 0x4b 0x12'
CVHKBJCCQL0x34
CVHKBJCCQL 0
root@arm:~# echo 'BJCC''CYJLHO'
BJCCCYJLHO
root@arm:~# MARKER='LHPV''LLMTCE' run 'echo 1230000 1230000 > /sys/kernel/mva_tesst/regulators/buck3_set'
LHPVLLMTCELHPVLLMTCE 0
root@arm:~# echo 'WXUH''CWZBMY'
WXUHCWZBMY
root@arm:~# MARKER='MMHO''ZMCFYM' run 'i2cget -y -f 2 0x4b 0x12'
MMHOZMCFYM0x35
MMHOZMCFYM 0
root@arm:~# echo 'YXWU''PHOBZA'
YXWUPHOBZA
root@arm:~# MARKER='FCNS''VNSOGG' run 'echo 1240000 1240000 > /sys/kernel/mva_tesst/regulators/buck3_set'
FCNSVNSOGGFCNSVNSOGG 0
root@arm:~# echo 'JXVK''JGWCWO'
JXVKJGWCWO
root@arm:~# MARKER='YSKK''VMSXZF' run 'i2cget -y -f 2 0x4b 0x12'
YSKKVMSXZF0x36
YSKKVMSXZF 0
root@arm:~# echo 'JLAE''FKQULB'
JLAEFKQULB
root@arm:~# MARKER='NHSX''PAQUAG' run 'echo 1250000 1250000 > /sys/kernel/mva_tesst/regulators/buck3_set'
NHSXPAQUAGNHSXPAQUAG 0
root@arm:~# echo 'YKVO''NKTYJW'
YKVONKTYJW
root@arm:~# MARKER='PWFN''AAWWVB' run 'i2cget -y -f 2 0x4b 0x12'
PWFNAAWWVB0x37
PWFNAAWWVB 0
root@arm:~# echo 'JEBW''QPZAZS'
JEBWQPZAZS
root@arm:~# MARKER='GFXS''FZLVBZ' run 'echo 1260000 1260000 > /sys/kernel/mva_tesst/regulators/buck3_set'
GFXSFZLVBZGFXSFZLVBZ 0
root@arm:~# echo 'AMXU''OCSZNU'
AMXUOCSZNU
root@arm:~# MARKER='EUAG''EAEBXW' run 'i2cget -y -f 2 0x4b 0x12'
EUAGEAEBXW0x38
EUAGEAEBXW 0
root@arm:~# echo 'XLNG''KYTTCE'
XLNGKYTTCE
root@arm:~# MARKER='LAOU''GVXHCK' run 'echo 1270000 1270000 > /sys/kernel/mva_tesst/regulators/buck3_set'
LAOUGVXHCKLAOUGVXHCK 0
root@arm:~# echo 'XCVU''PNZHCE'
XCVUPNZHCE
root@arm:~# MARKER='XMCQ''TFGGPZ' run 'i2cget -y -f 2 0x4b 0x12'
XMCQTFGGPZ0x39
XMCQTFGGPZ 0
root@arm:~# echo 'VEFP''NJBQFO'
VEFPNJBQFO
root@arm:~# MARKER='XUFJ''UVOGET' run 'echo 1280000 1280000 > /sys/kernel/mva_tesst/regulators/buck3_set'
XUFJUVOGETXUFJUVOGET 0
root@arm:~# echo 'LTUJ''CAFFNJ'
LTUJCAFFNJ
root@arm:~# MARKER='MKKQ''OCMXTJ' run 'i2cget -y -f 2 0x4b 0x12'
MKKQOCMXTJ0x3a
MKKQOCMXTJ 0
root@arm:~# echo 'GMAZ''BWCXNF'
GMAZBWCXNF
root@arm:~# MARKER='OEKK''NNOLYB' run 'echo 1290000 1290000 > /sys/kernel/mva_tesst/regulators/buck3_set'
OEKKNNOLYBOEKKNNOLYB 0
root@arm:~# echo 'VOMN''TSFLKZ'
VOMNTSFLKZ
root@arm:~# MARKER='WMFY''ZYKLVU' run 'i2cget -y -f 2 0x4b 0x12'
WMFYZYKLVU0x3b
WMFYZYKLVU 0
root@arm:~# echo 'NUAH''ZUOZOU'
NUAHZUOZOU
root@arm:~# MARKER='OPLZ''UVPHJM' run 'echo 1300000 1300000 > /sys/kernel/mva_tesst/regulators/buck3_set'
OPLZUVPHJMOPLZUVPHJM 0
root@arm:~# echo 'ZJFH''AZYPOY'
ZJFHAZYPOY
root@arm:~# MARKER='SJFK''HXFPTL' run 'i2cget -y -f 2 0x4b 0x12'
SJFKHXFPTL0x3c
SJFKHXFPTL 0
root@arm:~# echo 'GZWT''HSOLJL'
GZWTHSOLJL
root@arm:~# MARKER='UMTC''FEUASV' run 'grep -r -l rohm,bd71837 /proc/device-tree  | sed '"'"'s![^/]*$!!'"'"''
UMTCFEUASV/proc/device-tree/ocp/interconnect@48000000/segment@100000/target-module@9c000/i2c@0/pmic@4b/
UMTCFEUASV 0
root@arm:~# echo 'ZQLP''SEUTJO'
ZQLPSEUTJO
root@arm:~# MARKER='TLPV''XXQQTG' run 'test -f /proc/device-tree/ocp/interconnectt\@48000000/segment\@100000/target-module\@9c000/i2c\@0/pmic\@4b/regulators/BUCK44/rohm,no-regulator-enable-control ;echo $?'
TLPVXXQQTG1
TLPVXXQQTG 0
root@arm:~# echo 'ZFCT''FFFPXX'
ZFCTFFFPXX
root@arm:~# MARKER='SZVO''NZCUXE' run 'i2cget -y -f 2 0x4b 0x8'
SZVONZCUXE0xc6
SZVONZCUXE 0
root@arm:~# echo 'BVKE''HVXQFC'
BVKEHVXQFC
root@arm:~# MARKER='TLVZ''OYKKWF' run 'echo 700000 700000 > /sys/kernel/mva_test//regulators/buck4_set'
TLVZOYKKWFTLVZOYKKWF 0
root@arm:~# echo 'OSFV''NBKMXC'
OSFVNBKMXC
root@arm:~# MARKER='BYBQ''SZNPZP' run 'i2cget -y -f 2 0x4b 0x13'
BYBQSZNPZP0x00
BYBQSZNPZP 0
root@arm:~# echo 'PQCJ''KTMYBL'
PQCJKTMYBL
root@arm:~# MARKER='QJGJ''NTGYET' run 'echo 710000 710000 > /sys/kernel/mva_test//regulators/buck4_set'
QJGJNTGYETQJGJNTGYET 0
root@arm:~# echo 'JKGP''MQSQYQ'
JKGPMQSQYQ
root@arm:~# MARKER='ZLYF''BEHCKV' run 'i2cget -y -f 2 0x4b 0x13'
ZLYFBEHCKV0x01
ZLYFBEHCKV 0
root@arm:~# echo 'ZHNJ''FTAQSM'
ZHNJFTAQSM
root@arm:~# MARKER='XHJH''ALOHCA' run 'echo 720000 720000 > /sys/kernel/mva_test//regulators/buck4_set'
XHJHALOHCAXHJHALOHCA 0
root@arm:~# echo 'LWAC''AFUOHB'
LWACAFUOHB
root@arm:~# MARKER='NSAJ''EKUSBA' run 'i2cget -y -f 2 0x4b 0x13'
NSAJEKUSBA0x02
NSAJEKUSBA 0
root@arm:~# echo 'PBXF''PLJSFM'
PBXFPLJSFM
root@arm:~# MARKER='OMLW''THBLAM' run 'echo 730000 730000 > /sys/kernel/mva_test//regulators/buck4_set'
OMLWTHBLAMOMLWTHBLAM 0
root@arm:~# echo 'JGEG''PJGTEV'
JGEGPJGTEV
root@arm:~# MARKER='NZHY''NNZLEF' run 'i2cget -y -f 2 0x4b 0x13'
NZHYNNZLEF0x03
NZHYNNZLEF 0
root@arm:~# echo 'FMUN''SWJHYK'
FMUNSWJHYK
root@arm:~# MARKER='EHSC''QGXMST' run 'echo 740000 740000 > /sys/kernel/mva_test//regulators/buck4_set'
EHSCQGXMSTEHSCQGXMST 0
root@arm:~# echo 'KBVT''CQYCCS'
KBVTCQYCCS
root@arm:~# MARKER='VCKS''PHLCMY' run 'i2cget -y -f 2 0x4b 0x13'
VCKSPHLCMY0x04
VCKSPHLCMY 0
root@arm:~# echo 'LGWH''PFQNJK'
LGWHPFQNJK
root@arm:~# MARKER='LXBQ''GWFKGY' run 'echo 750000 750000 > /sys/kernel/mva_test//regulators/buck4_set'
LXBQGWFKGYLXBQGWFKGY 0
root@arm:~# echo 'GQSU''NGAQGO'
GQSUNGAQGO
root@arm:~# MARKER='NVBZ''LHXUYH' run 'i2cget -y -f 2 0x4b 0x13'
NVBZLHXUYH0x05
NVBZLHXUYH 0
root@arm:~# echo 'EBMZ''FQXLAS'
EBMZFQXLAS
root@arm:~# MARKER='WFBO''VTOZFT' run 'echo 760000 760000 > /sys/kernel/mva_test//regulators/buck4_set'
WFBOVTOZFTWFBOVTOZFT 0
root@arm:~# echo 'ETOY''YNXEYQ'
ETOYYNXEYQ
root@arm:~# MARKER='LJMJ''EQOMVU' run 'i2cget -y -f 2 0x4b 0x13'
LJMJEQOMVU0x06
LJMJEQOMVU 0
root@arm:~# echo 'WJTG''BFOZQJ'
WJTGBFOZQJ
root@arm:~# MARKER='EUNB''QZGOJF' run 'echo 770000 770000 > /sys/kernel/mva_test//regulators/buck4_set'
EUNBQZGOJFEUNBQZGOJF 0
root@arm:~# echo 'JPWH''HFNPCQ'
JPWHHFNPCQ
root@arm:~# MARKER='OBQF''VXOCJO' run 'i2cget -y -f 2 0x4b 0x13'
OBQFVXOCJO0x07
OBQFVXOCJO 0
root@arm:~# echo 'OVAN''WLKLVX'
OVANWLKLVX
root@arm:~# MARKER='SNFA''ZHEZMJ' run 'echo 780000 780000 > /sys/kernel/mva_test//regulators/buck4_set'
SNFAZHEZMJSNFAZHEZMJ 0
root@arm:~# echo 'ASCP''SNKJLN'
ASCPSNKJLN
root@arm:~# MARKER='PMJO''HBWSJZ' run 'i2cget -y -f 2 0x4b 0x13'
PMJOHBWSJZ0x08
PMJOHBWSJZ 0
root@arm:~# echo 'FVNH''SBPXHH'
FVNHSBPXHH
root@arm:~# MARKER='LLOV''VLSCXB' run 'echo 790000 790000 > /sys/kernel/mva_test//regulators/buck4_set'
LLOVVLSCXBLLOVVLSCXB 0
root@arm:~# echo 'WOYC''EUYTMK'
WOYCEUYTMK
root@arm:~# MARKER='CFEJ''YBXSWA' run 'i2cget -y -f 2 0x4b 0x13'
CFEJYBXSWA0x09
CFEJYBXSWA 0
root@arm:~# echo 'JASL''LKZWFT'
JASLLKZWFT
root@arm:~# MARKER='ZTOE''JSPBGK' run 'echo 800000 800000 > /sys/kernel/mva_test//regulators/buck4_set'
ZTOEJSPBGKZTOEJSPBGK 0
root@arm:~# echo 'BXUG''SSBOKH'
BXUGSSBOKH
root@arm:~# MARKER='UNBN''OTHNKX' run 'i2cget -y -f 2 0x4b 0x13'
UNBNOTHNKX0x0a
UNBNOTHNKX 0
root@arm:~# echo 'MTVT''SYSWBV'
MTVTSYSWBV
root@arm:~# MARKER='ZNZC''XKOOKP' run 'echo 810000 810000 > /sys/kernel/mva_test//regulators/buck4_set'
ZNZCXKOOKPZNZCXKOOKP 0
root@arm:~# echo 'YJUQ''SNHVWF'
YJUQSNHVWF
root@arm:~# MARKER='SUCC''WVKHSC' run 'i2cget -y -f 2 0x4b 0x13'
SUCCWVKHSC0x0b
SUCCWVKHSC 0
root@arm:~# echo 'MWNQ''CHZLGL'
MWNQCHZLGL
root@arm:~# MARKER='PMAE''MXYKKO' run 'echo 820000 820000 > /sys/kernel/mva_test//regulators/buck4_set'
PMAEMXYKKOPMAEMXYKKO 0
root@arm:~# echo 'GUHN''VYSTYO'
GUHNVYSTYO
root@arm:~# MARKER='FHOV''FLEEZA' run 'i2cget -y -f 2 0x4b 0x13'
FHOVFLEEZA0x0c
FHOVFLEEZA 0
root@arm:~# echo 'YPZG''GCPJZS'
YPZGGCPJZS
root@arm:~# MARKER='OLXY''EZWOEH' run 'echo 830000 830000 > /sys/kernel/mva_test//regulators/buck4_set'
OLXYEZWOEHOLXYEZWOEH 0
root@arm:~# echo 'EBSK''KVLUFG'
EBSKKVLUFG
root@arm:~# MARKER='NGCW''NZEFNA' run 'i2cget -y -f 2 0x4b 0x13'
NGCWNZEFNA0x0d
NGCWNZEFNA 0
root@arm:~# echo 'LSKY''KVWKUL'
LSKYKVWKUL
root@arm:~# MARKER='XSOQ''ZBVUJJ' run 'echo 840000 840000 > /sys/kernel/mva_test//regulators/buck4_set'
XSOQZBVUJJXSOQZBVUJJ 0
root@arm:~# echo 'OQJG''PAFNUB'
OQJGPAFNUB
root@arm:~# MARKER='PBHH''XMWBJS' run 'i2cget -y -f 2 0x4b 0x13'
PBHHXMWBJS0x0e
PBHHXMWBJS 0
root@arm:~# echo 'BASS''NOAVQK'
BASSNOAVQK
root@arm:~# MARKER='ZKNX''AVPLYL' run 'echo 850000 850000 > /sys/kernel/mva_test//regulators/buck4_set'
ZKNXAVPLYLZKNXAVPLYL 0
root@arm:~# echo 'VSCX''MHAFJY'
VSCXMHAFJY
root@arm:~# MARKER='BNAZ''AHOAYQ' run 'i2cget -y -f 2 0x4b 0x13'
BNAZAHOAYQ0x0f
BNAZAHOAYQ 0
root@arm:~# echo 'NHYQ''WWPWCW'
NHYQWWPWCW
root@arm:~# MARKER='EPVK''QQTTGO' run 'echo 860000 860000 > /sys/kernel/mva_test//regulators/buck4_set'
EPVKQQTTGOEPVKQQTTGO 0
root@arm:~# echo 'JFVY''VCBUGL'
JFVYVCBUGL
root@arm:~# MARKER='FUQQ''OVVNFV' run 'i2cget -y -f 2 0x4b 0x13'
FUQQOVVNFV0x10
FUQQOVVNFV 0
root@arm:~# echo 'LHAN''VLTFJS'
LHANVLTFJS
root@arm:~# MARKER='TLFF''VUYVLP' run 'echo 870000 870000 > /sys/kernel/mva_test//regulators/buck4_set'
TLFFVUYVLPTLFFVUYVLP 0
root@arm:~# echo 'GTXJ''GBQFKP'
GTXJGBQFKP
root@arm:~# MARKER='EWZO''LEFKUU' run 'i2cget -y -f 2 0x4b 0x13'
EWZOLEFKUU0x11
EWZOLEFKUU 0
root@arm:~# echo 'QWLW''HUVMFM'
QWLWHUVMFM
root@arm:~# MARKER='YEZM''BNQOSC' run 'echo 880000 880000 > /sys/kernel/mva_test//regulators/buck4_set'
YEZMBNQOSCYEZMBNQOSC 0
root@arm:~# echo 'YBOJ''VUVWGE'
YBOJVUVWGE
root@arm:~# MARKER='SQCL''AWGLTE' run 'i2cget -y -f 2 0x4b 0x13'
SQCLAWGLTE0x12
SQCLAWGLTE 0
root@arm:~# echo 'MWFX''XNQMPE'
MWFXXNQMPE
root@arm:~# MARKER='SMFM''ECBPJZ' run 'echo 890000 890000 > /sys/kernel/mva_test//regulators/buck4_set'
SMFMECBPJZSMFMECBPJZ 0
root@arm:~# echo 'YFJH''PSZXPQ'
YFJHPSZXPQ
root@arm:~# MARKER='QHSY''MMMXUQ' run 'i2cget -y -f 2 0x4b 0x13'
QHSYMMMXUQ0x13
QHSYMMMXUQ 0
root@arm:~# echo 'CSFJ''HTOMXE'
CSFJHTOMXE
root@arm:~# MARKER='WNOB''VMEPQJ' run 'echo 900000 900000 > /sys/kernel/mva_test//regulators/buck4_set'
WNOBVMEPQJWNOBVMEPQJ 0
root@arm:~# echo 'HKGG''ULGMPJ'
HKGGULGMPJ
root@arm:~# MARKER='GZOU''YNBFCT' run 'i2cget -y -f 2 0x4b 0x13'
GZOUYNBFCT0x14
GZOUYNBFCT 0
root@arm:~# echo 'PWNT''GAKGPL'
PWNTGAKGPL
root@arm:~# MARKER='WZNN''XPPGQA' run 'echo 910000 910000 > /sys/kernel/mva_test//regulators/buck4_set'
WZNNXPPGQAWZNNXPPGQA 0
root@arm:~# echo 'CPOF''ESPEQY'
CPOFESPEQY
root@arm:~# MARKER='UXAX''HXMMMY' run 'i2cget -y -f 2 0x4b 0x13'
UXAXHXMMMY0x15
UXAXHXMMMY 0
root@arm:~# echo 'PBAA''SBFXMB'
PBAASBFXMB
root@arm:~# MARKER='NPOT''QMQBQN' run 'echo 920000 920000 > /sys/kernel/mva_test//regulators/buck4_set'
NPOTQMQBQNNPOTQMQBQN 0
root@arm:~# echo 'YKAO''FPCVNO'
YKAOFPCVNO
root@arm:~# MARKER='VUNX''MNUEPN' run 'i2cget -y -f 2 0x4b 0x13'
VUNXMNUEPN0x16
VUNXMNUEPN 0
root@arm:~# echo 'NNLL''OWKBLN'
NNLLOWKBLN
root@arm:~# MARKER='EOTW''MQMNHU' run 'echo 930000 930000 > /sys/kernel/mva_test//regulators/buck4_set'
EOTWMQMNHUEOTWMQMNHU 0
root@arm:~# echo 'WUHU''BAOUME'
WUHUBAOUME
root@arm:~# MARKER='MULK''FJTWJJ' run 'i2cget -y -f 2 0x4b 0x13'
MULKFJTWJJ0x17
MULKFJTWJJ 0
root@arm:~# echo 'GXHB''SGPBQW'
GXHBSGPBQW
