Labgrid Console Logfile for main
Logfile started at 2025-12-08 16:53:01.639044
=== Log starts here ===

root@arm:~# run() { echo -n "$MARKER"; sh -c "$@"; echo "$MARKER $?"; }
root@arm:~# echo 'FLHZ''OCKNVQ'
FLHZOCKNVQ
root@arm:~# MARKER='YEZP''ULGFPK' run 'grep -r -l rohm,bd71837 /proc/device-tree  | sed '"'"'s![^/]*$!!'"'"''
YEZPULGFPK/proc/device-tree/ocp/interconnect@48000000/segment@100000/target-module@9c000/i2c@0/pmic@4b/
YEZPULGFPK 0
root@arm:~# echo 'TMJL''YYFGET'
TMJLYYFGET
root@arm:~# MARKER='NOUN''NWVWGT' run 'test -f /proc/device-tree/ocp/interconnectt\@48000000/segment\@100000/target-module\@9c000/i2c\@0/pmic\@4b/regulators/BUCK11/rohm,no-regulator-enable-control ;echo $?'
NOUNNWVWGT1
NOUNNWVWGT 0
root@arm:~# echo 'UVXJ''SQEAKF'
UVXJSQEAKF
root@arm:~# MARKER='QYHX''ALWFTE' run 'echo 1 > /sys/kernel/mva_test/regulators/bbuck1_en'
QYHXALWFTEQYHXALWFTE 0
root@arm:~# echo 'GTTT''AXAANL'
GTTTAXAANL
root@arm:~# MARKER='ZUPZ''UOLAKF' run 'i2cget -y -f 2 0x4b 0x5'
ZUPZUOLAKF0x03
ZUPZUOLAKF 0
root@arm:~# echo 'SKMH''WGYHCG'
SKMHWGYHCG
root@arm:~# MARKER='UVEY''BJMOQK' run 'grep -r -l rohm,bd71837 /proc/device-tree  | sed '"'"'s![^/]*$!!'"'"''
UVEYBJMOQK/proc/device-tree/ocp/interconnect@48000000/segment@100000/target-module@9c000/i2c@0/pmic@4b/
UVEYBJMOQK 0
root@arm:~# echo 'UWSH''BZANNC'
UWSHBZANNC
root@arm:~# MARKER='BMMQ''UEFEGA' run 'test -f /proc/device-tree/ocp/interconnectt\@48000000/segment\@100000/target-module\@9c000/i2c\@0/pmic\@4b/regulators/BUCK11/rohm,no-regulator-enable-control ;echo $?'
BMMQUEFEGA1
BMMQUEFEGA 0
root@arm:~# echo 'MAUM''JXMCQG'
MAUMJXMCQG
root@arm:~# MARKER='VCVV''LBBQPS' run 'grep -r -l rohm,bd71837 /proc/device-tree  | sed '"'"'s![^/]*$!!'"'"''
VCVVLBBQPS/proc/device-tree/ocp/interconnect@48000000/segment@100000/target-module@9c000/i2c@0/pmic@4b/
VCVVLBBQPS 0
root@arm:~# echo 'BEYP''LBESQA'
BEYPLBESQA
root@arm:~# MARKER='NYXU''GLFPVC' run 'test -f /proc/device-tree/ocp/interconnectt\@48000000/segment\@100000/target-module\@9c000/i2c\@0/pmic\@4b/regulators/BUCK 1/regulator-always-on ;echo $?'
NYXUGLFPVC1
NYXUGLFPVC 0
root@arm:~# echo 'TTPS''VZCETF'
TTPSVZCETF
root@arm:~# MARKER='ZLGY''BWXZON' run 'echo 0 > /sys/kernel/mva_test/regulators/bbuck1_en'
ZLGYBWXZONZLGYBWXZON 0
root@arm:~# echo 'WLXS''JWVPAN'
WLXSJWVPAN
root@arm:~# MARKER='AKTF''YFNUYN' run 'i2cget -y -f 2 0x4b 0x5'
AKTFYFNUYN0x02
AKTFYFNUYN 0
root@arm:~# echo 'JTZP''JOELMK'
JTZPJOELMK
root@arm:~# MARKER='WPPF''ACKWOK' run 'grep -r -l rohm,bd71837 /proc/device-tree  | sed '"'"'s![^/]*$!!'"'"''
WPPFACKWOK/proc/device-tree/ocp/interconnect@48000000/segment@100000/target-module@9c000/i2c@0/pmic@4b/
WPPFACKWOK 0
root@arm:~# echo 'BSVU''UMHGCY'
BSVUUMHGCY
root@arm:~# MARKER='NNBO''TLWHUK' run 'test -f /proc/device-tree/ocp/interconnectt\@48000000/segment\@100000/target-module\@9c000/i2c\@0/pmic\@4b/regulators/BUCK22/rohm,no-regulator-enable-control ;echo $?'
NNBOTLWHUK1
NNBOTLWHUK 0
root@arm:~# echo 'VLFH''VGVTZL'
VLFHVGVTZL
root@arm:~# MARKER='HKOB''OUKEUW' run 'echo 1 > /sys/kernel/mva_test/regulators/bbuck2_en'
HKOBOUKEUWHKOBOUKEUW 0
root@arm:~# echo 'LTFB''HUVUUF'
LTFBHUVUUF
root@arm:~# MARKER='HPWB''AUWMUY' run 'i2cget -y -f 2 0x4b 0x6'
HPWBAUWMUY0x43
HPWBAUWMUY 0
root@arm:~# echo 'UVQV''QXESTV'
UVQVQXESTV
root@arm:~# MARKER='CLJH''TSUCSX' run 'grep -r -l rohm,bd71837 /proc/device-tree  | sed '"'"'s![^/]*$!!'"'"''
CLJHTSUCSX/proc/device-tree/ocp/interconnect@48000000/segment@100000/target-module@9c000/i2c@0/pmic@4b/
CLJHTSUCSX 0
root@arm:~# echo 'QMGO''EQLAXP'
QMGOEQLAXP
root@arm:~# MARKER='GWXT''NLSJLM' run 'test -f /proc/device-tree/ocp/interconnectt\@48000000/segment\@100000/target-module\@9c000/i2c\@0/pmic\@4b/regulators/BUCK 2/rohm,no-regulator-enable-control ;echo $?'
GWXTNLSJLM1
GWXTNLSJLM 0
root@arm:~# echo 'FVZA''CYGZTB'
FVZACYGZTB
root@arm:~# MARKER='FKHQ''YOZKPK' run 'grep -r -l rohm,bd71837 /proc/device-tree  | sed '"'"'s![^/]*$!!'"'"''
FKHQYOZKPK/proc/device-tree/ocp/interconnect@48000000/segment@100000/target-module@9c000/i2c@0/pmic@4b/
FKHQYOZKPK 0
root@arm:~# echo 'LOKS''FSKGBG'
LOKSFSKGBG
root@arm:~# MARKER='XLAC''FSSGWM' run 'test -f /proc/device-tree/ocp/interconnectt\@48000000/segment\@100000/target-module\@9c000/i2c\@0/pmic\@4b/regulators/BUCK22/regulator-always-on ;echo $?'
XLACFSSGWM0
XLACFSSGWM 0
root@arm:~# echo 'NTEG''OZTBUW'
NTEGOZTBUW
root@arm:~# MARKER='PJGE''SFQUMO' run 'grep -r -l rohm,bd71837 /proc/device-tree  | sed '"'"'s![^/]*$!!'"'"''
PJGESFQUMO/proc/device-tree/ocp/interconnect@48000000/segment@100000/target-module@9c000/i2c@0/pmic@4b/
PJGESFQUMO 0
root@arm:~# echo 'MFWF''STENXP'
MFWFSTENXP
root@arm:~# MARKER='JLEK''YUTGNL' run 'test -f /proc/device-tree/ocp/interconnectt\@48000000/segment\@100000/target-module\@9c000/i2c\@0/pmic\@4b/regulators/BUCK33/rohm,no-regulator-enable-control ;echo $?'
JLEKYUTGNL0
JLEKYUTGNL 0
root@arm:~# echo 'OXOA''MJLTCA'
OXOAMJLTCA
root@arm:~# MARKER='WXQA''AWBJEM' run 'grep -r -l rohm,bd71837 /proc/device-tree  | sed '"'"'s![^/]*$!!'"'"''
WXQAAWBJEM/proc/device-tree/ocp/interconnect@48000000/segment@100000/target-module@9c000/i2c@0/pmic@4b/
WXQAAWBJEM 0
root@arm:~# echo 'PBGK''EQEMKY'
PBGKEQEMKY
root@arm:~# MARKER='JANO''CXNTGT' run 'test -f /proc/device-tree/ocp/interconnectt\@48000000/segment\@100000/target-module\@9c000/i2c\@0/pmic\@4b/regulators/BUCK33/rohm,no-regulator-enable-control ;echo $?'
JANOCXNTGT0
JANOCXNTGT 0
root@arm:~# echo 'QOVA''WCMOTU'
QOVAWCMOTU
root@arm:~# MARKER='KWHU''ENEUAP' run 'grep -r -l rohm,bd71837 /proc/device-tree  | sed '"'"'s![^/]*$!!'"'"''
KWHUENEUAP/proc/device-tree/ocp/interconnect@48000000/segment@100000/target-module@9c000/i2c@0/pmic@4b/
KWHUENEUAP 0
root@arm:~# echo 'EEAL''SPLCLV'
EEALSPLCLV
root@arm:~# MARKER='HMKP''FVPXBW' run 'test -f /proc/device-tree/ocp/interconnectt\@48000000/segment\@100000/target-module\@9c000/i2c\@0/pmic\@4b/regulators/BUCK44/rohm,no-regulator-enable-control ;echo $?'
HMKPFVPXBW1
HMKPFVPXBW 0
root@arm:~# echo 'BGYP''FFTTKN'
BGYPFFTTKN
root@arm:~# MARKER='HCMY''UGPONY' run 'echo 1 > /sys/kernel/mva_test/regulators/bbuck4_en'
HCMYUGPONYHCMYUGPONY 0
root@arm:~# echo 'VLVO''QSLBEN'
VLVOQSLBEN
root@arm:~# MARKER='XBYV''WBUBXH' run 'i2cget -y -f 2 0x4b 0x8'
XBYVWBUBXH0xc7
XBYVWBUBXH 0
root@arm:~# echo 'ZZNG''BBJFHU'
ZZNGBBJFHU
root@arm:~# MARKER='YOTJ''ZKMUUB' run 'grep -r -l rohm,bd71837 /proc/device-tree  | sed '"'"'s![^/]*$!!'"'"''
YOTJZKMUUB/proc/device-tree/ocp/interconnect@48000000/segment@100000/target-module@9c000/i2c@0/pmic@4b/
YOTJZKMUUB 0
root@arm:~# echo 'YTFE''EWVAVQ'
YTFEEWVAVQ
root@arm:~# MARKER='JLHS''KGMCGP' run 'test -f /proc/device-tree/ocp/interconnectt\@48000000/segment\@100000/target-module\@9c000/i2c\@0/pmic\@4b/regulators/BUCK44/rohm,no-regulator-enable-control ;echo $?'
JLHSKGMCGP1
JLHSKGMCGP 0
root@arm:~# echo 'AOOE''GXCEVV'
AOOEGXCEVV
root@arm:~# MARKER='NOCQ''CWCUHS' run 'grep -r -l rohm,bd71837 /proc/device-tree  | sed '"'"'s![^/]*$!!'"'"''
NOCQCWCUHS/proc/device-tree/ocp/interconnect@48000000/segment@100000/target-module@9c000/i2c@0/pmic@4b/
NOCQCWCUHS 0
root@arm:~# echo 'PBLL''NLFVEZ'
PBLLNLFVEZ
root@arm:~# MARKER='HEAG''ENMYUT' run 'test -f /proc/device-tree/ocp/interconnectt\@48000000/segment\@100000/target-module\@9c000/i2c\@0/pmic\@4b/regulators/BUCK44/regulator-always-on ;echo $?'
HEAGENMYUT1
HEAGENMYUT 0
root@arm:~# echo 'WCQB''YAGEXF'
WCQBYAGEXF
root@arm:~# MARKER='JPXY''YMBBCE' run 'echo 0 > /sys/kernel/mva_test/regulators/bbuck4_en'
JPXYYMBBCEJPXYYMBBCE 0
root@arm:~# echo 'UVKZ''KZFOSE'
UVKZKZFOSE
root@arm:~# MARKER='PWLW''NKEUEV' run 'i2cget -y -f 2 0x4b 0x8'
PWLWNKEUEV0xc6
PWLWNKEUEV 0
root@arm:~# echo 'UYKX''XUBEYO'
UYKXXUBEYO
root@arm:~# MARKER='VFGW''JSNKQH' run 'grep -r -l rohm,bd71837 /proc/device-tree  | sed '"'"'s![^/]*$!!'"'"''
VFGWJSNKQH/proc/device-tree/ocp/interconnect@48000000/segment@100000/target-module@9c000/i2c@0/pmic@4b/
VFGWJSNKQH 0
root@arm:~# echo 'SYQK''PEOXYK'
SYQKPEOXYK
root@arm:~# MARKER='FHSX''BECGKL' run 'test -f /proc/device-tree/ocp/interconnectt\@48000000/segment\@100000/target-module\@9c000/i2c\@0/pmic\@4b/regulators/BUCK55/rohm,no-regulator-enable-control ;echo $?'
FHSXBECGKL1
FHSXBECGKL 0
root@arm:~# echo 'EFTX''UAJWNO'
EFTXUAJWNO
root@arm:~# MARKER='MWLU''YWFWQG' run 'echo 1 > /sys/kernel/mva_test/regulators/bbuck5_en'
MWLUYWFWQGMWLUYWFWQG 0
root@arm:~# echo 'ELWC''MSNQQH'
ELWCMSNQQH
root@arm:~# MARKER='AAFQ''YNWQUU' run 'i2cget -y -f 2 0x4b 0x9'
AAFQYNWQUU0x03
AAFQYNWQUU 0
root@arm:~# echo 'YTNV''BWGSAG'
YTNVBWGSAG
root@arm:~# MARKER='FQLO''GZNWZZ' run 'grep -r -l rohm,bd71837 /proc/device-tree  | sed '"'"'s![^/]*$!!'"'"''
FQLOGZNWZZ/proc/device-tree/ocp/interconnect@48000000/segment@100000/target-module@9c000/i2c@0/pmic@4b/
FQLOGZNWZZ 0
root@arm:~# echo 'BMWY''YCALON'
BMWYYCALON
root@arm:~# MARKER='CMML''EOVKKZ' run 'test -f /proc/device-tree/ocp/interconnectt\@48000000/segment\@100000/target-module\@9c000/i2c\@0/pmic\@4b/regulators/BUCK 5/rohm,no-regulator-enable-control ;echo $?'
CMMLEOVKKZ1
CMMLEOVKKZ 0
root@arm:~# echo 'BLXW''MJVKAB'
BLXWMJVKAB
root@arm:~# MARKER='BKKB''YPMBYK' run 'grep -r -l rohm,bd71837 /proc/device-tree  | sed '"'"'s![^/]*$!!'"'"''
BKKBYPMBYK/proc/device-tree/ocp/interconnect@48000000/segment@100000/target-module@9c000/i2c@0/pmic@4b/
BKKBYPMBYK 0
root@arm:~# echo 'MSQU''AGQJLJ'
MSQUAGQJLJ
root@arm:~# MARKER='KJYS''QAOQAZ' run 'test -f /proc/device-tree/ocp/interconnectt\@48000000/segment\@100000/target-module\@9c000/i2c\@0/pmic\@4b/regulators/BUCK55/regulator-always-on ;echo $?'
KJYSQAOQAZ1
KJYSQAOQAZ 0
root@arm:~# echo 'NXJU''ZLXQLB'
NXJUZLXQLB
root@arm:~# MARKER='QMGU''QUWQHC' run 'echo 0 > /sys/kernel/mva_test/regulators/bbuck5_en'
QMGUQUWQHCQMGUQUWQHC 0
root@arm:~# echo 'PAEF''WNVKGW'
PAEFWNVKGW
root@arm:~# MARKER='PGSK''UNBLEZ' run 'i2cget -y -f 2 0x4b 0x9'
PGSKUNBLEZ0x02
PGSKUNBLEZ 0
root@arm:~# echo 'WBXL''TJAZJS'
WBXLTJAZJS
root@arm:~# MARKER='PKNP''OSSFNZ' run 'grep -r -l rohm,bd71837 /proc/device-tree  | sed '"'"'s![^/]*$!!'"'"''
PKNPOSSFNZ/proc/device-tree/ocp/interconnect@48000000/segment@100000/target-module@9c000/i2c@0/pmic@4b/
PKNPOSSFNZ 0
root@arm:~# echo 'SPHY''HTKJKA'
SPHYHTKJKA
root@arm:~# MARKER='FXJL''VHKZHG' run 'test -f /proc/device-tree/ocp/interconnectt\@48000000/segment\@100000/target-module\@9c000/i2c\@0/pmic\@4b/regulators/BUCK66/rohm,no-regulator-enable-control ;echo $?'
FXJLVHKZHG1
FXJLVHKZHG 0
root@arm:~# echo 'YPWO''WYKTFC'
YPWOWYKTFC
root@arm:~# MARKER='OJZS''MFJGNO' run 'echo 1 > /sys/kernel/mva_test/regulators/bbuck6_en'
OJZSMFJGNOOJZSMFJGNO 0
root@arm:~# echo 'XKAK''PJPEGS'
XKAKPJPEGS
root@arm:~# MARKER='GVHM''CWSCES' run 'i2cget -y -f 2 0x4b 0xa'
GVHMCWSCES0x03
GVHMCWSCES 0
root@arm:~# echo 'MGJE''YQTGUS'
MGJEYQTGUS
root@arm:~# MARKER='XAQZ''NTUJLJ' run 'grep -r -l rohm,bd71837 /proc/device-tree  | sed '"'"'s![^/]*$!!'"'"''
XAQZNTUJLJ/proc/device-tree/ocp/interconnect@48000000/segment@100000/target-module@9c000/i2c@0/pmic@4b/
XAQZNTUJLJ 0
root@arm:~# echo 'JGFG''LLACQK'
JGFGLLACQK
root@arm:~# MARKER='JKPH''AMEQMN' run 'test -f /proc/device-tree/ocp/interconnectt\@48000000/segment\@100000/target-module\@9c000/i2c\@0/pmic\@4b/regulators/BUCK66/rohm,no-regulator-enable-control ;echo $?'
JKPHAMEQMN1
JKPHAMEQMN 0
root@arm:~# echo 'ZPVG''CSOQFA'
ZPVGCSOQFA
root@arm:~# MARKER='OVAT''ZBFZQW' run 'grep -r -l rohm,bd71837 /proc/device-tree  | sed '"'"'s![^/]*$!!'"'"''
OVATZBFZQW/proc/device-tree/ocp/interconnect@48000000/segment@100000/target-module@9c000/i2c@0/pmic@4b/
OVATZBFZQW 0
root@arm:~# echo 'PAEJ''FBOXQW'
PAEJFBOXQW
root@arm:~# MARKER='QZQA''WYFAXH' run 'test -f /proc/device-tree/ocp/interconnectt\@48000000/segment\@100000/target-module\@9c000/i2c\@0/pmic\@4b/regulators/BUCK66/regulator-always-on ;echo $?'
QZQAWYFAXH1
QZQAWYFAXH 0
root@arm:~# echo 'NTNQ''ELSMCO'
NTNQELSMCO
root@arm:~# MARKER='YJZJ''OMQWCU' run 'echo 0 > /sys/kernel/mva_test/regulators/bbuck6_en'
YJZJOMQWCUYJZJOMQWCU 0
root@arm:~# echo 'EQFN''FYAWUO'
EQFNFYAWUO
root@arm:~# MARKER='YTPX''GMLMLS' run 'i2cget -y -f 2 0x4b 0xa'
YTPXGMLMLS0x02
YTPXGMLMLS 0
root@arm:~# echo 'HFAH''OBAKKA'
HFAHOBAKKA
root@arm:~# MARKER='LGOU''FEABUP' run 'grep -r -l rohm,bd71837 /proc/device-tree  | sed '"'"'s![^/]*$!!'"'"''
LGOUFEABUP/proc/device-tree/ocp/interconnect@48000000/segment@100000/target-module@9c000/i2c@0/pmic@4b/
LGOUFEABUP 0
root@arm:~# echo 'XZXQ''JTTSNL'
XZXQJTTSNL
root@arm:~# MARKER='AOLL''GQXZHV' run 'test -f /proc/device-tree/ocp/interconnectt\@48000000/segment\@100000/target-module\@9c000/i2c\@0/pmic\@4b/regulators/BUCK77/rohm,no-regulator-enable-control ;echo $?'
AOLLGQXZHV1
AOLLGQXZHV 0
root@arm:~# echo 'WVMO''AOKJHV'
WVMOAOKJHV
root@arm:~# MARKER='GAQW''AKCXQJ' run 'echo 1 > /sys/kernel/mva_test/regulators/bbuck7_en'
GAQWAKCXQJGAQWAKCXQJ 0
root@arm:~# echo 'JQTN''LYXPMS'
JQTNLYXPMS
root@arm:~# MARKER='LPJV''ELUYPK' run 'i2cget -y -f 2 0x4b 0xb'
LPJVELUYPK0x03
LPJVELUYPK 0
root@arm:~# echo 'HENT''BJFFWN'
HENTBJFFWN
root@arm:~# MARKER='VJYB''BFQYVH' run 'grep -r -l rohm,bd71837 /proc/device-tree  | sed '"'"'s![^/]*$!!'"'"''
VJYBBFQYVH/proc/device-tree/ocp/interconnect@48000000/segment@100000/target-module@9c000/i2c@0/pmic@4b/
VJYBBFQYVH 0
root@arm:~# echo 'MMSE''HFTBUB'
MMSEHFTBUB
root@arm:~# MARKER='FAGQ''FEESAE' run 'test -f /proc/device-tree/ocp/interconnectt\@48000000/segment\@100000/target-module\@9c000/i2c\@0/pmic\@4b/regulators/BUCK77/rohm,no-regulator-enable-control ;echo $?'
FAGQFEESAE1
FAGQFEESAE 0
root@arm:~# echo 'QSKF''ULMTOH'
QSKFULMTOH
root@arm:~# MARKER='BYNL''NUJUTW' run 'grep -r -l rohm,bd71837 /proc/device-tree  | sed '"'"'s![^/]*$!!'"'"''
BYNLNUJUTW/proc/device-tree/ocp/interconnect@48000000/segment@100000/target-module@9c000/i2c@0/pmic@4b/
BYNLNUJUTW 0
root@arm:~# echo 'ZOGA''BOCZYO'
ZOGABOCZYO
root@arm:~# MARKER='SNWH''SUABTN' run 'test -f /proc/device-tree/ocp/interconnectt\@48000000/segment\@100000/target-module\@9c000/i2c\@0/pmic\@4b/regulators/BUCK77/regulator-always-on ;echo $?'
SNWHSUABTN1
SNWHSUABTN 0
root@arm:~# echo 'YSEO''GXOYJW'
YSEOGXOYJW
root@arm:~# MARKER='EZJO''FTOZWX' run 'echo 0 > /sys/kernel/mva_test/regulators/bbuck7_en'
EZJOFTOZWXEZJOFTOZWX 0
root@arm:~# echo 'FWBU''MJPWVZ'
FWBUMJPWVZ
root@arm:~# MARKER='WJLG''PUTVUN' run 'i2cget -y -f 2 0x4b 0xb'
WJLGPUTVUN0x02
WJLGPUTVUN 0
root@arm:~# echo 'TWAA''YTFOHW'
TWAAYTFOHW
root@arm:~# MARKER='EHYH''TFBXKO' run 'grep -r -l rohm,bd71837 /proc/device-tree  | sed '"'"'s![^/]*$!!'"'"''
EHYHTFBXKO/proc/device-tree/ocp/interconnect@48000000/segment@100000/target-module@9c000/i2c@0/pmic@4b/
EHYHTFBXKO 0
root@arm:~# echo 'LKEN''SNLBVX'
LKENSNLBVX
root@arm:~# MARKER='XJPG''LWPKLW' run 'test -f /proc/device-tree/ocp/interconnectt\@48000000/segment\@100000/target-module\@9c000/i2c\@0/pmic\@4b/regulators/BUCK88/rohm,no-regulator-enable-control ;echo $?'
XJPGLWPKLW1
XJPGLWPKLW 0
root@arm:~# echo 'MMJJ''BTCUCG'
MMJJBTCUCG
root@arm:~# MARKER='AXZS''AOKKPV' run 'echo 1 > /sys/kernel/mva_test/regulators/bbuck8_en'
AXZSAOKKPVAXZSAOKKPV 0
root@arm:~# echo 'QEMO''TZBNQF'
QEMOTZBNQF
root@arm:~# MARKER='AANW''WNYYOX' run 'i2cget -y -f 2 0x4b 0xc'
AANWWNYYOX0x03
AANWWNYYOX 0
root@arm:~# echo 'GKMB''TCLYXE'
GKMBTCLYXE
root@arm:~# MARKER='KSOV''KJAMXX' run 'grep -r -l rohm,bd71837 /proc/device-tree  | sed '"'"'s![^/]*$!!'"'"''
KSOVKJAMXX/proc/device-tree/ocp/interconnect@48000000/segment@100000/target-module@9c000/i2c@0/pmic@4b/
KSOVKJAMXX 0
root@arm:~# echo 'FBZK''ZSWZSK'
FBZKZSWZSK
root@arm:~# MARKER='SBCX''AGQYTJ' run 'test -f /proc/device-tree/ocp/interconnectt\@48000000/segment\@100000/target-module\@9c000/i2c\@0/pmic\@4b/regulators/BUCK88/rohm,no-regulator-enable-control ;echo $?'
SBCXAGQYTJ1
SBCXAGQYTJ 0
root@arm:~# echo 'AFOJ''HUSHGB'
AFOJHUSHGB
root@arm:~# MARKER='HGBJ''EQEKNA' run 'grep -r -l rohm,bd71837 /proc/device-tree  | sed '"'"'s![^/]*$!!'"'"''
HGBJEQEKNA/proc/device-tree/ocp/interconnect@48000000/segment@100000/target-module@9c000/i2c@0/pmic@4b/
HGBJEQEKNA 0
root@arm:~# echo 'YOPW''OEGJNS'
YOPWOEGJNS
root@arm:~# MARKER='MCUC''ZJUHXG' run 'test -f /proc/device-tree/ocp/interconnectt\@48000000/segment\@100000/target-module\@9c000/i2c\@0/pmic\@4b/regulators/BUCK88/regulator-always-on ;echo $?'
MCUCZJUHXG1
MCUCZJUHXG 0
root@arm:~# echo 'AXPE''NOYAJE'
AXPENOYAJE
root@arm:~# MARKER='YLNN''PGGXLX' run 'echo 0 > /sys/kernel/mva_test/regulators/bbuck8_en'
YLNNPGGXLXYLNNPGGXLX 0
root@arm:~# echo 'YOYC''ZOSVHW'
YOYCZOSVHW
root@arm:~# MARKER='EFGG''PYKMMW' run 'i2cget -y -f 2 0x4b 0xc'
EFGGPYKMMW0x02
EFGGPYKMMW 0
root@arm:~# echo 'VYJP''ZAMVGV'
VYJPZAMVGV
root@arm:~# MARKER='NCWV''JJHXSE' run 'grep -r -l rohm,bd71837 /proc/device-tree  | sed '"'"'s![^/]*$!!'"'"''
NCWVJJHXSE/proc/device-tree/ocp/interconnect@48000000/segment@100000/target-module@9c000/i2c@0/pmic@4b/
NCWVJJHXSE 0
root@arm:~# echo 'NOHG''OLMKJM'
NOHGOLMKJM
root@arm:~# MARKER='CWZX''NEMTOA' run 'test -f /proc/device-tree/ocp/interconnectt\@48000000/segment\@100000/target-module\@9c000/i2c\@0/pmic\@4b/regulators/LDO1//rohm,no-regulator-enable-control ;echo $?'
CWZXNEMTOA1
CWZXNEMTOA 0
root@arm:~# echo 'SCZH''AWNNBB'
SCZHAWNNBB
root@arm:~# MARKER='FOGV''KQAYOW' run 'echo 1 > /sys/kernel/mva_test/regulators/bbuck9_en'
FOGVKQAYOWFOGVKQAYOW 0
root@arm:~# echo 'YLWW''ZKBLKO'
YLWWZKBLKO
root@arm:~# MARKER='NEMV''NTYPEX' run 'i2cget -y -f 2 0x4b 0x18'
NEMVNTYPEX0xc3
NEMVNTYPEX 0
root@arm:~# echo 'WWZW''QMCYEF'
WWZWQMCYEF
root@arm:~# MARKER='KZPV''SHNOZV' run 'grep -r -l rohm,bd71837 /proc/device-tree  | sed '"'"'s![^/]*$!!'"'"''
KZPVSHNOZV/proc/device-tree/ocp/interconnect@48000000/segment@100000/target-module@9c000/i2c@0/pmic@4b/
KZPVSHNOZV 0
root@arm:~# echo 'QQVQ''SNXLOL'
QQVQSNXLOL
root@arm:~# MARKER='UCGO''XXELYW' run 'test -f /proc/device-tree/ocp/interconnectt\@48000000/segment\@100000/target-module\@9c000/i2c\@0/pmic\@4b/regulators/LDO1//rohm,no-regulator-enable-control ;echo $?'
UCGOXXELYW1
UCGOXXELYW 0
root@arm:~# echo 'JNPX''EACGPM'
JNPXEACGPM
root@arm:~# MARKER='SXAL''QNNCMX' run 'grep -r -l rohm,bd71837 /proc/device-tree  | sed '"'"'s![^/]*$!!'"'"''
SXALQNNCMX/proc/device-tree/ocp/interconnect@48000000/segment@100000/target-module@9c000/i2c@0/pmic@4b/
SXALQNNCMX 0
root@arm:~# echo 'QKLB''VQAUFQ'
QKLBVQAUFQ
root@arm:~# MARKER='ELAB''LYVLCZ' run 'test -f /proc/device-tree/ocp/interconnectt\@48000000/segment\@100000/target-module\@9c000/i2c\@0/pmic\@4b/regulators/LDO1//regulator-always-on ;echo $?'
ELABLYVLCZ1
ELABLYVLCZ 0
root@arm:~# echo 'NCYK''BHUQTF'
NCYKBHUQTF
root@arm:~# MARKER='HPWV''ZLQLMZ' run 'echo 0 > /sys/kernel/mva_test/regulators/bbuck9_en'
HPWVZLQLMZHPWVZLQLMZ 0
root@arm:~# echo 'QAAT''AQUGTS'
QAATAQUGTS
root@arm:~# MARKER='GBVG''WFQJCY' run 'i2cget -y -f 2 0x4b 0x18'
GBVGWFQJCY0x83
GBVGWFQJCY 0
root@arm:~# echo 'HUCF''UFXNJK'
HUCFUFXNJK
root@arm:~# MARKER='UWHJ''KUFOHL' run 'grep -r -l rohm,bd71837 /proc/device-tree  | sed '"'"'s![^/]*$!!'"'"''
UWHJKUFOHL/proc/device-tree/ocp/interconnect@48000000/segment@100000/target-module@9c000/i2c@0/pmic@4b/
UWHJKUFOHL 0
root@arm:~# echo 'VMES''KEXZMC'
VMESKEXZMC
root@arm:~# MARKER='YLOP''VNPQAG' run 'test -f /proc/device-tree/ocp/interconnectt\@48000000/segment\@100000/target-module\@9c000/i2c\@0/pmic\@4b/regulators/LDO2//rohm,no-regulator-enable-control ;echo $?'
YLOPVNPQAG1
YLOPVNPQAG 0
root@arm:~# echo 'LMZJ''EQKCSS'
LMZJEQKCSS
root@arm:~# MARKER='KULE''JTWMWE' run 'echo 1 > /sys/kernel/mva_test/regulators/bbuck10_en'
KULEJTWMWEKULEJTWMWE 0
root@arm:~# echo 'MHKP''GEXBJX'
MHKPGEXBJX
root@arm:~# MARKER='QWNG''NMEFMG' run 'i2cget -y -f 2 0x4b 0x19'
QWNGNMEFMG0xc0
QWNGNMEFMG 0
root@arm:~# echo 'GVUF''JVHZZV'
GVUFJVHZZV
root@arm:~# MARKER='QEJX''WQJEGZ' run 'grep -r -l rohm,bd71837 /proc/device-tree  | sed '"'"'s![^/]*$!!'"'"''
QEJXWQJEGZ/proc/device-tree/ocp/interconnect@48000000/segment@100000/target-module@9c000/i2c@0/pmic@4b/
QEJXWQJEGZ 0
root@arm:~# echo 'VPUX''BSTJHF'
VPUXBSTJHF
root@arm:~# MARKER='EKSH''KQJCUJ' run 'test -f /proc/device-tree/ocp/interconnectt\@48000000/segment\@100000/target-module\@9c000/i2c\@0/pmic\@4b/regulators/LDO2//rohm,no-regulator-enable-control ;echo $?'
EKSHKQJCUJ1
EKSHKQJCUJ 0
root@arm:~# echo 'YTWO''MCLHCC'
YTWOMCLHCC
root@arm:~# MARKER='GNQE''HJXFOY' run 'grep -r -l rohm,bd71837 /proc/device-tree  | sed '"'"'s![^/]*$!!'"'"''
GNQEHJXFOY/proc/device-tree/ocp/interconnect@48000000/segment@100000/target-module@9c000/i2c@0/pmic@4b/
GNQEHJXFOY 0
root@arm:~# echo 'ZVBP''XLSVMZ'
ZVBPXLSVMZ
root@arm:~# MARKER='ONVY''BKCZUP' run 'test -f /proc/device-tree/ocp/interconnectt\@48000000/segment\@100000/target-module\@9c000/i2c\@0/pmic\@4b/regulators/LDO2//regulator-always-on ;echo $?'
ONVYBKCZUP1
ONVYBKCZUP 0
root@arm:~# echo 'HFCP''GCFFHL'
HFCPGCFFHL
root@arm:~# MARKER='XTJJ''FALSQP' run 'echo 0 > /sys/kernel/mva_test/regulators/bbuck10_en'
XTJJFALSQPXTJJFALSQP 0
root@arm:~# echo 'ZLMM''PKYNQV'
ZLMMPKYNQV
root@arm:~# MARKER='GCBZ''ZQKGPG' run 'i2cget -y -f 2 0x4b 0x19'
GCBZZQKGPG0x80
GCBZZQKGPG 0
root@arm:~# echo 'WMMZ''XZGSCW'
WMMZXZGSCW
root@arm:~# MARKER='XQMY''YFMWUA' run 'grep -r -l rohm,bd71837 /proc/device-tree  | sed '"'"'s![^/]*$!!'"'"''
XQMYYFMWUA/proc/device-tree/ocp/interconnect@48000000/segment@100000/target-module@9c000/i2c@0/pmic@4b/
XQMYYFMWUA 0
root@arm:~# echo 'AGHK''HTVHVO'
AGHKHTVHVO
root@arm:~# MARKER='QZMQ''YVUAYS' run 'test -f /proc/device-tree/ocp/interconnectt\@48000000/segment\@100000/target-module\@9c000/i2c\@0/pmic\@4b/regulators/LDO3//rohm,no-regulator-enable-control ;echo $?'
QZMQYVUAYS1
QZMQYVUAYS 0
root@arm:~# echo 'OBHN''FFXVQZ'
OBHNFFXVQZ
root@arm:~# MARKER='WGVT''AFSSKH' run 'echo 1 > /sys/kernel/mva_test/regulators/bbuck11_en'
WGVTAFSSKHWGVTAFSSKH 0
root@arm:~# echo 'SUSE''OXNVKH'
SUSEOXNVKH
root@arm:~# MARKER='XGFB''OBHUEB' run 'i2cget -y -f 2 0x4b 0x1a'
XGFBOBHUEB0xc0
XGFBOBHUEB 0
root@arm:~# echo 'XCBF''JLJNQJ'
XCBFJLJNQJ
root@arm:~# MARKER='HYBO''PKQXZL' run 'grep -r -l rohm,bd71837 /proc/device-tree  | sed '"'"'s![^/]*$!!'"'"''
HYBOPKQXZL/proc/device-tree/ocp/interconnect@48000000/segment@100000/target-module@9c000/i2c@0/pmic@4b/
HYBOPKQXZL 0
root@arm:~# echo 'WFTT''VWJTKM'
WFTTVWJTKM
root@arm:~# MARKER='SXZY''FHGOCN' run 'test -f /proc/device-tree/ocp/interconnectt\@48000000/segment\@100000/target-module\@9c000/i2c\@0/pmic\@4b/regulators/LDO3//rohm,no-regulator-enable-control ;echo $?'
SXZYFHGOCN1
SXZYFHGOCN 0
root@arm:~# echo 'BEHK''FQSZEU'
BEHKFQSZEU
root@arm:~# MARKER='MZWT''XJAQCG' run 'grep -r -l rohm,bd71837 /proc/device-tree  | sed '"'"'s![^/]*$!!'"'"''
MZWTXJAQCG/proc/device-tree/ocp/interconnect@48000000/segment@100000/target-module@9c000/i2c@0/pmic@4b/
MZWTXJAQCG 0
root@arm:~# echo 'AZPY''OLCOVA'
AZPYOLCOVA
root@arm:~# MARKER='OEYZ''JAMPGC' run 'test -f /proc/device-tree/ocp/interconnectt\@48000000/segment\@100000/target-module\@9c000/i2c\@0/pmic\@4b/regulators/LDO3//regulator-always-on ;echo $?'
OEYZJAMPGC1
OEYZJAMPGC 0
root@arm:~# echo 'OUHA''YQBPJC'
OUHAYQBPJC
root@arm:~# MARKER='VGYO''CHEBSU' run 'echo 0 > /sys/kernel/mva_test/regulators/bbuck11_en'
VGYOCHEBSUVGYOCHEBSU 0
root@arm:~# echo 'TTVQ''PWNGNK'
TTVQPWNGNK
root@arm:~# MARKER='ZAQW''OTMKTE' run 'i2cget -y -f 2 0x4b 0x1a'
ZAQWOTMKTE0x80
ZAQWOTMKTE 0
root@arm:~# echo 'CGCN''QYGNYE'
CGCNQYGNYE
root@arm:~# MARKER='SQHK''SEPMGZ' run 'grep -r -l rohm,bd71837 /proc/device-tree  | sed '"'"'s![^/]*$!!'"'"''
SQHKSEPMGZ/proc/device-tree/ocp/interconnect@48000000/segment@100000/target-module@9c000/i2c@0/pmic@4b/
SQHKSEPMGZ 0
root@arm:~# echo 'PNLT''CQASML'
PNLTCQASML
root@arm:~# MARKER='CKWU''TQHSYO' run 'test -f /proc/device-tree/ocp/interconnectt\@48000000/segment\@100000/target-module\@9c000/i2c\@0/pmic\@4b/regulators/LDO4//rohm,no-regulator-enable-control ;echo $?'
CKWUTQHSYO1
CKWUTQHSYO 0
root@arm:~# echo 'OZXL''SETJLN'
OZXLSETJLN
root@arm:~# MARKER='CENG''CNLGWM' run 'echo 1 > /sys/kernel/mva_test/regulators/bbuck12_en'
CENGCNLGWMCENGCNLGWM 0
root@arm:~# echo 'XNXB''WVJAFA'
XNXBWVJAFA
root@arm:~# MARKER='CKPH''LXPSSS' run 'i2cget -y -f 2 0x4b 0x1b'
CKPHLXPSSS0xc0
CKPHLXPSSS 0
root@arm:~# echo 'FFGU''MMCLZN'
FFGUMMCLZN
root@arm:~# MARKER='TKYF''VVMJYG' run 'grep -r -l rohm,bd71837 /proc/device-tree  | sed '"'"'s![^/]*$!!'"'"''
TKYFVVMJYG/proc/device-tree/ocp/interconnect@48000000/segment@100000/target-module@9c000/i2c@0/pmic@4b/
TKYFVVMJYG 0
root@arm:~# echo 'HJNN''MHSTQT'
HJNNMHSTQT
root@arm:~# MARKER='HABN''STSYLU' run 'test -f /proc/device-tree/ocp/interconnectt\@48000000/segment\@100000/target-module\@9c000/i2c\@0/pmic\@4b/regulators/LDO4//rohm,no-regulator-enable-control ;echo $?'
HABNSTSYLU1
HABNSTSYLU 0
root@arm:~# echo 'LOBT''JSQZQQ'
LOBTJSQZQQ
root@arm:~# MARKER='HHOC''YXXXLQ' run 'grep -r -l rohm,bd71837 /proc/device-tree  | sed '"'"'s![^/]*$!!'"'"''
HHOCYXXXLQ/proc/device-tree/ocp/interconnect@48000000/segment@100000/target-module@9c000/i2c@0/pmic@4b/
HHOCYXXXLQ 0
root@arm:~# echo 'XTOE''JBEEFC'
XTOEJBEEFC
root@arm:~# MARKER='UUOC''UCKMVE' run 'test -f /proc/device-tree/ocp/interconnectt\@48000000/segment\@100000/target-module\@9c000/i2c\@0/pmic\@4b/regulators/LDO4//regulator-always-on ;echo $?'
UUOCUCKMVE1
UUOCUCKMVE 0
root@arm:~# echo 'WQTL''JYFLSV'
WQTLJYFLSV
root@arm:~# MARKER='OELX''MAHOLS' run 'echo 0 > /sys/kernel/mva_test/regulators/bbuck12_en'
OELXMAHOLSOELXMAHOLS 0
root@arm:~# echo 'GJZY''VSWTFG'
GJZYVSWTFG
root@arm:~# MARKER='EQMW''TOZPSS' run 'i2cget -y -f 2 0x4b 0x1b'
EQMWTOZPSS0x80
EQMWTOZPSS 0
root@arm:~# echo 'HFBN''JSYXSN'
HFBNJSYXSN
root@arm:~# MARKER='MWTW''GXXSQC' run 'grep -r -l rohm,bd71837 /proc/device-tree  | sed '"'"'s![^/]*$!!'"'"''
MWTWGXXSQC/proc/device-tree/ocp/interconnect@48000000/segment@100000/target-module@9c000/i2c@0/pmic@4b/
MWTWGXXSQC 0
root@arm:~# echo 'FKEF''NPPAMA'
FKEFNPPAMA
root@arm:~# MARKER='PUCZ''JCPZVX' run 'test -f /proc/device-tree/ocp/interconnectt\@48000000/segment\@100000/target-module\@9c000/i2c\@0/pmic\@4b/regulators/LDO5 /rohm,no-regulator-enable-control ;echo $?'
PUCZJCPZVX0
PUCZJCPZVX 0
root@arm:~# echo 'GPEG''PUCFXS'
GPEGPUCFXS
root@arm:~# MARKER='UPEV''ZHKELA' run 'grep -r -l rohm,bd71837 /proc/device-tree  | sed '"'"'s![^/]*$!!'"'"''
UPEVZHKELA/proc/device-tree/ocp/interconnect@48000000/segment@100000/target-module@9c000/i2c@0/pmic@4b/
UPEVZHKELA 0
root@arm:~# echo 'BEAA''OPEZWJ'
BEAAOPEZWJ
root@arm:~# MARKER='BHBT''ANGGAL' run 'test -f /proc/device-tree/ocp/interconnectt\@48000000/segment\@100000/target-module\@9c000/i2c\@0/pmic\@4b/regulators/LDO5 /rohm,no-regulator-enable-control ;echo $?'
BHBTANGGAL0
BHBTANGGAL 0
root@arm:~# echo 'QWXV''VKSGMN'
QWXVVKSGMN
root@arm:~# MARKER='AEYN''XTSENZ' run 'grep -r -l rohm,bd71837 /proc/device-tree  | sed '"'"'s![^/]*$!!'"'"''
AEYNXTSENZ/proc/device-tree/ocp/interconnect@48000000/segment@100000/target-module@9c000/i2c@0/pmic@4b/
AEYNXTSENZ 0
root@arm:~# echo 'ZLNF''PJGXGS'
ZLNFPJGXGS
root@arm:~# MARKER='WUMV''WPTJUK' run 'test -f /proc/device-tree/ocp/interconnectt\@48000000/segment\@100000/target-module\@9c000/i2c\@0/pmic\@4b/regulators/LDO6//rohm,no-regulator-enable-control ;echo $?'
WUMVWPTJUK1
WUMVWPTJUK 0
root@arm:~# echo 'TASY''COOBPF'
TASYCOOBPF
root@arm:~# MARKER='OKWC''EFXUSK' run 'echo 1 > /sys/kernel/mva_test/regulators/bbuck14_en'
OKWCEFXUSKOKWCEFXUSK 0
root@arm:~# echo 'EXVJ''QEPZAL'
EXVJQEPZAL
root@arm:~# MARKER='TUPU''CECXZN' run 'i2cget -y -f 2 0x4b 0x1d'
TUPUCECXZN0xc0
TUPUCECXZN 0
root@arm:~# echo 'ZOJH''YASMBG'
ZOJHYASMBG
root@arm:~# MARKER='CJLQ''KOZTCA' run 'grep -r -l rohm,bd71837 /proc/device-tree  | sed '"'"'s![^/]*$!!'"'"''
CJLQKOZTCA/proc/device-tree/ocp/interconnect@48000000/segment@100000/target-module@9c000/i2c@0/pmic@4b/
CJLQKOZTCA 0
root@arm:~# echo 'MVJW''HTKXMQ'
MVJWHTKXMQ
root@arm:~# MARKER='BVPG''UOSWEZ' run 'test -f /proc/device-tree/ocp/interconnectt\@48000000/segment\@100000/target-module\@9c000/i2c\@0/pmic\@4b/regulators/LDO6//rohm,no-regulator-enable-control ;echo $?'
BVPGUOSWEZ1
BVPGUOSWEZ 0
root@arm:~# echo 'LLSN''PVKPGX'
LLSNPVKPGX
root@arm:~# MARKER='YSTS''LGPUWS' run 'grep -r -l rohm,bd71837 /proc/device-tree  | sed '"'"'s![^/]*$!!'"'"''
YSTSLGPUWS/proc/device-tree/ocp/interconnect@48000000/segment@100000/target-module@9c000/i2c@0/pmic@4b/
YSTSLGPUWS 0
root@arm:~# echo 'MWQY''JFLPGC'
MWQYJFLPGC
root@arm:~# MARKER='OSQB''YXBGAH' run 'test -f /proc/device-tree/ocp/interconnectt\@48000000/segment\@100000/target-module\@9c000/i2c\@0/pmic\@4b/regulators/LDO6//regulator-always-on ;echo $?'
OSQBYXBGAH1
OSQBYXBGAH 0
root@arm:~# echo 'PGBK''NPSHMO'
PGBKNPSHMO
root@arm:~# MARKER='PTWW''KYPUNC' run 'echo 0 > /sys/kernel/mva_test/regulators/bbuck14_en'
PTWWKYPUNCPTWWKYPUNC 0
root@arm:~# echo 'PHGA''GNWLYA'
PHGAGNWLYA
root@arm:~# MARKER='WCOX''ZAVFZK' run 'i2cget -y -f 2 0x4b 0x1d'
WCOXZAVFZK0x80
WCOXZAVFZK 0
root@arm:~# echo 'WOZX''ZBCEUN'
WOZXZBCEUN
root@arm:~# MARKER='VUAE''VMWSQF' run 'grep -r -l rohm,bd71837 /proc/device-tree  | sed '"'"'s![^/]*$!!'"'"''
VUAEVMWSQF/proc/device-tree/ocp/interconnect@48000000/segment@100000/target-module@9c000/i2c@0/pmic@4b/
VUAEVMWSQF 0
root@arm:~# echo 'WQTQ''ZNWFMS'
WQTQZNWFMS
root@arm:~# MARKER='ZCCE''YBGZPF' run 'test -f /proc/device-tree/ocp/interconnectt\@48000000/segment\@100000/target-module\@9c000/i2c\@0/pmic\@4b/regulators/LDO7 /rohm,no-regulator-enable-control ;echo $?'
ZCCEYBGZPF1
ZCCEYBGZPF 0
root@arm:~# echo 'BAUZ''PKSFGZ'
BAUZPKSFGZ
root@arm:~# MARKER='UCWN''MEHEMV' run 'echo 1 > /sys/kernel/mva_test/regulators/bbuck15_en'
UCWNMEHEMVUCWNMEHEMV 0
root@arm:~# echo 'KCKV''JHPYZH'
KCKVJHPYZH
root@arm:~# MARKER='LGVT''ZSFZOS' run 'i2cget -y -f 2 0x4b 0x1e'
LGVTZSFZOS0xcf
LGVTZSFZOS 0
root@arm:~# echo 'WAVW''NHZZNH'
WAVWNHZZNH
root@arm:~# MARKER='QOAW''OBCPOU' run 'grep -r -l rohm,bd71837 /proc/device-tree  | sed '"'"'s![^/]*$!!'"'"''
QOAWOBCPOU/proc/device-tree/ocp/interconnect@48000000/segment@100000/target-module@9c000/i2c@0/pmic@4b/
QOAWOBCPOU 0
root@arm:~# echo 'HQTW''EFKYTV'
HQTWEFKYTV
root@arm:~# MARKER='BMTM''VAQGZT' run 'test -f /proc/device-tree/ocp/interconnectt\@48000000/segment\@100000/target-module\@9c000/i2c\@0/pmic\@4b/regulators/LDO7//rohm,no-regulator-enable-control ;echo $?'
BMTMVAQGZT1
BMTMVAQGZT 0
root@arm:~# echo 'ZLBN''QXQEPY'
ZLBNQXQEPY
root@arm:~# MARKER='SQGB''QJGZAP' run 'grep -r -l rohm,bd71837 /proc/device-tree  | sed '"'"'s![^/]*$!!'"'"''
SQGBQJGZAP/proc/device-tree/ocp/interconnect@48000000/segment@100000/target-module@9c000/i2c@0/pmic@4b/
SQGBQJGZAP 0
root@arm:~# echo 'PHMG''TOVEOS'
PHMGTOVEOS
root@arm:~# MARKER='BFYJ''ECJHSB' run 'test -f /proc/device-tree/ocp/interconnectt\@48000000/segment\@100000/target-module\@9c000/i2c\@0/pmic\@4b/regulators/LDO7//regulator-always-on ;echo $?'
BFYJECJHSB1
BFYJECJHSB 0
root@arm:~# echo 'GQZU''CCPKHO'
GQZUCCPKHO
root@arm:~# MARKER='GMXP''TMTHAX' run 'echo 0 > /sys/kernel/mva_test/regulators/bbuck15_en'
GMXPTMTHAXGMXPTMTHAX 0
root@arm:~# echo 'OSEQ''LJYVJM'
OSEQLJYVJM
root@arm:~# MARKER='NAFC''FSKKUC' run 'i2cget -y -f 2 0x4b 0x1e'
NAFCFSKKUC0x8f
NAFCFSKKUC 0
root@arm:~# Labgrid Console Logfile for main
Logfile started at 2025-12-08 16:53:36.535289
=== Log starts here ===

root@arm:~# run() { echo -n "$MARKER"; sh -c "$@"; echo "$MARKER $?"; }
root@arm:~# echo 'ZTPU''HPHCMV'
ZTPUHPHCMV
root@arm:~# MARKER='APSL''ZHOLEP' run 'grep -r -l rohm,bd71837 /proc/device-tree  | sed '"'"'s![^/]*$!!'"'"''
APSLZHOLEP/proc/device-tree/ocp/interconnect@48000000/segment@100000/target-module@9c000/i2c@0/pmic@4b/
APSLZHOLEP 0
root@arm:~# echo 'SXAK''ZMXYFE'
SXAKZMXYFE
root@arm:~# MARKER='CCHQ''NVPXKA' run 'test -f /proc/device-tree/ocp/interconnectt\@48000000/segment\@100000/target-module\@9c000/i2c\@0/pmic\@4b/regulators/BUCK11/rohm,no-regulator-enable-control ;echo $?'
CCHQNVPXKA1
CCHQNVPXKA 0
root@arm:~# echo 'TUQZ''VKOXAB'
TUQZVKOXAB
root@arm:~# MARKER='CMXK''GXVCJA' run 'i2cget -y -f 2 0x4b 0x5'
CMXKGXVCJA0x02
CMXKGXVCJA 0
root@arm:~# echo 'PPVG''TVBUWK'
PPVGTVBUWK
root@arm:~# MARKER='NVNK''KWPYAE' run 'echo 700000 700000 > /sys/kernel/mva_test//regulators/buck1_set'
NVNKKWPYAENVNKKWPYAE 0
root@arm:~# echo 'YMEQ''WPYVWO'
YMEQWPYVWO
root@arm:~# MARKER='WLBC''BFBXQU' run 'i2cget -y -f 2 0x4b 0xd'
WLBCBFBXQU0x00
WLBCBFBXQU 0
root@arm:~# echo 'LZSC''YCJXKW'
LZSCYCJXKW
root@arm:~# MARKER='HKCT''SVOXJC' run 'echo 710000 710000 > /sys/kernel/mva_test//regulators/buck1_set'
HKCTSVOXJCHKCTSVOXJC 0
root@arm:~# echo 'MZFQ''FPEUBT'
MZFQFPEUBT
root@arm:~# MARKER='JNCY''TUFXLE' run 'i2cget -y -f 2 0x4b 0xd'
JNCYTUFXLE0x01
JNCYTUFXLE 0
root@arm:~# echo 'YHCB''FXFPSU'
YHCBFXFPSU
root@arm:~# MARKER='GCPB''ZLAXYX' run 'echo 720000 720000 > /sys/kernel/mva_test//regulators/buck1_set'
GCPBZLAXYXGCPBZLAXYX 0
root@arm:~# echo 'OUTW''FJYKWS'
OUTWFJYKWS
root@arm:~# MARKER='ENWQ''MMHGCU' run 'i2cget -y -f 2 0x4b 0xd'
ENWQMMHGCU0x02
ENWQMMHGCU 0
root@arm:~# echo 'AFVA''MHTUJU'
AFVAMHTUJU
root@arm:~# MARKER='PMQY''SZMYVG' run 'echo 730000 730000 > /sys/kernel/mva_test//regulators/buck1_set'
PMQYSZMYVGPMQYSZMYVG 0
root@arm:~# echo 'BYEH''CZVJLS'
BYEHCZVJLS
root@arm:~# MARKER='YVNC''ENTXVC' run 'i2cget -y -f 2 0x4b 0xd'
YVNCENTXVC0x03
YVNCENTXVC 0
root@arm:~# echo 'UCVW''NPEQQX'
UCVWNPEQQX
root@arm:~# MARKER='BMXO''FLYOVV' run 'echo 740000 740000 > /sys/kernel/mva_test//regulators/buck1_set'
BMXOFLYOVVBMXOFLYOVV 0
root@arm:~# echo 'VSZO''SQNNGJ'
VSZOSQNNGJ
root@arm:~# MARKER='LELA''MEOKXH' run 'i2cget -y -f 2 0x4b 0xd'
LELAMEOKXH0x04
LELAMEOKXH 0
root@arm:~# echo 'BHVX''LGGKKE'
BHVXLGGKKE
root@arm:~# MARKER='HVVW''KCTVBK' run 'echo 750000 750000 > /sys/kernel/mva_test//regulators/buck1_set'
HVVWKCTVBKHVVWKCTVBK 0
root@arm:~# echo 'WYQZ''OEZAJN'
WYQZOEZAJN
root@arm:~# MARKER='HAZF''OVUEZL' run 'i2cget -y -f 2 0x4b 0xd'
HAZFOVUEZL0x05
HAZFOVUEZL 0
root@arm:~# echo 'WVZY''YUSVZM'
WVZYYUSVZM
root@arm:~# MARKER='GOSE''KUQUNF' run 'echo 760000 760000 > /sys/kernel/mva_test//regulators/buck1_set'
GOSEKUQUNFGOSEKUQUNF 0
root@arm:~# echo 'KALK''YMHLOO'
KALKYMHLOO
root@arm:~# MARKER='AOOM''NLZCMG' run 'i2cget -y -f 2 0x4b 0xd'
AOOMNLZCMG0x06
AOOMNLZCMG 0
root@arm:~# echo 'YKVG''FAHEZB'
YKVGFAHEZB
root@arm:~# MARKER='XHVH''YCCBPL' run 'echo 770000 770000 > /sys/kernel/mva_test//regulators/buck1_set'
XHVHYCCBPLXHVHYCCBPL 0
root@arm:~# echo 'XFAJ''WAKGWK'
XFAJWAKGWK
root@arm:~# MARKER='VTOJ''QCMOOW' run 'i2cget -y -f 2 0x4b 0xd'
VTOJQCMOOW0x07
VTOJQCMOOW 0
root@arm:~# echo 'XFBU''ZUFJUX'
XFBUZUFJUX
root@arm:~# MARKER='JTFQ''JXLXEH' run 'echo 780000 780000 > /sys/kernel/mva_test//regulators/buck1_set'
JTFQJXLXEHJTFQJXLXEH 0
root@arm:~# echo 'MZPL''YCHFBG'
MZPLYCHFBG
root@arm:~# MARKER='ZTLQ''AFLALF' run 'i2cget -y -f 2 0x4b 0xd'
ZTLQAFLALF0x08
ZTLQAFLALF 0
root@arm:~# echo 'VUWF''VOCKZL'
VUWFVOCKZL
root@arm:~# MARKER='SMKT''WHAWSW' run 'echo 790000 790000 > /sys/kernel/mva_test//regulators/buck1_set'
SMKTWHAWSWSMKTWHAWSW 0
root@arm:~# echo 'CJHC''EHBFCG'
CJHCEHBFCG
root@arm:~# MARKER='PBAE''OFYUJY' run 'i2cget -y -f 2 0x4b 0xd'
PBAEOFYUJY0x09
PBAEOFYUJY 0
root@arm:~# echo 'UTQA''OLSTVU'
UTQAOLSTVU
root@arm:~# MARKER='FJTO''ZYUFPG' run 'echo 800000 800000 > /sys/kernel/mva_test//regulators/buck1_set'
FJTOZYUFPGFJTOZYUFPG 0
root@arm:~# echo 'AETQ''EFVUBQ'
AETQEFVUBQ
root@arm:~# MARKER='UTJG''FZULOL' run 'i2cget -y -f 2 0x4b 0xd'
UTJGFZULOL0x0a
UTJGFZULOL 0
root@arm:~# echo 'MVGO''BXXMBW'
MVGOBXXMBW
root@arm:~# MARKER='NJWK''TMMKJF' run 'echo 810000 810000 > /sys/kernel/mva_test//regulators/buck1_set'
NJWKTMMKJFNJWKTMMKJF 0
root@arm:~# echo 'BZUY''YKKCXW'
BZUYYKKCXW
root@arm:~# MARKER='EAOG''TSSXYG' run 'i2cget -y -f 2 0x4b 0xd'
EAOGTSSXYG0x0b
EAOGTSSXYG 0
root@arm:~# echo 'TAMH''LCCANT'
TAMHLCCANT
root@arm:~# MARKER='GQXY''BHZMNU' run 'echo 820000 820000 > /sys/kernel/mva_test//regulators/buck1_set'
GQXYBHZMNUGQXYBHZMNU 0
root@arm:~# echo 'GTWU''SSYXUG'
GTWUSSYXUG
root@arm:~# MARKER='MPLQ''WYWHES' run 'i2cget -y -f 2 0x4b 0xd'
MPLQWYWHES0x0c
MPLQWYWHES 0
root@arm:~# echo 'YVVQ''BPYOJK'
YVVQBPYOJK
root@arm:~# MARKER='APZE''ZLBXSE' run 'echo 830000 830000 > /sys/kernel/mva_test//regulators/buck1_set'
APZEZLBXSEAPZEZLBXSE 0
root@arm:~# echo 'HPTW''BGZQWZ'
HPTWBGZQWZ
root@arm:~# MARKER='CPAE''YCJYGG' run 'i2cget -y -f 2 0x4b 0xd'
CPAEYCJYGG0x0d
CPAEYCJYGG 0
root@arm:~# echo 'FSXF''OZAAGU'
FSXFOZAAGU
root@arm:~# MARKER='HJQQ''ZOZZZW' run 'echo 840000 840000 > /sys/kernel/mva_test//regulators/buck1_set'
HJQQZOZZZWHJQQZOZZZW 0
root@arm:~# echo 'HCEL''FEZSAH'
HCELFEZSAH
root@arm:~# MARKER='GPUU''OPLOTE' run 'i2cget -y -f 2 0x4b 0xd'
GPUUOPLOTE0x0e
GPUUOPLOTE 0
root@arm:~# echo 'KTOV''ZVKXTO'
KTOVZVKXTO
root@arm:~# MARKER='TUCM''OFUHCC' run 'echo 850000 850000 > /sys/kernel/mva_test//regulators/buck1_set'
TUCMOFUHCCTUCMOFUHCC 0
root@arm:~# echo 'XUVB''PVKLWS'
XUVBPVKLWS
root@arm:~# MARKER='FQCC''JJSAWX' run 'i2cget -y -f 2 0x4b 0xd'
FQCCJJSAWX0x0f
FQCCJJSAWX 0
root@arm:~# echo 'WTSK''WXPGKM'
WTSKWXPGKM
root@arm:~# MARKER='FVMK''PXPPUL' run 'echo 860000 860000 > /sys/kernel/mva_test//regulators/buck1_set'
FVMKPXPPULFVMKPXPPUL 0
root@arm:~# echo 'TVZP''AALCGQ'
TVZPAALCGQ
root@arm:~# MARKER='BBBT''EKMQFN' run 'i2cget -y -f 2 0x4b 0xd'
BBBTEKMQFN0x10
BBBTEKMQFN 0
root@arm:~# echo 'ULVB''BFBOQH'
ULVBBFBOQH
root@arm:~# MARKER='SHHK''VPJLYP' run 'echo 870000 870000 > /sys/kernel/mva_test//regulators/buck1_set'
SHHKVPJLYPSHHKVPJLYP 0
root@arm:~# echo 'BANL''NZWGTC'
BANLNZWGTC
root@arm:~# MARKER='KWPU''OTLEWT' run 'i2cget -y -f 2 0x4b 0xd'
KWPUOTLEWT0x11
KWPUOTLEWT 0
root@arm:~# echo 'XEUG''PZLNOZ'
XEUGPZLNOZ
root@arm:~# MARKER='LHAZ''WWKOJT' run 'echo 880000 880000 > /sys/kernel/mva_test//regulators/buck1_set'
LHAZWWKOJTLHAZWWKOJT 0
root@arm:~# echo 'BOGV''QWJUWZ'
BOGVQWJUWZ
root@arm:~# MARKER='LWMO''VZQJLS' run 'i2cget -y -f 2 0x4b 0xd'
LWMOVZQJLS0x12
LWMOVZQJLS 0
root@arm:~# echo 'WOJY''BWKEJA'
WOJYBWKEJA
root@arm:~# MARKER='MPPB''KSUFTQ' run 'echo 890000 890000 > /sys/kernel/mva_test//regulators/buck1_set'
MPPBKSUFTQMPPBKSUFTQ 0
root@arm:~# echo 'BZUE''CKJOCS'
BZUECKJOCS
root@arm:~# MARKER='MMAX''JOMUPA' run 'i2cget -y -f 2 0x4b 0xd'
MMAXJOMUPA0x13
MMAXJOMUPA 0
root@arm:~# echo 'XXMS''UFUGHH'
XXMSUFUGHH
root@arm:~# MARKER='VGWB''KKQFKU' run 'echo 900000 900000 > /sys/kernel/mva_test//regulators/buck1_set'
VGWBKKQFKUVGWBKKQFKU 0
root@arm:~# echo 'QLUU''GVCPXU'
QLUUGVCPXU
root@arm:~# MARKER='ZHAC''GJXZJN' run 'i2cget -y -f 2 0x4b 0xd'
ZHACGJXZJN0x14
ZHACGJXZJN 0
root@arm:~# echo 'NEMM''JVYOXH'
NEMMJVYOXH
root@arm:~# MARKER='LOGG''NBJKVF' run 'echo 910000 910000 > /sys/kernel/mva_test//regulators/buck1_set'
LOGGNBJKVFLOGGNBJKVF 0
root@arm:~# echo 'OVGS''UPJQHB'
OVGSUPJQHB
root@arm:~# MARKER='XCLJ''OJCZEQ' run 'i2cget -y -f 2 0x4b 0xd'
XCLJOJCZEQ0x15
XCLJOJCZEQ 0
root@arm:~# echo 'HCSC''QEPZXA'
HCSCQEPZXA
root@arm:~# MARKER='SXWS''HOJCHJ' run 'echo 920000 920000 > /sys/kernel/mva_test//regulators/buck1_set'
SXWSHOJCHJSXWSHOJCHJ 0
root@arm:~# echo 'ENYX''KMXJXN'
ENYXKMXJXN
root@arm:~# MARKER='VENW''VYGLMX' run 'i2cget -y -f 2 0x4b 0xd'
VENWVYGLMX0x16
VENWVYGLMX 0
root@arm:~# echo 'UMPX''CKHOBX'
UMPXCKHOBX
root@arm:~# MARKER='KBQJ''LNZUTQ' run 'echo 930000 930000 > /sys/kernel/mva_test//regulators/buck1_set'
KBQJLNZUTQKBQJLNZUTQ 0
root@arm:~# echo 'SWUK''CEOSOQ'
SWUKCEOSOQ
root@arm:~# MARKER='JLEV''MKOGVO' run 'i2cget -y -f 2 0x4b 0xd'
JLEVMKOGVO0x17
JLEVMKOGVO 0
root@arm:~# echo 'NLXX''ALQKGL'
NLXXALQKGL
root@arm:~# MARKER='OVGN''PMBYBH' run 'echo 940000 940000 > /sys/kernel/mva_test//regulators/buck1_set'
OVGNPMBYBHOVGNPMBYBH 0
root@arm:~# echo 'JGFL''CQNBBU'
JGFLCQNBBU
root@arm:~# MARKER='SNFC''FCNZCQ' run 'i2cget -y -f 2 0x4b 0xd'
SNFCFCNZCQ0x18
SNFCFCNZCQ 0
root@arm:~# echo 'GCXX''THGYUX'
GCXXTHGYUX
root@arm:~# MARKER='ABWA''UOLMPK' run 'echo 950000 950000 > /sys/kernel/mva_test//regulators/buck1_set'
ABWAUOLMPKABWAUOLMPK 0
root@arm:~# echo 'GMZE''FBKNXP'
GMZEFBKNXP
root@arm:~# MARKER='UBNW''GYUGVE' run 'i2cget -y -f 2 0x4b 0xd'
UBNWGYUGVE0x19
UBNWGYUGVE 0
root@arm:~# echo 'HCEL''ZSEPXT'
HCELZSEPXT
root@arm:~# MARKER='ESEU''JLYUMZ' run 'echo 960000 960000 > /sys/kernel/mva_test//regulators/buck1_set'
ESEUJLYUMZESEUJLYUMZ 0
root@arm:~# echo 'KJUG''ZJYPZU'
KJUGZJYPZU
root@arm:~# MARKER='GLTT''CFHVCU' run 'i2cget -y -f 2 0x4b 0xd'
GLTTCFHVCU0x1a
GLTTCFHVCU 0
root@arm:~# echo 'YFEN''WNSENG'
YFENWNSENG
root@arm:~# MARKER='GBFE''ALEGQO' run 'echo 970000 970000 > /sys/kernel/mva_test//regulators/buck1_set'
GBFEALEGQOGBFEALEGQO 0
root@arm:~# echo 'PSSW''MVEFCH'
PSSWMVEFCH
root@arm:~# MARKER='LNYJ''EUXYZQ' run 'i2cget -y -f 2 0x4b 0xd'
LNYJEUXYZQ0x1b
LNYJEUXYZQ 0
root@arm:~# echo 'GBXV''BOFMQU'
GBXVBOFMQU
root@arm:~# MARKER='CWPC''TFHBBZ' run 'echo 980000 980000 > /sys/kernel/mva_test//regulators/buck1_set'
CWPCTFHBBZCWPCTFHBBZ 0
root@arm:~# echo 'PVMH''XCWAQS'
PVMHXCWAQS
root@arm:~# MARKER='EHTB''FNYQJJ' run 'i2cget -y -f 2 0x4b 0xd'
EHTBFNYQJJ0x1c
EHTBFNYQJJ 0
root@arm:~# echo 'ZCKG''CVFTCC'
ZCKGCVFTCC
root@arm:~# MARKER='VJWH''VKOQYZ' run 'echo 990000 990000 > /sys/kernel/mva_test//regulators/buck1_set'
VJWHVKOQYZVJWHVKOQYZ 0
root@arm:~# echo 'GGGQ''GPAVES'
GGGQGPAVES
root@arm:~# MARKER='THXN''QSYGGB' run 'i2cget -y -f 2 0x4b 0xd'
THXNQSYGGB0x1d
THXNQSYGGB 0
root@arm:~# echo 'MMHN''UBZLBY'
MMHNUBZLBY
root@arm:~# MARKER='JUNQ''ZXTKVY' run 'echo 1000000 1000000 > /sys/kernel/mva_tesst/regulators/buck1_set'
JUNQZXTKVYJUNQZXTKVY 0
root@arm:~# echo 'SBBK''WZPYVK'
SBBKWZPYVK
root@arm:~# MARKER='HBXG''KMZKWF' run 'i2cget -y -f 2 0x4b 0xd'
HBXGKMZKWF0x1e
HBXGKMZKWF 0
root@arm:~# echo 'KWWF''SCJMZE'
KWWFSCJMZE
root@arm:~# MARKER='ELJS''ZHUFBY' run 'echo 1010000 1010000 > /sys/kernel/mva_tesst/regulators/buck1_set'
ELJSZHUFBYELJSZHUFBY 0
root@arm:~# echo 'KYFQ''VFYWEY'
KYFQVFYWEY
root@arm:~# MARKER='JXEY''FMUGMH' run 'i2cget -y -f 2 0x4b 0xd'
JXEYFMUGMH0x1f
JXEYFMUGMH 0
root@arm:~# echo 'ZYHO''VKSPYQ'
ZYHOVKSPYQ
root@arm:~# MARKER='THHG''TUCTBV' run 'echo 1020000 1020000 > /sys/kernel/mva_tesst/regulators/buck1_set'
THHGTUCTBVTHHGTUCTBV 0
root@arm:~# echo 'WGXT''PPESYJ'
WGXTPPESYJ
root@arm:~# MARKER='WJCK''LWWGVF' run 'i2cget -y -f 2 0x4b 0xd'
WJCKLWWGVF0x20
WJCKLWWGVF 0
root@arm:~# echo 'UEKC''JBOFBF'
UEKCJBOFBF
root@arm:~# MARKER='FKZB''TAGYKX' run 'echo 1030000 1030000 > /sys/kernel/mva_tesst/regulators/buck1_set'
FKZBTAGYKXFKZBTAGYKX 0
root@arm:~# echo 'GSEE''SMABSC'
GSEESMABSC
root@arm:~# MARKER='MPXU''PUNSJE' run 'i2cget -y -f 2 0x4b 0xd'
MPXUPUNSJE0x21
MPXUPUNSJE 0
root@arm:~# echo 'VHST''MOTQSP'
VHSTMOTQSP
root@arm:~# MARKER='EAXP''LWHBWU' run 'echo 1040000 1040000 > /sys/kernel/mva_tesst/regulators/buck1_set'
EAXPLWHBWUEAXPLWHBWU 0
root@arm:~# echo 'GOAU''XFLNPB'
GOAUXFLNPB
root@arm:~# MARKER='ALWJ''FVZLJX' run 'i2cget -y -f 2 0x4b 0xd'
ALWJFVZLJX0x22
ALWJFVZLJX 0
root@arm:~# echo 'TGAC''XWELPA'
TGACXWELPA
root@arm:~# MARKER='HBAW''GTHPWW' run 'echo 1050000 1050000 > /sys/kernel/mva_tesst/regulators/buck1_set'
HBAWGTHPWWHBAWGTHPWW 0
root@arm:~# echo 'PBFA''ALPNXZ'
PBFAALPNXZ
root@arm:~# MARKER='MACU''EVWSCT' run 'i2cget -y -f 2 0x4b 0xd'
MACUEVWSCT0x23
MACUEVWSCT 0
root@arm:~# echo 'EUXA''PNFEVM'
EUXAPNFEVM
root@arm:~# MARKER='VHQN''OWSVMS' run 'echo 1060000 1060000 > /sys/kernel/mva_tesst/regulators/buck1_set'
VHQNOWSVMSVHQNOWSVMS 0
root@arm:~# echo 'JWPO''BLWYSW'
JWPOBLWYSW
root@arm:~# MARKER='ZQCH''GAOANF' run 'i2cget -y -f 2 0x4b 0xd'
ZQCHGAOANF0x24
ZQCHGAOANF 0
root@arm:~# echo 'XUCC''LSZWSG'
XUCCLSZWSG
root@arm:~# MARKER='NSEE''TMZHKN' run 'echo 1070000 1070000 > /sys/kernel/mva_tesst/regulators/buck1_set'
NSEETMZHKNNSEETMZHKN 0
root@arm:~# echo 'EEXP''MOCJBT'
EEXPMOCJBT
root@arm:~# MARKER='AABY''CJOSZG' run 'i2cget -y -f 2 0x4b 0xd'
AABYCJOSZG0x25
AABYCJOSZG 0
root@arm:~# echo 'BXNC''EOYCOQ'
BXNCEOYCOQ
root@arm:~# MARKER='ZVKE''PLXQHQ' run 'echo 1080000 1080000 > /sys/kernel/mva_tesst/regulators/buck1_set'
ZVKEPLXQHQZVKEPLXQHQ 0
root@arm:~# echo 'OFZS''WXSBXC'
OFZSWXSBXC
root@arm:~# MARKER='VQQJ''ZNTOZX' run 'i2cget -y -f 2 0x4b 0xd'
VQQJZNTOZX0x26
VQQJZNTOZX 0
root@arm:~# echo 'BKJO''CQFVBZ'
BKJOCQFVBZ
root@arm:~# MARKER='PYWK''QGWCUH' run 'echo 1090000 1090000 > /sys/kernel/mva_tesst/regulators/buck1_set'
PYWKQGWCUHPYWKQGWCUH 0
root@arm:~# echo 'BABU''MZSUYG'
BABUMZSUYG
root@arm:~# MARKER='OMLM''OASQAM' run 'i2cget -y -f 2 0x4b 0xd'
OMLMOASQAM0x27
OMLMOASQAM 0
root@arm:~# echo 'BFPQ''SPLKPP'
BFPQSPLKPP
root@arm:~# MARKER='XWVK''ATHCOX' run 'echo 1100000 1100000 > /sys/kernel/mva_tesst/regulators/buck1_set'
XWVKATHCOXXWVKATHCOX 0
root@arm:~# echo 'XHXJ''MWOAXJ'
XHXJMWOAXJ
root@arm:~# MARKER='OEVY''OWPPUC' run 'i2cget -y -f 2 0x4b 0xd'
OEVYOWPPUC0x28
OEVYOWPPUC 0
root@arm:~# echo 'ALVP''QTVZKV'
ALVPQTVZKV
root@arm:~# MARKER='MBOL''ACYNFQ' run 'echo 1110000 1110000 > /sys/kernel/mva_tesst/regulators/buck1_set'
MBOLACYNFQMBOLACYNFQ 0
root@arm:~# echo 'CCHJ''HMFSJC'
CCHJHMFSJC
root@arm:~# MARKER='AOQT''KKTWYS' run 'i2cget -y -f 2 0x4b 0xd'
AOQTKKTWYS0x29
AOQTKKTWYS 0
root@arm:~# echo 'LCPF''WUCQYH'
LCPFWUCQYH
root@arm:~# MARKER='NWPQ''FCCCBX' run 'echo 1120000 1120000 > /sys/kernel/mva_tesst/regulators/buck1_set'
NWPQFCCCBXNWPQFCCCBX 0
root@arm:~# echo 'AGQC''ANBCQN'
AGQCANBCQN
root@arm:~# MARKER='XJJF''MHXNMC' run 'i2cget -y -f 2 0x4b 0xd'
XJJFMHXNMC0x2a
XJJFMHXNMC 0
root@arm:~# echo 'CJWQ''UWLPQS'
CJWQUWLPQS
root@arm:~# MARKER='UFAW''OLUYLS' run 'echo 1130000 1130000 > /sys/kernel/mva_tesst/regulators/buck1_set'
UFAWOLUYLSUFAWOLUYLS 0
root@arm:~# echo 'PMQU''CHHBUU'
PMQUCHHBUU
root@arm:~# MARKER='QVAG''CYHZLO' run 'i2cget -y -f 2 0x4b 0xd'
QVAGCYHZLO0x2b
QVAGCYHZLO 0
root@arm:~# echo 'BNLS''WMBMQV'
BNLSWMBMQV
root@arm:~# MARKER='OXGL''BKUMHE' run 'echo 1140000 1140000 > /sys/kernel/mva_tesst/regulators/buck1_set'
OXGLBKUMHEOXGLBKUMHE 0
root@arm:~# echo 'JCTA''WPWOAC'
JCTAWPWOAC
root@arm:~# MARKER='CNHE''HJMAYO' run 'i2cget -y -f 2 0x4b 0xd'
CNHEHJMAYO0x2c
CNHEHJMAYO 0
root@arm:~# echo 'UYPP''UWNACZ'
UYPPUWNACZ
root@arm:~# MARKER='MLQC''LGXAXK' run 'echo 1150000 1150000 > /sys/kernel/mva_tesst/regulators/buck1_set'
MLQCLGXAXKMLQCLGXAXK 0
root@arm:~# echo 'AHMA''SZAUGF'
AHMASZAUGF
root@arm:~# MARKER='KAMK''NBNBMH' run 'i2cget -y -f 2 0x4b 0xd'
KAMKNBNBMH0x2d
KAMKNBNBMH 0
root@arm:~# echo 'GXYM''HJHCVC'
GXYMHJHCVC
root@arm:~# MARKER='BGEL''HJHVWQ' run 'echo 1160000 1160000 > /sys/kernel/mva_tesst/regulators/buck1_set'
BGELHJHVWQBGELHJHVWQ 0
root@arm:~# echo 'UMXY''XNYYCW'
UMXYXNYYCW
root@arm:~# MARKER='SMBO''XYYBNO' run 'i2cget -y -f 2 0x4b 0xd'
SMBOXYYBNO0x2e
SMBOXYYBNO 0
root@arm:~# echo 'CLHA''HUQGNC'
CLHAHUQGNC
root@arm:~# MARKER='GVOC''OAOEZT' run 'echo 1170000 1170000 > /sys/kernel/mva_tesst/regulators/buck1_set'
GVOCOAOEZTGVOCOAOEZT 0
root@arm:~# echo 'GUSK''TEKFBW'
GUSKTEKFBW
root@arm:~# MARKER='FHMS''OTALVK' run 'i2cget -y -f 2 0x4b 0xd'
FHMSOTALVK0x2f
FHMSOTALVK 0
root@arm:~# echo 'PCQO''STOPJF'
PCQOSTOPJF
root@arm:~# MARKER='WFVP''JSPMTH' run 'echo 1180000 1180000 > /sys/kernel/mva_tesst/regulators/buck1_set'
WFVPJSPMTHWFVPJSPMTH 0
root@arm:~# echo 'QGYQ''YLKFLQ'
QGYQYLKFLQ
root@arm:~# MARKER='NLHP''UPTJNZ' run 'i2cget -y -f 2 0x4b 0xd'
NLHPUPTJNZ0x30
NLHPUPTJNZ 0
root@arm:~# echo 'ZHGX''WOOFJV'
ZHGXWOOFJV
root@arm:~# MARKER='QCZG''EGKSJE' run 'echo 1190000 1190000 > /sys/kernel/mva_tesst/regulators/buck1_set'
QCZGEGKSJEQCZGEGKSJE 0
root@arm:~# echo 'ATTB''FGWJGP'
ATTBFGWJGP
root@arm:~# MARKER='MLXS''FOMNXN' run 'i2cget -y -f 2 0x4b 0xd'
MLXSFOMNXN0x31
MLXSFOMNXN 0
root@arm:~# echo 'KUJC''BNKMKQ'
KUJCBNKMKQ
root@arm:~# MARKER='GCJM''OVTSGU' run 'echo 1200000 1200000 > /sys/kernel/mva_tesst/regulators/buck1_set'
GCJMOVTSGUGCJMOVTSGU 0
root@arm:~# echo 'ZAYZ''LAMSPG'
ZAYZLAMSPG
root@arm:~# MARKER='QYYO''LFBHJG' run 'i2cget -y -f 2 0x4b 0xd'
QYYOLFBHJG0x32
QYYOLFBHJG 0
root@arm:~# echo 'YZPJ''MUOOGE'
YZPJMUOOGE
root@arm:~# MARKER='WKQN''MKYWEE' run 'echo 1210000 1210000 > /sys/kernel/mva_tesst/regulators/buck1_set'
WKQNMKYWEEWKQNMKYWEE 0
root@arm:~# echo 'LFMO''GVVNPN'
LFMOGVVNPN
root@arm:~# MARKER='MFTK''COEHUF' run 'i2cget -y -f 2 0x4b 0xd'
MFTKCOEHUF0x33
MFTKCOEHUF 0
root@arm:~# echo 'WLHV''PVOAEZ'
WLHVPVOAEZ
root@arm:~# MARKER='WBUS''BJTCJL' run 'echo 1220000 1220000 > /sys/kernel/mva_tesst/regulators/buck1_set'
WBUSBJTCJLWBUSBJTCJL 0
root@arm:~# echo 'JLCG''VHALSF'
JLCGVHALSF
root@arm:~# MARKER='FGMT''LECYOA' run 'i2cget -y -f 2 0x4b 0xd'
FGMTLECYOA0x34
FGMTLECYOA 0
root@arm:~# echo 'TJHP''YOWJAX'
TJHPYOWJAX
root@arm:~# MARKER='XQUO''ZSTZAO' run 'echo 1230000 1230000 > /sys/kernel/mva_tesst/regulators/buck1_set'
XQUOZSTZAOXQUOZSTZAO 0
root@arm:~# echo 'PFJV''FLSHGM'
PFJVFLSHGM
root@arm:~# MARKER='MHYA''YWCYUH' run 'i2cget -y -f 2 0x4b 0xd'
MHYAYWCYUH0x35
MHYAYWCYUH 0
root@arm:~# echo 'VKSF''LPOJSY'
VKSFLPOJSY
root@arm:~# MARKER='NEJL''WUHAMO' run 'echo 1240000 1240000 > /sys/kernel/mva_tesst/regulators/buck1_set'
NEJLWUHAMONEJLWUHAMO 0
root@arm:~# echo 'NMGZ''SJQJWX'
NMGZSJQJWX
root@arm:~# MARKER='OJGB''CAVCSU' run 'i2cget -y -f 2 0x4b 0xd'
OJGBCAVCSU0x36
OJGBCAVCSU 0
root@arm:~# echo 'EFJY''HKCZGV'
EFJYHKCZGV
root@arm:~# MARKER='XPGK''GCSLTK' run 'echo 1250000 1250000 > /sys/kernel/mva_tesst/regulators/buck1_set'
XPGKGCSLTKXPGKGCSLTK 0
root@arm:~# echo 'VTQY''PKXMVK'
VTQYPKXMVK
root@arm:~# MARKER='JMNY''ZQESPW' run 'i2cget -y -f 2 0x4b 0xd'
JMNYZQESPW0x37
JMNYZQESPW 0
root@arm:~# echo 'BMLT''YBVBTP'
BMLTYBVBTP
root@arm:~# MARKER='YCTP''MAXTGF' run 'echo 1260000 1260000 > /sys/kernel/mva_tesst/regulators/buck1_set'
YCTPMAXTGFYCTPMAXTGF 0
root@arm:~# echo 'SOWQ''VLTLLT'
SOWQVLTLLT
root@arm:~# MARKER='AUKM''JBVTCT' run 'i2cget -y -f 2 0x4b 0xd'
AUKMJBVTCT0x38
AUKMJBVTCT 0
root@arm:~# echo 'TAVN''WGMSLK'
TAVNWGMSLK
root@arm:~# MARKER='YYPJ''UCUZOW' run 'echo 1270000 1270000 > /sys/kernel/mva_tesst/regulators/buck1_set'
YYPJUCUZOWYYPJUCUZOW 0
root@arm:~# echo 'OCOC''XEAXSG'
OCOCXEAXSG
root@arm:~# MARKER='ABEO''TETJYJ' run 'i2cget -y -f 2 0x4b 0xd'
ABEOTETJYJ0x39
ABEOTETJYJ 0
root@arm:~# echo 'PATN''SSMTGO'
PATNSSMTGO
root@arm:~# MARKER='LBQA''CFBPBB' run 'echo 1280000 1280000 > /sys/kernel/mva_tesst/regulators/buck1_set'
LBQACFBPBBLBQACFBPBB 0
root@arm:~# echo 'ETPP''AFEOYT'
ETPPAFEOYT
root@arm:~# MARKER='GCXY''TFCXGH' run 'i2cget -y -f 2 0x4b 0xd'
GCXYTFCXGH0x3a
GCXYTFCXGH 0
root@arm:~# echo 'UPFG''COKFFV'
UPFGCOKFFV
root@arm:~# MARKER='UZTO''MFPFCN' run 'echo 1290000 1290000 > /sys/kernel/mva_tesst/regulators/buck1_set'
UZTOMFPFCNUZTOMFPFCN 0
root@arm:~# echo 'JSNW''PETXAH'
JSNWPETXAH
root@arm:~# MARKER='BBNS''ACKECQ' run 'i2cget -y -f 2 0x4b 0xd'
BBNSACKECQ0x3b
BBNSACKECQ 0
root@arm:~# echo 'PCSW''XMSPVG'
PCSWXMSPVG
root@arm:~# MARKER='POXW''YKKFSN' run 'echo 1300000 1300000 > /sys/kernel/mva_tesst/regulators/buck1_set'
POXWYKKFSNPOXWYKKFSN 0
root@arm:~# echo 'YMVO''PLWVKF'
YMVOPLWVKF
root@arm:~# MARKER='GWWT''JPNJHW' run 'i2cget -y -f 2 0x4b 0xd'
GWWTJPNJHW0x3c
GWWTJPNJHW 0
root@arm:~# echo 'HBUB''HWEYKX'
HBUBHWEYKX
root@arm:~# MARKER='TJQZ''NZGULH' run 'grep -r -l rohm,bd71837 /proc/device-tree  | sed '"'"'s![^/]*$!!'"'"''
TJQZNZGULH/proc/device-tree/ocp/interconnect@48000000/segment@100000/target-module@9c000/i2c@0/pmic@4b/
TJQZNZGULH 0
root@arm:~# echo 'AEGX''YAKQHV'
AEGXYAKQHV
root@arm:~# MARKER='NQJK''VPOENS' run 'test -f /proc/device-tree/ocp/interconnectt\@48000000/segment\@100000/target-module\@9c000/i2c\@0/pmic\@4b/regulators/BUCK 2/rohm,no-regulator-enable-control ;echo $?'
NQJKVPOENS1
NQJKVPOENS 0
root@arm:~# echo 'CVEK''JFBFUL'
CVEKJFBFUL
root@arm:~# MARKER='KEYV''VLKVKS' run 'i2cget -y -f 2 0x4b 0x6'
KEYVVLKVKS0x43
KEYVVLKVKS 0
root@arm:~# echo 'ZEWC''PVPBLU'
ZEWCPVPBLU
root@arm:~# MARKER='ECXC''KWHYVW' run 'echo 700000 700000 > /sys/kernel/mva_test//regulators/buck2_set'
ECXCKWHYVWECXCKWHYVW 0
root@arm:~# echo 'FNPX''UHLNTC'
FNPXUHLNTC
root@arm:~# MARKER='MSKJ''WWMATM' run 'i2cget -y -f 2 0x4b 0x10'
MSKJWWMATM0x00
MSKJWWMATM 0
root@arm:~# echo 'SFNY''FZQFXW'
SFNYFZQFXW
root@arm:~# MARKER='GZYZ''KPZBLC' run 'echo 710000 710000 > /sys/kernel/mva_test//regulators/buck2_set'
GZYZKPZBLCGZYZKPZBLC 0
root@arm:~# echo 'AVJT''BSXMSW'
AVJTBSXMSW
root@arm:~# MARKER='HMKO''JHZHVC' run 'i2cget -y -f 2 0x4b 0x10'
HMKOJHZHVC0x01
HMKOJHZHVC 0
root@arm:~# echo 'XWMB''MNAUFK'
XWMBMNAUFK
root@arm:~# MARKER='HKLH''TSPCUJ' run 'echo 720000 720000 > /sys/kernel/mva_test//regulators/buck2_set'
HKLHTSPCUJHKLHTSPCUJ 0
root@arm:~# echo 'SBVL''KJMLHL'
SBVLKJMLHL
root@arm:~# MARKER='ZQHZ''VFLFHG' run 'i2cget -y -f 2 0x4b 0x10'
ZQHZVFLFHG0x02
ZQHZVFLFHG 0
root@arm:~# echo 'YLWS''WOFQLS'
YLWSWOFQLS
root@arm:~# MARKER='EYSY''LGFHWU' run 'echo 730000 730000 > /sys/kernel/mva_test//regulators/buck2_set'
EYSYLGFHWUEYSYLGFHWU 0
root@arm:~# echo 'HLUB''GBBAZX'
HLUBGBBAZX
root@arm:~# MARKER='KQWE''PVJUTF' run 'i2cget -y -f 2 0x4b 0x10'
KQWEPVJUTF0x03
KQWEPVJUTF 0
root@arm:~# echo 'ZBLN''KNANFY'
ZBLNKNANFY
root@arm:~# MARKER='UJPP''NOHMXQ' run 'echo 740000 740000 > /sys/kernel/mva_test//regulators/buck2_set'
UJPPNOHMXQUJPPNOHMXQ 0
root@arm:~# echo 'FPEB''FJWOTA'
FPEBFJWOTA
root@arm:~# MARKER='THQN''QTSCBG' run 'i2cget -y -f 2 0x4b 0x10'
THQNQTSCBG0x04
THQNQTSCBG 0
root@arm:~# echo 'FHVF''KMEZCX'
FHVFKMEZCX
root@arm:~# MARKER='CWXZ''GHNEMN' run 'echo 750000 750000 > /sys/kernel/mva_test//regulators/buck2_set'
CWXZGHNEMNCWXZGHNEMN 0
root@arm:~# echo 'BYYH''BXGUFS'
BYYHBXGUFS
root@arm:~# MARKER='YOPB''MUOLZJ' run 'i2cget -y -f 2 0x4b 0x10'
YOPBMUOLZJ0x05
YOPBMUOLZJ 0
root@arm:~# echo 'QSHN''YZQCUE'
QSHNYZQCUE
root@arm:~# MARKER='UGZZ''TFUJKG' run 'echo 760000 760000 > /sys/kernel/mva_test//regulators/buck2_set'
UGZZTFUJKGUGZZTFUJKG 0
root@arm:~# echo 'QMYU''LETAOP'
QMYULETAOP
root@arm:~# MARKER='NGTQ''VYMXYW' run 'i2cget -y -f 2 0x4b 0x10'
NGTQVYMXYW0x06
NGTQVYMXYW 0
root@arm:~# echo 'BSYP''OFPQOT'
BSYPOFPQOT
root@arm:~# MARKER='SJGF''JSGMLP' run 'echo 770000 770000 > /sys/kernel/mva_test//regulators/buck2_set'
SJGFJSGMLPSJGFJSGMLP 0
root@arm:~# echo 'APOT''HTBMVH'
APOTHTBMVH
root@arm:~# MARKER='QCQJ''KMSWUP' run 'i2cget -y -f 2 0x4b 0x10'
QCQJKMSWUP0x07
QCQJKMSWUP 0
root@arm:~# echo 'XBQY''XWBABX'
XBQYXWBABX
root@arm:~# MARKER='LUOQ''MMFKFV' run 'echo 780000 780000 > /sys/kernel/mva_test//regulators/buck2_set'
LUOQMMFKFVLUOQMMFKFV 0
root@arm:~# echo 'EEMY''TCZNWQ'
EEMYTCZNWQ
root@arm:~# MARKER='CTFM''EMMPKG' run 'i2cget -y -f 2 0x4b 0x10'
CTFMEMMPKG0x08
CTFMEMMPKG 0
root@arm:~# echo 'MJVF''YLCGPQ'
MJVFYLCGPQ
root@arm:~# MARKER='VPNV''JPJMKJ' run 'echo 790000 790000 > /sys/kernel/mva_test//regulators/buck2_set'
VPNVJPJMKJVPNVJPJMKJ 0
root@arm:~# echo 'SQQO''SSBSWK'
SQQOSSBSWK
root@arm:~# MARKER='NHYS''ZKGUNP' run 'i2cget -y -f 2 0x4b 0x10'
NHYSZKGUNP0x09
NHYSZKGUNP 0
root@arm:~# echo 'XZLV''LHJLPY'
XZLVLHJLPY
root@arm:~# MARKER='CHUQ''EFYBGM' run 'echo 800000 800000 > /sys/kernel/mva_test//regulators/buck2_set'
CHUQEFYBGMCHUQEFYBGM 0
root@arm:~# echo 'LGYP''MFGVEV'
LGYPMFGVEV
root@arm:~# MARKER='MZHE''LWYLYZ' run 'i2cget -y -f 2 0x4b 0x10'
MZHELWYLYZ0x0a
MZHELWYLYZ 0
root@arm:~# echo 'PVSV''AQJSSK'
PVSVAQJSSK
root@arm:~# MARKER='AQST''VJSPBP' run 'echo 810000 810000 > /sys/kernel/mva_test//regulators/buck2_set'
AQSTVJSPBPAQSTVJSPBP 0
root@arm:~# echo 'SHKF''FMUOGE'
SHKFFMUOGE
root@arm:~# MARKER='UJFC''XYTZTF' run 'i2cget -y -f 2 0x4b 0x10'
UJFCXYTZTF0x0b
UJFCXYTZTF 0
root@arm:~# echo 'ONAZ''HYJUQG'
ONAZHYJUQG
root@arm:~# MARKER='HXEE''NNUSWF' run 'echo 820000 820000 > /sys/kernel/mva_test//regulators/buck2_set'
HXEENNUSWFHXEENNUSWF 0
root@arm:~# echo 'LAWS''MSXBCK'
LAWSMSXBCK
root@arm:~# MARKER='XNUJ''ZQYHUJ' run 'i2cget -y -f 2 0x4b 0x10'
XNUJZQYHUJ0x0c
XNUJZQYHUJ 0
root@arm:~# echo 'PSKO''WKKZTW'
PSKOWKKZTW
root@arm:~# MARKER='ALXS''FSHUUX' run 'echo 830000 830000 > /sys/kernel/mva_test//regulators/buck2_set'
ALXSFSHUUXALXSFSHUUX 0
root@arm:~# echo 'QYPY''CELMBM'
QYPYCELMBM
root@arm:~# MARKER='EHPZ''JQVGFE' run 'i2cget -y -f 2 0x4b 0x10'
EHPZJQVGFE0x0d
EHPZJQVGFE 0
root@arm:~# echo 'PFZF''KECTHP'
PFZFKECTHP
root@arm:~# MARKER='HEGU''UGBKMY' run 'echo 840000 840000 > /sys/kernel/mva_test//regulators/buck2_set'
HEGUUGBKMYHEGUUGBKMY 0
root@arm:~# echo 'QLSY''HNKPCC'
QLSYHNKPCC
root@arm:~# MARKER='MAOH''ZVOPKX' run 'i2cget -y -f 2 0x4b 0x10'
MAOHZVOPKX0x0e
MAOHZVOPKX 0
root@arm:~# echo 'BSGU''QXLKFU'
BSGUQXLKFU
root@arm:~# MARKER='ZVKP''ZKYFWU' run 'echo 850000 850000 > /sys/kernel/mva_test//regulators/buck2_set'
ZVKPZKYFWUZVKPZKYFWU 0
root@arm:~# echo 'ATVW''WKEOOL'
ATVWWKEOOL
root@arm:~# MARKER='MZLO''LOXAQH' run 'i2cget -y -f 2 0x4b 0x10'
MZLOLOXAQH0x0f
MZLOLOXAQH 0
root@arm:~# echo 'NPYM''POBJJO'
NPYMPOBJJO
root@arm:~# MARKER='PJBH''MPJEPF' run 'echo 860000 860000 > /sys/kernel/mva_test//regulators/buck2_set'
PJBHMPJEPFPJBHMPJEPF 0
root@arm:~# echo 'YNKO''XGOVKF'
YNKOXGOVKF
root@arm:~# MARKER='HKGH''MEUTYS' run 'i2cget -y -f 2 0x4b 0x10'
HKGHMEUTYS0x10
HKGHMEUTYS 0
root@arm:~# echo 'BLOC''XVQUZM'
BLOCXVQUZM
root@arm:~# MARKER='PBZT''JFVFEC' run 'echo 870000 870000 > /sys/kernel/mva_test//regulators/buck2_set'
PBZTJFVFECPBZTJFVFEC 0
root@arm:~# echo 'MLLN''YGHQOY'
MLLNYGHQOY
root@arm:~# MARKER='XSMH''WMSYFH' run 'i2cget -y -f 2 0x4b 0x10'
XSMHWMSYFH0x11
XSMHWMSYFH 0
root@arm:~# echo 'NGYT''MJMBUL'
NGYTMJMBUL
root@arm:~# MARKER='CJQZ''JVXNGO' run 'echo 880000 880000 > /sys/kernel/mva_test//regulators/buck2_set'
CJQZJVXNGOCJQZJVXNGO 0
root@arm:~# echo 'NWKQ''WJYOZU'
NWKQWJYOZU
root@arm:~# MARKER='PJTW''XYPYZM' run 'i2cget -y -f 2 0x4b 0x10'
PJTWXYPYZM0x12
PJTWXYPYZM 0
root@arm:~# echo 'FNOU''SFKWUO'
FNOUSFKWUO
root@arm:~# MARKER='FASH''BOPQZW' run 'echo 890000 890000 > /sys/kernel/mva_test//regulators/buck2_set'
FASHBOPQZWFASHBOPQZW 0
root@arm:~# echo 'GGTJ''HFHAWA'
GGTJHFHAWA
root@arm:~# MARKER='HULC''PAHOES' run 'i2cget -y -f 2 0x4b 0x10'
HULCPAHOES0x13
HULCPAHOES 0
root@arm:~# echo 'AFEV''ZKOFSE'
AFEVZKOFSE
root@arm:~# MARKER='TGAU''HSKCCO' run 'echo 900000 900000 > /sys/kernel/mva_test//regulators/buck2_set'
TGAUHSKCCOTGAUHSKCCO 0
root@arm:~# echo 'XVFC''WKEOYG'
XVFCWKEOYG
root@arm:~# MARKER='SLQM''KXOXHA' run 'i2cget -y -f 2 0x4b 0x10'
SLQMKXOXHA0x14
SLQMKXOXHA 0
root@arm:~# echo 'HOQN''FPBWSJ'
HOQNFPBWSJ
root@arm:~# MARKER='GWPZ''YLETYG' run 'echo 910000 910000 > /sys/kernel/mva_test//regulators/buck2_set'
GWPZYLETYGGWPZYLETYG 0
root@arm:~# echo 'YKTJ''CJKFJS'
YKTJCJKFJS
root@arm:~# MARKER='GFWX''TMZCTO' run 'i2cget -y -f 2 0x4b 0x10'
GFWXTMZCTO0x15
GFWXTMZCTO 0
root@arm:~# echo 'OZGY''AJTMMG'
OZGYAJTMMG
root@arm:~# MARKER='NEBN''LNSXXN' run 'echo 920000 920000 > /sys/kernel/mva_test//regulators/buck2_set'
NEBNLNSXXNNEBNLNSXXN 0
root@arm:~# echo 'XBJT''ONCZEE'
XBJTONCZEE
root@arm:~# MARKER='JZZT''BBJUGP' run 'i2cget -y -f 2 0x4b 0x10'
JZZTBBJUGP0x16
JZZTBBJUGP 0
root@arm:~# echo 'SXME''SCGQLA'
SXMESCGQLA
root@arm:~# MARKER='FNKW''OABYTC' run 'echo 930000 930000 > /sys/kernel/mva_test//regulators/buck2_set'
FNKWOABYTCFNKWOABYTC 0
root@arm:~# echo 'GAGJ''QHFPUZ'
GAGJQHFPUZ
root@arm:~# MARKER='UHGQ''NKYWJW' run 'i2cget -y -f 2 0x4b 0x10'
UHGQNKYWJW0x17
UHGQNKYWJW 0
root@arm:~# echo 'NALX''KTKFFX'
NALXKTKFFX
root@arm:~# MARKER='AJQY''WSALJQ' run 'echo 940000 940000 > /sys/kernel/mva_test//regulators/buck2_set'
AJQYWSALJQAJQYWSALJQ 0
root@arm:~# echo 'KPCJ''FPQLVZ'
KPCJFPQLVZ
root@arm:~# MARKER='EKOE''GECMVE' run 'i2cget -y -f 2 0x4b 0x10'
EKOEGECMVE0x18
EKOEGECMVE 0
root@arm:~# echo 'PUCZ''JGQYSF'
PUCZJGQYSF
root@arm:~# MARKER='JACJ''CTQHHK' run 'echo 950000 950000 > /sys/kernel/mva_test//regulators/buck2_set'
JACJCTQHHKJACJCTQHHK 0
root@arm:~# echo 'GKEP''ULUKQU'
GKEPULUKQU
root@arm:~# MARKER='SQWF''PUWSPA' run 'i2cget -y -f 2 0x4b 0x10'
SQWFPUWSPA0x19
SQWFPUWSPA 0
root@arm:~# echo 'VZQX''TTNHWX'
VZQXTTNHWX
root@arm:~# MARKER='OTCB''PMNBUB' run 'echo 960000 960000 > /sys/kernel/mva_test//regulators/buck2_set'
OTCBPMNBUBOTCBPMNBUB 0
root@arm:~# echo 'FQJC''ECQVWJ'
FQJCECQVWJ
root@arm:~# MARKER='KFFJ''MSVPTX' run 'i2cget -y -f 2 0x4b 0x10'
KFFJMSVPTX0x1a
KFFJMSVPTX 0
root@arm:~# echo 'XEZW''PPNWCL'
XEZWPPNWCL
root@arm:~# MARKER='SYTE''KKQTXE' run 'echo 970000 970000 > /sys/kernel/mva_test//regulators/buck2_set'
SYTEKKQTXESYTEKKQTXE 0
root@arm:~# echo 'CFHU''GNJUNV'
CFHUGNJUNV
root@arm:~# MARKER='WHTS''EESVBU' run 'i2cget -y -f 2 0x4b 0x10'
WHTSEESVBU0x1b
WHTSEESVBU 0
root@arm:~# echo 'XUNB''QYCVTW'
XUNBQYCVTW
root@arm:~# MARKER='CXSK''EOUWPF' run 'echo 980000 980000 > /sys/kernel/mva_test//regulators/buck2_set'
CXSKEOUWPFCXSKEOUWPF 0
root@arm:~# echo 'CLVS''NVYSWY'
CLVSNVYSWY
root@arm:~# MARKER='OSJG''KGOYXA' run 'i2cget -y -f 2 0x4b 0x10'
OSJGKGOYXA0x1c
OSJGKGOYXA 0
root@arm:~# echo 'ECUO''HAOWZL'
ECUOHAOWZL
root@arm:~# MARKER='AXWT''WXFCOJ' run 'echo 990000 990000 > /sys/kernel/mva_test//regulators/buck2_set'
AXWTWXFCOJAXWTWXFCOJ 0
root@arm:~# echo 'EWAW''XPUJKA'
EWAWXPUJKA
root@arm:~# MARKER='ZTHL''JVXOJJ' run 'i2cget -y -f 2 0x4b 0x10'
ZTHLJVXOJJ0x1d
ZTHLJVXOJJ 0
root@arm:~# echo 'BSUS''JYWOGF'
BSUSJYWOGF
root@arm:~# MARKER='VULG''QMHAKT' run 'echo 1000000 1000000 > /sys/kernel/mva_tesst/regulators/buck2_set'
VULGQMHAKTVULGQMHAKT 0
root@arm:~# echo 'EMET''YLHGKP'
EMETYLHGKP
root@arm:~# MARKER='WGNP''NPLHAK' run 'i2cget -y -f 2 0x4b 0x10'
WGNPNPLHAK0x1e
WGNPNPLHAK 0
root@arm:~# echo 'EKGF''UKYWVA'
EKGFUKYWVA
root@arm:~# MARKER='VUTF''MVVHHY' run 'echo 1010000 1010000 > /sys/kernel/mva_tesst/regulators/buck2_set'
VUTFMVVHHYVUTFMVVHHY 0
root@arm:~# echo 'QGPF''LONXJE'
QGPFLONXJE
root@arm:~# MARKER='NHVQ''OZHOEA' run 'i2cget -y -f 2 0x4b 0x10'
NHVQOZHOEA0x1f
NHVQOZHOEA 0
root@arm:~# echo 'VJMO''MPSZLM'
VJMOMPSZLM
root@arm:~# MARKER='JPBF''WCQFTE' run 'echo 1020000 1020000 > /sys/kernel/mva_tesst/regulators/buck2_set'
JPBFWCQFTEJPBFWCQFTE 0
root@arm:~# echo 'KWJG''MPVVGH'
KWJGMPVVGH
root@arm:~# MARKER='VHWO''YTZKNK' run 'i2cget -y -f 2 0x4b 0x10'
VHWOYTZKNK0x20
VHWOYTZKNK 0
root@arm:~# echo 'PNSQ''QGOLQV'
PNSQQGOLQV
root@arm:~# MARKER='MXMV''HYLWKU' run 'echo 1030000 1030000 > /sys/kernel/mva_tesst/regulators/buck2_set'
MXMVHYLWKUMXMVHYLWKU 0
root@arm:~# echo 'AVPS''ACNVWU'
AVPSACNVWU
root@arm:~# MARKER='TPSS''EAWEMY' run 'i2cget -y -f 2 0x4b 0x10'
TPSSEAWEMY0x21
TPSSEAWEMY 0
root@arm:~# echo 'JLFZ''KCXZLX'
JLFZKCXZLX
root@arm:~# MARKER='SQHT''NFMLSN' run 'echo 1040000 1040000 > /sys/kernel/mva_tesst/regulators/buck2_set'
SQHTNFMLSNSQHTNFMLSN 0
root@arm:~# echo 'JJWU''BZLHJN'
JJWUBZLHJN
root@arm:~# MARKER='ZMEE''STNSFA' run 'i2cget -y -f 2 0x4b 0x10'
ZMEESTNSFA0x22
ZMEESTNSFA 0
root@arm:~# echo 'WLKN''XEUJJM'
WLKNXEUJJM
root@arm:~# MARKER='XTOQ''VPZKCK' run 'echo 1050000 1050000 > /sys/kernel/mva_tesst/regulators/buck2_set'
XTOQVPZKCKXTOQVPZKCK 0
root@arm:~# echo 'FJUY''VFCAJN'
FJUYVFCAJN
root@arm:~# MARKER='JWHE''MACSQT' run 'i2cget -y -f 2 0x4b 0x10'
JWHEMACSQT0x23
JWHEMACSQT 0
root@arm:~# echo 'KLHJ''OZHYYE'
KLHJOZHYYE
root@arm:~# MARKER='GWWV''FWZWNQ' run 'echo 1060000 1060000 > /sys/kernel/mva_tesst/regulators/buck2_set'
GWWVFWZWNQGWWVFWZWNQ 0
root@arm:~# echo 'XBZW''HUAQYT'
XBZWHUAQYT
root@arm:~# MARKER='UOOP''KUTQNJ' run 'i2cget -y -f 2 0x4b 0x10'
UOOPKUTQNJ0x24
UOOPKUTQNJ 0
root@arm:~# echo 'FKTO''THLQJB'
FKTOTHLQJB
root@arm:~# MARKER='OCOH''QUYZOV' run 'echo 1070000 1070000 > /sys/kernel/mva_tesst/regulators/buck2_set'
OCOHQUYZOVOCOHQUYZOV 0
root@arm:~# echo 'MGXX''AQMKXC'
MGXXAQMKXC
root@arm:~# MARKER='VLSM''FAVMQB' run 'i2cget -y -f 2 0x4b 0x10'
VLSMFAVMQB0x25
VLSMFAVMQB 0
root@arm:~# echo 'XUSO''AJJFTX'
XUSOAJJFTX
root@arm:~# MARKER='YZCH''PUFQWX' run 'echo 1080000 1080000 > /sys/kernel/mva_tesst/regulators/buck2_set'
YZCHPUFQWXYZCHPUFQWX 0
root@arm:~# echo 'FHNB''MZASWU'
FHNBMZASWU
root@arm:~# MARKER='QSVT''ESTMPU' run 'i2cget -y -f 2 0x4b 0x10'
QSVTESTMPU0x26
QSVTESTMPU 0
root@arm:~# echo 'AOZW''CTFQZZ'
AOZWCTFQZZ
root@arm:~# MARKER='KGLQ''NHUTTO' run 'echo 1090000 1090000 > /sys/kernel/mva_tesst/regulators/buck2_set'
KGLQNHUTTOKGLQNHUTTO 0
root@arm:~# echo 'MAKB''WHZEQQ'
MAKBWHZEQQ
root@arm:~# MARKER='JQOS''UPBQNO' run 'i2cget -y -f 2 0x4b 0x10'
JQOSUPBQNO0x27
JQOSUPBQNO 0
root@arm:~# echo 'FVCS''QPZQQK'
FVCSQPZQQK
root@arm:~# MARKER='UEBA''XVLYES' run 'echo 1100000 1100000 > /sys/kernel/mva_tesst/regulators/buck2_set'
UEBAXVLYESUEBAXVLYES 0
root@arm:~# echo 'ZOGW''CQVGWS'
ZOGWCQVGWS
root@arm:~# MARKER='MVOL''VWUVLS' run 'i2cget -y -f 2 0x4b 0x10'
MVOLVWUVLS0x28
MVOLVWUVLS 0
root@arm:~# echo 'CZTF''TFLQVE'
CZTFTFLQVE
root@arm:~# MARKER='FCQX''BTPPTC' run 'echo 1110000 1110000 > /sys/kernel/mva_tesst/regulators/buck2_set'
FCQXBTPPTCFCQXBTPPTC 0
root@arm:~# echo 'EUWW''TTHNTL'
EUWWTTHNTL
root@arm:~# MARKER='ZWKJ''AFJBLC' run 'i2cget -y -f 2 0x4b 0x10'
ZWKJAFJBLC0x29
ZWKJAFJBLC 0
root@arm:~# echo 'HHWZ''XYYWWG'
HHWZXYYWWG
root@arm:~# MARKER='CSOC''SAEACP' run 'echo 1120000 1120000 > /sys/kernel/mva_tesst/regulators/buck2_set'
CSOCSAEACPCSOCSAEACP 0
root@arm:~# echo 'UUEK''PMMFEH'
UUEKPMMFEH
root@arm:~# MARKER='VXBB''PLHYWA' run 'i2cget -y -f 2 0x4b 0x10'
VXBBPLHYWA0x2a
VXBBPLHYWA 0
root@arm:~# echo 'GXHG''HWYGJO'
GXHGHWYGJO
root@arm:~# MARKER='YPKZ''ZNJEHY' run 'echo 1130000 1130000 > /sys/kernel/mva_tesst/regulators/buck2_set'
YPKZZNJEHYYPKZZNJEHY 0
root@arm:~# echo 'KQYH''MQQVML'
KQYHMQQVML
root@arm:~# MARKER='NWWS''CGQZJM' run 'i2cget -y -f 2 0x4b 0x10'
NWWSCGQZJM0x2b
NWWSCGQZJM 0
root@arm:~# echo 'XVPC''SHZHAB'
XVPCSHZHAB
root@arm:~# MARKER='BPNW''AALSWB' run 'echo 1140000 1140000 > /sys/kernel/mva_tesst/regulators/buck2_set'
BPNWAALSWBBPNWAALSWB 0
root@arm:~# echo 'ETFW''AOPEBV'
ETFWAOPEBV
root@arm:~# MARKER='KQOA''BUAQNY' run 'i2cget -y -f 2 0x4b 0x10'
KQOABUAQNY0x2c
KQOABUAQNY 0
root@arm:~# echo 'CZHN''FLUTZL'
CZHNFLUTZL
root@arm:~# MARKER='KBLW''HPJVMN' run 'echo 1150000 1150000 > /sys/kernel/mva_tesst/regulators/buck2_set'
KBLWHPJVMNKBLWHPJVMN 0
root@arm:~# echo 'VLAW''VAOAEF'
VLAWVAOAEF
root@arm:~# MARKER='PSXK''NYPKFG' run 'i2cget -y -f 2 0x4b 0x10'
PSXKNYPKFG0x2d
PSXKNYPKFG 0
root@arm:~# echo 'XBZN''PEHUJM'
XBZNPEHUJM
root@arm:~# MARKER='NJPS''JNMXOA' run 'echo 1160000 1160000 > /sys/kernel/mva_tesst/regulators/buck2_set'
NJPSJNMXOANJPSJNMXOA 0
root@arm:~# echo 'OXUH''UOQYBJ'
OXUHUOQYBJ
root@arm:~# MARKER='VJOL''GQLJSJ' run 'i2cget -y -f 2 0x4b 0x10'
VJOLGQLJSJ0x2e
VJOLGQLJSJ 0
root@arm:~# echo 'MYEC''WFXHMT'
MYECWFXHMT
root@arm:~# MARKER='BFMG''FPSMAS' run 'echo 1170000 1170000 > /sys/kernel/mva_tesst/regulators/buck2_set'
BFMGFPSMASBFMGFPSMAS 0
root@arm:~# echo 'NUCZ''XHGQES'
NUCZXHGQES
root@arm:~# MARKER='BTSH''GGKTWQ' run 'i2cget -y -f 2 0x4b 0x10'
BTSHGGKTWQ0x2f
BTSHGGKTWQ 0
root@arm:~# echo 'JWAM''HNOJXA'
JWAMHNOJXA
root@arm:~# MARKER='NXVA''LTEBMA' run 'echo 1180000 1180000 > /sys/kernel/mva_tesst/regulators/buck2_set'
NXVALTEBMANXVALTEBMA 0
root@arm:~# echo 'KLQE''YUBELS'
KLQEYUBELS
root@arm:~# MARKER='XUTG''YNUOEV' run 'i2cget -y -f 2 0x4b 0x10'
XUTGYNUOEV0x30
XUTGYNUOEV 0
root@arm:~# echo 'NHWS''UTLWPZ'
NHWSUTLWPZ
root@arm:~# MARKER='SCTC''BNPYNG' run 'echo 1190000 1190000 > /sys/kernel/mva_tesst/regulators/buck2_set'
SCTCBNPYNGSCTCBNPYNG 0
root@arm:~# echo 'EXJH''AFYFEU'
EXJHAFYFEU
root@arm:~# MARKER='TKSV''CHYOZB' run 'i2cget -y -f 2 0x4b 0x10'
TKSVCHYOZB0x31
TKSVCHYOZB 0
root@arm:~# echo 'EEEW''FMFFGM'
EEEWFMFFGM
root@arm:~# MARKER='MBFZ''WWGLFE' run 'echo 1200000 1200000 > /sys/kernel/mva_tesst/regulators/buck2_set'
MBFZWWGLFEMBFZWWGLFE 0
root@arm:~# echo 'PTOC''XFJUZP'
PTOCXFJUZP
root@arm:~# MARKER='LGMG''MBCGGP' run 'i2cget -y -f 2 0x4b 0x10'
LGMGMBCGGP0x32
LGMGMBCGGP 0
root@arm:~# echo 'WSPV''AZXNCA'
WSPVAZXNCA
root@arm:~# MARKER='GMFM''MXWXFO' run 'echo 1210000 1210000 > /sys/kernel/mva_tesst/regulators/buck2_set'
GMFMMXWXFOGMFMMXWXFO 0
root@arm:~# echo 'LJEC''YTAXZN'
LJECYTAXZN
root@arm:~# MARKER='QQNW''MBYWZQ' run 'i2cget -y -f 2 0x4b 0x10'
QQNWMBYWZQ0x33
QQNWMBYWZQ 0
root@arm:~# echo 'YSCC''OEFTJX'
YSCCOEFTJX
root@arm:~# MARKER='NGKF''NBBUOH' run 'echo 1220000 1220000 > /sys/kernel/mva_tesst/regulators/buck2_set'
NGKFNBBUOHNGKFNBBUOH 0
root@arm:~# echo 'XQGJ''UUWQME'
XQGJUUWQME
root@arm:~# MARKER='JZUX''CFZLAZ' run 'i2cget -y -f 2 0x4b 0x10'
JZUXCFZLAZ0x34
JZUXCFZLAZ 0
root@arm:~# echo 'XBNL''QZETAP'
XBNLQZETAP
root@arm:~# MARKER='GHZO''LHLLBN' run 'echo 1230000 1230000 > /sys/kernel/mva_tesst/regulators/buck2_set'
GHZOLHLLBNGHZOLHLLBN 0
root@arm:~# echo 'WCZL''NAFZGQ'
WCZLNAFZGQ
root@arm:~# MARKER='LWJU''EATFTV' run 'i2cget -y -f 2 0x4b 0x10'
LWJUEATFTV0x35
LWJUEATFTV 0
root@arm:~# echo 'BJSX''VVEEXM'
BJSXVVEEXM
root@arm:~# MARKER='FLEX''UJKLXL' run 'echo 1240000 1240000 > /sys/kernel/mva_tesst/regulators/buck2_set'
FLEXUJKLXLFLEXUJKLXL 0
root@arm:~# echo 'LUOA''FMCSTG'
LUOAFMCSTG
root@arm:~# MARKER='NKPC''KQTQCU' run 'i2cget -y -f 2 0x4b 0x10'
NKPCKQTQCU0x36
NKPCKQTQCU 0
root@arm:~# echo 'KKUU''PJHFPG'
KKUUPJHFPG
root@arm:~# MARKER='VPVE''CPKSLJ' run 'echo 1250000 1250000 > /sys/kernel/mva_tesst/regulators/buck2_set'
VPVECPKSLJVPVECPKSLJ 0
root@arm:~# echo 'HESL''JEUOVK'
HESLJEUOVK
root@arm:~# MARKER='ZOTU''MJAKAC' run 'i2cget -y -f 2 0x4b 0x10'
ZOTUMJAKAC0x37
ZOTUMJAKAC 0
root@arm:~# echo 'JANC''FOPNFV'
JANCFOPNFV
root@arm:~# MARKER='KKBP''NCEASN' run 'echo 1260000 1260000 > /sys/kernel/mva_tesst/regulators/buck2_set'
KKBPNCEASNKKBPNCEASN 0
root@arm:~# echo 'LAFM''BTQZFA'
LAFMBTQZFA
root@arm:~# MARKER='VOZC''UBYGUT' run 'i2cget -y -f 2 0x4b 0x10'
VOZCUBYGUT0x38
VOZCUBYGUT 0
root@arm:~# echo 'ETZQ''WEZYXF'
ETZQWEZYXF
root@arm:~# MARKER='AZAY''UPXGWK' run 'echo 1270000 1270000 > /sys/kernel/mva_tesst/regulators/buck2_set'
AZAYUPXGWKAZAYUPXGWK 0
root@arm:~# echo 'XZKU''FYZUUU'
XZKUFYZUUU
root@arm:~# MARKER='JXCV''ALAJTN' run 'i2cget -y -f 2 0x4b 0x10'
JXCVALAJTN0x39
JXCVALAJTN 0
root@arm:~# echo 'MAFB''LUPTFA'
MAFBLUPTFA
root@arm:~# MARKER='AZFX''EWPFXL' run 'echo 1280000 1280000 > /sys/kernel/mva_tesst/regulators/buck2_set'
AZFXEWPFXLAZFXEWPFXL 0
root@arm:~# echo 'JLFW''JSMZLH'
JLFWJSMZLH
root@arm:~# MARKER='TWUC''TLKJAV' run 'i2cget -y -f 2 0x4b 0x10'
TWUCTLKJAV0x3a
TWUCTLKJAV 0
root@arm:~# echo 'CXVN''KNSKTX'
CXVNKNSKTX
root@arm:~# MARKER='PLFQ''TBHNUP' run 'echo 1290000 1290000 > /sys/kernel/mva_tesst/regulators/buck2_set'
PLFQTBHNUPPLFQTBHNUP 0
root@arm:~# echo 'YLFK''TZAKXP'
YLFKTZAKXP
root@arm:~# MARKER='LHUV''TFPKTL' run 'i2cget -y -f 2 0x4b 0x10'
LHUVTFPKTL0x3b
LHUVTFPKTL 0
root@arm:~# echo 'GPZQ''AQHCTN'
GPZQAQHCTN
root@arm:~# MARKER='PMBB''UYZFHK' run 'echo 1300000 1300000 > /sys/kernel/mva_tesst/regulators/buck2_set'
PMBBUYZFHKPMBBUYZFHK 0
root@arm:~# echo 'CKKX''XSFVUE'
CKKXXSFVUE
root@arm:~# MARKER='LWTE''ZQMTTS' run 'i2cget -y -f 2 0x4b 0x10'
LWTEZQMTTS0x3c
LWTEZQMTTS 0
root@arm:~# echo 'BWHQ''PQBUPL'
BWHQPQBUPL
root@arm:~# MARKER='SGZC''UZMGJL' run 'grep -r -l rohm,bd71837 /proc/device-tree  | sed '"'"'s![^/]*$!!'"'"''
SGZCUZMGJL/proc/device-tree/ocp/interconnect@48000000/segment@100000/target-module@9c000/i2c@0/pmic@4b/
SGZCUZMGJL 0
root@arm:~# echo 'LNQL''TNMPBF'
LNQLTNMPBF
root@arm:~# MARKER='OJOJ''JLMAAE' run 'test -f /proc/device-tree/ocp/interconnectt\@48000000/segment\@100000/target-module\@9c000/i2c\@0/pmic\@4b/regulators/BUCK 3/rohm,no-regulator-enable-control ;echo $?'
OJOJJLMAAE0
OJOJJLMAAE 0
root@arm:~# echo 'EYNW''HWNAVO'
EYNWHWNAVO
root@arm:~# MARKER='WPKV''WZJJXO' run 'echo 700000 700000 > /sys/kernel/mva_test//regulators/buck3_set'
WPKVWZJJXOWPKVWZJJXO 0
root@arm:~# echo 'SLHS''ATPMBN'
SLHSATPMBN
root@arm:~# MARKER='GVPO''CUNEFP' run 'i2cget -y -f 2 0x4b 0x12'
GVPOCUNEFP0x00
GVPOCUNEFP 0
root@arm:~# echo 'GWOC''ZYEFCB'
GWOCZYEFCB
root@arm:~# MARKER='NYEU''CXBLFU' run 'echo 710000 710000 > /sys/kernel/mva_test//regulators/buck3_set'
NYEUCXBLFUNYEUCXBLFU 0
root@arm:~# echo 'OCFL''UGUKKM'
OCFLUGUKKM
root@arm:~# MARKER='QEZK''KNFMWZ' run 'i2cget -y -f 2 0x4b 0x12'
QEZKKNFMWZ0x01
QEZKKNFMWZ 0
root@arm:~# echo 'EJAF''EKCLGU'
EJAFEKCLGU
root@arm:~# MARKER='LTFF''USKTAA' run 'echo 720000 720000 > /sys/kernel/mva_test//regulators/buck3_set'
LTFFUSKTAALTFFUSKTAA 0
root@arm:~# echo 'ZGTV''AQBTET'
ZGTVAQBTET
root@arm:~# MARKER='NLNJ''JJEPZE' run 'i2cget -y -f 2 0x4b 0x12'
NLNJJJEPZE0x02
NLNJJJEPZE 0
root@arm:~# echo 'NJHQ''CUQMKT'
NJHQCUQMKT
root@arm:~# MARKER='AQOP''QYXGEL' run 'echo 730000 730000 > /sys/kernel/mva_test//regulators/buck3_set'
AQOPQYXGELAQOPQYXGEL 0
root@arm:~# echo 'GOYJ''LEJBLJ'
GOYJLEJBLJ
root@arm:~# MARKER='MPOG''WTUGLW' run 'i2cget -y -f 2 0x4b 0x12'
MPOGWTUGLW0x03
MPOGWTUGLW 0
root@arm:~# echo 'MHLV''APFFMX'
MHLVAPFFMX
root@arm:~# MARKER='XKBJ''JJPBMX' run 'echo 740000 740000 > /sys/kernel/mva_test//regulators/buck3_set'
XKBJJJPBMXXKBJJJPBMX 0
root@arm:~# echo 'JTBW''GAOBMQ'
JTBWGAOBMQ
root@arm:~# MARKER='PXEA''SGNKBZ' run 'i2cget -y -f 2 0x4b 0x12'
PXEASGNKBZ0x04
PXEASGNKBZ 0
root@arm:~# echo 'QUOC''WTPYAY'
QUOCWTPYAY
root@arm:~# MARKER='PCAZ''PPLJVZ' run 'echo 750000 750000 > /sys/kernel/mva_test//regulators/buck3_set'
PCAZPPLJVZPCAZPPLJVZ 0
root@arm:~# echo 'MXJQ''VSMUXG'
MXJQVSMUXG
root@arm:~# MARKER='KXLH''GKNUZT' run 'i2cget -y -f 2 0x4b 0x12'
KXLHGKNUZT0x05
KXLHGKNUZT 0
root@arm:~# echo 'JGJX''JGUZQK'
JGJXJGUZQK
root@arm:~# MARKER='BTJC''LCNVJJ' run 'echo 760000 760000 > /sys/kernel/mva_test//regulators/buck3_set'
BTJCLCNVJJBTJCLCNVJJ 0
root@arm:~# echo 'MBQK''MAUSUL'
MBQKMAUSUL
root@arm:~# MARKER='JLAP''PXWVPB' run 'i2cget -y -f 2 0x4b 0x12'
JLAPPXWVPB0x06
JLAPPXWVPB 0
root@arm:~# echo 'TTSL''TMYMCZ'
TTSLTMYMCZ
root@arm:~# MARKER='GPMS''ZMFCNW' run 'echo 770000 770000 > /sys/kernel/mva_test//regulators/buck3_set'
GPMSZMFCNWGPMSZMFCNW 0
root@arm:~# echo 'WSES''AYHSQT'
WSESAYHSQT
root@arm:~# MARKER='WLSJ''JOTKUX' run 'i2cget -y -f 2 0x4b 0x12'
WLSJJOTKUX0x07
WLSJJOTKUX 0
root@arm:~# echo 'UXTZ''TWBBJZ'
UXTZTWBBJZ
root@arm:~# MARKER='ALYH''FHOCUT' run 'echo 780000 780000 > /sys/kernel/mva_test//regulators/buck3_set'
ALYHFHOCUTALYHFHOCUT 0
root@arm:~# echo 'EMZF''VZLWEK'
EMZFVZLWEK
root@arm:~# MARKER='VHAM''JLHQWN' run 'i2cget -y -f 2 0x4b 0x12'
VHAMJLHQWN0x08
VHAMJLHQWN 0
root@arm:~# echo 'OJNA''ZUFBTZ'
OJNAZUFBTZ
root@arm:~# MARKER='AAOA''KEPKLP' run 'echo 790000 790000 > /sys/kernel/mva_test//regulators/buck3_set'
AAOAKEPKLPAAOAKEPKLP 0
root@arm:~# echo 'OKPF''JXOTMN'
OKPFJXOTMN
root@arm:~# MARKER='SULA''QQVBTX' run 'i2cget -y -f 2 0x4b 0x12'
SULAQQVBTX0x09
SULAQQVBTX 0
root@arm:~# echo 'CGFK''YUBEXT'
CGFKYUBEXT
root@arm:~# MARKER='NJNV''KWCSLL' run 'echo 800000 800000 > /sys/kernel/mva_test//regulators/buck3_set'
NJNVKWCSLLNJNVKWCSLL 0
root@arm:~# echo 'VTPB''QVAQYX'
VTPBQVAQYX
root@arm:~# MARKER='ULWF''YTBLLW' run 'i2cget -y -f 2 0x4b 0x12'
ULWFYTBLLW0x0a
ULWFYTBLLW 0
root@arm:~# echo 'OGEQ''KPENOE'
OGEQKPENOE
root@arm:~# MARKER='OPWN''EPAJBM' run 'echo 810000 810000 > /sys/kernel/mva_test//regulators/buck3_set'
OPWNEPAJBMOPWNEPAJBM 0
root@arm:~# echo 'NGLF''QXUSJQ'
NGLFQXUSJQ
root@arm:~# MARKER='EJYS''QAGSKM' run 'i2cget -y -f 2 0x4b 0x12'
EJYSQAGSKM0x0b
EJYSQAGSKM 0
root@arm:~# echo 'JAEU''NQVULQ'
JAEUNQVULQ
root@arm:~# MARKER='HBVQ''XGLOGW' run 'echo 820000 820000 > /sys/kernel/mva_test//regulators/buck3_set'
HBVQXGLOGWHBVQXGLOGW 0
root@arm:~# echo 'MMEF''CEOOAH'
MMEFCEOOAH
root@arm:~# MARKER='TXBL''WFMVTP' run 'i2cget -y -f 2 0x4b 0x12'
TXBLWFMVTP0x0c
TXBLWFMVTP 0
root@arm:~# echo 'UUWT''VZSWBE'
UUWTVZSWBE
root@arm:~# MARKER='QCVJ''CHKYBB' run 'echo 830000 830000 > /sys/kernel/mva_test//regulators/buck3_set'
QCVJCHKYBBQCVJCHKYBB 0
root@arm:~# echo 'VFKG''TFYTZV'
VFKGTFYTZV
root@arm:~# MARKER='SXJW''OVFMAB' run 'i2cget -y -f 2 0x4b 0x12'
SXJWOVFMAB0x0d
SXJWOVFMAB 0
root@arm:~# echo 'PKAO''WMXKXA'
PKAOWMXKXA
root@arm:~# MARKER='QYZQ''SYEETQ' run 'echo 840000 840000 > /sys/kernel/mva_test//regulators/buck3_set'
QYZQSYEETQQYZQSYEETQ 0
root@arm:~# echo 'UFPQ''HETOKY'
UFPQHETOKY
root@arm:~# MARKER='AENL''AWWUVB' run 'i2cget -y -f 2 0x4b 0x12'
AENLAWWUVB0x0e
AENLAWWUVB 0
root@arm:~# echo 'MABS''NMHPVG'
MABSNMHPVG
root@arm:~# MARKER='HSHT''UBXNKV' run 'echo 850000 850000 > /sys/kernel/mva_test//regulators/buck3_set'
HSHTUBXNKVHSHTUBXNKV 0
root@arm:~# echo 'KHHY''EUZVMO'
KHHYEUZVMO
root@arm:~# MARKER='GUSC''FJNGEM' run 'i2cget -y -f 2 0x4b 0x12'
GUSCFJNGEM0x0f
GUSCFJNGEM 0
root@arm:~# echo 'ZGPA''NWYUTG'
ZGPANWYUTG
root@arm:~# MARKER='XPPA''SHVYEW' run 'echo 860000 860000 > /sys/kernel/mva_test//regulators/buck3_set'
XPPASHVYEWXPPASHVYEW 0
root@arm:~# echo 'MLFN''JQVMBK'
MLFNJQVMBK
root@arm:~# MARKER='ONJN''AASLCL' run 'i2cget -y -f 2 0x4b 0x12'
ONJNAASLCL0x10
ONJNAASLCL 0
root@arm:~# echo 'UBKP''FLJXUY'
UBKPFLJXUY
root@arm:~# MARKER='GEVH''XBHPWK' run 'echo 870000 870000 > /sys/kernel/mva_test//regulators/buck3_set'
GEVHXBHPWKGEVHXBHPWK 0
root@arm:~# echo 'PNVO''VPGGMX'
PNVOVPGGMX
root@arm:~# MARKER='PACX''SBFLAY' run 'i2cget -y -f 2 0x4b 0x12'
PACXSBFLAY0x11
PACXSBFLAY 0
root@arm:~# echo 'OGGL''JBPYXJ'
OGGLJBPYXJ
root@arm:~# MARKER='TPKL''LKXLKK' run 'echo 880000 880000 > /sys/kernel/mva_test//regulators/buck3_set'
TPKLLKXLKKTPKLLKXLKK 0
root@arm:~# echo 'MSTZ''CBWZMA'
MSTZCBWZMA
root@arm:~# MARKER='SSZU''LVVCCK' run 'i2cget -y -f 2 0x4b 0x12'
SSZULVVCCK0x12
SSZULVVCCK 0
root@arm:~# echo 'BJTW''BVJTTS'
BJTWBVJTTS
root@arm:~# MARKER='AAEM''LZNEOP' run 'echo 890000 890000 > /sys/kernel/mva_test//regulators/buck3_set'
AAEMLZNEOPAAEMLZNEOP 0
root@arm:~# echo 'QXEH''AWBCVW'
QXEHAWBCVW
root@arm:~# MARKER='UMKV''JCHOVB' run 'i2cget -y -f 2 0x4b 0x12'
UMKVJCHOVB0x13
UMKVJCHOVB 0
root@arm:~# echo 'NTEQ''QHWPOZ'
NTEQQHWPOZ
root@arm:~# MARKER='OOQO''XWVCBP' run 'echo 900000 900000 > /sys/kernel/mva_test//regulators/buck3_set'
OOQOXWVCBPOOQOXWVCBP 0
root@arm:~# echo 'FEUY''JGOSEN'
FEUYJGOSEN
root@arm:~# MARKER='JBEE''NZWNPN' run 'i2cget -y -f 2 0x4b 0x12'
JBEENZWNPN0x14
JBEENZWNPN 0
root@arm:~# echo 'XZXH''GQZMCP'
XZXHGQZMCP
root@arm:~# MARKER='OJQK''UCYSJL' run 'echo 910000 910000 > /sys/kernel/mva_test//regulators/buck3_set'
OJQKUCYSJLOJQKUCYSJL 0
root@arm:~# echo 'KEBC''NWVCFC'
KEBCNWVCFC
root@arm:~# MARKER='ZXXW''KVFLOH' run 'i2cget -y -f 2 0x4b 0x12'
ZXXWKVFLOH0x15
ZXXWKVFLOH 0
root@arm:~# echo 'AJEX''HLWCZS'
AJEXHLWCZS
root@arm:~# MARKER='ELQS''SOUJEW' run 'echo 920000 920000 > /sys/kernel/mva_test//regulators/buck3_set'
ELQSSOUJEWELQSSOUJEW 0
root@arm:~# echo 'YQXL''SLQZNU'
YQXLSLQZNU
root@arm:~# MARKER='XQVG''ZEOXSY' run 'i2cget -y -f 2 0x4b 0x12'
XQVGZEOXSY0x16
XQVGZEOXSY 0
root@arm:~# echo 'ZNJG''NKSJAK'
ZNJGNKSJAK
root@arm:~# MARKER='QWCS''CLTUTV' run 'echo 930000 930000 > /sys/kernel/mva_test//regulators/buck3_set'
QWCSCLTUTVQWCSCLTUTV 0
root@arm:~# echo 'YJMP''MXFTUS'
YJMPMXFTUS
root@arm:~# MARKER='NHPE''XOAUYE' run 'i2cget -y -f 2 0x4b 0x12'
NHPEXOAUYE0x17
NHPEXOAUYE 0
root@arm:~# echo 'XHNE''FHSVXU'
XHNEFHSVXU
root@arm:~# MARKER='XBCP''ACKZAN' run 'echo 940000 940000 > /sys/kernel/mva_test//regulators/buck3_set'
XBCPACKZANXBCPACKZAN 0
root@arm:~# echo 'HCAN''OBTQZU'
HCANOBTQZU
root@arm:~# MARKER='OZQW''FMBFVW' run 'i2cget -y -f 2 0x4b 0x12'
OZQWFMBFVW0x18
OZQWFMBFVW 0
root@arm:~# echo 'PPBN''LJUGSS'
PPBNLJUGSS
root@arm:~# MARKER='TCBE''ESHPBZ' run 'echo 950000 950000 > /sys/kernel/mva_test//regulators/buck3_set'
TCBEESHPBZTCBEESHPBZ 0
root@arm:~# echo 'TFXK''VQKKHG'
TFXKVQKKHG
root@arm:~# MARKER='AUKU''WZTNPK' run 'i2cget -y -f 2 0x4b 0x12'
AUKUWZTNPK0x19
AUKUWZTNPK 0
root@arm:~# echo 'LVAG''LVXQJE'
LVAGLVXQJE
root@arm:~# MARKER='QFLP''HCXNOQ' run 'echo 960000 960000 > /sys/kernel/mva_test//regulators/buck3_set'
QFLPHCXNOQQFLPHCXNOQ 0
root@arm:~# echo 'HNPB''NFZYZJ'
HNPBNFZYZJ
root@arm:~# MARKER='MVTJ''CZWNVJ' run 'i2cget -y -f 2 0x4b 0x12'
MVTJCZWNVJ0x1a
MVTJCZWNVJ 0
root@arm:~# echo 'ZASN''OENPVN'
ZASNOENPVN
root@arm:~# MARKER='BUYW''ZSSVUS' run 'echo 970000 970000 > /sys/kernel/mva_test//regulators/buck3_set'
BUYWZSSVUSBUYWZSSVUS 0
root@arm:~# echo 'QPKJ''ZHMQAB'
QPKJZHMQAB
root@arm:~# MARKER='VGFN''SKGTFP' run 'i2cget -y -f 2 0x4b 0x12'
VGFNSKGTFP0x1b
VGFNSKGTFP 0
root@arm:~# echo 'CPGL''XNBGFJ'
CPGLXNBGFJ
root@arm:~# MARKER='LNTO''UCXGMS' run 'echo 980000 980000 > /sys/kernel/mva_test//regulators/buck3_set'
LNTOUCXGMSLNTOUCXGMS 0
root@arm:~# echo 'FENZ''TJFBTN'
FENZTJFBTN
root@arm:~# MARKER='JAYA''EZMMME' run 'i2cget -y -f 2 0x4b 0x12'
JAYAEZMMME0x1c
JAYAEZMMME 0
root@arm:~# echo 'ASCQ''VAUKKB'
ASCQVAUKKB
root@arm:~# MARKER='WFNB''AFEUFA' run 'echo 990000 990000 > /sys/kernel/mva_test//regulators/buck3_set'
WFNBAFEUFAWFNBAFEUFA 0
root@arm:~# echo 'WLYC''AHFANU'
WLYCAHFANU
root@arm:~# MARKER='YFQN''MUVSSS' run 'i2cget -y -f 2 0x4b 0x12'
YFQNMUVSSS0x1d
YFQNMUVSSS 0
root@arm:~# echo 'QXEP''POGJST'
QXEPPOGJST
root@arm:~# MARKER='XJQM''VCJVFE' run 'echo 1000000 1000000 > /sys/kernel/mva_tesst/regulators/buck3_set'
XJQMVCJVFEXJQMVCJVFE 0
root@arm:~# echo 'EXXV''SMECQW'
EXXVSMECQW
root@arm:~# MARKER='SMHA''UFHKHW' run 'i2cget -y -f 2 0x4b 0x12'
SMHAUFHKHW0x1e
SMHAUFHKHW 0
root@arm:~# echo 'YSEB''XNEHEU'
YSEBXNEHEU
root@arm:~# MARKER='ZBAX''ENJEPM' run 'echo 1010000 1010000 > /sys/kernel/mva_tesst/regulators/buck3_set'
ZBAXENJEPMZBAXENJEPM 0
root@arm:~# echo 'NZNZ''LAOZAQ'
NZNZLAOZAQ
root@arm:~# MARKER='WNZE''XCWFTW' run 'i2cget -y -f 2 0x4b 0x12'
WNZEXCWFTW0x1f
WNZEXCWFTW 0
root@arm:~# echo 'HMJO''OCYJHL'
HMJOOCYJHL
root@arm:~# MARKER='BEGK''CHCNQZ' run 'echo 1020000 1020000 > /sys/kernel/mva_tesst/regulators/buck3_set'
BEGKCHCNQZBEGKCHCNQZ 0
root@arm:~# echo 'YHLA''GFWUFQ'
YHLAGFWUFQ
root@arm:~# MARKER='TMLC''ULXLUQ' run 'i2cget -y -f 2 0x4b 0x12'
TMLCULXLUQ0x20
TMLCULXLUQ 0
root@arm:~# echo 'OFFM''KAXHYF'
OFFMKAXHYF
root@arm:~# MARKER='LHOS''NPLTZG' run 'echo 1030000 1030000 > /sys/kernel/mva_tesst/regulators/buck3_set'
LHOSNPLTZGLHOSNPLTZG 0
root@arm:~# echo 'MPAG''CHBPMH'
MPAGCHBPMH
root@arm:~# MARKER='EPZL''VJNQFE' run 'i2cget -y -f 2 0x4b 0x12'
EPZLVJNQFE0x21
EPZLVJNQFE 0
root@arm:~# echo 'LTBF''BGWYQU'
LTBFBGWYQU
root@arm:~# MARKER='XOMP''ZVAEPZ' run 'echo 1040000 1040000 > /sys/kernel/mva_tesst/regulators/buck3_set'
XOMPZVAEPZXOMPZVAEPZ 0
root@arm:~# echo 'AKUB''UWXSJP'
AKUBUWXSJP
root@arm:~# MARKER='OUXB''JHLMKX' run 'i2cget -y -f 2 0x4b 0x12'
OUXBJHLMKX0x22
OUXBJHLMKX 0
root@arm:~# echo 'XUFN''SFEFOW'
XUFNSFEFOW
root@arm:~# MARKER='EJNQ''YAVVMO' run 'echo 1050000 1050000 > /sys/kernel/mva_tesst/regulators/buck3_set'
EJNQYAVVMOEJNQYAVVMO 0
root@arm:~# echo 'LESU''WGEEPP'
LESUWGEEPP
root@arm:~# MARKER='PKYZ''HNQBMP' run 'i2cget -y -f 2 0x4b 0x12'
PKYZHNQBMP0x23
PKYZHNQBMP 0
root@arm:~# echo 'NVWH''SUGBAK'
NVWHSUGBAK
root@arm:~# MARKER='BNSL''WZZCES' run 'echo 1060000 1060000 > /sys/kernel/mva_tesst/regulators/buck3_set'
BNSLWZZCESBNSLWZZCES 0
root@arm:~# echo 'HFWO''LBOXUY'
HFWOLBOXUY
root@arm:~# MARKER='FSLM''VFYASS' run 'i2cget -y -f 2 0x4b 0x12'
FSLMVFYASS0x24
FSLMVFYASS 0
root@arm:~# echo 'FYQZ''OGSLFS'
FYQZOGSLFS
root@arm:~# MARKER='EZMT''HBGVMT' run 'echo 1070000 1070000 > /sys/kernel/mva_tesst/regulators/buck3_set'
EZMTHBGVMTEZMTHBGVMT 0
root@arm:~# echo 'UHFH''QLSVMN'
UHFHQLSVMN
root@arm:~# MARKER='TSXH''MOGTKT' run 'i2cget -y -f 2 0x4b 0x12'
TSXHMOGTKT0x25
TSXHMOGTKT 0
root@arm:~# echo 'SAJT''FGBOJJ'
SAJTFGBOJJ
root@arm:~# MARKER='NJZS''GXMLGF' run 'echo 1080000 1080000 > /sys/kernel/mva_tesst/regulators/buck3_set'
NJZSGXMLGFNJZSGXMLGF 0
root@arm:~# echo 'BPEA''BYEWXX'
BPEABYEWXX
root@arm:~# MARKER='LFML''WYOZXQ' run 'i2cget -y -f 2 0x4b 0x12'
LFMLWYOZXQ0x26
LFMLWYOZXQ 0
root@arm:~# echo 'TAYM''CKUFKZ'
TAYMCKUFKZ
root@arm:~# MARKER='XMYA''EGSQNL' run 'echo 1090000 1090000 > /sys/kernel/mva_tesst/regulators/buck3_set'
XMYAEGSQNLXMYAEGSQNL 0
root@arm:~# echo 'FLGJ''BJWXTW'
FLGJBJWXTW
root@arm:~# MARKER='WETO''NGCTPZ' run 'i2cget -y -f 2 0x4b 0x12'
WETONGCTPZ0x27
WETONGCTPZ 0
root@arm:~# echo 'OYYO''AVTPOP'
OYYOAVTPOP
root@arm:~# MARKER='AEBW''QYLVOQ' run 'echo 1100000 1100000 > /sys/kernel/mva_tesst/regulators/buck3_set'
AEBWQYLVOQAEBWQYLVOQ 0
root@arm:~# echo 'YJFT''QTCQOC'
YJFTQTCQOC
root@arm:~# MARKER='LVHJ''WZCWCY' run 'i2cget -y -f 2 0x4b 0x12'
LVHJWZCWCY0x28
LVHJWZCWCY 0
root@arm:~# echo 'TEBX''ZPCUXX'
TEBXZPCUXX
root@arm:~# MARKER='VYEV''OVQBEB' run 'echo 1110000 1110000 > /sys/kernel/mva_tesst/regulators/buck3_set'
VYEVOVQBEBVYEVOVQBEB 0
root@arm:~# echo 'JEXK''BVKOSU'
JEXKBVKOSU
root@arm:~# MARKER='EFXB''KMXFUZ' run 'i2cget -y -f 2 0x4b 0x12'
EFXBKMXFUZ0x29
EFXBKMXFUZ 0
root@arm:~# echo 'FQVV''WNGUHA'
FQVVWNGUHA
root@arm:~# MARKER='XJSC''WYCNBO' run 'echo 1120000 1120000 > /sys/kernel/mva_tesst/regulators/buck3_set'
XJSCWYCNBOXJSCWYCNBO 0
root@arm:~# echo 'YHXU''PLXWWA'
YHXUPLXWWA
root@arm:~# MARKER='TOOG''JWNFAW' run 'i2cget -y -f 2 0x4b 0x12'
TOOGJWNFAW0x2a
TOOGJWNFAW 0
root@arm:~# echo 'QNUE''MBPXCB'
QNUEMBPXCB
root@arm:~# MARKER='XFZF''ZLVLPY' run 'echo 1130000 1130000 > /sys/kernel/mva_tesst/regulators/buck3_set'
XFZFZLVLPYXFZFZLVLPY 0
root@arm:~# echo 'GCQH''USTUEQ'
GCQHUSTUEQ
root@arm:~# MARKER='HTOL''GAUZSX' run 'i2cget -y -f 2 0x4b 0x12'
HTOLGAUZSX0x2b
HTOLGAUZSX 0
root@arm:~# echo 'UZES''WFWHEN'
UZESWFWHEN
root@arm:~# MARKER='AWJZ''JJGGLB' run 'echo 1140000 1140000 > /sys/kernel/mva_tesst/regulators/buck3_set'
AWJZJJGGLBAWJZJJGGLB 0
root@arm:~# echo 'HCAQ''ASTAWO'
HCAQASTAWO
root@arm:~# MARKER='KXQE''ZJBZXC' run 'i2cget -y -f 2 0x4b 0x12'
KXQEZJBZXC0x2c
KXQEZJBZXC 0
root@arm:~# echo 'NHSZ''FNAYCF'
NHSZFNAYCF
root@arm:~# MARKER='QWGH''PTABAA' run 'echo 1150000 1150000 > /sys/kernel/mva_tesst/regulators/buck3_set'
QWGHPTABAAQWGHPTABAA 0
root@arm:~# echo 'OXYC''HTXVUT'
OXYCHTXVUT
root@arm:~# MARKER='NYKM''TUHAQF' run 'i2cget -y -f 2 0x4b 0x12'
NYKMTUHAQF0x2d
NYKMTUHAQF 0
root@arm:~# echo 'TWCO''LQWYAO'
TWCOLQWYAO
root@arm:~# MARKER='BKEG''MXSULF' run 'echo 1160000 1160000 > /sys/kernel/mva_tesst/regulators/buck3_set'
BKEGMXSULFBKEGMXSULF 0
root@arm:~# echo 'UCGG''BOQYWC'
UCGGBOQYWC
root@arm:~# MARKER='MHXC''PAVZXL' run 'i2cget -y -f 2 0x4b 0x12'
MHXCPAVZXL0x2e
MHXCPAVZXL 0
root@arm:~# echo 'SOVY''TMKPAY'
SOVYTMKPAY
root@arm:~# MARKER='TUUO''CPCPUP' run 'echo 1170000 1170000 > /sys/kernel/mva_tesst/regulators/buck3_set'
TUUOCPCPUPTUUOCPCPUP 0
root@arm:~# echo 'QZNN''LSETCF'
QZNNLSETCF
root@arm:~# MARKER='HJHO''GXKXWB' run 'i2cget -y -f 2 0x4b 0x12'
HJHOGXKXWB0x2f
HJHOGXKXWB 0
root@arm:~# echo 'GCXB''QHMTWF'
GCXBQHMTWF
root@arm:~# MARKER='MNGZ''NKXSAW' run 'echo 1180000 1180000 > /sys/kernel/mva_tesst/regulators/buck3_set'
MNGZNKXSAWMNGZNKXSAW 0
root@arm:~# echo 'GOAT''YOQWXP'
GOATYOQWXP
root@arm:~# MARKER='OKEZ''BQNWTF' run 'i2cget -y -f 2 0x4b 0x12'
OKEZBQNWTF0x30
OKEZBQNWTF 0
root@arm:~# echo 'CCEC''GOFLQJ'
CCECGOFLQJ
root@arm:~# MARKER='OOFP''PTSZQZ' run 'echo 1190000 1190000 > /sys/kernel/mva_tesst/regulators/buck3_set'
OOFPPTSZQZOOFPPTSZQZ 0
root@arm:~# echo 'VNQZ''QBOXFN'
VNQZQBOXFN
root@arm:~# MARKER='UOGY''PCHSVU' run 'i2cget -y -f 2 0x4b 0x12'
UOGYPCHSVU0x31
UOGYPCHSVU 0
root@arm:~# echo 'QQXZ''QPXSOQ'
QQXZQPXSOQ
root@arm:~# MARKER='XOCM''EAGYTP' run 'echo 1200000 1200000 > /sys/kernel/mva_tesst/regulators/buck3_set'
XOCMEAGYTPXOCMEAGYTP 0
root@arm:~# echo 'VCOL''YPPYSC'
VCOLYPPYSC
root@arm:~# MARKER='SUZO''ZUFWOU' run 'i2cget -y -f 2 0x4b 0x12'
SUZOZUFWOU0x32
SUZOZUFWOU 0
root@arm:~# echo 'HUGJ''EMVBWW'
HUGJEMVBWW
root@arm:~# MARKER='TMFS''OKWOLP' run 'echo 1210000 1210000 > /sys/kernel/mva_tesst/regulators/buck3_set'
TMFSOKWOLPTMFSOKWOLP 0
root@arm:~# echo 'PWEL''EYJWGK'
PWELEYJWGK
root@arm:~# MARKER='QOLQ''QMACGN' run 'i2cget -y -f 2 0x4b 0x12'
QOLQQMACGN0x33
QOLQQMACGN 0
root@arm:~# echo 'AXHA''HGOUGV'
AXHAHGOUGV
root@arm:~# MARKER='SUUB''OJTOSV' run 'echo 1220000 1220000 > /sys/kernel/mva_tesst/regulators/buck3_set'
SUUBOJTOSVSUUBOJTOSV 0
root@arm:~# echo 'FFFL''JEBCYQ'
FFFLJEBCYQ
root@arm:~# MARKER='UHVU''CZQSTT' run 'i2cget -y -f 2 0x4b 0x12'
UHVUCZQSTT0x34
UHVUCZQSTT 0
root@arm:~# echo 'CVXA''HTLEYQ'
CVXAHTLEYQ
root@arm:~# MARKER='WXGC''FPJPAY' run 'echo 1230000 1230000 > /sys/kernel/mva_tesst/regulators/buck3_set'
WXGCFPJPAYWXGCFPJPAY 0
root@arm:~# echo 'QEET''EUBAGE'
QEETEUBAGE
root@arm:~# MARKER='JBKE''YFBUUK' run 'i2cget -y -f 2 0x4b 0x12'
JBKEYFBUUK0x35
JBKEYFBUUK 0
root@arm:~# echo 'OEBK''EZJWQV'
OEBKEZJWQV
root@arm:~# MARKER='SUKP''MCAECQ' run 'echo 1240000 1240000 > /sys/kernel/mva_tesst/regulators/buck3_set'
SUKPMCAECQSUKPMCAECQ 0
root@arm:~# echo 'JHAU''TQZZKP'
JHAUTQZZKP
root@arm:~# MARKER='TCMF''JPQWVN' run 'i2cget -y -f 2 0x4b 0x12'
TCMFJPQWVN0x36
TCMFJPQWVN 0
root@arm:~# echo 'PXXV''TOCEOX'
PXXVTOCEOX
root@arm:~# MARKER='JYQJ''XMJFEC' run 'echo 1250000 1250000 > /sys/kernel/mva_tesst/regulators/buck3_set'
JYQJXMJFECJYQJXMJFEC 0
root@arm:~# echo 'WMJS''ENEACU'
WMJSENEACU
root@arm:~# MARKER='SUSS''MJOVUC' run 'i2cget -y -f 2 0x4b 0x12'
SUSSMJOVUC0x37
SUSSMJOVUC 0
root@arm:~# echo 'GSQF''QQNTSS'
GSQFQQNTSS
root@arm:~# MARKER='WNWB''MFEKKW' run 'echo 1260000 1260000 > /sys/kernel/mva_tesst/regulators/buck3_set'
WNWBMFEKKWWNWBMFEKKW 0
root@arm:~# echo 'KCPY''QYGPPO'
KCPYQYGPPO
root@arm:~# MARKER='WYUX''FPULOO' run 'i2cget -y -f 2 0x4b 0x12'
WYUXFPULOO0x38
WYUXFPULOO 0
root@arm:~# echo 'WNGZ''MLXGUZ'
WNGZMLXGUZ
root@arm:~# MARKER='LPLX''HGBENZ' run 'echo 1270000 1270000 > /sys/kernel/mva_tesst/regulators/buck3_set'
LPLXHGBENZLPLXHGBENZ 0
root@arm:~# echo 'XNGF''YKXZEB'
XNGFYKXZEB
root@arm:~# MARKER='MPTT''OXBCMW' run 'i2cget -y -f 2 0x4b 0x12'
MPTTOXBCMW0x39
MPTTOXBCMW 0
root@arm:~# echo 'ALVB''QFKGVQ'
ALVBQFKGVQ
root@arm:~# MARKER='SEWM''CBQLNA' run 'echo 1280000 1280000 > /sys/kernel/mva_tesst/regulators/buck3_set'
SEWMCBQLNASEWMCBQLNA 0
root@arm:~# echo 'ZALV''UYBBFS'
ZALVUYBBFS
root@arm:~# MARKER='CBEF''JNWHPA' run 'i2cget -y -f 2 0x4b 0x12'
CBEFJNWHPA0x3a
CBEFJNWHPA 0
root@arm:~# echo 'CAGX''CPQEGQ'
CAGXCPQEGQ
root@arm:~# MARKER='PWWH''GMZNWC' run 'echo 1290000 1290000 > /sys/kernel/mva_tesst/regulators/buck3_set'
PWWHGMZNWCPWWHGMZNWC 0
root@arm:~# echo 'SHKL''LZVYXA'
SHKLLZVYXA
root@arm:~# MARKER='BYFF''OCAHUT' run 'i2cget -y -f 2 0x4b 0x12'
BYFFOCAHUT0x3b
BYFFOCAHUT 0
root@arm:~# echo 'EYYH''OTHWQB'
EYYHOTHWQB
root@arm:~# MARKER='PNKB''WJKOQZ' run 'echo 1300000 1300000 > /sys/kernel/mva_tesst/regulators/buck3_set'
PNKBWJKOQZPNKBWJKOQZ 0
root@arm:~# echo 'BXHX''ZNEXGY'
BXHXZNEXGY
root@arm:~# MARKER='JEHV''PWLXFK' run 'i2cget -y -f 2 0x4b 0x12'
JEHVPWLXFK0x3c
JEHVPWLXFK 0
root@arm:~# echo 'KWET''BQSMXE'
KWETBQSMXE
root@arm:~# MARKER='OGYZ''THUOLW' run 'grep -r -l rohm,bd71837 /proc/device-tree  | sed '"'"'s![^/]*$!!'"'"''
OGYZTHUOLW/proc/device-tree/ocp/interconnect@48000000/segment@100000/target-module@9c000/i2c@0/pmic@4b/
OGYZTHUOLW 0
root@arm:~# echo 'GBVU''VNNLAX'
GBVUVNNLAX
root@arm:~# MARKER='ULTP''PYLTGT' run 'test -f /proc/device-tree/ocp/interconnectt\@48000000/segment\@100000/target-module\@9c000/i2c\@0/pmic\@4b/regulators/BUCK44/rohm,no-regulator-enable-control ;echo $?'
ULTPPYLTGT1
ULTPPYLTGT 0
root@arm:~# echo 'XXFW''ZSMKHA'
XXFWZSMKHA
root@arm:~# MARKER='ZLBT''HAMPQB' run 'i2cget -y -f 2 0x4b 0x8'
ZLBTHAMPQB0xc6
ZLBTHAMPQB 0
root@arm:~# echo 'KWMS''JMWXCJ'
KWMSJMWXCJ
root@arm:~# MARKER='YXEO''ZFWMSE' run 'echo 700000 700000 > /sys/kernel/mva_test//regulators/buck4_set'
YXEOZFWMSEYXEOZFWMSE 0
root@arm:~# echo 'YHTT''HEYSYL'
YHTTHEYSYL
root@arm:~# MARKER='GPGP''FOBEST' run 'i2cget -y -f 2 0x4b 0x13'
GPGPFOBEST0x00
GPGPFOBEST 0
root@arm:~# echo 'MGBY''JEKYNQ'
MGBYJEKYNQ
root@arm:~# MARKER='MWLT''QFMYHB' run 'echo 710000 710000 > /sys/kernel/mva_test//regulators/buck4_set'
MWLTQFMYHBMWLTQFMYHB 0
root@arm:~# echo 'QCAP''WNQLPW'
QCAPWNQLPW
root@arm:~# MARKER='QBGY''ZQZLFF' run 'i2cget -y -f 2 0x4b 0x13'
QBGYZQZLFF0x01
QBGYZQZLFF 0
root@arm:~# echo 'WTPB''ATCEVG'
WTPBATCEVG
root@arm:~# MARKER='VJNN''FKSAQO' run 'echo 720000 720000 > /sys/kernel/mva_test//regulators/buck4_set'
VJNNFKSAQOVJNNFKSAQO 0
root@arm:~# echo 'SPEW''UQPSYN'
SPEWUQPSYN
root@arm:~# MARKER='ZFZE''EXYEFV' run 'i2cget -y -f 2 0x4b 0x13'
ZFZEEXYEFV0x02
ZFZEEXYEFV 0
root@arm:~# echo 'XBJB''QBUZKC'
XBJBQBUZKC
root@arm:~# MARKER='JQGZ''GBOSGX' run 'echo 730000 730000 > /sys/kernel/mva_test//regulators/buck4_set'
JQGZGBOSGXJQGZGBOSGX 0
root@arm:~# echo 'LCZQ''NPASQB'
LCZQNPASQB
root@arm:~# MARKER='NXXV''LUKONE' run 'i2cget -y -f 2 0x4b 0x13'
NXXVLUKONE0x03
NXXVLUKONE 0
root@arm:~# echo 'YLAE''OKFJSS'
YLAEOKFJSS
root@arm:~# MARKER='AJYU''ONGCNO' run 'echo 740000 740000 > /sys/kernel/mva_test//regulators/buck4_set'
AJYUONGCNOAJYUONGCNO 0
root@arm:~# echo 'EKSL''FQYQUJ'
EKSLFQYQUJ
root@arm:~# MARKER='EFCF''QFPOBJ' run 'i2cget -y -f 2 0x4b 0x13'
EFCFQFPOBJ0x04
EFCFQFPOBJ 0
root@arm:~# echo 'BEPN''KZFLEM'
BEPNKZFLEM
root@arm:~# MARKER='AEOG''LTXNGE' run 'echo 750000 750000 > /sys/kernel/mva_test//regulators/buck4_set'
AEOGLTXNGEAEOGLTXNGE 0
root@arm:~# echo 'SOXT''OTUXWJ'
SOXTOTUXWJ
root@arm:~# MARKER='PWSU''MFBTVH' run 'i2cget -y -f 2 0x4b 0x13'
PWSUMFBTVH0x05
PWSUMFBTVH 0
root@arm:~# echo 'FOLL''JKQJMP'
FOLLJKQJMP
root@arm:~# MARKER='JSLU''VWAXNJ' run 'echo 760000 760000 > /sys/kernel/mva_test//regulators/buck4_set'
JSLUVWAXNJJSLUVWAXNJ 0
root@arm:~# echo 'CMPV''ZXKNGA'
CMPVZXKNGA
root@arm:~# MARKER='AGJU''JJOJYF' run 'i2cget -y -f 2 0x4b 0x13'
AGJUJJOJYF0x06
AGJUJJOJYF 0
root@arm:~# echo 'UZMY''OAEXOO'
UZMYOAEXOO
root@arm:~# MARKER='VGTX''JYNJCE' run 'echo 770000 770000 > /sys/kernel/mva_test//regulators/buck4_set'
VGTXJYNJCEVGTXJYNJCE 0
root@arm:~# echo 'SYTP''UOWKTU'
SYTPUOWKTU
root@arm:~# MARKER='JVUK''VPMTLG' run 'i2cget -y -f 2 0x4b 0x13'
JVUKVPMTLG0x07
JVUKVPMTLG 0
root@arm:~# echo 'SMKE''STSLBB'
SMKESTSLBB
root@arm:~# MARKER='OPQJ''KCXTSU' run 'echo 780000 780000 > /sys/kernel/mva_test//regulators/buck4_set'
OPQJKCXTSUOPQJKCXTSU 0
root@arm:~# echo 'UNQN''ZTQQVG'
UNQNZTQQVG
root@arm:~# MARKER='TJNN''YGPOHN' run 'i2cget -y -f 2 0x4b 0x13'
TJNNYGPOHN0x08
TJNNYGPOHN 0
root@arm:~# echo 'SGUX''FJOJBS'
SGUXFJOJBS
root@arm:~# MARKER='PETO''TLAASM' run 'echo 790000 790000 > /sys/kernel/mva_test//regulators/buck4_set'
PETOTLAASMPETOTLAASM 0
root@arm:~# echo 'VGPS''ZPYLTG'
VGPSZPYLTG
root@arm:~# MARKER='LGJA''ENYGYH' run 'i2cget -y -f 2 0x4b 0x13'
LGJAENYGYH0x09
LGJAENYGYH 0
root@arm:~# echo 'PTBX''WBKETC'
PTBXWBKETC
root@arm:~# MARKER='ELPV''TOQXZU' run 'echo 800000 800000 > /sys/kernel/mva_test//regulators/buck4_set'
ELPVTOQXZUELPVTOQXZU 0
root@arm:~# echo 'VFAE''HVCPQW'
VFAEHVCPQW
root@arm:~# MARKER='OKVP''UBHXOK' run 'i2cget -y -f 2 0x4b 0x13'
OKVPUBHXOK0x0a
OKVPUBHXOK 0
root@arm:~# echo 'PHMZ''SEXJSO'
PHMZSEXJSO
root@arm:~# MARKER='BGLV''EAVWUJ' run 'echo 810000 810000 > /sys/kernel/mva_test//regulators/buck4_set'
BGLVEAVWUJBGLVEAVWUJ 0
root@arm:~# echo 'XBZB''NLBMZN'
XBZBNLBMZN
root@arm:~# MARKER='SXTG''WJEEAT' run 'i2cget -y -f 2 0x4b 0x13'
SXTGWJEEAT0x0b
SXTGWJEEAT 0
root@arm:~# echo 'SFVU''QNBEGB'
SFVUQNBEGB
root@arm:~# MARKER='EQUA''PHBZTQ' run 'echo 820000 820000 > /sys/kernel/mva_test//regulators/buck4_set'
EQUAPHBZTQEQUAPHBZTQ 0
root@arm:~# echo 'PAMJ''PFHATF'
PAMJPFHATF
root@arm:~# MARKER='TXWZ''HAZCKS' run 'i2cget -y -f 2 0x4b 0x13'
TXWZHAZCKS0x0c
TXWZHAZCKS 0
root@arm:~# echo 'ZKMU''MSVLFO'
ZKMUMSVLFO
root@arm:~# MARKER='NWXK''NJQCKU' run 'echo 830000 830000 > /sys/kernel/mva_test//regulators/buck4_set'
NWXKNJQCKUNWXKNJQCKU 0
root@arm:~# echo 'JYUK''HAKBXG'
JYUKHAKBXG
root@arm:~# MARKER='QQUN''AQNPQJ' run 'i2cget -y -f 2 0x4b 0x13'
QQUNAQNPQJ0x0d
QQUNAQNPQJ 0
root@arm:~# echo 'TYZX''BFPTLW'
TYZXBFPTLW
root@arm:~# MARKER='QQHG''YXPPZQ' run 'echo 840000 840000 > /sys/kernel/mva_test//regulators/buck4_set'
QQHGYXPPZQQQHGYXPPZQ 0
root@arm:~# echo 'VQHF''QANXBU'
VQHFQANXBU
root@arm:~# MARKER='WMEU''XTMGSE' run 'i2cget -y -f 2 0x4b 0x13'
WMEUXTMGSE0x0e
WMEUXTMGSE 0
root@arm:~# echo 'BUEK''CBKEYQ'
BUEKCBKEYQ
root@arm:~# MARKER='PMYY''PSSSCB' run 'echo 850000 850000 > /sys/kernel/mva_test//regulators/buck4_set'
PMYYPSSSCBPMYYPSSSCB 0
root@arm:~# echo 'VXJT''BQFMQO'
VXJTBQFMQO
root@arm:~# MARKER='NMAC''FFKPMP' run 'i2cget -y -f 2 0x4b 0x13'
NMACFFKPMP0x0f
NMACFFKPMP 0
root@arm:~# echo 'YPBV''NAQWYG'
YPBVNAQWYG
root@arm:~# MARKER='AAJB''NNHQCA' run 'echo 860000 860000 > /sys/kernel/mva_test//regulators/buck4_set'
AAJBNNHQCAAAJBNNHQCA 0
root@arm:~# echo 'OHUE''TGOMKL'
OHUETGOMKL
root@arm:~# MARKER='BBSL''ZMHAHA' run 'i2cget -y -f 2 0x4b 0x13'
BBSLZMHAHA0x10
BBSLZMHAHA 0
root@arm:~# echo 'HCPX''WOABCN'
HCPXWOABCN
root@arm:~# MARKER='LUYQ''JFJEET' run 'echo 870000 870000 > /sys/kernel/mva_test//regulators/buck4_set'
LUYQJFJEETLUYQJFJEET 0
root@arm:~# echo 'GAPA''TNFQWQ'
GAPATNFQWQ
root@arm:~# MARKER='JVBS''CMMJBL' run 'i2cget -y -f 2 0x4b 0x13'
JVBSCMMJBL0x11
JVBSCMMJBL 0
root@arm:~# echo 'OSKT''YJCPXF'
OSKTYJCPXF
root@arm:~# MARKER='BNVG''HHUJWB' run 'echo 880000 880000 > /sys/kernel/mva_test//regulators/buck4_set'
BNVGHHUJWBBNVGHHUJWB 0
root@arm:~# echo 'ANNS''UEHLYO'
ANNSUEHLYO
root@arm:~# MARKER='JSCF''VYFOGU' run 'i2cget -y -f 2 0x4b 0x13'
JSCFVYFOGU0x12
JSCFVYFOGU 0
root@arm:~# echo 'UZMB''PYHTNQ'
UZMBPYHTNQ
root@arm:~# MARKER='PAKB''STBOFZ' run 'echo 890000 890000 > /sys/kernel/mva_test//regulators/buck4_set'
PAKBSTBOFZPAKBSTBOFZ 0
root@arm:~# echo 'OWSL''OXWQYM'
OWSLOXWQYM
root@arm:~# MARKER='NQVS''VTJPEK' run 'i2cget -y -f 2 0x4b 0x13'
NQVSVTJPEK0x13
NQVSVTJPEK 0
root@arm:~# echo 'HLCP''HZGUZV'
HLCPHZGUZV
root@arm:~# MARKER='JHKY''WNUPZJ' run 'echo 900000 900000 > /sys/kernel/mva_test//regulators/buck4_set'
JHKYWNUPZJJHKYWNUPZJ 0
root@arm:~# echo 'AYHA''EONUZC'
AYHAEONUZC
root@arm:~# MARKER='KWYK''QNBLUT' run 'i2cget -y -f 2 0x4b 0x13'
KWYKQNBLUT0x14
KWYKQNBLUT 0
root@arm:~# echo 'LBNG''KCEAPE'
LBNGKCEAPE
root@arm:~# MARKER='FVAE''LBMZKZ' run 'echo 910000 910000 > /sys/kernel/mva_test//regulators/buck4_set'
FVAELBMZKZFVAELBMZKZ 0
root@arm:~# echo 'XXOC''KOMEFE'
XXOCKOMEFE
root@arm:~# MARKER='NEMA''VBHGGE' run 'i2cget -y -f 2 0x4b 0x13'
NEMAVBHGGE0x15
NEMAVBHGGE 0
root@arm:~# echo 'QPTL''SVZWHP'
QPTLSVZWHP
root@arm:~# MARKER='YEBO''JBENFW' run 'echo 920000 920000 > /sys/kernel/mva_test//regulators/buck4_set'
YEBOJBENFWYEBOJBENFW 0
root@arm:~# echo 'UUFT''QTOOTN'
UUFTQTOOTN
root@arm:~# MARKER='ZQLQ''OZPKTV' run 'i2cget -y -f 2 0x4b 0x13'
ZQLQOZPKTV0x16
ZQLQOZPKTV 0
root@arm:~# echo 'PSOH''MSNTCV'
PSOHMSNTCV
root@arm:~# MARKER='JCXS''ELOMUB' run 'echo 930000 930000 > /sys/kernel/mva_test//regulators/buck4_set'
JCXSELOMUBJCXSELOMUB 0
root@arm:~# echo 'YCYY''TCAYCT'
YCYYTCAYCT
root@arm:~# MARKER='TUOB''HPYZUN' run 'i2cget -y -f 2 0x4b 0x13'
TUOBHPYZUN0x17
TUOBHPYZUN 0
root@arm:~# echo 'CKMU''FMQVOX'
CKMUFMQVOX
