Labgrid Console Logfile for main
Logfile started at 2026-08-21 13:34:17.687785
=== Log starts here ===

root@arm:~# run() { echo -n "$MARKER"; sh -c "$@"; echo "$MARKER $?"; }
root@arm:~# echo 'GBMZ''LLSUVU'
GBMZLLSUVU
root@arm:~# MARKER='CKFF''BXUEPF' run 'grep -r -l rohm,bd96805 /proc/device-tree  | sed '"'"'s![^/]*$!!'"'"''
CKFFBXUEPF/proc/device-tree/ocp/interconnect@48000000/segment@100000/target-module@9c000/i2c@0/pmic@60/
CKFFBXUEPF 0
root@arm:~# echo 'XPQT''GMWFBP'
XPQTGMWFBP
root@arm:~# MARKER='VYNG''TAVJVT' run 'test -f /proc/device-tree/ocp/interconnectt\@48000000/segment\@100000/target-module\@9c000/i2c\@0/pmic\@60/regulators/buck11/rohm,no-regulator-enable-control ;echo $?'
VYNGTAVJVT1
VYNGTAVJVT 0
root@arm:~# echo 'QPOO''XONMJZ'
QPOOXONMJZ
root@arm:~# MARKER='HWSU''ESVUML' run 'i2cget -y -f 2 0x60 0xb'
HWSUESVUML0x00
HWSUESVUML 0
root@arm:~# echo 'YGAM''ZNPFPT'
YGAMZNPFPT
root@arm:~# MARKER='XMVM''TWWVTH' run 'grep -r -l rohm,bd96805 /proc/device-tree  | sed '"'"'s![^/]*$!!'"'"''
XMVMTWWVTH/proc/device-tree/ocp/interconnect@48000000/segment@100000/target-module@9c000/i2c@0/pmic@60/
XMVMTWWVTH 0
root@arm:~# echo 'JBST''OSQUUU'
JBSTOSQUUU
root@arm:~# MARKER='VZUJ''VGFCNJ' run 'test -f /proc/device-tree/ocp/interconnectt\@48000000/segment\@100000/target-module\@9c000/i2c\@0/pmic\@60/regulators/buck22/rohm,no-regulator-enable-control ;echo $?'
VZUJVGFCNJ1
VZUJVGFCNJ 0
root@arm:~# echo 'TFEF''WOGAJL'
TFEFWOGAJL
root@arm:~# MARKER='OPZE''ZNHXAO' run 'i2cget -y -f 2 0x60 0xb'
OPZEZNHXAO0x00
OPZEZNHXAO 0
root@arm:~# echo 'XLWV''NMQJEX'
XLWVNMQJEX
root@arm:~# MARKER='HLTT''MUGSPJ' run 'grep -r -l rohm,bd96805 /proc/device-tree  | sed '"'"'s![^/]*$!!'"'"''
HLTTMUGSPJ/proc/device-tree/ocp/interconnect@48000000/segment@100000/target-module@9c000/i2c@0/pmic@60/
HLTTMUGSPJ 0
root@arm:~# echo 'UBEA''KOSQVQ'
UBEAKOSQVQ
root@arm:~# MARKER='MMCL''KLQVVM' run 'test -f /proc/device-tree/ocp/interconnectt\@48000000/segment\@100000/target-module\@9c000/i2c\@0/pmic\@60/regulators/buck33/rohm,no-regulator-enable-control ;echo $?'
MMCLKLQVVM1
MMCLKLQVVM 0
root@arm:~# echo 'JGVM''NHFFKQ'
JGVMNHFFKQ
root@arm:~# MARKER='TEKB''ZEOSGY' run 'i2cget -y -f 2 0x60 0xb'
TEKBZEOSGY0x00
TEKBZEOSGY 0
root@arm:~# echo 'MALT''JOQKWE'
MALTJOQKWE
root@arm:~# MARKER='FQMN''MJULSS' run 'grep -r -l rohm,bd96805 /proc/device-tree  | sed '"'"'s![^/]*$!!'"'"''
FQMNMJULSS/proc/device-tree/ocp/interconnect@48000000/segment@100000/target-module@9c000/i2c@0/pmic@60/
FQMNMJULSS 0
root@arm:~# echo 'BBAM''LFBPLA'
BBAMLFBPLA
root@arm:~# MARKER='SOAJ''GVMUTJ' run 'test -f /proc/device-tree/ocp/interconnectt\@48000000/segment\@100000/target-module\@9c000/i2c\@0/pmic\@60/regulators/buck44/rohm,no-regulator-enable-control ;echo $?'
SOAJGVMUTJ1
SOAJGVMUTJ 0
root@arm:~# echo 'FQVU''BZLFZU'
FQVUBZLFZU
root@arm:~# MARKER='JQPQ''BZAGAK' run 'i2cget -y -f 2 0x60 0xb'
JQPQBZAGAK0x00
JQPQBZAGAK 0
root@arm:~# echo 'ZXZS''UXHNOW'
ZXZSUXHNOW
root@arm:~# MARKER='SPSS''WKFKFY' run 'grep -r -l rohm,bd96805 /proc/device-tree  | sed '"'"'s![^/]*$!!'"'"''
SPSSWKFKFY/proc/device-tree/ocp/interconnect@48000000/segment@100000/target-module@9c000/i2c@0/pmic@60/
SPSSWKFKFY 0
root@arm:~# echo 'XVVX''WQTBEH'
XVVXWQTBEH
root@arm:~# MARKER='XQXX''MYZBVS' run 'test -f /proc/device-tree/ocp/interconnectt\@48000000/segment\@100000/target-module\@9c000/i2c\@0/pmic\@60/regulators/ldo5//rohm,no-regulator-enable-control ;echo $?'
XQXXMYZBVS1
XQXXMYZBVS 0
root@arm:~# echo 'NPHV''UYGQSS'
NPHVUYGQSS
root@arm:~# MARKER='YVFV''XQCUEB' run 'i2cget -y -f 2 0x60 0xb'
YVFVXQCUEB0x00
YVFVXQCUEB 0
root@arm:~# echo 'JPPV''MNUZFM'
JPPVMNUZFM
root@arm:~# MARKER='LVBZ''CHGHET' run 'grep -r -l rohm,bd96805 /proc/device-tree  | sed '"'"'s![^/]*$!!'"'"''
LVBZCHGHET/proc/device-tree/ocp/interconnect@48000000/segment@100000/target-module@9c000/i2c@0/pmic@60/
LVBZCHGHET 0
root@arm:~# echo 'GUPL''AZCGPT'
GUPLAZCGPT
root@arm:~# MARKER='KVBL''OOENMN' run 'test -f /proc/device-tree/ocp/interconnectt\@48000000/segment\@100000/target-module\@9c000/i2c\@0/pmic\@60/regulators/ldo6//rohm,no-regulator-enable-control ;echo $?'
KVBLOOENMN1
KVBLOOENMN 0
root@arm:~# echo 'ZCMX''UHVCQO'
ZCMXUHVCQO
root@arm:~# MARKER='GKPJ''VJHHMT' run 'i2cget -y -f 2 0x60 0xb'
GKPJVJHHMT0x00
GKPJVJHHMT 0
root@arm:~# echo 'BZJO''AEAWGT'
BZJOAEAWGT
root@arm:~# MARKER='CVKG''MSCKSW' run 'grep -r -l rohm,bd96805 /proc/device-tree  | sed '"'"'s![^/]*$!!'"'"''
CVKGMSCKSW/proc/device-tree/ocp/interconnect@48000000/segment@100000/target-module@9c000/i2c@0/pmic@60/
CVKGMSCKSW 0
root@arm:~# echo 'MHNC''PLYAAU'
MHNCPLYAAU
root@arm:~# MARKER='QEKX''WQSLLM' run 'test -f /proc/device-tree/ocp/interconnectt\@48000000/segment\@100000/target-module\@9c000/i2c\@0/pmic\@60/regulators/ldo7//rohm,no-regulator-enable-control ;echo $?'
QEKXWQSLLM1
QEKXWQSLLM 0
root@arm:~# echo 'BJOX''CZEUBW'
BJOXCZEUBW
root@arm:~# MARKER='LPVJ''ZYQOEK' run 'i2cget -y -f 2 0x60 0xb'
LPVJZYQOEK0x00
LPVJZYQOEK 0
root@arm:~# Labgrid Console Logfile for main
Logfile started at 2026-08-21 13:34:25.197172
=== Log starts here ===

root@arm:~# run() { echo -n "$MARKER"; sh -c "$@"; echo "$MARKER $?"; }
root@arm:~# echo 'FWEQ''KPOOXV'
FWEQKPOOXV
root@arm:~# MARKER='EUOP''JHXEMG' run 'cat /sys/kernel/mva_test/regulators/buck1__set'
EUOPJHXEMG1800000
EUOPJHXEMG 0
root@arm:~# echo 'VVMN''NWZVQU'
VVMNNWZVQU
root@arm:~# MARKER='PCTJ''ECGXEV' run 'i2cget -y -f 2 0x60 0x21'
PCTJECGXEV0xce
PCTJECGXEV 0
root@arm:~# echo 'XLVJ''NXWCFM'
XLVJNXWCFM
root@arm:~# MARKER='MLKA''TALLMM' run 'cat /sys/kernel/mva_test/regulators/buck2__set'
MLKATALLMM1100000
MLKATALLMM 0
root@arm:~# echo 'HQKM''LBGQMV'
HQKMLBGQMV
root@arm:~# MARKER='GFZY''ABOTXB' run 'i2cget -y -f 2 0x60 0x22'
GFZYABOTXB0x78
GFZYABOTXB 0
root@arm:~# echo 'QUBW''WAZOOQ'
QUBWWAZOOQ
root@arm:~# MARKER='SXES''XSJKUS' run 'cat /sys/kernel/mva_test/regulators/buck3__set'
SXESXSJKUS850000
SXESXSJKUS 0
root@arm:~# echo 'WLHV''NLHBGN'
WLHVNLHBGN
root@arm:~# MARKER='VAGB''NTNHSN' run 'i2cget -y -f 2 0x60 0x23'
VAGBNTNHSN0x46
VAGBNTNHSN 0
root@arm:~# echo 'UJTV''TNLAWW'
UJTVTNLAWW
root@arm:~# MARKER='HVQP''FSXAJP' run 'cat /sys/kernel/mva_test/regulators/buck4__set'
HVQPFSXAJP850000
HVQPFSXAJP 0
root@arm:~# echo 'TCHW''OWGXYF'
TCHWOWGXYF
root@arm:~# MARKER='EHFL''BFXJGK' run 'i2cget -y -f 2 0x60 0x24'
EHFLBFXJGK0x46
EHFLBFXJGK 0
root@arm:~# echo 'SGJX''ZKQLAX'
SGJXZKQLAX
root@arm:~# MARKER='GXEB''ALMGWO' run 'cat /sys/kernel/mva_test/regulators/buck5__set'
GXEBALMGWO900000
GXEBALMGWO 0
root@arm:~# echo 'VENN''KETOQL'
VENNKETOQL
root@arm:~# MARKER='XTZH''KXXLHA' run 'i2cget -y -f 2 0x60 0x25'
XTZHKXXLHA0x18
XTZHKXXLHA 0
root@arm:~# echo 'ABJU''UBTAWB'
ABJUUBTAWB
root@arm:~# MARKER='XSQG''XKGSZG' run 'cat /sys/kernel/mva_test/regulators/buck6__set'
XSQGXKGSZG1200000
XSQGXKGSZG 0
root@arm:~# echo 'TZPW''VFXZMP'
TZPWVFXZMP
root@arm:~# MARKER='MFAY''UQPPMQ' run 'i2cget -y -f 2 0x60 0x26'
MFAYUQPPMQ0x24
MFAYUQPPMQ 0
root@arm:~# echo 'AFWM''APFNJB'
AFWMAPFNJB
root@arm:~# MARKER='XFAU''AVJEKZ' run 'cat /sys/kernel/mva_test/regulators/buck7__set'
XFAUAVJEKZ3300000
XFAUAVJEKZ 0
root@arm:~# echo 'JEHU''JMNFUH'
JEHUJMNFUH
root@arm:~# MARKER='HLKM''QTFBWB' run 'i2cget -y -f 2 0x60 0x27'
HLKMQTFBWB0x78
HLKMQTFBWB 0
root@arm:~# Labgrid Console Logfile for main
Logfile started at 2026-08-21 13:34:30.419843
=== Log starts here ===

root@arm:~# run() { echo -n "$MARKER"; sh -c "$@"; echo "$MARKER $?"; }
root@arm:~# echo 'FWZS''VHOMMB'
FWZSVHOMMB
root@arm:~# MARKER='JGYU''MJGXEV' run 'i2cget -y -f 2 0x60 0x21'
JGYUMJGXEV0xce
JGYUMJGXEV 0
root@arm:~# echo 'EPSE''FZPKEZ'
EPSEFZPKEZ
root@arm:~# MARKER='AFLG''WYMLLO' run 'echo 1800000 1800000 > /sys/kernel/mva_tesst/regulators/buck1_set'
AFLGWYMLLOAFLGWYMLLO 0
root@arm:~# echo 'FSKX''JOCWGF'
FSKXJOCWGF
root@arm:~# MARKER='LOKB''CZGAYZ' run 'i2cget -f -y 2 0x60 0x28'
LOKBCZGAYZ0x00
LOKBCZGAYZ 0
root@arm:~# echo 'VZZA''QCTNFG'
VZZAQCTNFG
root@arm:~# MARKER='HMKS''OJLHUS' run 'i2cget -y -f 2 0x60 0x21'
HMKSOJLHUS0xce
HMKSOJLHUS 0
root@arm:~# echo 'EUHB''LTCECG'
EUHBLTCECG
root@arm:~# MARKER='XYYK''UJPPGH' run 'i2cget -y -f 2 0x60 0x21'
XYYKUJPPGH0xce
XYYKUJPPGH 0
root@arm:~# echo 'YNLS''NYVVYL'
YNLSNYVVYL
root@arm:~# MARKER='USKM''EZGMWT' run 'echo 1810000 1810000 > /sys/kernel/mva_tesst/regulators/buck1_set'
USKMEZGMWTUSKMEZGMWT 0
root@arm:~# echo 'MCQK''MHVCLN'
MCQKMHVCLN
root@arm:~# MARKER='MLFO''EGXLHU' run 'i2cget -f -y 2 0x60 0x28'
MLFOEGXLHU0x01
MLFOEGXLHU 0
root@arm:~# echo 'YZLJ''PXOLHG'
YZLJPXOLHG
root@arm:~# MARKER='JALX''KXBNHX' run 'i2cget -y -f 2 0x60 0x21'
JALXKXBNHX0xce
JALXKXBNHX 0
root@arm:~# echo 'UOWJ''VZJQPU'
UOWJVZJQPU
root@arm:~# MARKER='WSNP''NOELKO' run 'i2cget -y -f 2 0x60 0x21'
WSNPNOELKO0xce
WSNPNOELKO 0
root@arm:~# echo 'UNQP''SSMCTY'
UNQPSSMCTY
root@arm:~# MARKER='ZULX''YUZFFK' run 'echo 1820000 1820000 > /sys/kernel/mva_tesst/regulators/buck1_set'
ZULXYUZFFKZULXYUZFFK 0
root@arm:~# echo 'GJZO''NLUYQA'
GJZONLUYQA
root@arm:~# MARKER='UPXW''WAHOWL' run 'i2cget -f -y 2 0x60 0x28'
UPXWWAHOWL0x02
UPXWWAHOWL 0
root@arm:~# echo 'LSTJ''JTJCZH'
LSTJJTJCZH
root@arm:~# MARKER='EQCY''WABBTS' run 'i2cget -y -f 2 0x60 0x21'
EQCYWABBTS0xce
EQCYWABBTS 0
root@arm:~# echo 'BKTP''BQUUAC'
BKTPBQUUAC
root@arm:~# MARKER='OCXB''LMCXCE' run 'i2cget -y -f 2 0x60 0x21'
OCXBLMCXCE0xce
OCXBLMCXCE 0
root@arm:~# echo 'FKBL''JMLPGL'
FKBLJMLPGL
root@arm:~# MARKER='UXEB''OKFYPX' run 'echo 1830000 1830000 > /sys/kernel/mva_tesst/regulators/buck1_set'
UXEBOKFYPXUXEBOKFYPX 0
root@arm:~# echo 'XXNE''AQNGYY'
XXNEAQNGYY
root@arm:~# MARKER='OZFZ''QQTUTU' run 'i2cget -f -y 2 0x60 0x28'
OZFZQQTUTU0x03
OZFZQQTUTU 0
root@arm:~# echo 'HZYZ''KMEFLS'
HZYZKMEFLS
root@arm:~# MARKER='SBMX''BJOBJG' run 'i2cget -y -f 2 0x60 0x21'
SBMXBJOBJG0xce
SBMXBJOBJG 0
root@arm:~# echo 'YKPS''MEQKPA'
YKPSMEQKPA
root@arm:~# MARKER='ZZLA''KVMJBC' run 'i2cget -y -f 2 0x60 0x21'
ZZLAKVMJBC0xce
ZZLAKVMJBC 0
root@arm:~# echo 'YGCN''MPFGAF'
YGCNMPFGAF
root@arm:~# MARKER='GXEC''BQKTEP' run 'echo 1840000 1840000 > /sys/kernel/mva_tesst/regulators/buck1_set'
GXECBQKTEPGXECBQKTEP 0
root@arm:~# echo 'TBKU''EWNYEN'
TBKUEWNYEN
root@arm:~# MARKER='PKUM''HTUQKG' run 'i2cget -f -y 2 0x60 0x28'
PKUMHTUQKG0x04
PKUMHTUQKG 0
root@arm:~# echo 'YQWU''TQATZV'
YQWUTQATZV
root@arm:~# MARKER='QGWV''FCWUZG' run 'i2cget -y -f 2 0x60 0x21'
QGWVFCWUZG0xce
QGWVFCWUZG 0
root@arm:~# echo 'SASQ''UUMPMF'
SASQUUMPMF
root@arm:~# MARKER='NUBV''UZNOHN' run 'i2cget -y -f 2 0x60 0x21'
NUBVUZNOHN0xce
NUBVUZNOHN 0
root@arm:~# echo 'WNAM''JMZPQA'
WNAMJMZPQA
root@arm:~# MARKER='HCZQ''HTJGJX' run 'echo 1850000 1850000 > /sys/kernel/mva_tesst/regulators/buck1_set'
HCZQHTJGJXHCZQHTJGJX 0
root@arm:~# echo 'UGNY''EKEAUC'
UGNYEKEAUC
root@arm:~# MARKER='HJTQ''WAZAVA' run 'i2cget -f -y 2 0x60 0x28'
HJTQWAZAVA0x05
HJTQWAZAVA 0
root@arm:~# echo 'KMSW''JVMFFZ'
KMSWJVMFFZ
root@arm:~# MARKER='LJOL''GUYFCN' run 'i2cget -y -f 2 0x60 0x21'
LJOLGUYFCN0xce
LJOLGUYFCN 0
root@arm:~# echo 'WEJZ''HWOJBU'
WEJZHWOJBU
root@arm:~# MARKER='AHBZ''WCAVGQ' run 'i2cget -y -f 2 0x60 0x21'
AHBZWCAVGQ0xce
AHBZWCAVGQ 0
root@arm:~# echo 'STPP''MAOQVU'
STPPMAOQVU
root@arm:~# MARKER='AVCF''OPWZFF' run 'echo 1860000 1860000 > /sys/kernel/mva_tesst/regulators/buck1_set'
AVCFOPWZFFAVCFOPWZFF 0
root@arm:~# echo 'WOJJ''ETFAQO'
WOJJETFAQO
root@arm:~# MARKER='ABNP''HGPHOV' run 'i2cget -f -y 2 0x60 0x28'
ABNPHGPHOV0x06
ABNPHGPHOV 0
root@arm:~# echo 'UTJU''WKZZNV'
UTJUWKZZNV
root@arm:~# MARKER='FSAK''EZQATJ' run 'i2cget -y -f 2 0x60 0x21'
FSAKEZQATJ0xce
FSAKEZQATJ 0
root@arm:~# echo 'CMQO''VUMSEG'
CMQOVUMSEG
root@arm:~# MARKER='POUA''KJOTLZ' run 'i2cget -y -f 2 0x60 0x21'
POUAKJOTLZ0xce
POUAKJOTLZ 0
root@arm:~# echo 'BEEK''XVQLBG'
BEEKXVQLBG
root@arm:~# MARKER='WZLG''ZTCLMJ' run 'echo 1870000 1870000 > /sys/kernel/mva_tesst/regulators/buck1_set'
WZLGZTCLMJWZLGZTCLMJ 0
root@arm:~# echo 'WBVN''YGKKXP'
WBVNYGKKXP
root@arm:~# MARKER='SEBX''MLFWQC' run 'i2cget -f -y 2 0x60 0x28'
SEBXMLFWQC0x07
SEBXMLFWQC 0
root@arm:~# echo 'CKCH''GUOLQV'
CKCHGUOLQV
root@arm:~# MARKER='MXSM''OQAYQN' run 'i2cget -y -f 2 0x60 0x21'
MXSMOQAYQN0xce
MXSMOQAYQN 0
root@arm:~# echo 'WLGE''HNSGCS'
WLGEHNSGCS
root@arm:~# MARKER='FHCF''YLPWNZ' run 'i2cget -y -f 2 0x60 0x21'
FHCFYLPWNZ0xce
FHCFYLPWNZ 0
root@arm:~# echo 'UJPM''NCLYQM'
UJPMNCLYQM
root@arm:~# MARKER='JZFU''AFWYHF' run 'echo 1880000 1880000 > /sys/kernel/mva_tesst/regulators/buck1_set'
JZFUAFWYHFJZFUAFWYHF 0
root@arm:~# echo 'WZHY''CMHFQV'
WZHYCMHFQV
root@arm:~# MARKER='NOXE''NMQXGP' run 'i2cget -f -y 2 0x60 0x28'
NOXENMQXGP0x08
NOXENMQXGP 0
root@arm:~# echo 'SPFZ''OFFLKE'
SPFZOFFLKE
root@arm:~# MARKER='MQPO''ANGUWP' run 'i2cget -y -f 2 0x60 0x21'
MQPOANGUWP0xce
MQPOANGUWP 0
root@arm:~# echo 'ZBOQ''VKJXHX'
ZBOQVKJXHX
root@arm:~# MARKER='OJOF''NJLNYP' run 'i2cget -y -f 2 0x60 0x21'
OJOFNJLNYP0xce
OJOFNJLNYP 0
root@arm:~# echo 'NNNN''EKKZZK'
NNNNEKKZZK
root@arm:~# MARKER='OWLL''OOOOWV' run 'echo 1890000 1890000 > /sys/kernel/mva_tesst/regulators/buck1_set'
OWLLOOOOWVOWLLOOOOWV 0
root@arm:~# echo 'LBJH''BWEWGE'
LBJHBWEWGE
root@arm:~# MARKER='SCZM''UQLSKG' run 'i2cget -f -y 2 0x60 0x28'
SCZMUQLSKG0x09
SCZMUQLSKG 0
root@arm:~# echo 'KBKX''XSQVWJ'
KBKXXSQVWJ
root@arm:~# MARKER='VLKX''XXAENK' run 'i2cget -y -f 2 0x60 0x21'
VLKXXXAENK0xce
VLKXXXAENK 0
root@arm:~# echo 'OFZJ''EMPHHG'
OFZJEMPHHG
root@arm:~# MARKER='AMVY''LPMFWG' run 'i2cget -y -f 2 0x60 0x21'
AMVYLPMFWG0xce
AMVYLPMFWG 0
root@arm:~# echo 'EAWE''EQNXEK'
EAWEEQNXEK
root@arm:~# MARKER='EMZA''KZHJBY' run 'echo 1900000 1900000 > /sys/kernel/mva_tesst/regulators/buck1_set'
EMZAKZHJBYEMZAKZHJBY 0
root@arm:~# echo 'SYWM''PMKXBK'
SYWMPMKXBK
root@arm:~# MARKER='FCVQ''YJOYGS' run 'i2cget -f -y 2 0x60 0x28'
FCVQYJOYGS0x0a
FCVQYJOYGS 0
root@arm:~# echo 'HXVT''MHJBCY'
HXVTMHJBCY
root@arm:~# MARKER='PSPJ''THGXSL' run 'i2cget -y -f 2 0x60 0x21'
PSPJTHGXSL0xce
PSPJTHGXSL 0
root@arm:~# echo 'LWJL''UZGTVC'
LWJLUZGTVC
root@arm:~# MARKER='BNZV''SLXPCL' run 'i2cget -y -f 2 0x60 0x21'
BNZVSLXPCL0xce
BNZVSLXPCL 0
root@arm:~# echo 'FZBN''KQKCYU'
FZBNKQKCYU
root@arm:~# MARKER='CBFN''TSZWTX' run 'echo 1910000 1910000 > /sys/kernel/mva_tesst/regulators/buck1_set'
CBFNTSZWTXCBFNTSZWTX 0
root@arm:~# echo 'YCGB''EXLXZM'
YCGBEXLXZM
root@arm:~# MARKER='WCQN''SBVOFK' run 'i2cget -f -y 2 0x60 0x28'
WCQNSBVOFK0x0b
WCQNSBVOFK 0
root@arm:~# echo 'NAKB''MLAJBY'
NAKBMLAJBY
root@arm:~# MARKER='BCXM''BMTGWY' run 'i2cget -y -f 2 0x60 0x21'
BCXMBMTGWY0xce
BCXMBMTGWY 0
root@arm:~# echo 'XJOV''YNSYXP'
XJOVYNSYXP
root@arm:~# MARKER='NKZX''WZWPKS' run 'i2cget -y -f 2 0x60 0x21'
NKZXWZWPKS0xce
NKZXWZWPKS 0
root@arm:~# echo 'OOZZ''VJXWWB'
OOZZVJXWWB
root@arm:~# MARKER='ZHMS''HQKETK' run 'echo 1920000 1920000 > /sys/kernel/mva_tesst/regulators/buck1_set'
ZHMSHQKETKZHMSHQKETK 0
root@arm:~# echo 'UXBY''EOKACX'
UXBYEOKACX
root@arm:~# MARKER='ZYLM''VGAZOA' run 'i2cget -f -y 2 0x60 0x28'
ZYLMVGAZOA0x0c
ZYLMVGAZOA 0
root@arm:~# echo 'ALOQ''AAOPSC'
ALOQAAOPSC
root@arm:~# MARKER='EEZG''CNHLZK' run 'i2cget -y -f 2 0x60 0x21'
EEZGCNHLZK0xce
EEZGCNHLZK 0
root@arm:~# echo 'JPTV''PUWZBO'
JPTVPUWZBO
root@arm:~# MARKER='LKJU''ECBWCT' run 'i2cget -y -f 2 0x60 0x21'
LKJUECBWCT0xce
LKJUECBWCT 0
root@arm:~# echo 'EOBE''ZGGAJU'
EOBEZGGAJU
root@arm:~# MARKER='CZEF''YTQJZP' run 'echo 1930000 1930000 > /sys/kernel/mva_tesst/regulators/buck1_set'
CZEFYTQJZPCZEFYTQJZP 0
root@arm:~# echo 'FVZA''PNZVOX'
FVZAPNZVOX
root@arm:~# MARKER='VPUZ''LSZXUL' run 'i2cget -f -y 2 0x60 0x28'
VPUZLSZXUL0x0d
VPUZLSZXUL 0
root@arm:~# echo 'TBFQ''VATKYP'
TBFQVATKYP
root@arm:~# MARKER='MUXM''UCCMCT' run 'i2cget -y -f 2 0x60 0x21'
MUXMUCCMCT0xce
MUXMUCCMCT 0
root@arm:~# echo 'CCLE''TPAVFT'
CCLETPAVFT
root@arm:~# MARKER='FMWC''YTCFGJ' run 'i2cget -y -f 2 0x60 0x21'
FMWCYTCFGJ0xce
FMWCYTCFGJ 0
root@arm:~# echo 'VLSH''TNPCZT'
VLSHTNPCZT
root@arm:~# MARKER='PHZH''UVYGZQ' run 'echo 1940000 1940000 > /sys/kernel/mva_tesst/regulators/buck1_set'
PHZHUVYGZQPHZHUVYGZQ 0
root@arm:~# echo 'UXUS''MKHUMJ'
UXUSMKHUMJ
root@arm:~# MARKER='ZHSJ''PGHPXW' run 'i2cget -f -y 2 0x60 0x28'
ZHSJPGHPXW0x0e
ZHSJPGHPXW 0
root@arm:~# echo 'SGJO''SBYJPW'
SGJOSBYJPW
root@arm:~# MARKER='JHPB''BFQWMG' run 'i2cget -y -f 2 0x60 0x21'
JHPBBFQWMG0xce
JHPBBFQWMG 0
root@arm:~# echo 'VKKO''BSCHQV'
VKKOBSCHQV
root@arm:~# MARKER='KWFV''EPEWMM' run 'i2cget -y -f 2 0x60 0x21'
KWFVEPEWMM0xce
KWFVEPEWMM 0
root@arm:~# echo 'UHTG''XSHKMJ'
UHTGXSHKMJ
root@arm:~# MARKER='OXHF''TTLMNK' run 'echo 1950000 1950000 > /sys/kernel/mva_tesst/regulators/buck1_set'
OXHFTTLMNKOXHFTTLMNK 0
root@arm:~# echo 'LJKZ''PGBFMS'
LJKZPGBFMS
root@arm:~# MARKER='AQXJ''WXUWEY' run 'i2cget -f -y 2 0x60 0x28'
AQXJWXUWEY0x0f
AQXJWXUWEY 0
root@arm:~# echo 'TZTX''FXMCWO'
TZTXFXMCWO
root@arm:~# MARKER='NNSQ''VVLATL' run 'i2cget -y -f 2 0x60 0x21'
NNSQVVLATL0xce
NNSQVVLATL 0
root@arm:~# echo 'OFTP''MMCMVW'
OFTPMMCMVW
root@arm:~# MARKER='KYAM''TKMGQQ' run 'i2cget -y -f 2 0x60 0x21'
KYAMTKMGQQ0xce
KYAMTKMGQQ 0
root@arm:~# echo 'WXNL''BTPKCW'
WXNLBTPKCW
root@arm:~# MARKER='HFWQ''YOCBBF' run 'echo 1960000 1960000 > /sys/kernel/mva_tesst/regulators/buck1_set'
HFWQYOCBBFHFWQYOCBBF 0
root@arm:~# echo 'HJAA''NBQQHX'
HJAANBQQHX
root@arm:~# MARKER='OXNP''CMHVCG' run 'i2cget -f -y 2 0x60 0x28'
OXNPCMHVCG0x10
OXNPCMHVCG 0
root@arm:~# echo 'MCNU''JGQAXG'
MCNUJGQAXG
root@arm:~# MARKER='AHEY''PYVPMS' run 'i2cget -y -f 2 0x60 0x21'
AHEYPYVPMS0xce
AHEYPYVPMS 0
root@arm:~# echo 'XLKK''ZUOPAG'
XLKKZUOPAG
root@arm:~# MARKER='ZGFA''EEFMYX' run 'i2cget -y -f 2 0x60 0x21'
ZGFAEEFMYX0xce
ZGFAEEFMYX 0
root@arm:~# echo 'XKOU''KYVHMP'
XKOUKYVHMP
root@arm:~# MARKER='YLVU''LBEKKV' run 'echo 1970000 1970000 > /sys/kernel/mva_tesst/regulators/buck1_set'
YLVULBEKKVYLVULBEKKV 0
root@arm:~# echo 'TTBT''VEJHCZ'
TTBTVEJHCZ
root@arm:~# MARKER='GJWA''ZMYLXA' run 'i2cget -f -y 2 0x60 0x28'
GJWAZMYLXA0x11
GJWAZMYLXA 0
root@arm:~# echo 'PZFH''YLOPHY'
PZFHYLOPHY
root@arm:~# MARKER='NTJQ''KGLKHT' run 'i2cget -y -f 2 0x60 0x21'
NTJQKGLKHT0xce
NTJQKGLKHT 0
root@arm:~# echo 'NHWJ''NALPHY'
NHWJNALPHY
root@arm:~# MARKER='GLGP''QNBJSP' run 'i2cget -y -f 2 0x60 0x21'
GLGPQNBJSP0xce
GLGPQNBJSP 0
root@arm:~# echo 'SFKM''QVNEYC'
SFKMQVNEYC
root@arm:~# MARKER='MXBV''CBPEOC' run 'echo 1980000 1980000 > /sys/kernel/mva_tesst/regulators/buck1_set'
MXBVCBPEOCMXBVCBPEOC 0
root@arm:~# echo 'KUYL''VNKEEX'
KUYLVNKEEX
root@arm:~# MARKER='BOSY''HXAULH' run 'i2cget -f -y 2 0x60 0x28'
BOSYHXAULH0x12
BOSYHXAULH 0
root@arm:~# echo 'BUTK''JMHXMG'
BUTKJMHXMG
root@arm:~# MARKER='GAOW''FCPMGC' run 'i2cget -y -f 2 0x60 0x21'
GAOWFCPMGC0xce
GAOWFCPMGC 0
root@arm:~# echo 'TWGJ''OWELCF'
TWGJOWELCF
root@arm:~# MARKER='BNAS''BQKVVG' run 'i2cget -y -f 2 0x60 0x21'
BNASBQKVVG0xce
BNASBQKVVG 0
root@arm:~# echo 'OSCF''HEKEUB'
OSCFHEKEUB
root@arm:~# MARKER='SAFK''OCKFAT' run 'echo 1990000 1990000 > /sys/kernel/mva_tesst/regulators/buck1_set'
SAFKOCKFATSAFKOCKFAT 0
root@arm:~# echo 'TTYO''NEJZGA'
TTYONEJZGA
root@arm:~# MARKER='UFLV''TZMKYW' run 'i2cget -f -y 2 0x60 0x28'
UFLVTZMKYW0x13
UFLVTZMKYW 0
root@arm:~# echo 'MFYF''YFOTLG'
MFYFYFOTLG
root@arm:~# MARKER='LHPS''ETVSQK' run 'i2cget -y -f 2 0x60 0x21'
LHPSETVSQK0xce
LHPSETVSQK 0
root@arm:~# echo 'AUEL''WYCLAC'
AUELWYCLAC
root@arm:~# MARKER='GKZK''HWOSLC' run 'i2cget -y -f 2 0x60 0x21'
GKZKHWOSLC0xce
GKZKHWOSLC 0
root@arm:~# echo 'QASM''QHPQTL'
QASMQHPQTL
root@arm:~# MARKER='XXSZ''AQZMBG' run 'echo 2000000 2000000 > /sys/kernel/mva_tesst/regulators/buck1_set'
XXSZAQZMBGXXSZAQZMBG 0
root@arm:~# echo 'ZZBT''CSJANJ'
ZZBTCSJANJ
root@arm:~# MARKER='MPQC''BSKATL' run 'i2cget -f -y 2 0x60 0x28'
MPQCBSKATL0x14
MPQCBSKATL 0
root@arm:~# echo 'PZUB''XYUNJJ'
PZUBXYUNJJ
root@arm:~# MARKER='EHVL''ZYTQUE' run 'i2cget -y -f 2 0x60 0x21'
EHVLZYTQUE0xce
EHVLZYTQUE 0
root@arm:~# echo 'UXOG''QYVVEO'
UXOGQYVVEO
root@arm:~# MARKER='JSBX''OGLAVF' run 'i2cget -y -f 2 0x60 0x21'
JSBXOGLAVF0xce
JSBXOGLAVF 0
root@arm:~# echo 'VEPF''PLSOTP'
VEPFPLSOTP
root@arm:~# MARKER='OJEJ''NFZPWC' run 'echo 2010000 2010000 > /sys/kernel/mva_tesst/regulators/buck1_set'
OJEJNFZPWCOJEJNFZPWC 0
root@arm:~# echo 'XWUE''VLJYCL'
XWUEVLJYCL
root@arm:~# MARKER='YGLA''KJTSNL' run 'i2cget -f -y 2 0x60 0x28'
YGLAKJTSNL0x15
YGLAKJTSNL 0
root@arm:~# echo 'UZLQ''CFMJOU'
UZLQCFMJOU
root@arm:~# MARKER='NBVY''JPOSQK' run 'i2cget -y -f 2 0x60 0x21'
NBVYJPOSQK0xce
NBVYJPOSQK 0
root@arm:~# echo 'QOTS''EWHJWB'
QOTSEWHJWB
root@arm:~# MARKER='AKEL''GYTNKU' run 'i2cget -y -f 2 0x60 0x21'
AKELGYTNKU0xce
AKELGYTNKU 0
root@arm:~# echo 'UBWH''JWAQTA'
UBWHJWAQTA
root@arm:~# MARKER='HKWN''VGQYOA' run 'echo 2020000 2020000 > /sys/kernel/mva_tesst/regulators/buck1_set'
HKWNVGQYOAHKWNVGQYOA 0
root@arm:~# echo 'BYLX''YPXQJC'
BYLXYPXQJC
root@arm:~# MARKER='VFXJ''HXSNVV' run 'i2cget -f -y 2 0x60 0x28'
VFXJHXSNVV0x16
VFXJHXSNVV 0
root@arm:~# echo 'LCNN''HXVLZK'
LCNNHXVLZK
root@arm:~# MARKER='FYZL''PZNQHY' run 'i2cget -y -f 2 0x60 0x21'
FYZLPZNQHY0xce
FYZLPZNQHY 0
root@arm:~# echo 'OASW''CUBPYP'
OASWCUBPYP
root@arm:~# MARKER='EPLU''WKOTQU' run 'i2cget -y -f 2 0x60 0x21'
EPLUWKOTQU0xce
EPLUWKOTQU 0
root@arm:~# echo 'GFFO''BXCULW'
GFFOBXCULW
root@arm:~# MARKER='LOAL''HETETS' run 'echo 2030000 2030000 > /sys/kernel/mva_tesst/regulators/buck1_set'
LOALHETETSLOALHETETS 0
root@arm:~# echo 'SVTT''CUXMEQ'
SVTTCUXMEQ
root@arm:~# MARKER='CNXV''ZJZTOP' run 'i2cget -f -y 2 0x60 0x28'
CNXVZJZTOP0x17
CNXVZJZTOP 0
root@arm:~# echo 'GFOQ''HKSJQM'
GFOQHKSJQM
root@arm:~# MARKER='XQXP''SCLGOW' run 'i2cget -y -f 2 0x60 0x21'
XQXPSCLGOW0xce
XQXPSCLGOW 0
root@arm:~# echo 'VWMG''MEOLUT'
VWMGMEOLUT
root@arm:~# MARKER='WEBU''EZKTJB' run 'i2cget -y -f 2 0x60 0x21'
WEBUEZKTJB0xce
WEBUEZKTJB 0
root@arm:~# echo 'SKQO''SLJZBZ'
SKQOSLJZBZ
root@arm:~# MARKER='SGVG''BFBKTU' run 'echo 2040000 2040000 > /sys/kernel/mva_tesst/regulators/buck1_set'
SGVGBFBKTUSGVGBFBKTU 0
root@arm:~# echo 'SKHQ''NPCKFB'
SKHQNPCKFB
root@arm:~# MARKER='UEMJ''ZJJOJQ' run 'i2cget -f -y 2 0x60 0x28'
UEMJZJJOJQ0x18
UEMJZJJOJQ 0
root@arm:~# echo 'PWHK''UHSQOX'
PWHKUHSQOX
root@arm:~# MARKER='PCLT''PXYSXX' run 'i2cget -y -f 2 0x60 0x21'
PCLTPXYSXX0xce
PCLTPXYSXX 0
root@arm:~# echo 'AQKQ''VTUGHV'
AQKQVTUGHV
root@arm:~# MARKER='WTQN''JCMSOF' run 'i2cget -y -f 2 0x60 0x21'
WTQNJCMSOF0xce
WTQNJCMSOF 0
root@arm:~# echo 'XMQG''FYEUZX'
XMQGFYEUZX
root@arm:~# MARKER='MEXB''ALGTSL' run 'echo 2050000 2050000 > /sys/kernel/mva_tesst/regulators/buck1_set'
MEXBALGTSLMEXBALGTSL 0
root@arm:~# echo 'ZPVB''FZCSOQ'
ZPVBFZCSOQ
root@arm:~# MARKER='OYYN''JMMVLZ' run 'i2cget -f -y 2 0x60 0x28'
OYYNJMMVLZ0x19
OYYNJMMVLZ 0
root@arm:~# echo 'LXBX''EHXXET'
LXBXEHXXET
root@arm:~# MARKER='YOHC''LOFKEO' run 'i2cget -y -f 2 0x60 0x21'
YOHCLOFKEO0xce
YOHCLOFKEO 0
root@arm:~# echo 'ENSL''ZUKBJJ'
ENSLZUKBJJ
root@arm:~# MARKER='KBKG''PXJLFO' run 'i2cget -y -f 2 0x60 0x21'
KBKGPXJLFO0xce
KBKGPXJLFO 0
root@arm:~# echo 'CMOZ''KVJLOZ'
CMOZKVJLOZ
root@arm:~# MARKER='LZGL''CBLUGX' run 'echo 2060000 2060000 > /sys/kernel/mva_tesst/regulators/buck1_set'
LZGLCBLUGXLZGLCBLUGX 0
root@arm:~# echo 'SWWW''PPXAMO'
SWWWPPXAMO
root@arm:~# MARKER='EXCL''SLVAKM' run 'i2cget -f -y 2 0x60 0x28'
EXCLSLVAKM0x1a
EXCLSLVAKM 0
root@arm:~# echo 'CYQU''QQHJVC'
CYQUQQHJVC
root@arm:~# MARKER='COWT''HVTLJK' run 'i2cget -y -f 2 0x60 0x21'
COWTHVTLJK0xce
COWTHVTLJK 0
root@arm:~# echo 'BZHH''YACBAX'
BZHHYACBAX
root@arm:~# MARKER='AQSM''PTFHSN' run 'i2cget -y -f 2 0x60 0x21'
AQSMPTFHSN0xce
AQSMPTFHSN 0
root@arm:~# echo 'KAUO''ZNMBBN'
KAUOZNMBBN
root@arm:~# MARKER='CBJM''WZTMKT' run 'echo 2070000 2070000 > /sys/kernel/mva_tesst/regulators/buck1_set'
CBJMWZTMKTCBJMWZTMKT 0
root@arm:~# echo 'SPHY''OFYAOM'
SPHYOFYAOM
root@arm:~# MARKER='HLFL''JBWMMB' run 'i2cget -f -y 2 0x60 0x28'
HLFLJBWMMB0x1b
HLFLJBWMMB 0
root@arm:~# echo 'VYEA''BNLWKY'
VYEABNLWKY
root@arm:~# MARKER='AJCH''MBEJFS' run 'i2cget -y -f 2 0x60 0x21'
AJCHMBEJFS0xce
AJCHMBEJFS 0
root@arm:~# echo 'YQZH''OOAYTL'
YQZHOOAYTL
root@arm:~# MARKER='FMSC''JLMKHA' run 'i2cget -y -f 2 0x60 0x21'
FMSCJLMKHA0xce
FMSCJLMKHA 0
root@arm:~# echo 'XKFV''NNHGZO'
XKFVNNHGZO
root@arm:~# MARKER='HSEE''CKLMBV' run 'echo 2080000 2080000 > /sys/kernel/mva_tesst/regulators/buck1_set'
HSEECKLMBVHSEECKLMBV 0
root@arm:~# echo 'YFZF''PTASVL'
YFZFPTASVL
root@arm:~# MARKER='ZLCS''MYZSCG' run 'i2cget -f -y 2 0x60 0x28'
ZLCSMYZSCG0x1c
ZLCSMYZSCG 0
root@arm:~# echo 'QKLA''CTOHZT'
QKLACTOHZT
root@arm:~# MARKER='AJWS''XVYYSO' run 'i2cget -y -f 2 0x60 0x21'
AJWSXVYYSO0xce
AJWSXVYYSO 0
root@arm:~# echo 'UTZQ''NZJOTU'
UTZQNZJOTU
root@arm:~# MARKER='MKYX''UBBNJM' run 'i2cget -y -f 2 0x60 0x21'
MKYXUBBNJM0xce
MKYXUBBNJM 0
root@arm:~# echo 'OOSF''UPCYGU'
OOSFUPCYGU
root@arm:~# MARKER='KSZH''JOYQPE' run 'echo 2090000 2090000 > /sys/kernel/mva_tesst/regulators/buck1_set'
KSZHJOYQPEKSZHJOYQPE 0
root@arm:~# echo 'BMXM''TMJFXH'
BMXMTMJFXH
root@arm:~# MARKER='QUMG''LWKQXJ' run 'i2cget -f -y 2 0x60 0x28'
QUMGLWKQXJ0x1d
QUMGLWKQXJ 0
root@arm:~# echo 'UBOM''ABNGYA'
UBOMABNGYA
root@arm:~# MARKER='MEZT''BNATBL' run 'i2cget -y -f 2 0x60 0x21'
MEZTBNATBL0xce
MEZTBNATBL 0
root@arm:~# echo 'KNGY''YZLNWP'
KNGYYZLNWP
root@arm:~# MARKER='THKX''FBGGZY' run 'i2cget -y -f 2 0x60 0x21'
THKXFBGGZY0xce
THKXFBGGZY 0
root@arm:~# echo 'UYLQ''GXXQQZ'
UYLQGXXQQZ
root@arm:~# MARKER='TVSC''NOEOQK' run 'echo 2100000 2100000 > /sys/kernel/mva_tesst/regulators/buck1_set'
TVSCNOEOQKTVSCNOEOQK 0
root@arm:~# echo 'KCUT''WBJEAS'
KCUTWBJEAS
root@arm:~# MARKER='SQNM''VUFOVU' run 'i2cget -f -y 2 0x60 0x28'
SQNMVUFOVU0x1e
SQNMVUFOVU 0
root@arm:~# echo 'FZKB''QEYQNV'
FZKBQEYQNV
root@arm:~# MARKER='HONC''GMQHVY' run 'i2cget -y -f 2 0x60 0x21'
HONCGMQHVY0xce
HONCGMQHVY 0
root@arm:~# echo 'WZWJ''EFYEEN'
WZWJEFYEEN
root@arm:~# MARKER='OYUF''UVFQZQ' run 'i2cget -y -f 2 0x60 0x21'
OYUFUVFQZQ0xce
OYUFUVFQZQ 0
root@arm:~# echo 'ULVE''YKGACS'
ULVEYKGACS
root@arm:~# MARKER='FZMP''TGLKHM' run 'echo 2110000 2110000 > /sys/kernel/mva_tesst/regulators/buck1_set'
FZMPTGLKHMFZMPTGLKHM 0
root@arm:~# echo 'WGQQ''HYGPYO'
WGQQHYGPYO
root@arm:~# MARKER='VEHV''JYKPFX' run 'i2cget -f -y 2 0x60 0x28'
VEHVJYKPFX0x1f
VEHVJYKPFX 0
root@arm:~# echo 'XTSZ''YTVGTE'
XTSZYTVGTE
root@arm:~# MARKER='YGAZ''FNEYZG' run 'i2cget -y -f 2 0x60 0x21'
YGAZFNEYZG0xce
YGAZFNEYZG 0
root@arm:~# echo 'QZWB''XBQVKT'
QZWBXBQVKT
root@arm:~# MARKER='NWFF''ZLPPJC' run 'i2cget -y -f 2 0x60 0x21'
NWFFZLPPJC0xce
NWFFZLPPJC 0
root@arm:~# echo 'GHUS''ASBMJX'
GHUSASBMJX
root@arm:~# MARKER='VJUQ''LEMVYK' run 'echo 1490000 1490000 > /sys/kernel/mva_tesst/regulators/buck1_set'
VJUQLEMVYKVJUQLEMVYK 0
root@arm:~# echo 'MAMY''HGEBHV'
MAMYHGEBHV
root@arm:~# MARKER='JJZY''MOMQMG' run 'i2cget -f -y 2 0x60 0x28'
JJZYMOMQMG0x20
JJZYMOMQMG 0
root@arm:~# echo 'CWPE''QBENNB'
CWPEQBENNB
root@arm:~# MARKER='WXWG''YKXLWY' run 'i2cget -y -f 2 0x60 0x21'
WXWGYKXLWY0xce
WXWGYKXLWY 0
root@arm:~# echo 'QWCQ''HHQWTA'
QWCQHHQWTA
root@arm:~# MARKER='BCEV''VVLZFX' run 'i2cget -y -f 2 0x60 0x21'
BCEVVVLZFX0xce
BCEVVVLZFX 0
root@arm:~# echo 'UPOX''CCSHVP'
UPOXCCSHVP
root@arm:~# MARKER='ZBNW''NXVVEL' run 'echo 1500000 1500000 > /sys/kernel/mva_tesst/regulators/buck1_set'
ZBNWNXVVELZBNWNXVVEL 0
root@arm:~# echo 'VSXM''EGLBMX'
VSXMEGLBMX
root@arm:~# MARKER='PUAJ''WWVGHT' run 'i2cget -f -y 2 0x60 0x28'
PUAJWWVGHT0x21
PUAJWWVGHT 0
root@arm:~# echo 'MHJH''GOWCPX'
MHJHGOWCPX
root@arm:~# MARKER='SUNM''FOVWHS' run 'i2cget -y -f 2 0x60 0x21'
SUNMFOVWHS0xce
SUNMFOVWHS 0
root@arm:~# echo 'BXMP''KBNNUV'
BXMPKBNNUV
root@arm:~# MARKER='OKVJ''PZJBFS' run 'i2cget -y -f 2 0x60 0x21'
OKVJPZJBFS0xce
OKVJPZJBFS 0
root@arm:~# echo 'VTBM''ENBATS'
VTBMENBATS
root@arm:~# MARKER='QEEK''ZHFJBB' run 'echo 1510000 1510000 > /sys/kernel/mva_tesst/regulators/buck1_set'
QEEKZHFJBBQEEKZHFJBB 0
root@arm:~# echo 'POQJ''LEBTVV'
POQJLEBTVV
root@arm:~# MARKER='GGJT''JMQGMZ' run 'i2cget -f -y 2 0x60 0x28'
GGJTJMQGMZ0x22
GGJTJMQGMZ 0
root@arm:~# echo 'GOVY''XXVAVC'
GOVYXXVAVC
root@arm:~# MARKER='QUGQ''BUHYLK' run 'i2cget -y -f 2 0x60 0x21'
QUGQBUHYLK0xce
QUGQBUHYLK 0
root@arm:~# echo 'FFOK''QWTKLP'
FFOKQWTKLP
root@arm:~# MARKER='SJVN''PLNPKQ' run 'i2cget -y -f 2 0x60 0x21'
SJVNPLNPKQ0xce
SJVNPLNPKQ 0
root@arm:~# echo 'LACF''GKAGYT'
LACFGKAGYT
root@arm:~# MARKER='AEMQ''XTEWUX' run 'echo 1520000 1520000 > /sys/kernel/mva_tesst/regulators/buck1_set'
AEMQXTEWUXAEMQXTEWUX 0
root@arm:~# echo 'GAPW''GAHUKH'
GAPWGAHUKH
root@arm:~# MARKER='UFMC''NOXSAB' run 'i2cget -f -y 2 0x60 0x28'
UFMCNOXSAB0x23
UFMCNOXSAB 0
root@arm:~# echo 'JMWY''OSQJOE'
JMWYOSQJOE
root@arm:~# MARKER='HEOC''TBSTGT' run 'i2cget -y -f 2 0x60 0x21'
HEOCTBSTGT0xce
HEOCTBSTGT 0
root@arm:~# echo 'SEZJ''CSWHAW'
SEZJCSWHAW
root@arm:~# MARKER='CQHZ''YVMSTK' run 'i2cget -y -f 2 0x60 0x21'
CQHZYVMSTK0xce
CQHZYVMSTK 0
root@arm:~# echo 'WMKK''CBQOZN'
WMKKCBQOZN
root@arm:~# MARKER='SGVL''BPFFFU' run 'echo 1530000 1530000 > /sys/kernel/mva_tesst/regulators/buck1_set'
SGVLBPFFFUSGVLBPFFFU 0
root@arm:~# echo 'WEJB''KMFVNN'
WEJBKMFVNN
root@arm:~# MARKER='OTOB''JAEYQS' run 'i2cget -f -y 2 0x60 0x28'
OTOBJAEYQS0x24
OTOBJAEYQS 0
root@arm:~# echo 'EXWZ''TYVWCX'
EXWZTYVWCX
root@arm:~# MARKER='LOQL''AWKFBO' run 'i2cget -y -f 2 0x60 0x21'
LOQLAWKFBO0xce
LOQLAWKFBO 0
root@arm:~# echo 'AKJK''TWLGWQ'
AKJKTWLGWQ
root@arm:~# MARKER='EUOF''UFEFEY' run 'i2cget -y -f 2 0x60 0x21'
EUOFUFEFEY0xce
EUOFUFEFEY 0
root@arm:~# echo 'NUAE''MZJZGG'
NUAEMZJZGG
root@arm:~# MARKER='MXGS''HGZNWM' run 'echo 1540000 1540000 > /sys/kernel/mva_tesst/regulators/buck1_set'
MXGSHGZNWMMXGSHGZNWM 0
root@arm:~# echo 'AYXO''GPVGXV'
AYXOGPVGXV
root@arm:~# MARKER='QQZK''NSXQYG' run 'i2cget -f -y 2 0x60 0x28'
QQZKNSXQYG0x25
QQZKNSXQYG 0
root@arm:~# echo 'WUFG''AJGZMU'
WUFGAJGZMU
root@arm:~# MARKER='MMXE''CFAFBF' run 'i2cget -y -f 2 0x60 0x21'
MMXECFAFBF0xce
MMXECFAFBF 0
root@arm:~# echo 'LJAB''YSELEA'
LJABYSELEA
root@arm:~# MARKER='ZLWN''LJEQAT' run 'i2cget -y -f 2 0x60 0x21'
ZLWNLJEQAT0xce
ZLWNLJEQAT 0
root@arm:~# echo 'ZAPF''FMOTXK'
ZAPFFMOTXK
root@arm:~# MARKER='NABJ''BECOWM' run 'echo 1550000 1550000 > /sys/kernel/mva_tesst/regulators/buck1_set'
NABJBECOWMNABJBECOWM 0
root@arm:~# echo 'LLJP''ZFVYXB'
LLJPZFVYXB
root@arm:~# MARKER='SJJT''NYPLOX' run 'i2cget -f -y 2 0x60 0x28'
SJJTNYPLOX0x26
SJJTNYPLOX 0
root@arm:~# echo 'BLSK''LNOGTS'
BLSKLNOGTS
root@arm:~# MARKER='TEXU''SXSOUF' run 'i2cget -y -f 2 0x60 0x21'
TEXUSXSOUF0xce
TEXUSXSOUF 0
root@arm:~# echo 'XYPG''JAQBCT'
XYPGJAQBCT
root@arm:~# MARKER='CGZU''LZXMAA' run 'i2cget -y -f 2 0x60 0x21'
CGZULZXMAA0xce
CGZULZXMAA 0
root@arm:~# echo 'MLFQ''LZAENY'
MLFQLZAENY
root@arm:~# MARKER='KPPA''GFKGHS' run 'echo 1560000 1560000 > /sys/kernel/mva_tesst/regulators/buck1_set'
KPPAGFKGHSKPPAGFKGHS 0
root@arm:~# echo 'VOTJ''LZEOAS'
VOTJLZEOAS
root@arm:~# MARKER='NQWT''LEZSNL' run 'i2cget -f -y 2 0x60 0x28'
NQWTLEZSNL0x27
NQWTLEZSNL 0
root@arm:~# echo 'WUOM''SNGTKZ'
WUOMSNGTKZ
root@arm:~# MARKER='YNXE''EBCCOF' run 'i2cget -y -f 2 0x60 0x21'
YNXEEBCCOF0xce
YNXEEBCCOF 0
root@arm:~# echo 'XKOQ''YUPFBN'
XKOQYUPFBN
root@arm:~# MARKER='XYKP''SJQZFV' run 'i2cget -y -f 2 0x60 0x21'
XYKPSJQZFV0xce
XYKPSJQZFV 0
root@arm:~# echo 'NKBX''QOCZVC'
NKBXQOCZVC
root@arm:~# MARKER='FUCB''LUUMXN' run 'echo 1570000 1570000 > /sys/kernel/mva_tesst/regulators/buck1_set'
FUCBLUUMXNFUCBLUUMXN 0
root@arm:~# echo 'EKAX''CEXMKB'
EKAXCEXMKB
root@arm:~# MARKER='OHLU''CGUYXU' run 'i2cget -f -y 2 0x60 0x28'
OHLUCGUYXU0x28
OHLUCGUYXU 0
root@arm:~# echo 'YEJZ''ZQHPPH'
YEJZZQHPPH
root@arm:~# MARKER='PGGL''XGJQEW' run 'i2cget -y -f 2 0x60 0x21'
PGGLXGJQEW0xce
PGGLXGJQEW 0
root@arm:~# echo 'OZLG''KVPXJE'
OZLGKVPXJE
root@arm:~# MARKER='YSHF''JXKSWO' run 'i2cget -y -f 2 0x60 0x21'
YSHFJXKSWO0xce
YSHFJXKSWO 0
root@arm:~# echo 'JOFU''ZMTVAP'
JOFUZMTVAP
root@arm:~# MARKER='CJYF''PMPGXO' run 'echo 1580000 1580000 > /sys/kernel/mva_tesst/regulators/buck1_set'
CJYFPMPGXOCJYFPMPGXO 0
root@arm:~# echo 'QWGM''EJWWMJ'
QWGMEJWWMJ
root@arm:~# MARKER='XJEL''KYLKLH' run 'i2cget -f -y 2 0x60 0x28'
XJELKYLKLH0x29
XJELKYLKLH 0
root@arm:~# echo 'XZOG''JPPKUF'
XZOGJPPKUF
root@arm:~# MARKER='BNHJ''XNLWAT' run 'i2cget -y -f 2 0x60 0x21'
BNHJXNLWAT0xce
BNHJXNLWAT 0
root@arm:~# echo 'SFOJ''YQFQXQ'
SFOJYQFQXQ
root@arm:~# MARKER='PPJY''FOETOT' run 'i2cget -y -f 2 0x60 0x21'
PPJYFOETOT0xce
PPJYFOETOT 0
root@arm:~# echo 'HSJO''ZZVPOZ'
HSJOZZVPOZ
root@arm:~# MARKER='HTCZ''GUYKYN' run 'echo 1590000 1590000 > /sys/kernel/mva_tesst/regulators/buck1_set'
HTCZGUYKYNHTCZGUYKYN 0
root@arm:~# echo 'MWLO''TFQOFV'
MWLOTFQOFV
root@arm:~# MARKER='OSFT''NVGSYL' run 'i2cget -f -y 2 0x60 0x28'
OSFTNVGSYL0x2a
OSFTNVGSYL 0
root@arm:~# echo 'BCJM''BQUBZM'
BCJMBQUBZM
root@arm:~# MARKER='MJPE''GSEQCN' run 'i2cget -y -f 2 0x60 0x21'
MJPEGSEQCN0xce
MJPEGSEQCN 0
root@arm:~# echo 'JVHU''GBEXJN'
JVHUGBEXJN
root@arm:~# MARKER='XXKE''FEZJWE' run 'i2cget -y -f 2 0x60 0x21'
XXKEFEZJWE0xce
XXKEFEZJWE 0
root@arm:~# echo 'TJTP''OMXVVP'
TJTPOMXVVP
root@arm:~# MARKER='OBPT''FWLQGS' run 'echo 1600000 1600000 > /sys/kernel/mva_tesst/regulators/buck1_set'
OBPTFWLQGSOBPTFWLQGS 0
root@arm:~# echo 'MBLY''CKPQOB'
MBLYCKPQOB
root@arm:~# MARKER='ZUNA''AENLWP' run 'i2cget -f -y 2 0x60 0x28'
ZUNAAENLWP0x2b
ZUNAAENLWP 0
root@arm:~# echo 'CLEP''VQTAOS'
CLEPVQTAOS
root@arm:~# MARKER='UOPC''ELUUQZ' run 'i2cget -y -f 2 0x60 0x21'
UOPCELUUQZ0xce
UOPCELUUQZ 0
root@arm:~# echo 'NZPA''JFYSSY'
NZPAJFYSSY
root@arm:~# MARKER='FKHK''ZPXBEM' run 'i2cget -y -f 2 0x60 0x21'
FKHKZPXBEM0xce
FKHKZPXBEM 0
root@arm:~# echo 'AUMK''XJLEGO'
AUMKXJLEGO
root@arm:~# MARKER='KYLP''VGGZEF' run 'echo 1610000 1610000 > /sys/kernel/mva_tesst/regulators/buck1_set'
KYLPVGGZEFKYLPVGGZEF 0
root@arm:~# echo 'NPWU''WYGMEV'
NPWUWYGMEV
root@arm:~# MARKER='CAKC''FMZFXA' run 'i2cget -f -y 2 0x60 0x28'
CAKCFMZFXA0x2c
CAKCFMZFXA 0
root@arm:~# echo 'HSMW''VZBVWM'
HSMWVZBVWM
root@arm:~# MARKER='JAQG''OCCMES' run 'i2cget -y -f 2 0x60 0x21'
JAQGOCCMES0xce
JAQGOCCMES 0
root@arm:~# echo 'TTMP''NZHLXS'
TTMPNZHLXS
root@arm:~# MARKER='UUTZ''PYMHOG' run 'i2cget -y -f 2 0x60 0x21'
UUTZPYMHOG0xce
UUTZPYMHOG 0
root@arm:~# echo 'GEYH''OZKOLJ'
GEYHOZKOLJ
root@arm:~# MARKER='QGTS''PANYYK' run 'echo 1620000 1620000 > /sys/kernel/mva_tesst/regulators/buck1_set'
QGTSPANYYKQGTSPANYYK 0
root@arm:~# echo 'GCGY''QTTFHM'
GCGYQTTFHM
root@arm:~# MARKER='JMYT''PJSQSF' run 'i2cget -f -y 2 0x60 0x28'
JMYTPJSQSF0x2d
JMYTPJSQSF 0
root@arm:~# echo 'YCFP''NBCXYJ'
YCFPNBCXYJ
root@arm:~# MARKER='HVQX''NUHBNQ' run 'i2cget -y -f 2 0x60 0x21'
HVQXNUHBNQ0xce
HVQXNUHBNQ 0
root@arm:~# echo 'KTGO''XAAONZ'
KTGOXAAONZ
root@arm:~# MARKER='EOPQ''CHQTNW' run 'i2cget -y -f 2 0x60 0x21'
EOPQCHQTNW0xce
EOPQCHQTNW 0
root@arm:~# echo 'GZBC''UOLUJK'
GZBCUOLUJK
root@arm:~# MARKER='PMEX''ZLEANK' run 'echo 1630000 1630000 > /sys/kernel/mva_tesst/regulators/buck1_set'
PMEXZLEANKPMEXZLEANK 0
root@arm:~# echo 'OXTO''WWEPYW'
OXTOWWEPYW
root@arm:~# MARKER='NGGS''CQOUHY' run 'i2cget -f -y 2 0x60 0x28'
NGGSCQOUHY0x2e
NGGSCQOUHY 0
root@arm:~# echo 'MSTV''TJOEQC'
MSTVTJOEQC
root@arm:~# MARKER='BXCW''FVGWOA' run 'i2cget -y -f 2 0x60 0x21'
BXCWFVGWOA0xce
BXCWFVGWOA 0
root@arm:~# echo 'CFMJ''WTXXMF'
CFMJWTXXMF
root@arm:~# MARKER='OGQG''NOXPBX' run 'i2cget -y -f 2 0x60 0x21'
OGQGNOXPBX0xce
OGQGNOXPBX 0
root@arm:~# echo 'ABEG''JBNPKT'
ABEGJBNPKT
root@arm:~# MARKER='NUNW''UVMTMU' run 'echo 1640000 1640000 > /sys/kernel/mva_tesst/regulators/buck1_set'
NUNWUVMTMUNUNWUVMTMU 0
root@arm:~# echo 'LNHJ''BYAXFU'
LNHJBYAXFU
root@arm:~# MARKER='EBVG''LJFKFW' run 'i2cget -f -y 2 0x60 0x28'
EBVGLJFKFW0x2f
EBVGLJFKFW 0
root@arm:~# echo 'XCZX''EPYYMJ'
XCZXEPYYMJ
root@arm:~# MARKER='LHQP''JAFQEM' run 'i2cget -y -f 2 0x60 0x21'
LHQPJAFQEM0xce
LHQPJAFQEM 0
root@arm:~# echo 'ETCU''VXWFWK'
ETCUVXWFWK
root@arm:~# MARKER='EYLZ''ZGNKEU' run 'i2cget -y -f 2 0x60 0x21'
EYLZZGNKEU0xce
EYLZZGNKEU 0
root@arm:~# echo 'XHOT''BJYBPK'
XHOTBJYBPK
root@arm:~# MARKER='AGSN''QNWYFP' run 'echo 1650000 1650000 > /sys/kernel/mva_tesst/regulators/buck1_set'
AGSNQNWYFPAGSNQNWYFP 0
root@arm:~# echo 'SWJB''WAOVPC'
SWJBWAOVPC
root@arm:~# MARKER='KVLT''SLTUTS' run 'i2cget -f -y 2 0x60 0x28'
KVLTSLTUTS0x30
KVLTSLTUTS 0
root@arm:~# echo 'YYAN''AFGOCQ'
YYANAFGOCQ
root@arm:~# MARKER='BZEZ''CYQXOJ' run 'i2cget -y -f 2 0x60 0x21'
BZEZCYQXOJ0xce
BZEZCYQXOJ 0
root@arm:~# echo 'KOKP''WPQBJW'
KOKPWPQBJW
root@arm:~# MARKER='VNJB''CBMZQN' run 'i2cget -y -f 2 0x60 0x21'
VNJBCBMZQN0xce
VNJBCBMZQN 0
root@arm:~# echo 'MJFA''VBELFE'
MJFAVBELFE
root@arm:~# MARKER='CNYH''ZSNVWB' run 'echo 1660000 1660000 > /sys/kernel/mva_tesst/regulators/buck1_set'
CNYHZSNVWBCNYHZSNVWB 0
root@arm:~# echo 'GFKO''ACHFVG'
GFKOACHFVG
root@arm:~# MARKER='CFMM''QUBTKO' run 'i2cget -f -y 2 0x60 0x28'
CFMMQUBTKO0x31
CFMMQUBTKO 0
root@arm:~# echo 'WGZP''UNGMTE'
WGZPUNGMTE
root@arm:~# MARKER='NNVS''UVUEOA' run 'i2cget -y -f 2 0x60 0x21'
NNVSUVUEOA0xce
NNVSUVUEOA 0
root@arm:~# echo 'ESLU''WBXYZB'
ESLUWBXYZB
root@arm:~# MARKER='KLTS''MWEXHY' run 'i2cget -y -f 2 0x60 0x21'
KLTSMWEXHY0xce
KLTSMWEXHY 0
root@arm:~# echo 'OCCJ''PBOWCP'
OCCJPBOWCP
root@arm:~# MARKER='JTMA''KEJQMO' run 'echo 1670000 1670000 > /sys/kernel/mva_tesst/regulators/buck1_set'
JTMAKEJQMOJTMAKEJQMO 0
root@arm:~# echo 'VAML''FWMXGS'
VAMLFWMXGS
root@arm:~# MARKER='VQUM''POSQJV' run 'i2cget -f -y 2 0x60 0x28'
VQUMPOSQJV0x32
VQUMPOSQJV 0
root@arm:~# echo 'TBXO''TMAFTQ'
TBXOTMAFTQ
root@arm:~# MARKER='BTEG''FSTCJW' run 'i2cget -y -f 2 0x60 0x21'
BTEGFSTCJW0xce
BTEGFSTCJW 0
root@arm:~# echo 'KZJY''SEKTJX'
KZJYSEKTJX
root@arm:~# MARKER='QKZJ''LMQKWX' run 'i2cget -y -f 2 0x60 0x21'
QKZJLMQKWX0xce
QKZJLMQKWX 0
root@arm:~# echo 'WWSF''CKPOVO'
WWSFCKPOVO
root@arm:~# MARKER='GVOS''WTXKUX' run 'echo 1680000 1680000 > /sys/kernel/mva_tesst/regulators/buck1_set'
GVOSWTXKUXGVOSWTXKUX 0
root@arm:~# echo 'MWAH''OYQFJH'
MWAHOYQFJH
root@arm:~# MARKER='JHUJ''NVTZAG' run 'i2cget -f -y 2 0x60 0x28'
JHUJNVTZAG0x33
JHUJNVTZAG 0
root@arm:~# echo 'NBEP''JLFFSB'
NBEPJLFFSB
root@arm:~# MARKER='ALUZ''MXSZGS' run 'i2cget -y -f 2 0x60 0x21'
ALUZMXSZGS0xce
ALUZMXSZGS 0
root@arm:~# echo 'SUXZ''VUUBFB'
SUXZVUUBFB
root@arm:~# MARKER='KWNT''XMLHPU' run 'i2cget -y -f 2 0x60 0x21'
KWNTXMLHPU0xce
KWNTXMLHPU 0
root@arm:~# echo 'FWKC''ATNUUF'
FWKCATNUUF
root@arm:~# MARKER='NESJ''ZWZJPP' run 'echo 1690000 1690000 > /sys/kernel/mva_tesst/regulators/buck1_set'
NESJZWZJPPNESJZWZJPP 0
root@arm:~# echo 'HPHJ''GFOPTB'
HPHJGFOPTB
root@arm:~# MARKER='UFAM''UYBENS' run 'i2cget -f -y 2 0x60 0x28'
UFAMUYBENS0x34
UFAMUYBENS 0
root@arm:~# echo 'BLFS''CCLZBU'
BLFSCCLZBU
root@arm:~# MARKER='KHWY''SLKFOC' run 'i2cget -y -f 2 0x60 0x21'
KHWYSLKFOC0xce
KHWYSLKFOC 0
root@arm:~# echo 'JWAE''QSOBAB'
JWAEQSOBAB
root@arm:~# MARKER='QLGG''NNHHXE' run 'i2cget -y -f 2 0x60 0x21'
QLGGNNHHXE0xce
QLGGNNHHXE 0
root@arm:~# echo 'ENUW''LLNQXS'
ENUWLLNQXS
root@arm:~# MARKER='FPVK''USJOLA' run 'echo 1700000 1700000 > /sys/kernel/mva_tesst/regulators/buck1_set'
FPVKUSJOLAFPVKUSJOLA 0
root@arm:~# echo 'FETY''GUUHCK'
FETYGUUHCK
root@arm:~# MARKER='AQFS''ZNKGFT' run 'i2cget -f -y 2 0x60 0x28'
AQFSZNKGFT0x35
AQFSZNKGFT 0
root@arm:~# echo 'BKAM''HKQVGA'
BKAMHKQVGA
root@arm:~# MARKER='WQEX''EZFBOB' run 'i2cget -y -f 2 0x60 0x21'
WQEXEZFBOB0xce
WQEXEZFBOB 0
root@arm:~# echo 'HBQY''WWLXWT'
HBQYWWLXWT
root@arm:~# MARKER='BUVX''XNJUHS' run 'i2cget -y -f 2 0x60 0x21'
BUVXXNJUHS0xce
BUVXXNJUHS 0
root@arm:~# echo 'ABVY''ELKEFY'
ABVYELKEFY
root@arm:~# MARKER='VVLL''EEFMOA' run 'echo 1710000 1710000 > /sys/kernel/mva_tesst/regulators/buck1_set'
VVLLEEFMOAVVLLEEFMOA 0
root@arm:~# echo 'TNMN''NTHJPF'
TNMNNTHJPF
root@arm:~# MARKER='XBWW''UUEZVT' run 'i2cget -f -y 2 0x60 0x28'
XBWWUUEZVT0x36
XBWWUUEZVT 0
root@arm:~# echo 'PUQC''QHJZOA'
PUQCQHJZOA
root@arm:~# MARKER='GUEF''LJVQWF' run 'i2cget -y -f 2 0x60 0x21'
GUEFLJVQWF0xce
GUEFLJVQWF 0
root@arm:~# echo 'XYCE''VNCGOG'
XYCEVNCGOG
root@arm:~# MARKER='VTJX''ENAAAF' run 'i2cget -y -f 2 0x60 0x21'
VTJXENAAAF0xce
VTJXENAAAF 0
root@arm:~# echo 'PQGF''HLUUCY'
PQGFHLUUCY
root@arm:~# MARKER='SXQF''QPLCEA' run 'echo 1720000 1720000 > /sys/kernel/mva_tesst/regulators/buck1_set'
SXQFQPLCEASXQFQPLCEA 0
root@arm:~# echo 'KPWP''UFCCGA'
KPWPUFCCGA
root@arm:~# MARKER='NMCF''ENLCPW' run 'i2cget -f -y 2 0x60 0x28'
NMCFENLCPW0x37
NMCFENLCPW 0
root@arm:~# echo 'HJGG''QEUSQX'
HJGGQEUSQX
root@arm:~# MARKER='SJNS''CUBOVY' run 'i2cget -y -f 2 0x60 0x21'
SJNSCUBOVY0xce
SJNSCUBOVY 0
root@arm:~# echo 'ZCHQ''VOGXCO'
ZCHQVOGXCO
root@arm:~# MARKER='CZYA''SEXTEA' run 'i2cget -y -f 2 0x60 0x21'
CZYASEXTEA0xce
CZYASEXTEA 0
root@arm:~# echo 'HNJU''XVZOXE'
HNJUXVZOXE
root@arm:~# MARKER='NFZT''JMGSAN' run 'echo 1730000 1730000 > /sys/kernel/mva_tesst/regulators/buck1_set'
NFZTJMGSANNFZTJMGSAN 0
root@arm:~# echo 'ZWHG''HQLOCQ'
ZWHGHQLOCQ
root@arm:~# MARKER='XCAB''YWPPUE' run 'i2cget -f -y 2 0x60 0x28'
XCABYWPPUE0x38
XCABYWPPUE 0
root@arm:~# echo 'FTJV''FOKZOP'
FTJVFOKZOP
root@arm:~# MARKER='PAUX''OFXBHL' run 'i2cget -y -f 2 0x60 0x21'
PAUXOFXBHL0xce
PAUXOFXBHL 0
root@arm:~# echo 'KQBL''EKUEMT'
KQBLEKUEMT
root@arm:~# MARKER='QFWV''SVBKCK' run 'i2cget -y -f 2 0x60 0x21'
QFWVSVBKCK0xce
QFWVSVBKCK 0
root@arm:~# echo 'OAMM''AQMBOU'
OAMMAQMBOU
root@arm:~# MARKER='GUES''JKHFCV' run 'echo 1740000 1740000 > /sys/kernel/mva_tesst/regulators/buck1_set'
GUESJKHFCVGUESJKHFCV 0
root@arm:~# echo 'CQZM''FMGWUF'
CQZMFMGWUF
root@arm:~# MARKER='TBLY''OTCENF' run 'i2cget -f -y 2 0x60 0x28'
TBLYOTCENF0x39
TBLYOTCENF 0
root@arm:~# echo 'JLOP''HFXAMH'
JLOPHFXAMH
root@arm:~# MARKER='BOXC''XWHTOB' run 'i2cget -y -f 2 0x60 0x21'
BOXCXWHTOB0xce
BOXCXWHTOB 0
root@arm:~# echo 'AUWN''GGKGHX'
AUWNGGKGHX
root@arm:~# MARKER='BBZG''FFFOLE' run 'i2cget -y -f 2 0x60 0x21'
BBZGFFFOLE0xce
BBZGFFFOLE 0
root@arm:~# echo 'OPMV''NTEKVQ'
OPMVNTEKVQ
root@arm:~# MARKER='BGHJ''ZBBQQT' run 'echo 1750000 1750000 > /sys/kernel/mva_tesst/regulators/buck1_set'
BGHJZBBQQTBGHJZBBQQT 0
root@arm:~# echo 'PYAC''ZFXWTL'
PYACZFXWTL
root@arm:~# MARKER='ZVZM''CHCQMM' run 'i2cget -f -y 2 0x60 0x28'
ZVZMCHCQMM0x3a
ZVZMCHCQMM 0
root@arm:~# echo 'XMTH''GBLVYQ'
XMTHGBLVYQ
root@arm:~# MARKER='FWJQ''KGBHFH' run 'i2cget -y -f 2 0x60 0x21'
FWJQKGBHFH0xce
FWJQKGBHFH 0
root@arm:~# echo 'WJHU''LBGYQE'
WJHULBGYQE
root@arm:~# MARKER='UPEF''JUESWH' run 'i2cget -y -f 2 0x60 0x21'
UPEFJUESWH0xce
UPEFJUESWH 0
root@arm:~# echo 'NUJJ''YWMEGG'
NUJJYWMEGG
root@arm:~# MARKER='PNGL''PFOWSK' run 'echo 1760000 1760000 > /sys/kernel/mva_tesst/regulators/buck1_set'
PNGLPFOWSKPNGLPFOWSK 0
root@arm:~# echo 'ZLUV''OTCVTY'
ZLUVOTCVTY
root@arm:~# MARKER='PLNU''ELTPKK' run 'i2cget -f -y 2 0x60 0x28'
PLNUELTPKK0x3b
PLNUELTPKK 0
root@arm:~# echo 'EUOJ''QMSXVL'
EUOJQMSXVL
root@arm:~# MARKER='ZWLS''SOKAVP' run 'i2cget -y -f 2 0x60 0x21'
ZWLSSOKAVP0xce
ZWLSSOKAVP 0
root@arm:~# echo 'YCEU''QBVJUM'
YCEUQBVJUM
root@arm:~# MARKER='GNJM''UWYHSL' run 'i2cget -y -f 2 0x60 0x21'
GNJMUWYHSL0xce
GNJMUWYHSL 0
root@arm:~# echo 'VOTY''AWLXKN'
VOTYAWLXKN
root@arm:~# MARKER='COHN''XBFKKO' run 'echo 1770000 1770000 > /sys/kernel/mva_tesst/regulators/buck1_set'
COHNXBFKKOCOHNXBFKKO 0
root@arm:~# echo 'ANBJ''GLNGHS'
ANBJGLNGHS
root@arm:~# MARKER='LLMB''CQQLQT' run 'i2cget -f -y 2 0x60 0x28'
LLMBCQQLQT0x3c
LLMBCQQLQT 0
root@arm:~# echo 'ZSZN''ZTFBSK'
ZSZNZTFBSK
root@arm:~# MARKER='AZON''YJQHLC' run 'i2cget -y -f 2 0x60 0x21'
AZONYJQHLC0xce
AZONYJQHLC 0
root@arm:~# echo 'BNFK''VMTNCX'
BNFKVMTNCX
root@arm:~# MARKER='VTBY''FNMALV' run 'i2cget -y -f 2 0x60 0x21'
VTBYFNMALV0xce
VTBYFNMALV 0
root@arm:~# echo 'AGYO''UUNTZU'
AGYOUUNTZU
root@arm:~# MARKER='GSEQ''WZPPQK' run 'echo 1780000 1780000 > /sys/kernel/mva_tesst/regulators/buck1_set'
GSEQWZPPQKGSEQWZPPQK 0
root@arm:~# echo 'BFLA''VTQZQZ'
BFLAVTQZQZ
root@arm:~# MARKER='NJLG''WPJCNF' run 'i2cget -f -y 2 0x60 0x28'
NJLGWPJCNF0x3d
NJLGWPJCNF 0
root@arm:~# echo 'XKGL''NNLQQB'
XKGLNNLQQB
root@arm:~# MARKER='YPUW''GOWOFU' run 'i2cget -y -f 2 0x60 0x21'
YPUWGOWOFU0xce
YPUWGOWOFU 0
root@arm:~# echo 'NTMU''YVQGVF'
NTMUYVQGVF
root@arm:~# MARKER='FCTA''OXGXHL' run 'i2cget -y -f 2 0x60 0x21'
FCTAOXGXHL0xce
FCTAOXGXHL 0
root@arm:~# echo 'JOGB''KWVBQQ'
JOGBKWVBQQ
root@arm:~# MARKER='XTNC''YZWZKW' run 'echo 1790000 1790000 > /sys/kernel/mva_tesst/regulators/buck1_set'
XTNCYZWZKWXTNCYZWZKW 0
root@arm:~# echo 'QPFS''BSVFMO'
QPFSBSVFMO
root@arm:~# MARKER='YAFG''MUUFBZ' run 'i2cget -f -y 2 0x60 0x28'
YAFGMUUFBZ0x3e
YAFGMUUFBZ 0
root@arm:~# echo 'SAYJ''ENABZF'
SAYJENABZF
root@arm:~# MARKER='TGFS''EMEWPH' run 'i2cget -y -f 2 0x60 0x21'
TGFSEMEWPH0xce
TGFSEMEWPH 0
root@arm:~# echo 'ZGMJ''ZKQWZG'
ZGMJZKQWZG
root@arm:~# MARKER='FHGT''YKWPFK' run 'i2cget -y -f 2 0x60 0x21'
FHGTYKWPFK0xce
FHGTYKWPFK 0
root@arm:~# echo 'NFSJ''CAMJMH'
NFSJCAMJMH
root@arm:~# MARKER='JKGT''GLVUGB' run 'echo 1800000 1800000 > /sys/kernel/mva_tesst/regulators/buck1_set'
JKGTGLVUGBJKGTGLVUGB 0
root@arm:~# echo 'HQKZ''QLQLZL'
HQKZQLQLZL
root@arm:~# MARKER='FYKY''PYJHKV' run 'i2cget -f -y 2 0x60 0x28'
FYKYPYJHKV0x00
FYKYPYJHKV 0
root@arm:~# echo 'HTCH''WQXPVU'
HTCHWQXPVU
root@arm:~# MARKER='SJYM''MFHJGW' run 'i2cget -y -f 2 0x60 0x21'
SJYMMFHJGW0xce
SJYMMFHJGW 0
root@arm:~# echo 'SQEF''YOVLTY'
SQEFYOVLTY
root@arm:~# MARKER='ATSF''KNYUOS' run 'i2cget -y -f 2 0x60 0x22'
ATSFKNYUOS0x78
ATSFKNYUOS 0
root@arm:~# echo 'AKLW''CPQTPV'
AKLWCPQTPV
root@arm:~# MARKER='EEEK''CKZVOP' run 'echo 1100000 1100000 > /sys/kernel/mva_tesst/regulators/buck2_set'
EEEKCKZVOPEEEKCKZVOP 0
root@arm:~# echo 'QNXQ''JHNTGF'
QNXQJHNTGF
root@arm:~# MARKER='JOUU''TLYEZG' run 'i2cget -f -y 2 0x60 0x29'
JOUUTLYEZG0x40
JOUUTLYEZG 0
root@arm:~# echo 'MXJL''PVCCFS'
MXJLPVCCFS
root@arm:~# MARKER='YKKL''QLCSYZ' run 'i2cget -y -f 2 0x60 0x22'
YKKLQLCSYZ0x78
YKKLQLCSYZ 0
root@arm:~# echo 'WAEK''ENCTUU'
WAEKENCTUU
root@arm:~# MARKER='VXAU''EZUYSG' run 'i2cget -y -f 2 0x60 0x22'
VXAUEZUYSG0x78
VXAUEZUYSG 0
root@arm:~# echo 'EFYW''HTTOAM'
EFYWHTTOAM
root@arm:~# MARKER='EJUC''LWSXCN' run 'echo 1110000 1110000 > /sys/kernel/mva_tesst/regulators/buck2_set'
EJUCLWSXCNEJUCLWSXCN 0
root@arm:~# echo 'GWXJ''TOHKGE'
GWXJTOHKGE
root@arm:~# MARKER='CEBO''SGFTCA' run 'i2cget -f -y 2 0x60 0x29'
CEBOSGFTCA0x41
CEBOSGFTCA 0
root@arm:~# echo 'VKAC''HEYKOV'
VKACHEYKOV
root@arm:~# MARKER='VQLK''EEWEYP' run 'i2cget -y -f 2 0x60 0x22'
VQLKEEWEYP0x78
VQLKEEWEYP 0
root@arm:~# echo 'GXZS''LEJCHE'
GXZSLEJCHE
root@arm:~# MARKER='EOSB''ZTFXAL' run 'i2cget -y -f 2 0x60 0x22'
EOSBZTFXAL0x78
EOSBZTFXAL 0
root@arm:~# echo 'OCOB''MZAGFO'
OCOBMZAGFO
root@arm:~# MARKER='UVJQ''EXQLKJ' run 'echo 1120000 1120000 > /sys/kernel/mva_tesst/regulators/buck2_set'
UVJQEXQLKJUVJQEXQLKJ 0
root@arm:~# echo 'GGTM''VAKMWO'
GGTMVAKMWO
root@arm:~# MARKER='CBNL''STBBJU' run 'i2cget -f -y 2 0x60 0x29'
CBNLSTBBJU0x42
CBNLSTBBJU 0
root@arm:~# echo 'LABV''UECVOX'
LABVUECVOX
root@arm:~# MARKER='LMSJ''ULZMAK' run 'i2cget -y -f 2 0x60 0x22'
LMSJULZMAK0x78
LMSJULZMAK 0
root@arm:~# echo 'KGYP''HCFKWM'
KGYPHCFKWM
root@arm:~# MARKER='JEWY''YCGTWU' run 'i2cget -y -f 2 0x60 0x22'
JEWYYCGTWU0x78
JEWYYCGTWU 0
root@arm:~# echo 'KGSV''MGOKMY'
KGSVMGOKMY
root@arm:~# MARKER='BQQU''TFVBXK' run 'echo 1130000 1130000 > /sys/kernel/mva_tesst/regulators/buck2_set'
BQQUTFVBXKBQQUTFVBXK 0
root@arm:~# echo 'PCJQ''GSYHYB'
PCJQGSYHYB
root@arm:~# MARKER='FTPW''KTYOLK' run 'i2cget -f -y 2 0x60 0x29'
FTPWKTYOLK0x43
FTPWKTYOLK 0
root@arm:~# echo 'TUMM''QMUQTH'
TUMMQMUQTH
root@arm:~# MARKER='ALEN''MZBMOO' run 'i2cget -y -f 2 0x60 0x22'
ALENMZBMOO0x78
ALENMZBMOO 0
root@arm:~# echo 'PNUL''MHVGLK'
PNULMHVGLK
root@arm:~# MARKER='HSNJ''AJSPLU' run 'i2cget -y -f 2 0x60 0x22'
HSNJAJSPLU0x78
HSNJAJSPLU 0
root@arm:~# echo 'XJQZ''LVETZU'
XJQZLVETZU
root@arm:~# MARKER='OCPU''NMGGXC' run 'echo 1140000 1140000 > /sys/kernel/mva_tesst/regulators/buck2_set'
OCPUNMGGXCOCPUNMGGXC 0
root@arm:~# echo 'ELVK''XSGEOO'
ELVKXSGEOO
root@arm:~# MARKER='PSQU''XGZGEG' run 'i2cget -f -y 2 0x60 0x29'
PSQUXGZGEG0x44
PSQUXGZGEG 0
root@arm:~# echo 'SQCF''TWCLHG'
SQCFTWCLHG
root@arm:~# MARKER='EFGS''PWHAGT' run 'i2cget -y -f 2 0x60 0x22'
EFGSPWHAGT0x78
EFGSPWHAGT 0
root@arm:~# echo 'NCWC''GKLATW'
NCWCGKLATW
root@arm:~# MARKER='SQCN''UKWZTX' run 'i2cget -y -f 2 0x60 0x22'
SQCNUKWZTX0x78
SQCNUKWZTX 0
root@arm:~# echo 'FVZJ''XNCHCC'
FVZJXNCHCC
root@arm:~# MARKER='JTJZ''MYYCPA' run 'echo 1150000 1150000 > /sys/kernel/mva_tesst/regulators/buck2_set'
JTJZMYYCPAJTJZMYYCPA 0
root@arm:~# echo 'ZJUY''FOYHFP'
ZJUYFOYHFP
root@arm:~# MARKER='JKUL''CPWGLJ' run 'i2cget -f -y 2 0x60 0x29'
JKULCPWGLJ0x45
JKULCPWGLJ 0
root@arm:~# echo 'USEC''CTXSOM'
USECCTXSOM
root@arm:~# MARKER='ACPA''ALYPPW' run 'i2cget -y -f 2 0x60 0x22'
ACPAALYPPW0x78
ACPAALYPPW 0
root@arm:~# echo 'YWHP''PGXEYY'
YWHPPGXEYY
root@arm:~# MARKER='XBJP''AWQHAS' run 'i2cget -y -f 2 0x60 0x22'
XBJPAWQHAS0x78
XBJPAWQHAS 0
root@arm:~# echo 'BGHP''CJONSX'
BGHPCJONSX
root@arm:~# MARKER='FUUB''VXZGOK' run 'echo 1160000 1160000 > /sys/kernel/mva_tesst/regulators/buck2_set'
FUUBVXZGOKFUUBVXZGOK 0
root@arm:~# echo 'OMEH''TLHXFL'
OMEHTLHXFL
root@arm:~# MARKER='WTSY''GKYOJY' run 'i2cget -f -y 2 0x60 0x29'
WTSYGKYOJY0x46
WTSYGKYOJY 0
root@arm:~# echo 'LMWQ''ZXNPTJ'
LMWQZXNPTJ
root@arm:~# MARKER='KLTF''BOOXKS' run 'i2cget -y -f 2 0x60 0x22'
KLTFBOOXKS0x78
KLTFBOOXKS 0
root@arm:~# echo 'NJUK''SGMAXC'
NJUKSGMAXC
root@arm:~# MARKER='FVQH''WXJPAZ' run 'i2cget -y -f 2 0x60 0x22'
FVQHWXJPAZ0x78
FVQHWXJPAZ 0
root@arm:~# echo 'QSMK''NSZUVS'
QSMKNSZUVS
root@arm:~# MARKER='OJHN''TFCCOK' run 'echo 1170000 1170000 > /sys/kernel/mva_tesst/regulators/buck2_set'
OJHNTFCCOKOJHNTFCCOK 0
root@arm:~# echo 'TPBZ''PNQMVT'
TPBZPNQMVT
root@arm:~# MARKER='OQMY''VATGZP' run 'i2cget -f -y 2 0x60 0x29'
OQMYVATGZP0x47
OQMYVATGZP 0
root@arm:~# echo 'YQGJ''GGSOUJ'
YQGJGGSOUJ
root@arm:~# MARKER='KNQK''ZQZFEC' run 'i2cget -y -f 2 0x60 0x22'
KNQKZQZFEC0x78
KNQKZQZFEC 0
root@arm:~# echo 'XLUH''LKSQUS'
XLUHLKSQUS
root@arm:~# MARKER='OZEP''CCLWXA' run 'i2cget -y -f 2 0x60 0x22'
OZEPCCLWXA0x78
OZEPCCLWXA 0
root@arm:~# echo 'WKEQ''TUQKUY'
WKEQTUQKUY
root@arm:~# MARKER='JWST''MLKPPA' run 'echo 1180000 1180000 > /sys/kernel/mva_tesst/regulators/buck2_set'
JWSTMLKPPAJWSTMLKPPA 0
root@arm:~# echo 'YEKQ''THGNMK'
YEKQTHGNMK
root@arm:~# MARKER='MJNX''YXLYVX' run 'i2cget -f -y 2 0x60 0x29'
MJNXYXLYVX0x48
MJNXYXLYVX 0
root@arm:~# echo 'SELJ''YPGPAJ'
SELJYPGPAJ
root@arm:~# MARKER='NBKH''ZCFVWN' run 'i2cget -y -f 2 0x60 0x22'
NBKHZCFVWN0x78
NBKHZCFVWN 0
root@arm:~# echo 'ATSN''JVEVUP'
ATSNJVEVUP
root@arm:~# MARKER='OZVQ''EGNAJB' run 'i2cget -y -f 2 0x60 0x22'
OZVQEGNAJB0x78
OZVQEGNAJB 0
root@arm:~# echo 'WHJL''ZUWBZO'
WHJLZUWBZO
root@arm:~# MARKER='HLUU''PHPGOW' run 'echo 1190000 1190000 > /sys/kernel/mva_tesst/regulators/buck2_set'
HLUUPHPGOWHLUUPHPGOW 0
root@arm:~# echo 'OGEQ''XXSGZF'
OGEQXXSGZF
root@arm:~# MARKER='FYEL''MFUFHQ' run 'i2cget -f -y 2 0x60 0x29'
FYELMFUFHQ0x49
FYELMFUFHQ 0
root@arm:~# echo 'WYAH''TOSVKQ'
WYAHTOSVKQ
root@arm:~# MARKER='HPYJ''VOMHNH' run 'i2cget -y -f 2 0x60 0x22'
HPYJVOMHNH0x78
HPYJVOMHNH 0
root@arm:~# echo 'XYSB''UKCSOP'
XYSBUKCSOP
root@arm:~# MARKER='ZHVN''XQTYUW' run 'i2cget -y -f 2 0x60 0x22'
ZHVNXQTYUW0x78
ZHVNXQTYUW 0
root@arm:~# echo 'VMQY''BMHOYG'
VMQYBMHOYG
root@arm:~# MARKER='EVZU''LZBJBA' run 'echo 1200000 1200000 > /sys/kernel/mva_tesst/regulators/buck2_set'
EVZULZBJBAEVZULZBJBA 0
root@arm:~# echo 'VOEL''MUHLNW'
VOELMUHLNW
root@arm:~# MARKER='NMKZ''LKZYEZ' run 'i2cget -f -y 2 0x60 0x29'
NMKZLKZYEZ0x4a
NMKZLKZYEZ 0
root@arm:~# echo 'QKUF''LGLGWB'
QKUFLGLGWB
root@arm:~# MARKER='BPBW''MOCLNL' run 'i2cget -y -f 2 0x60 0x22'
BPBWMOCLNL0x78
BPBWMOCLNL 0
root@arm:~# echo 'SHKK''HTBMKP'
SHKKHTBMKP
root@arm:~# MARKER='ZSQE''MZQVVE' run 'i2cget -y -f 2 0x60 0x22'
ZSQEMZQVVE0x78
ZSQEMZQVVE 0
root@arm:~# echo 'QXVB''EMMLUQ'
QXVBEMMLUQ
root@arm:~# MARKER='QJLL''KNBKXV' run 'echo 1210000 1210000 > /sys/kernel/mva_tesst/regulators/buck2_set'
QJLLKNBKXVQJLLKNBKXV 0
root@arm:~# echo 'TCCT''HOOUNA'
TCCTHOOUNA
root@arm:~# MARKER='TGHT''ZXWYGC' run 'i2cget -f -y 2 0x60 0x29'
TGHTZXWYGC0x4b
TGHTZXWYGC 0
root@arm:~# echo 'HAGU''TEHPJO'
HAGUTEHPJO
root@arm:~# MARKER='CBAG''WYFSZO' run 'i2cget -y -f 2 0x60 0x22'
CBAGWYFSZO0x78
CBAGWYFSZO 0
root@arm:~# echo 'JGQV''OUWVPE'
JGQVOUWVPE
root@arm:~# MARKER='SFUZ''ZJCOYM' run 'i2cget -y -f 2 0x60 0x22'
SFUZZJCOYM0x78
SFUZZJCOYM 0
root@arm:~# echo 'YHON''BKFMEA'
YHONBKFMEA
root@arm:~# MARKER='AEAB''AWQULK' run 'echo 1220000 1220000 > /sys/kernel/mva_tesst/regulators/buck2_set'
AEABAWQULKAEABAWQULK 0
root@arm:~# echo 'HHHN''PFVTGN'
HHHNPFVTGN
root@arm:~# MARKER='LPFM''MJEQYX' run 'i2cget -f -y 2 0x60 0x29'
LPFMMJEQYX0x4c
LPFMMJEQYX 0
root@arm:~# echo 'YNUB''UGYJFM'
YNUBUGYJFM
root@arm:~# MARKER='OLNZ''SYCUUC' run 'i2cget -y -f 2 0x60 0x22'
OLNZSYCUUC0x78
OLNZSYCUUC 0
root@arm:~# echo 'LAVE''BZEEMX'
LAVEBZEEMX
root@arm:~# MARKER='APAF''YJKGZF' run 'i2cget -y -f 2 0x60 0x22'
APAFYJKGZF0x78
APAFYJKGZF 0
root@arm:~# echo 'USMN''ZTXQGA'
USMNZTXQGA
root@arm:~# MARKER='SJXS''BZXOPC' run 'echo 1230000 1230000 > /sys/kernel/mva_tesst/regulators/buck2_set'
SJXSBZXOPCSJXSBZXOPC 0
root@arm:~# echo 'ZWFF''UZSCGE'
ZWFFUZSCGE
root@arm:~# MARKER='MKZH''FSZZUB' run 'i2cget -f -y 2 0x60 0x29'
MKZHFSZZUB0x4d
MKZHFSZZUB 0
root@arm:~# echo 'XGBY''NTSQOC'
XGBYNTSQOC
root@arm:~# MARKER='XQEQ''AAXZJG' run 'i2cget -y -f 2 0x60 0x22'
XQEQAAXZJG0x78
XQEQAAXZJG 0
root@arm:~# echo 'QYHE''GZNWZE'
QYHEGZNWZE
root@arm:~# MARKER='HWEN''TYCSJP' run 'i2cget -y -f 2 0x60 0x22'
HWENTYCSJP0x78
HWENTYCSJP 0
root@arm:~# echo 'OYKZ''YFSQUG'
OYKZYFSQUG
root@arm:~# MARKER='QPFH''XLGHQX' run 'echo 1240000 1240000 > /sys/kernel/mva_tesst/regulators/buck2_set'
QPFHXLGHQXQPFHXLGHQX 0
root@arm:~# echo 'TOMF''XLGOKC'
TOMFXLGOKC
root@arm:~# MARKER='BSNS''JNCFSO' run 'i2cget -f -y 2 0x60 0x29'
BSNSJNCFSO0x4e
BSNSJNCFSO 0
root@arm:~# echo 'JFGB''BHFCBT'
JFGBBHFCBT
root@arm:~# MARKER='YVPQ''UQBKGA' run 'i2cget -y -f 2 0x60 0x22'
YVPQUQBKGA0x78
YVPQUQBKGA 0
root@arm:~# echo 'HBYZ''PSXGXS'
HBYZPSXGXS
root@arm:~# MARKER='OOCO''WGWLKJ' run 'i2cget -y -f 2 0x60 0x22'
OOCOWGWLKJ0x78
OOCOWGWLKJ 0
root@arm:~# echo 'QOLB''CESPPN'
QOLBCESPPN
root@arm:~# MARKER='USEK''JHMEQY' run 'echo 1250000 1250000 > /sys/kernel/mva_tesst/regulators/buck2_set'
USEKJHMEQYUSEKJHMEQY 0
root@arm:~# echo 'KNFU''XNLGYE'
KNFUXNLGYE
root@arm:~# MARKER='AJQQ''GMWULC' run 'i2cget -f -y 2 0x60 0x29'
AJQQGMWULC0x4f
AJQQGMWULC 0
root@arm:~# echo 'VJCM''NUJHVP'
VJCMNUJHVP
root@arm:~# MARKER='MZCF''GKXAMH' run 'i2cget -y -f 2 0x60 0x22'
MZCFGKXAMH0x78
MZCFGKXAMH 0
root@arm:~# echo 'GLQY''ZCUPZO'
GLQYZCUPZO
root@arm:~# MARKER='KWWV''FNFFAE' run 'i2cget -y -f 2 0x60 0x22'
KWWVFNFFAE0x78
KWWVFNFFAE 0
root@arm:~# echo 'FNWG''GVBVML'
FNWGGVBVML
root@arm:~# MARKER='EZSU''ASQZKN' run 'echo 1260000 1260000 > /sys/kernel/mva_tesst/regulators/buck2_set'
EZSUASQZKNEZSUASQZKN 0
root@arm:~# echo 'TAMO''QYSXGZ'
TAMOQYSXGZ
root@arm:~# MARKER='VMKM''JFTLWW' run 'i2cget -f -y 2 0x60 0x29'
VMKMJFTLWW0x50
VMKMJFTLWW 0
root@arm:~# echo 'QAEB''YBALPA'
QAEBYBALPA
root@arm:~# MARKER='AYCT''UFNHNE' run 'i2cget -y -f 2 0x60 0x22'
AYCTUFNHNE0x78
AYCTUFNHNE 0
root@arm:~# echo 'XCHW''PTNWTB'
XCHWPTNWTB
root@arm:~# MARKER='AMPO''QGLNTX' run 'i2cget -y -f 2 0x60 0x22'
AMPOQGLNTX0x78
AMPOQGLNTX 0
root@arm:~# echo 'QLGF''UCUMUU'
QLGFUCUMUU
root@arm:~# MARKER='BTAM''YFMALA' run 'echo 1270000 1270000 > /sys/kernel/mva_tesst/regulators/buck2_set'
BTAMYFMALABTAMYFMALA 0
root@arm:~# echo 'ATTK''XGWCVO'
ATTKXGWCVO
root@arm:~# MARKER='UVSJ''VEWPQT' run 'i2cget -f -y 2 0x60 0x29'
UVSJVEWPQT0x51
UVSJVEWPQT 0
root@arm:~# echo 'MSVQ''JVXOFE'
MSVQJVXOFE
root@arm:~# MARKER='CLPG''BXLBLM' run 'i2cget -y -f 2 0x60 0x22'
CLPGBXLBLM0x78
CLPGBXLBLM 0
root@arm:~# echo 'OMCG''FWYKMU'
OMCGFWYKMU
root@arm:~# MARKER='EFYT''MZLFUH' run 'i2cget -y -f 2 0x60 0x22'
EFYTMZLFUH0x78
EFYTMZLFUH 0
root@arm:~# echo 'MMJA''SQLCFN'
MMJASQLCFN
root@arm:~# MARKER='PLYZ''SYABGA' run 'echo 1280000 1280000 > /sys/kernel/mva_tesst/regulators/buck2_set'
PLYZSYABGAPLYZSYABGA 0
root@arm:~# echo 'XCYO''BVAQWS'
XCYOBVAQWS
root@arm:~# MARKER='ULHB''MXBBAZ' run 'i2cget -f -y 2 0x60 0x29'
ULHBMXBBAZ0x52
ULHBMXBBAZ 0
root@arm:~# echo 'UCLP''FKXVJO'
UCLPFKXVJO
root@arm:~# MARKER='MWQH''LWPZSQ' run 'i2cget -y -f 2 0x60 0x22'
MWQHLWPZSQ0x78
MWQHLWPZSQ 0
root@arm:~# echo 'UNAV''EHAOVS'
UNAVEHAOVS
root@arm:~# MARKER='YVVC''QHMWWB' run 'i2cget -y -f 2 0x60 0x22'
YVVCQHMWWB0x78
YVVCQHMWWB 0
root@arm:~# echo 'BXSN''VHXEJF'
BXSNVHXEJF
root@arm:~# MARKER='SFGE''JGOSAP' run 'echo 1290000 1290000 > /sys/kernel/mva_tesst/regulators/buck2_set'
SFGEJGOSAPSFGEJGOSAP 0
root@arm:~# echo 'AFWE''GVCEQN'
AFWEGVCEQN
root@arm:~# MARKER='XBLV''EHJMML' run 'i2cget -f -y 2 0x60 0x29'
XBLVEHJMML0x53
XBLVEHJMML 0
root@arm:~# echo 'VUXC''JAVHBT'
VUXCJAVHBT
root@arm:~# MARKER='XWNC''LQBPVV' run 'i2cget -y -f 2 0x60 0x22'
XWNCLQBPVV0x78
XWNCLQBPVV 0
root@arm:~# echo 'VEQE''AOKEUV'
VEQEAOKEUV
root@arm:~# MARKER='APOB''KCLAAW' run 'i2cget -y -f 2 0x60 0x22'
APOBKCLAAW0x78
APOBKCLAAW 0
root@arm:~# echo 'TONX''ZZLKPO'
TONXZZLKPO
root@arm:~# MARKER='ALNH''XXAOAU' run 'echo 1300000 1300000 > /sys/kernel/mva_tesst/regulators/buck2_set'
ALNHXXAOAUALNHXXAOAU 0
root@arm:~# echo 'MMHW''GCZCFH'
MMHWGCZCFH
root@arm:~# MARKER='OGJN''VJFCES' run 'i2cget -f -y 2 0x60 0x29'
OGJNVJFCES0x54
OGJNVJFCES 0
root@arm:~# echo 'FPXK''UYPMOC'
FPXKUYPMOC
root@arm:~# MARKER='EBXT''ZBSXEV' run 'i2cget -y -f 2 0x60 0x22'
EBXTZBSXEV0x78
EBXTZBSXEV 0
root@arm:~# echo 'VFFM''LEEPZJ'
VFFMLEEPZJ
root@arm:~# MARKER='HZNL''HBTJNF' run 'i2cget -y -f 2 0x60 0x22'
HZNLHBTJNF0x78
HZNLHBTJNF 0
root@arm:~# echo 'CMGU''XVGMXU'
CMGUXVGMXU
root@arm:~# MARKER='SXHW''EFSGPF' run 'echo 1310000 1310000 > /sys/kernel/mva_tesst/regulators/buck2_set'
SXHWEFSGPFSXHWEFSGPF 0
root@arm:~# echo 'AXVZ''NSBLUG'
AXVZNSBLUG
root@arm:~# MARKER='WNOO''WXHMBS' run 'i2cget -f -y 2 0x60 0x29'
WNOOWXHMBS0x55
WNOOWXHMBS 0
root@arm:~# echo 'VKKO''CXTSEE'
VKKOCXTSEE
root@arm:~# MARKER='BUCK''EVXNYW' run 'i2cget -y -f 2 0x60 0x22'
BUCKEVXNYW0x78
BUCKEVXNYW 0
root@arm:~# echo 'JMSP''WZYCEM'
JMSPWZYCEM
root@arm:~# MARKER='OBKK''JAKUNU' run 'i2cget -y -f 2 0x60 0x22'
OBKKJAKUNU0x78
OBKKJAKUNU 0
root@arm:~# echo 'VAPV''LYBLHN'
VAPVLYBLHN
root@arm:~# MARKER='NBVP''YQUHXB' run 'echo 1320000 1320000 > /sys/kernel/mva_tesst/regulators/buck2_set'
NBVPYQUHXBNBVPYQUHXB 0
root@arm:~# echo 'PMOU''OSHMZK'
PMOUOSHMZK
root@arm:~# MARKER='YEHX''MSFZQE' run 'i2cget -f -y 2 0x60 0x29'
YEHXMSFZQE0x56
YEHXMSFZQE 0
root@arm:~# echo 'TKGK''PPMMFJ'
TKGKPPMMFJ
root@arm:~# MARKER='NPEO''TONHBZ' run 'i2cget -y -f 2 0x60 0x22'
NPEOTONHBZ0x78
NPEOTONHBZ 0
root@arm:~# echo 'XYOU''SWBEWP'
XYOUSWBEWP
root@arm:~# MARKER='HYHP''JSBABS' run 'i2cget -y -f 2 0x60 0x22'
HYHPJSBABS0x78
HYHPJSBABS 0
root@arm:~# echo 'BKYZ''OMUZQG'
BKYZOMUZQG
root@arm:~# MARKER='XPVV''HEFSWP' run 'echo 1330000 1330000 > /sys/kernel/mva_tesst/regulators/buck2_set'
XPVVHEFSWPXPVVHEFSWP 0
root@arm:~# echo 'KMYP''HCZYXV'
KMYPHCZYXV
root@arm:~# MARKER='OOGL''MEYHKV' run 'i2cget -f -y 2 0x60 0x29'
OOGLMEYHKV0x57
OOGLMEYHKV 0
root@arm:~# echo 'TQBN''EBLLOW'
TQBNEBLLOW
root@arm:~# MARKER='FBLV''FCOFWM' run 'i2cget -y -f 2 0x60 0x22'
FBLVFCOFWM0x78
FBLVFCOFWM 0
root@arm:~# echo 'YYAY''KNMGHZ'
YYAYKNMGHZ
root@arm:~# MARKER='SUTB''EJANAO' run 'i2cget -y -f 2 0x60 0x22'
SUTBEJANAO0x78
SUTBEJANAO 0
root@arm:~# echo 'MHWQ''UYCKEM'
MHWQUYCKEM
root@arm:~# MARKER='ZJHY''MZBCQP' run 'echo 1340000 1340000 > /sys/kernel/mva_tesst/regulators/buck2_set'
ZJHYMZBCQPZJHYMZBCQP 0
root@arm:~# echo 'JXKP''ZKMFUC'
JXKPZKMFUC
root@arm:~# MARKER='VMMO''SOGMFS' run 'i2cget -f -y 2 0x60 0x29'
VMMOSOGMFS0x58
VMMOSOGMFS 0
root@arm:~# echo 'XCVK''TWKWLW'
XCVKTWKWLW
root@arm:~# MARKER='SSQT''LUXOOO' run 'i2cget -y -f 2 0x60 0x22'
SSQTLUXOOO0x78
SSQTLUXOOO 0
root@arm:~# echo 'NZJW''NJAZGT'
NZJWNJAZGT
root@arm:~# MARKER='TKYK''JNNPLC' run 'i2cget -y -f 2 0x60 0x22'
TKYKJNNPLC0x78
TKYKJNNPLC 0
root@arm:~# echo 'GBAF''AJHXFU'
GBAFAJHXFU
root@arm:~# MARKER='WTXS''TQWFET' run 'echo 1350000 1350000 > /sys/kernel/mva_tesst/regulators/buck2_set'
WTXSTQWFETWTXSTQWFET 0
root@arm:~# echo 'VMGZ''WGNOFN'
VMGZWGNOFN
root@arm:~# MARKER='KTZT''FSPHQU' run 'i2cget -f -y 2 0x60 0x29'
KTZTFSPHQU0x59
KTZTFSPHQU 0
root@arm:~# echo 'LPSC''JVYWUL'
LPSCJVYWUL
root@arm:~# MARKER='XLCO''XHZLWP' run 'i2cget -y -f 2 0x60 0x22'
XLCOXHZLWP0x78
XLCOXHZLWP 0
root@arm:~# echo 'MFXX''VWYOQA'
MFXXVWYOQA
root@arm:~# MARKER='ZHZS''UNKJNF' run 'i2cget -y -f 2 0x60 0x22'
ZHZSUNKJNF0x78
ZHZSUNKJNF 0
root@arm:~# echo 'GKPB''TAXJAB'
GKPBTAXJAB
root@arm:~# MARKER='TMFS''MVKPPU' run 'echo 1360000 1360000 > /sys/kernel/mva_tesst/regulators/buck2_set'
TMFSMVKPPUTMFSMVKPPU 0
root@arm:~# echo 'TVVB''FAKCEO'
TVVBFAKCEO
root@arm:~# MARKER='ETEZ''NFTSHQ' run 'i2cget -f -y 2 0x60 0x29'
ETEZNFTSHQ0x5a
ETEZNFTSHQ 0
root@arm:~# echo 'JUCH''OGLZSZ'
JUCHOGLZSZ
root@arm:~# MARKER='SBQV''XMECBA' run 'i2cget -y -f 2 0x60 0x22'
SBQVXMECBA0x78
SBQVXMECBA 0
root@arm:~# echo 'FMUN''LNMTWW'
FMUNLNMTWW
root@arm:~# MARKER='TMLB''YCFHWG' run 'i2cget -y -f 2 0x60 0x22'
TMLBYCFHWG0x78
TMLBYCFHWG 0
root@arm:~# echo 'HKBV''TFMHVM'
HKBVTFMHVM
root@arm:~# MARKER='LVLM''BJSYMK' run 'echo 1370000 1370000 > /sys/kernel/mva_tesst/regulators/buck2_set'
LVLMBJSYMKLVLMBJSYMK 0
root@arm:~# echo 'HEOU''NYLJXO'
HEOUNYLJXO
root@arm:~# MARKER='SCVX''PUJQNP' run 'i2cget -f -y 2 0x60 0x29'
SCVXPUJQNP0x5b
SCVXPUJQNP 0
root@arm:~# echo 'MOBC''LSNNVU'
MOBCLSNNVU
root@arm:~# MARKER='NWZW''YZXLLK' run 'i2cget -y -f 2 0x60 0x22'
NWZWYZXLLK0x78
NWZWYZXLLK 0
root@arm:~# echo 'OGYV''BTZKJJ'
OGYVBTZKJJ
root@arm:~# MARKER='WQAG''XBPQWJ' run 'i2cget -y -f 2 0x60 0x22'
WQAGXBPQWJ0x78
WQAGXBPQWJ 0
root@arm:~# echo 'NSWX''HPFJCZ'
NSWXHPFJCZ
root@arm:~# MARKER='EEXM''NGLKPY' run 'echo 1380000 1380000 > /sys/kernel/mva_tesst/regulators/buck2_set'
EEXMNGLKPYEEXMNGLKPY 0
root@arm:~# echo 'LBYM''VXGEUW'
LBYMVXGEUW
root@arm:~# MARKER='ZUOK''BBYVXA' run 'i2cget -f -y 2 0x60 0x29'
ZUOKBBYVXA0x5c
ZUOKBBYVXA 0
root@arm:~# echo 'WVJO''BYENFP'
WVJOBYENFP
root@arm:~# MARKER='NVNC''KSZXOM' run 'i2cget -y -f 2 0x60 0x22'
NVNCKSZXOM0x78
NVNCKSZXOM 0
root@arm:~# echo 'ZLWS''GHQZCM'
ZLWSGHQZCM
root@arm:~# MARKER='FPCV''WXFBVO' run 'i2cget -y -f 2 0x60 0x22'
FPCVWXFBVO0x78
FPCVWXFBVO 0
root@arm:~# echo 'XPNB''TVOXTK'
XPNBTVOXTK
root@arm:~# MARKER='YZWU''PXUKNS' run 'echo 1390000 1390000 > /sys/kernel/mva_tesst/regulators/buck2_set'
YZWUPXUKNSYZWUPXUKNS 0
root@arm:~# echo 'JJZK''KMSYWE'
JJZKKMSYWE
root@arm:~# MARKER='QZJM''NFGWSB' run 'i2cget -f -y 2 0x60 0x29'
QZJMNFGWSB0x5d
QZJMNFGWSB 0
root@arm:~# echo 'HJXZ''THTHQZ'
HJXZTHTHQZ
root@arm:~# MARKER='CPOO''VKTYYK' run 'i2cget -y -f 2 0x60 0x22'
CPOOVKTYYK0x78
CPOOVKTYYK 0
root@arm:~# echo 'EMFU''PPUQJY'
EMFUPPUQJY
root@arm:~# MARKER='QBSL''EQEEHV' run 'i2cget -y -f 2 0x60 0x22'
QBSLEQEEHV0x78
QBSLEQEEHV 0
root@arm:~# echo 'YUVX''EECLAF'
YUVXEECLAF
root@arm:~# MARKER='AWJJ''NKGWGK' run 'echo 1400000 1400000 > /sys/kernel/mva_tesst/regulators/buck2_set'
AWJJNKGWGKAWJJNKGWGK 0
root@arm:~# echo 'OZJQ''EUNMOC'
OZJQEUNMOC
root@arm:~# MARKER='EHNL''MWNKSM' run 'i2cget -f -y 2 0x60 0x29'
EHNLMWNKSM0x5e
EHNLMWNKSM 0
root@arm:~# echo 'EBVJ''JZGVXC'
EBVJJZGVXC
root@arm:~# MARKER='UVAS''ZTNPWS' run 'i2cget -y -f 2 0x60 0x22'
UVASZTNPWS0x78
UVASZTNPWS 0
root@arm:~# echo 'JPZQ''OGJAEA'
JPZQOGJAEA
root@arm:~# MARKER='KXEQ''JZYNUA' run 'i2cget -y -f 2 0x60 0x22'
KXEQJZYNUA0x78
KXEQJZYNUA 0
root@arm:~# echo 'ZVXV''CYHVQJ'
ZVXVCYHVQJ
root@arm:~# MARKER='KFNG''CSKTTC' run 'echo 1410000 1410000 > /sys/kernel/mva_tesst/regulators/buck2_set'
KFNGCSKTTCKFNGCSKTTC 0
root@arm:~# echo 'BTZC''LPJOHU'
BTZCLPJOHU
root@arm:~# MARKER='GPXN''CLOLKP' run 'i2cget -f -y 2 0x60 0x29'
GPXNCLOLKP0x5f
GPXNCLOLKP 0
root@arm:~# echo 'SJCE''UVXTLY'
SJCEUVXTLY
root@arm:~# MARKER='TCVT''CNLANC' run 'i2cget -y -f 2 0x60 0x22'
TCVTCNLANC0x78
TCVTCNLANC 0
root@arm:~# echo 'QVMB''TNTNMU'
QVMBTNTNMU
root@arm:~# MARKER='EZOC''HVJQBN' run 'i2cget -y -f 2 0x60 0x22'
EZOCHVJQBN0x78
EZOCHVJQBN 0
root@arm:~# echo 'KBQJ''WWNPSS'
KBQJWWNPSS
root@arm:~# MARKER='GTKM''KMYCYQ' run 'echo 790000 790000 > /sys/kernel/mva_test//regulators/buck2_set'
GTKMKMYCYQGTKMKMYCYQ 0
root@arm:~# echo 'QMQU''ESSUWN'
QMQUESSUWN
root@arm:~# MARKER='XSOL''GZFPNQ' run 'i2cget -f -y 2 0x60 0x29'
XSOLGZFPNQ0x60
XSOLGZFPNQ 0
root@arm:~# echo 'HUZV''MYFVTJ'
HUZVMYFVTJ
root@arm:~# MARKER='XNKZ''BKLYQK' run 'i2cget -y -f 2 0x60 0x22'
XNKZBKLYQK0x78
XNKZBKLYQK 0
root@arm:~# echo 'GHPW''NKOBWO'
GHPWNKOBWO
root@arm:~# MARKER='EZEJ''VBFLSW' run 'i2cget -y -f 2 0x60 0x22'
EZEJVBFLSW0x78
EZEJVBFLSW 0
root@arm:~# echo 'YLBL''QTEMUG'
YLBLQTEMUG
root@arm:~# MARKER='PYPV''ECZNZV' run 'echo 800000 800000 > /sys/kernel/mva_test//regulators/buck2_set'
PYPVECZNZVPYPVECZNZV 0
root@arm:~# echo 'MBTB''VTEAEO'
MBTBVTEAEO
root@arm:~# MARKER='SMXV''TAGBFW' run 'i2cget -f -y 2 0x60 0x29'
SMXVTAGBFW0x61
SMXVTAGBFW 0
root@arm:~# echo 'TSZJ''BUBUXK'
TSZJBUBUXK
root@arm:~# MARKER='CEJC''LZBEAL' run 'i2cget -y -f 2 0x60 0x22'
CEJCLZBEAL0x78
CEJCLZBEAL 0
root@arm:~# echo 'GAEJ''VNUABK'
GAEJVNUABK
root@arm:~# MARKER='AZXW''XJQBKX' run 'i2cget -y -f 2 0x60 0x22'
AZXWXJQBKX0x78
AZXWXJQBKX 0
root@arm:~# echo 'CFSJ''JNKLUF'
CFSJJNKLUF
root@arm:~# MARKER='ASKZ''QMMEQM' run 'echo 810000 810000 > /sys/kernel/mva_test//regulators/buck2_set'
ASKZQMMEQMASKZQMMEQM 0
root@arm:~# echo 'TNMA''YNJWEC'
TNMAYNJWEC
root@arm:~# MARKER='KUTF''MMVVUZ' run 'i2cget -f -y 2 0x60 0x29'
KUTFMMVVUZ0x62
KUTFMMVVUZ 0
root@arm:~# echo 'XYMK''SVHSWF'
XYMKSVHSWF
root@arm:~# MARKER='XPNW''FPPAPK' run 'i2cget -y -f 2 0x60 0x22'
XPNWFPPAPK0x78
XPNWFPPAPK 0
root@arm:~# echo 'NBKW''QTUNXU'
NBKWQTUNXU
root@arm:~# MARKER='AQLX''JLHAJO' run 'i2cget -y -f 2 0x60 0x22'
AQLXJLHAJO0x78
AQLXJLHAJO 0
root@arm:~# echo 'ONLO''XAEEUN'
ONLOXAEEUN
root@arm:~# MARKER='EFAV''LSGKGQ' run 'echo 820000 820000 > /sys/kernel/mva_test//regulators/buck2_set'
EFAVLSGKGQEFAVLSGKGQ 0
root@arm:~# echo 'CHXT''ZCLXAN'
CHXTZCLXAN
root@arm:~# MARKER='QUFT''CBATYG' run 'i2cget -f -y 2 0x60 0x29'
QUFTCBATYG0x63
QUFTCBATYG 0
root@arm:~# echo 'XOOE''YFEXXA'
XOOEYFEXXA
root@arm:~# MARKER='JCPV''PAWUCC' run 'i2cget -y -f 2 0x60 0x22'
JCPVPAWUCC0x78
JCPVPAWUCC 0
root@arm:~# echo 'QOCE''ALEFTU'
QOCEALEFTU
root@arm:~# MARKER='QSEA''LLVPPB' run 'i2cget -y -f 2 0x60 0x22'
QSEALLVPPB0x78
QSEALLVPPB 0
root@arm:~# echo 'XYYX''UVBCXO'
XYYXUVBCXO
root@arm:~# MARKER='GCQH''HTLVVP' run 'echo 830000 830000 > /sys/kernel/mva_test//regulators/buck2_set'
GCQHHTLVVPGCQHHTLVVP 0
root@arm:~# echo 'YOKG''APBJBX'
YOKGAPBJBX
root@arm:~# MARKER='WEAA''MQGUTG' run 'i2cget -f -y 2 0x60 0x29'
WEAAMQGUTG0x64
WEAAMQGUTG 0
root@arm:~# echo 'SQAT''WNWFKU'
SQATWNWFKU
root@arm:~# MARKER='MWGL''SHWKTG' run 'i2cget -y -f 2 0x60 0x22'
MWGLSHWKTG0x78
MWGLSHWKTG 0
root@arm:~# echo 'FOQX''VSCOQL'
FOQXVSCOQL
root@arm:~# MARKER='CEAL''NHXJMH' run 'i2cget -y -f 2 0x60 0x22'
CEALNHXJMH0x78
CEALNHXJMH 0
root@arm:~# echo 'JKNQ''PZXJFL'
JKNQPZXJFL
root@arm:~# MARKER='ANPG''SLSVXE' run 'echo 840000 840000 > /sys/kernel/mva_test//regulators/buck2_set'
ANPGSLSVXEANPGSLSVXE 0
root@arm:~# echo 'YKWE''FZWBJZ'
YKWEFZWBJZ
root@arm:~# MARKER='WZHC''NOWUJO' run 'i2cget -f -y 2 0x60 0x29'
WZHCNOWUJO0x65
WZHCNOWUJO 0
root@arm:~# echo 'CXTF''KHFCAX'
CXTFKHFCAX
root@arm:~# MARKER='VEKZ''QSWHEQ' run 'i2cget -y -f 2 0x60 0x22'
VEKZQSWHEQ0x78
VEKZQSWHEQ 0
root@arm:~# echo 'OCHH''ALQBYA'
OCHHALQBYA
root@arm:~# MARKER='WWGC''UQSCSN' run 'i2cget -y -f 2 0x60 0x22'
WWGCUQSCSN0x78
WWGCUQSCSN 0
root@arm:~# echo 'VAHX''LSEQCB'
VAHXLSEQCB
root@arm:~# MARKER='UVVO''AWXKSE' run 'echo 850000 850000 > /sys/kernel/mva_test//regulators/buck2_set'
UVVOAWXKSEUVVOAWXKSE 0
root@arm:~# echo 'GMQV''MYJXAW'
GMQVMYJXAW
root@arm:~# MARKER='QGHU''ZNJPOM' run 'i2cget -f -y 2 0x60 0x29'
QGHUZNJPOM0x66
QGHUZNJPOM 0
root@arm:~# echo 'FVUQ''TTGTXW'
FVUQTTGTXW
root@arm:~# MARKER='MSQN''LHOYHV' run 'i2cget -y -f 2 0x60 0x22'
MSQNLHOYHV0x78
MSQNLHOYHV 0
root@arm:~# echo 'AFYG''PBFPVW'
AFYGPBFPVW
root@arm:~# MARKER='BWYG''TTTXHS' run 'i2cget -y -f 2 0x60 0x22'
BWYGTTTXHS0x78
BWYGTTTXHS 0
root@arm:~# echo 'FJMK''CPZTHM'
FJMKCPZTHM
root@arm:~# MARKER='KNMG''QZXFMY' run 'echo 860000 860000 > /sys/kernel/mva_test//regulators/buck2_set'
KNMGQZXFMYKNMGQZXFMY 0
root@arm:~# echo 'CZVL''LKFNLO'
CZVLLKFNLO
root@arm:~# MARKER='MQNF''MMHHBY' run 'i2cget -f -y 2 0x60 0x29'
MQNFMMHHBY0x67
MQNFMMHHBY 0
root@arm:~# echo 'SXCN''JWJXKQ'
SXCNJWJXKQ
root@arm:~# MARKER='ZPJO''XWXHGF' run 'i2cget -y -f 2 0x60 0x22'
ZPJOXWXHGF0x78
ZPJOXWXHGF 0
root@arm:~# echo 'YSXZ''ZNXJFS'
YSXZZNXJFS
root@arm:~# MARKER='OAOC''BFNJTO' run 'i2cget -y -f 2 0x60 0x22'
OAOCBFNJTO0x78
OAOCBFNJTO 0
root@arm:~# echo 'CTJM''PGUFCQ'
CTJMPGUFCQ
root@arm:~# MARKER='KJUY''VYVAGH' run 'echo 870000 870000 > /sys/kernel/mva_test//regulators/buck2_set'
KJUYVYVAGHKJUYVYVAGH 0
root@arm:~# echo 'VWZN''HZZEJG'
VWZNHZZEJG
root@arm:~# MARKER='TNUJ''JJTLQG' run 'i2cget -f -y 2 0x60 0x29'
TNUJJJTLQG0x68
TNUJJJTLQG 0
root@arm:~# echo 'JBPF''WGYWOV'
JBPFWGYWOV
root@arm:~# MARKER='CJFE''ATHWHG' run 'i2cget -y -f 2 0x60 0x22'
CJFEATHWHG0x78
CJFEATHWHG 0
root@arm:~# echo 'KEOF''HSMTMT'
KEOFHSMTMT
root@arm:~# MARKER='WYXN''ACNYJM' run 'i2cget -y -f 2 0x60 0x22'
WYXNACNYJM0x78
WYXNACNYJM 0
root@arm:~# echo 'FSQY''CKVSPC'
FSQYCKVSPC
root@arm:~# MARKER='FJME''GKJBGF' run 'echo 880000 880000 > /sys/kernel/mva_test//regulators/buck2_set'
FJMEGKJBGFFJMEGKJBGF 0
root@arm:~# echo 'ENEM''ETCNUO'
ENEMETCNUO
root@arm:~# MARKER='QXUS''VLBNPJ' run 'i2cget -f -y 2 0x60 0x29'
QXUSVLBNPJ0x69
QXUSVLBNPJ 0
root@arm:~# echo 'HQOO''FABFFM'
HQOOFABFFM
root@arm:~# MARKER='ZVVF''AHTTEQ' run 'i2cget -y -f 2 0x60 0x22'
ZVVFAHTTEQ0x78
ZVVFAHTTEQ 0
root@arm:~# echo 'ZGPE''FKUXTC'
ZGPEFKUXTC
root@arm:~# MARKER='VVNK''ZYKNXA' run 'i2cget -y -f 2 0x60 0x22'
VVNKZYKNXA0x78
VVNKZYKNXA 0
root@arm:~# echo 'CBGE''QHESSV'
CBGEQHESSV
root@arm:~# MARKER='BOBB''BQCPBC' run 'echo 890000 890000 > /sys/kernel/mva_test//regulators/buck2_set'
BOBBBQCPBCBOBBBQCPBC 0
root@arm:~# echo 'AZFE''TKVKMK'
AZFETKVKMK
root@arm:~# MARKER='JPGZ''OJMPGS' run 'i2cget -f -y 2 0x60 0x29'
JPGZOJMPGS0x6a
JPGZOJMPGS 0
root@arm:~# echo 'LMGZ''GJNNQC'
LMGZGJNNQC
root@arm:~# MARKER='MCST''QUHQWG' run 'i2cget -y -f 2 0x60 0x22'
MCSTQUHQWG0x78
MCSTQUHQWG 0
root@arm:~# echo 'TBSC''JYALUU'
TBSCJYALUU
root@arm:~# MARKER='YEHY''OBSGTT' run 'i2cget -y -f 2 0x60 0x22'
YEHYOBSGTT0x78
YEHYOBSGTT 0
root@arm:~# echo 'BTXT''EUZAYH'
BTXTEUZAYH
root@arm:~# MARKER='ZKNV''SGPKLP' run 'echo 900000 900000 > /sys/kernel/mva_test//regulators/buck2_set'
ZKNVSGPKLPZKNVSGPKLP 0
root@arm:~# echo 'GZVF''KZPLNS'
GZVFKZPLNS
root@arm:~# MARKER='HQTV''ZXGXLH' run 'i2cget -f -y 2 0x60 0x29'
HQTVZXGXLH0x6b
HQTVZXGXLH 0
root@arm:~# echo 'VEAS''PAZTQL'
VEASPAZTQL
root@arm:~# MARKER='OSOO''PJASQU' run 'i2cget -y -f 2 0x60 0x22'
OSOOPJASQU0x78
OSOOPJASQU 0
root@arm:~# echo 'NUTH''BNGETN'
NUTHBNGETN
root@arm:~# MARKER='AQWN''UMYXCO' run 'i2cget -y -f 2 0x60 0x22'
AQWNUMYXCO0x78
AQWNUMYXCO 0
root@arm:~# echo 'QCMS''LSSLFQ'
QCMSLSSLFQ
root@arm:~# MARKER='EYCY''UGUSSN' run 'echo 910000 910000 > /sys/kernel/mva_test//regulators/buck2_set'
EYCYUGUSSNEYCYUGUSSN 0
root@arm:~# echo 'AFOK''SGJACB'
AFOKSGJACB
root@arm:~# MARKER='ZGVN''HYPSCH' run 'i2cget -f -y 2 0x60 0x29'
ZGVNHYPSCH0x6c
ZGVNHYPSCH 0
root@arm:~# echo 'CGPS''NFBVZA'
CGPSNFBVZA
root@arm:~# MARKER='FFLZ''GVEVTO' run 'i2cget -y -f 2 0x60 0x22'
FFLZGVEVTO0x78
FFLZGVEVTO 0
root@arm:~# echo 'GGJU''CHSBNJ'
GGJUCHSBNJ
root@arm:~# MARKER='PGGB''XFQSKM' run 'i2cget -y -f 2 0x60 0x22'
PGGBXFQSKM0x78
PGGBXFQSKM 0
root@arm:~# echo 'QYPW''VJANCV'
QYPWVJANCV
root@arm:~# MARKER='VFMA''AZXOMN' run 'echo 920000 920000 > /sys/kernel/mva_test//regulators/buck2_set'
VFMAAZXOMNVFMAAZXOMN 0
root@arm:~# echo 'LHCJ''BTQCLH'
LHCJBTQCLH
root@arm:~# MARKER='BJHK''TYKHQK' run 'i2cget -f -y 2 0x60 0x29'
BJHKTYKHQK0x6d
BJHKTYKHQK 0
root@arm:~# echo 'ZFOZ''EOTVJO'
ZFOZEOTVJO
root@arm:~# MARKER='HYCU''SZZOGO' run 'i2cget -y -f 2 0x60 0x22'
HYCUSZZOGO0x78
HYCUSZZOGO 0
root@arm:~# echo 'TVFT''LQMBEU'
TVFTLQMBEU
root@arm:~# MARKER='JYAZ''TPHBWJ' run 'i2cget -y -f 2 0x60 0x22'
JYAZTPHBWJ0x78
JYAZTPHBWJ 0
root@arm:~# echo 'LXSJ''YUKQWN'
LXSJYUKQWN
root@arm:~# MARKER='PEEV''MMQXYF' run 'echo 930000 930000 > /sys/kernel/mva_test//regulators/buck2_set'
PEEVMMQXYFPEEVMMQXYF 0
root@arm:~# echo 'JCNH''OAGQVT'
JCNHOAGQVT
root@arm:~# MARKER='JZUG''GXTTNT' run 'i2cget -f -y 2 0x60 0x29'
JZUGGXTTNT0x6e
JZUGGXTTNT 0
root@arm:~# echo 'PNXS''WOPFSQ'
PNXSWOPFSQ
root@arm:~# MARKER='QXCY''MSYBFB' run 'i2cget -y -f 2 0x60 0x22'
QXCYMSYBFB0x78
QXCYMSYBFB 0
root@arm:~# echo 'KBFO''PWWJUN'
KBFOPWWJUN
root@arm:~# MARKER='STWQ''TZGZPN' run 'i2cget -y -f 2 0x60 0x22'
STWQTZGZPN0x78
STWQTZGZPN 0
root@arm:~# echo 'YVZM''OYNUMF'
YVZMOYNUMF
root@arm:~# MARKER='CPNC''HZYVSG' run 'echo 940000 940000 > /sys/kernel/mva_test//regulators/buck2_set'
CPNCHZYVSGCPNCHZYVSG 0
root@arm:~# echo 'XXNV''OXASUM'
XXNVOXASUM
root@arm:~# MARKER='XTBE''AZVZLT' run 'i2cget -f -y 2 0x60 0x29'
XTBEAZVZLT0x6f
XTBEAZVZLT 0
root@arm:~# echo 'PQFY''BQVPXG'
PQFYBQVPXG
root@arm:~# MARKER='TOMX''LSUVGT' run 'i2cget -y -f 2 0x60 0x22'
TOMXLSUVGT0x78
TOMXLSUVGT 0
root@arm:~# echo 'KYEF''BCNVZE'
KYEFBCNVZE
root@arm:~# MARKER='XMVB''KMTKUQ' run 'i2cget -y -f 2 0x60 0x22'
XMVBKMTKUQ0x78
XMVBKMTKUQ 0
root@arm:~# echo 'JEEY''JWGTKU'
JEEYJWGTKU
root@arm:~# MARKER='QTKO''XJLKTK' run 'echo 950000 950000 > /sys/kernel/mva_test//regulators/buck2_set'
QTKOXJLKTKQTKOXJLKTK 0
root@arm:~# echo 'KHCW''KHQJTW'
KHCWKHQJTW
root@arm:~# MARKER='WNNZ''FFMNAL' run 'i2cget -f -y 2 0x60 0x29'
WNNZFFMNAL0x70
WNNZFFMNAL 0
root@arm:~# echo 'QYKU''HZCPGT'
QYKUHZCPGT
root@arm:~# MARKER='MQAJ''UCMMLY' run 'i2cget -y -f 2 0x60 0x22'
MQAJUCMMLY0x78
MQAJUCMMLY 0
root@arm:~# echo 'FBYB''ZUGZPE'
FBYBZUGZPE
root@arm:~# MARKER='AKLM''BAVOXG' run 'i2cget -y -f 2 0x60 0x22'
AKLMBAVOXG0x78
AKLMBAVOXG 0
root@arm:~# echo 'ACWG''QYWFNW'
ACWGQYWFNW
root@arm:~# MARKER='PPUL''VANCYP' run 'echo 960000 960000 > /sys/kernel/mva_test//regulators/buck2_set'
PPULVANCYPPPULVANCYP 0
root@arm:~# echo 'BNQE''CCQLCF'
BNQECCQLCF
root@arm:~# MARKER='NEVL''YANQLE' run 'i2cget -f -y 2 0x60 0x29'
NEVLYANQLE0x71
NEVLYANQLE 0
root@arm:~# echo 'UWTV''ZQSKHE'
UWTVZQSKHE
root@arm:~# MARKER='FZLE''ZCVPMJ' run 'i2cget -y -f 2 0x60 0x22'
FZLEZCVPMJ0x78
FZLEZCVPMJ 0
root@arm:~# echo 'WAUL''KBUYXL'
WAULKBUYXL
root@arm:~# MARKER='TFSS''AVJSPO' run 'i2cget -y -f 2 0x60 0x22'
TFSSAVJSPO0x78
TFSSAVJSPO 0
root@arm:~# echo 'GHGU''CZLSYW'
GHGUCZLSYW
root@arm:~# MARKER='CAAX''HXBYKQ' run 'echo 970000 970000 > /sys/kernel/mva_test//regulators/buck2_set'
CAAXHXBYKQCAAXHXBYKQ 0
root@arm:~# echo 'HEQU''FNCBYQ'
HEQUFNCBYQ
root@arm:~# MARKER='NMQW''OZBVVN' run 'i2cget -f -y 2 0x60 0x29'
NMQWOZBVVN0x72
NMQWOZBVVN 0
root@arm:~# echo 'HAWV''YWKMCA'
HAWVYWKMCA
root@arm:~# MARKER='YQUP''CNQWXE' run 'i2cget -y -f 2 0x60 0x22'
YQUPCNQWXE0x78
YQUPCNQWXE 0
root@arm:~# echo 'TKNQ''ZHHJCJ'
TKNQZHHJCJ
root@arm:~# MARKER='UKBJ''UOLSHB' run 'i2cget -y -f 2 0x60 0x22'
UKBJUOLSHB0x78
UKBJUOLSHB 0
root@arm:~# echo 'YNQE''BCSQAU'
YNQEBCSQAU
root@arm:~# MARKER='ATYU''ZLYHYJ' run 'echo 980000 980000 > /sys/kernel/mva_test//regulators/buck2_set'
ATYUZLYHYJATYUZLYHYJ 0
root@arm:~# echo 'VYTA''BHPCGY'
VYTABHPCGY
root@arm:~# MARKER='UJZT''KQKMJX' run 'i2cget -f -y 2 0x60 0x29'
UJZTKQKMJX0x73
UJZTKQKMJX 0
root@arm:~# echo 'NYMJ''BVQXVN'
NYMJBVQXVN
root@arm:~# MARKER='JVAP''FPBMXY' run 'i2cget -y -f 2 0x60 0x22'
JVAPFPBMXY0x78
JVAPFPBMXY 0
root@arm:~# echo 'XOPK''EKJBYF'
XOPKEKJBYF
root@arm:~# MARKER='MJNT''FLPPUA' run 'i2cget -y -f 2 0x60 0x22'
MJNTFLPPUA0x78
MJNTFLPPUA 0
root@arm:~# echo 'YKGP''PZLXQJ'
YKGPPZLXQJ
root@arm:~# MARKER='FQWN''AWTMXW' run 'echo 990000 990000 > /sys/kernel/mva_test//regulators/buck2_set'
FQWNAWTMXWFQWNAWTMXW 0
root@arm:~# echo 'SKYF''BBVFAM'
SKYFBBVFAM
root@arm:~# MARKER='ONKG''FZEYBM' run 'i2cget -f -y 2 0x60 0x29'
ONKGFZEYBM0x74
ONKGFZEYBM 0
root@arm:~# echo 'ELLV''MFTZJJ'
ELLVMFTZJJ
root@arm:~# MARKER='AQOQ''HAQSZG' run 'i2cget -y -f 2 0x60 0x22'
AQOQHAQSZG0x78
AQOQHAQSZG 0
root@arm:~# echo 'VJWL''OUYVGK'
VJWLOUYVGK
root@arm:~# MARKER='ZSYJ''ZHSMPF' run 'i2cget -y -f 2 0x60 0x22'
ZSYJZHSMPF0x78
ZSYJZHSMPF 0
root@arm:~# echo 'NJCB''KFHMXZ'
NJCBKFHMXZ
root@arm:~# MARKER='YLYQ''YYBZUN' run 'echo 1000000 1000000 > /sys/kernel/mva_tesst/regulators/buck2_set'
YLYQYYBZUNYLYQYYBZUN 0
root@arm:~# echo 'JPBP''WMOMSN'
JPBPWMOMSN
root@arm:~# MARKER='LMJS''UZPBKQ' run 'i2cget -f -y 2 0x60 0x29'
LMJSUZPBKQ0x75
LMJSUZPBKQ 0
root@arm:~# echo 'HUVX''NHJLAC'
HUVXNHJLAC
root@arm:~# MARKER='EYKT''VMOMKQ' run 'i2cget -y -f 2 0x60 0x22'
EYKTVMOMKQ0x78
EYKTVMOMKQ 0
root@arm:~# echo 'ELHL''TWWPJE'
ELHLTWWPJE
root@arm:~# MARKER='KCTY''UJMNJP' run 'i2cget -y -f 2 0x60 0x22'
KCTYUJMNJP0x78
KCTYUJMNJP 0
root@arm:~# echo 'LXVO''ZNHWUS'
LXVOZNHWUS
root@arm:~# MARKER='KWJL''ASHXLA' run 'echo 1010000 1010000 > /sys/kernel/mva_tesst/regulators/buck2_set'
KWJLASHXLAKWJLASHXLA 0
root@arm:~# echo 'MVGP''NXJZFT'
MVGPNXJZFT
root@arm:~# MARKER='NPLU''LYFFGP' run 'i2cget -f -y 2 0x60 0x29'
NPLULYFFGP0x76
NPLULYFFGP 0
root@arm:~# echo 'LNUZ''EGFWVG'
LNUZEGFWVG
root@arm:~# MARKER='JAAA''XZPYNZ' run 'i2cget -y -f 2 0x60 0x22'
JAAAXZPYNZ0x78
JAAAXZPYNZ 0
root@arm:~# echo 'WZOU''UTXUWA'
WZOUUTXUWA
root@arm:~# MARKER='MTKB''NQTALU' run 'i2cget -y -f 2 0x60 0x22'
MTKBNQTALU0x78
MTKBNQTALU 0
root@arm:~# echo 'QVME''KMTYPY'
QVMEKMTYPY
root@arm:~# MARKER='QXLE''ONKKHF' run 'echo 1020000 1020000 > /sys/kernel/mva_tesst/regulators/buck2_set'
QXLEONKKHFQXLEONKKHF 0
root@arm:~# echo 'MNWJ''BGUYKG'
MNWJBGUYKG
root@arm:~# MARKER='OCJV''WZFLHU' run 'i2cget -f -y 2 0x60 0x29'
OCJVWZFLHU0x77
OCJVWZFLHU 0
root@arm:~# echo 'VMEB''FSOYCZ'
VMEBFSOYCZ
root@arm:~# MARKER='WYUS''QZYHKH' run 'i2cget -y -f 2 0x60 0x22'
WYUSQZYHKH0x78
WYUSQZYHKH 0
root@arm:~# echo 'ULZJ''KWLAKX'
ULZJKWLAKX
root@arm:~# MARKER='KQFC''GMMALA' run 'i2cget -y -f 2 0x60 0x22'
KQFCGMMALA0x78
KQFCGMMALA 0
root@arm:~# echo 'JMUN''WTTFMS'
JMUNWTTFMS
root@arm:~# MARKER='ZMLL''EAACLX' run 'echo 1030000 1030000 > /sys/kernel/mva_tesst/regulators/buck2_set'
ZMLLEAACLXZMLLEAACLX 0
root@arm:~# echo 'KOPM''MGGPSN'
KOPMMGGPSN
root@arm:~# MARKER='VFKA''GUMQGP' run 'i2cget -f -y 2 0x60 0x29'
VFKAGUMQGP0x78
VFKAGUMQGP 0
root@arm:~# echo 'JSYY''OEGLTN'
JSYYOEGLTN
root@arm:~# MARKER='FVWQ''ATJUCP' run 'i2cget -y -f 2 0x60 0x22'
FVWQATJUCP0x78
FVWQATJUCP 0
root@arm:~# echo 'FLNY''KPSNLN'
FLNYKPSNLN
root@arm:~# MARKER='JVCA''LGJQPU' run 'i2cget -y -f 2 0x60 0x22'
JVCALGJQPU0x78
JVCALGJQPU 0
root@arm:~# echo 'CNXT''SZSGYA'
CNXTSZSGYA
root@arm:~# MARKER='AEQB''WGLXXO' run 'echo 1040000 1040000 > /sys/kernel/mva_tesst/regulators/buck2_set'
AEQBWGLXXOAEQBWGLXXO 0
root@arm:~# echo 'XNGU''QKXQOT'
XNGUQKXQOT
root@arm:~# MARKER='MKWX''UXGUQY' run 'i2cget -f -y 2 0x60 0x29'
MKWXUXGUQY0x79
MKWXUXGUQY 0
root@arm:~# echo 'QULT''TMTOSS'
QULTTMTOSS
root@arm:~# MARKER='PJJK''JHMCHU' run 'i2cget -y -f 2 0x60 0x22'
PJJKJHMCHU0x78
PJJKJHMCHU 0
root@arm:~# echo 'OAAC''ZJWEXK'
OAACZJWEXK
root@arm:~# MARKER='MGKJ''FBLXTY' run 'i2cget -y -f 2 0x60 0x22'
MGKJFBLXTY0x78
MGKJFBLXTY 0
root@arm:~# echo 'TSSW''AUWZUN'
TSSWAUWZUN
root@arm:~# MARKER='TJKL''PJZMCC' run 'echo 1050000 1050000 > /sys/kernel/mva_tesst/regulators/buck2_set'
TJKLPJZMCCTJKLPJZMCC 0
root@arm:~# echo 'MVLU''KGYKEO'
MVLUKGYKEO
root@arm:~# MARKER='JFOU''JPUPMM' run 'i2cget -f -y 2 0x60 0x29'
JFOUJPUPMM0x7a
JFOUJPUPMM 0
root@arm:~# echo 'YLZT''JNOKAC'
YLZTJNOKAC
root@arm:~# MARKER='COPT''MGQLOJ' run 'i2cget -y -f 2 0x60 0x22'
COPTMGQLOJ0x78
COPTMGQLOJ 0
root@arm:~# echo 'HPOX''UQHWFL'
HPOXUQHWFL
root@arm:~# MARKER='JHSU''EAECJU' run 'i2cget -y -f 2 0x60 0x22'
JHSUEAECJU0x78
JHSUEAECJU 0
root@arm:~# echo 'MNPN''USAFBL'
MNPNUSAFBL
root@arm:~# MARKER='SXXQ''SEQMXF' run 'echo 1060000 1060000 > /sys/kernel/mva_tesst/regulators/buck2_set'
SXXQSEQMXFSXXQSEQMXF 0
root@arm:~# echo 'SUTY''ALOKCU'
SUTYALOKCU
root@arm:~# MARKER='BVZA''BCNMGZ' run 'i2cget -f -y 2 0x60 0x29'
BVZABCNMGZ0x7b
BVZABCNMGZ 0
root@arm:~# echo 'KVNS''AUWEYX'
KVNSAUWEYX
root@arm:~# MARKER='XTMB''SVATUQ' run 'i2cget -y -f 2 0x60 0x22'
XTMBSVATUQ0x78
XTMBSVATUQ 0
root@arm:~# echo 'VOSK''CQZAWC'
VOSKCQZAWC
root@arm:~# MARKER='LJJH''QNVKKF' run 'i2cget -y -f 2 0x60 0x22'
LJJHQNVKKF0x78
LJJHQNVKKF 0
root@arm:~# echo 'VPBX''VNATAC'
VPBXVNATAC
root@arm:~# MARKER='HHUK''KFZKBW' run 'echo 1070000 1070000 > /sys/kernel/mva_tesst/regulators/buck2_set'
HHUKKFZKBWHHUKKFZKBW 0
root@arm:~# echo 'BSOY''ZNBAAH'
BSOYZNBAAH
root@arm:~# MARKER='XXUJ''KAQVME' run 'i2cget -f -y 2 0x60 0x29'
XXUJKAQVME0x7c
XXUJKAQVME 0
root@arm:~# echo 'YWJK''NQXHSS'
YWJKNQXHSS
root@arm:~# MARKER='SHBC''WCLUEJ' run 'i2cget -y -f 2 0x60 0x22'
SHBCWCLUEJ0x78
SHBCWCLUEJ 0
root@arm:~# echo 'LQHM''SCXHTX'
LQHMSCXHTX
root@arm:~# MARKER='VBVY''WLTOXO' run 'i2cget -y -f 2 0x60 0x22'
VBVYWLTOXO0x78
VBVYWLTOXO 0
root@arm:~# echo 'TWCM''LVVAXM'
TWCMLVVAXM
root@arm:~# MARKER='AWLQ''TJYATY' run 'echo 1080000 1080000 > /sys/kernel/mva_tesst/regulators/buck2_set'
AWLQTJYATYAWLQTJYATY 0
root@arm:~# echo 'JTTV''HZMBTU'
JTTVHZMBTU
root@arm:~# MARKER='GEVJ''CSMKWJ' run 'i2cget -f -y 2 0x60 0x29'
GEVJCSMKWJ0x7d
GEVJCSMKWJ 0
root@arm:~# echo 'UGSM''OOFELF'
UGSMOOFELF
root@arm:~# MARKER='WNJQ''OYACPB' run 'i2cget -y -f 2 0x60 0x22'
WNJQOYACPB0x78
WNJQOYACPB 0
root@arm:~# echo 'TJKG''GHQXSG'
TJKGGHQXSG
root@arm:~# MARKER='SWMU''TPBHVZ' run 'i2cget -y -f 2 0x60 0x22'
SWMUTPBHVZ0x78
SWMUTPBHVZ 0
root@arm:~# echo 'NVQV''VAWXVM'
NVQVVAWXVM
root@arm:~# MARKER='SPAM''WMXZVV' run 'echo 1090000 1090000 > /sys/kernel/mva_tesst/regulators/buck2_set'
SPAMWMXZVVSPAMWMXZVV 0
root@arm:~# echo 'MZXG''HWKXHJ'
MZXGHWKXHJ
root@arm:~# MARKER='PBUM''YWCTQE' run 'i2cget -f -y 2 0x60 0x29'
PBUMYWCTQE0x7e
PBUMYWCTQE 0
root@arm:~# echo 'VYCA''EXUZTU'
VYCAEXUZTU
root@arm:~# MARKER='NYCN''NQFUTS' run 'i2cget -y -f 2 0x60 0x22'
NYCNNQFUTS0x78
NYCNNQFUTS 0
root@arm:~# echo 'XUBT''KCJGBG'
XUBTKCJGBG
root@arm:~# MARKER='MJSG''MWBESX' run 'i2cget -y -f 2 0x60 0x22'
MJSGMWBESX0x78
MJSGMWBESX 0
root@arm:~# echo 'UJFS''HWGGMM'
UJFSHWGGMM
root@arm:~# MARKER='EBJG''EEBAKP' run 'echo 1100000 1100000 > /sys/kernel/mva_tesst/regulators/buck2_set'
EBJGEEBAKPEBJGEEBAKP 0
root@arm:~# echo 'OTVE''VKXCXZ'
OTVEVKXCXZ
root@arm:~# MARKER='CJMY''ZTBAJW' run 'i2cget -f -y 2 0x60 0x29'
CJMYZTBAJW0x40
CJMYZTBAJW 0
root@arm:~# echo 'XTVU''ZTKMNN'
XTVUZTKMNN
root@arm:~# MARKER='QKOK''UVGWMY' run 'i2cget -y -f 2 0x60 0x22'
QKOKUVGWMY0x78
QKOKUVGWMY 0
root@arm:~# echo 'UYPL''SKLZLO'
UYPLSKLZLO
root@arm:~# MARKER='CLKC''GYSCVB' run 'i2cget -y -f 2 0x60 0x23'
CLKCGYSCVB0x46
CLKCGYSCVB 0
root@arm:~# echo 'EJKL''EGBVNN'
EJKLEGBVNN
root@arm:~# MARKER='XYZL''ZYNAQH' run 'echo 850000 850000 > /sys/kernel/mva_test//regulators/buck3_set'
XYZLZYNAQHXYZLZYNAQH 0
root@arm:~# echo 'CQFN''SWSHBT'
CQFNSWSHBT
root@arm:~# MARKER='UVTF''FOETAQ' run 'i2cget -f -y 2 0x60 0x2a'
UVTFFOETAQ0x80
UVTFFOETAQ 0
root@arm:~# echo 'EWBW''XTPEWS'
EWBWXTPEWS
root@arm:~# MARKER='WNMV''HPNYZF' run 'i2cget -y -f 2 0x60 0x23'
WNMVHPNYZF0x46
WNMVHPNYZF 0
root@arm:~# echo 'BXSN''CQYHNY'
BXSNCQYHNY
root@arm:~# MARKER='SECT''LQWASV' run 'i2cget -y -f 2 0x60 0x23'
SECTLQWASV0x46
SECTLQWASV 0
root@arm:~# echo 'HYQM''EQSUJZ'
HYQMEQSUJZ
root@arm:~# MARKER='LUFU''LVJJAG' run 'echo 860000 860000 > /sys/kernel/mva_test//regulators/buck3_set'
LUFULVJJAGLUFULVJJAG 0
root@arm:~# echo 'THGT''WFWTAN'
THGTWFWTAN
root@arm:~# MARKER='NWBC''LFSMUM' run 'i2cget -f -y 2 0x60 0x2a'
NWBCLFSMUM0x81
NWBCLFSMUM 0
root@arm:~# echo 'YJSS''KZUWNK'
YJSSKZUWNK
root@arm:~# MARKER='SAEP''PEKKPW' run 'i2cget -y -f 2 0x60 0x23'
SAEPPEKKPW0x46
SAEPPEKKPW 0
root@arm:~# echo 'WGOU''WBOGHG'
WGOUWBOGHG
root@arm:~# MARKER='OFWK''QUVKEX' run 'i2cget -y -f 2 0x60 0x23'
OFWKQUVKEX0x46
OFWKQUVKEX 0
root@arm:~# echo 'UVCH''CLFGQE'
UVCHCLFGQE
root@arm:~# MARKER='PHTY''FLBPLF' run 'echo 870000 870000 > /sys/kernel/mva_test//regulators/buck3_set'
PHTYFLBPLFPHTYFLBPLF 0
root@arm:~# echo 'EZSK''FSAUKT'
EZSKFSAUKT
root@arm:~# MARKER='GUJO''VNPWKM' run 'i2cget -f -y 2 0x60 0x2a'
GUJOVNPWKM0x82
GUJOVNPWKM 0
root@arm:~# echo 'YHGO''HAKHYP'
YHGOHAKHYP
root@arm:~# MARKER='TWLK''XYMHCF' run 'i2cget -y -f 2 0x60 0x23'
TWLKXYMHCF0x46
TWLKXYMHCF 0
root@arm:~# echo 'JMQW''GAJNYB'
JMQWGAJNYB
root@arm:~# MARKER='HOHZ''WVCGXL' run 'i2cget -y -f 2 0x60 0x23'
HOHZWVCGXL0x46
HOHZWVCGXL 0
root@arm:~# echo 'VCKL''YABSNL'
VCKLYABSNL
root@arm:~# MARKER='MFEU''CBSTOC' run 'echo 880000 880000 > /sys/kernel/mva_test//regulators/buck3_set'
MFEUCBSTOCMFEUCBSTOC 0
root@arm:~# echo 'PSCC''XOUQET'
PSCCXOUQET
root@arm:~# MARKER='FYAF''TQYPGF' run 'i2cget -f -y 2 0x60 0x2a'
FYAFTQYPGF0x83
FYAFTQYPGF 0
root@arm:~# echo 'SKLS''TYLFJF'
SKLSTYLFJF
root@arm:~# MARKER='GJZA''BVTYOE' run 'i2cget -y -f 2 0x60 0x23'
GJZABVTYOE0x46
GJZABVTYOE 0
root@arm:~# echo 'KJVC''YFHJPX'
KJVCYFHJPX
root@arm:~# MARKER='AEWP''UGAAQJ' run 'i2cget -y -f 2 0x60 0x23'
AEWPUGAAQJ0x46
AEWPUGAAQJ 0
root@arm:~# echo 'YBKV''ZWEFCB'
YBKVZWEFCB
root@arm:~# MARKER='GMHJ''XWJBHE' run 'echo 890000 890000 > /sys/kernel/mva_test//regulators/buck3_set'
GMHJXWJBHEGMHJXWJBHE 0
root@arm:~# echo 'WGNE''QCBAFA'
WGNEQCBAFA
root@arm:~# MARKER='KEUQ''WCGJHA' run 'i2cget -f -y 2 0x60 0x2a'
KEUQWCGJHA0x84
KEUQWCGJHA 0
root@arm:~# echo 'OKPL''BTWJSC'
OKPLBTWJSC
root@arm:~# MARKER='SJPA''NWTBBZ' run 'i2cget -y -f 2 0x60 0x23'
SJPANWTBBZ0x46
SJPANWTBBZ 0
root@arm:~# echo 'YHJP''MSNFCS'
YHJPMSNFCS
root@arm:~# MARKER='HPXA''JFEXLT' run 'i2cget -y -f 2 0x60 0x23'
HPXAJFEXLT0x46
HPXAJFEXLT 0
root@arm:~# echo 'OBWL''ANHFCV'
OBWLANHFCV
root@arm:~# MARKER='LSLV''ZYLVSV' run 'echo 900000 900000 > /sys/kernel/mva_test//regulators/buck3_set'
LSLVZYLVSVLSLVZYLVSV 0
root@arm:~# echo 'TUOQ''ZAQBLF'
TUOQZAQBLF
root@arm:~# MARKER='FUTQ''NLULVZ' run 'i2cget -f -y 2 0x60 0x2a'
FUTQNLULVZ0x85
FUTQNLULVZ 0
root@arm:~# echo 'AYPS''LMBBWX'
AYPSLMBBWX
root@arm:~# MARKER='VLTM''PGJFUV' run 'i2cget -y -f 2 0x60 0x23'
VLTMPGJFUV0x46
VLTMPGJFUV 0
root@arm:~# echo 'NKPH''OYLPNZ'
NKPHOYLPNZ
root@arm:~# MARKER='TFMX''KBZAHM' run 'i2cget -y -f 2 0x60 0x23'
TFMXKBZAHM0x46
TFMXKBZAHM 0
root@arm:~# echo 'SZMX''SQQGXQ'
SZMXSQQGXQ
root@arm:~# MARKER='GNOC''CCVCMF' run 'echo 910000 910000 > /sys/kernel/mva_test//regulators/buck3_set'
GNOCCCVCMFGNOCCCVCMF 0
root@arm:~# echo 'OUPE''SOAZEU'
OUPESOAZEU
root@arm:~# MARKER='VCHN''APMJSH' run 'i2cget -f -y 2 0x60 0x2a'
VCHNAPMJSH0x86
VCHNAPMJSH 0
root@arm:~# echo 'QKJK''YEPULL'
QKJKYEPULL
root@arm:~# MARKER='TELQ''QWYSGG' run 'i2cget -y -f 2 0x60 0x23'
TELQQWYSGG0x46
TELQQWYSGG 0
root@arm:~# echo 'XWQB''OASSQF'
XWQBOASSQF
root@arm:~# MARKER='FMVT''YNKMCA' run 'i2cget -y -f 2 0x60 0x23'
FMVTYNKMCA0x46
FMVTYNKMCA 0
root@arm:~# echo 'WEOS''UVFTUB'
WEOSUVFTUB
root@arm:~# MARKER='JYVA''MPSAWT' run 'echo 920000 920000 > /sys/kernel/mva_test//regulators/buck3_set'
JYVAMPSAWTJYVAMPSAWT 0
root@arm:~# echo 'LVYS''CKFVGX'
LVYSCKFVGX
root@arm:~# MARKER='FHZW''HMOBJU' run 'i2cget -f -y 2 0x60 0x2a'
FHZWHMOBJU0x87
FHZWHMOBJU 0
root@arm:~# echo 'WQVW''CWUCHB'
WQVWCWUCHB
root@arm:~# MARKER='SYBG''PXEKFJ' run 'i2cget -y -f 2 0x60 0x23'
SYBGPXEKFJ0x46
SYBGPXEKFJ 0
root@arm:~# echo 'LLWP''WZKPHT'
LLWPWZKPHT
root@arm:~# MARKER='JAVZ''XVPMVY' run 'i2cget -y -f 2 0x60 0x23'
JAVZXVPMVY0x46
JAVZXVPMVY 0
root@arm:~# echo 'EHUK''JQQHMA'
EHUKJQQHMA
root@arm:~# MARKER='HEUP''VFMEEJ' run 'echo 930000 930000 > /sys/kernel/mva_test//regulators/buck3_set'
HEUPVFMEEJHEUPVFMEEJ 0
root@arm:~# echo 'SSEU''NVLWUH'
SSEUNVLWUH
root@arm:~# MARKER='JCJW''SLSOBW' run 'i2cget -f -y 2 0x60 0x2a'
JCJWSLSOBW0x88
JCJWSLSOBW 0
root@arm:~# echo 'ZSXB''AQPNSS'
ZSXBAQPNSS
root@arm:~# MARKER='ZBSY''OXEKAO' run 'i2cget -y -f 2 0x60 0x23'
ZBSYOXEKAO0x46
ZBSYOXEKAO 0
root@arm:~# echo 'QBML''USUSVQ'
QBMLUSUSVQ
root@arm:~# MARKER='OLOM''BHAYKJ' run 'i2cget -y -f 2 0x60 0x23'
OLOMBHAYKJ0x46
OLOMBHAYKJ 0
root@arm:~# echo 'EFJQ''OUKLYK'
EFJQOUKLYK
root@arm:~# MARKER='ZEQX''OHJFEF' run 'echo 940000 940000 > /sys/kernel/mva_test//regulators/buck3_set'
ZEQXOHJFEFZEQXOHJFEF 0
root@arm:~# echo 'TPNU''THAMEY'
TPNUTHAMEY
root@arm:~# MARKER='MWPF''EPELCP' run 'i2cget -f -y 2 0x60 0x2a'
MWPFEPELCP0x89
MWPFEPELCP 0
root@arm:~# echo 'OFNJ''NHEYFS'
OFNJNHEYFS
root@arm:~# MARKER='LQPN''VUVZMV' run 'i2cget -y -f 2 0x60 0x23'
LQPNVUVZMV0x46
LQPNVUVZMV 0
root@arm:~# echo 'OCXE''UFGZAQ'
OCXEUFGZAQ
root@arm:~# MARKER='KCFO''HATNGM' run 'i2cget -y -f 2 0x60 0x23'
KCFOHATNGM0x46
KCFOHATNGM 0
root@arm:~# echo 'AVFT''ACKZBQ'
AVFTACKZBQ
root@arm:~# MARKER='XEFN''NLUTSQ' run 'echo 950000 950000 > /sys/kernel/mva_test//regulators/buck3_set'
XEFNNLUTSQXEFNNLUTSQ 0
root@arm:~# echo 'QVBF''WHFJWC'
QVBFWHFJWC
root@arm:~# MARKER='XPNT''PAOXPP' run 'i2cget -f -y 2 0x60 0x2a'
XPNTPAOXPP0x8a
XPNTPAOXPP 0
root@arm:~# echo 'VAGB''BSVFOL'
VAGBBSVFOL
root@arm:~# MARKER='HGNX''VJCVMP' run 'i2cget -y -f 2 0x60 0x23'
HGNXVJCVMP0x46
HGNXVJCVMP 0
root@arm:~# echo 'JAYF''FWLVZN'
JAYFFWLVZN
root@arm:~# MARKER='FKXX''WGYMMC' run 'i2cget -y -f 2 0x60 0x23'
FKXXWGYMMC0x46
FKXXWGYMMC 0
root@arm:~# echo 'OEOS''JWWQOC'
OEOSJWWQOC
root@arm:~# MARKER='BYQB''HEYLHM' run 'echo 960000 960000 > /sys/kernel/mva_test//regulators/buck3_set'
BYQBHEYLHMBYQBHEYLHM 0
root@arm:~# echo 'SCFV''QGMJKX'
SCFVQGMJKX
root@arm:~# MARKER='SZHG''FEVFPW' run 'i2cget -f -y 2 0x60 0x2a'
SZHGFEVFPW0x8b
SZHGFEVFPW 0
root@arm:~# echo 'NWTQ''WLEUXA'
NWTQWLEUXA
root@arm:~# MARKER='EOUZ''XKXXUG' run 'i2cget -y -f 2 0x60 0x23'
EOUZXKXXUG0x46
EOUZXKXXUG 0
root@arm:~# echo 'XXOB''GFNYZS'
XXOBGFNYZS
root@arm:~# MARKER='MNVH''LNOSMF' run 'i2cget -y -f 2 0x60 0x23'
MNVHLNOSMF0x46
MNVHLNOSMF 0
root@arm:~# echo 'UGYF''TZQOUN'
UGYFTZQOUN
root@arm:~# MARKER='CQUT''OGHAFT' run 'echo 970000 970000 > /sys/kernel/mva_test//regulators/buck3_set'
CQUTOGHAFTCQUTOGHAFT 0
root@arm:~# echo 'ZXOS''PAWVJW'
ZXOSPAWVJW
root@arm:~# MARKER='LJLB''YPAZUO' run 'i2cget -f -y 2 0x60 0x2a'
LJLBYPAZUO0x8c
LJLBYPAZUO 0
root@arm:~# echo 'JSCY''LAVCOE'
JSCYLAVCOE
root@arm:~# MARKER='SSBQ''WHQVKZ' run 'i2cget -y -f 2 0x60 0x23'
SSBQWHQVKZ0x46
SSBQWHQVKZ 0
root@arm:~# echo 'USUY''BHMVGM'
USUYBHMVGM
root@arm:~# MARKER='EJWG''PVTVNA' run 'i2cget -y -f 2 0x60 0x23'
EJWGPVTVNA0x46
EJWGPVTVNA 0
root@arm:~# echo 'XJMY''QXJLVU'
XJMYQXJLVU
root@arm:~# MARKER='WNUN''JOVKJA' run 'echo 980000 980000 > /sys/kernel/mva_test//regulators/buck3_set'
WNUNJOVKJAWNUNJOVKJA 0
root@arm:~# echo 'WQQB''ASBNUB'
WQQBASBNUB
root@arm:~# MARKER='OCQE''NSYHUY' run 'i2cget -f -y 2 0x60 0x2a'
OCQENSYHUY0x8d
OCQENSYHUY 0
root@arm:~# echo 'VJNZ''WKYCMA'
VJNZWKYCMA
root@arm:~# MARKER='OPOM''PSLHJW' run 'i2cget -y -f 2 0x60 0x23'
OPOMPSLHJW0x46
OPOMPSLHJW 0
root@arm:~# echo 'PCHX''OENFXL'
PCHXOENFXL
root@arm:~# MARKER='THKX''MEJYFU' run 'i2cget -y -f 2 0x60 0x23'
THKXMEJYFU0x46
THKXMEJYFU 0
root@arm:~# echo 'EVSG''LEAOTF'
EVSGLEAOTF
root@arm:~# MARKER='SEMZ''NKNAGY' run 'echo 990000 990000 > /sys/kernel/mva_test//regulators/buck3_set'
SEMZNKNAGYSEMZNKNAGY 0
root@arm:~# echo 'TENH''QEFULE'
TENHQEFULE
root@arm:~# MARKER='GYQF''GUCVFE' run 'i2cget -f -y 2 0x60 0x2a'
GYQFGUCVFE0x8e
GYQFGUCVFE 0
root@arm:~# echo 'YSQO''WAESFY'
YSQOWAESFY
root@arm:~# MARKER='BSTN''SSJLNU' run 'i2cget -y -f 2 0x60 0x23'
BSTNSSJLNU0x46
BSTNSSJLNU 0
root@arm:~# echo 'EKNP''PONKQW'
EKNPPONKQW
root@arm:~# MARKER='FFLZ''OBMSXZ' run 'i2cget -y -f 2 0x60 0x23'
FFLZOBMSXZ0x46
FFLZOBMSXZ 0
root@arm:~# echo 'JVBB''PSGKZH'
JVBBPSGKZH
root@arm:~# MARKER='EPAQ''GKNWLC' run 'echo 1000000 1000000 > /sys/kernel/mva_tesst/regulators/buck3_set'
EPAQGKNWLCEPAQGKNWLC 0
root@arm:~# echo 'XELZ''KTOYCB'
XELZKTOYCB
root@arm:~# MARKER='GPAV''WTETJJ' run 'i2cget -f -y 2 0x60 0x2a'
GPAVWTETJJ0x8f
GPAVWTETJJ 0
root@arm:~# echo 'CZFO''HPSCZT'
CZFOHPSCZT
root@arm:~# MARKER='AVWQ''YQECVC' run 'i2cget -y -f 2 0x60 0x23'
AVWQYQECVC0x46
AVWQYQECVC 0
root@arm:~# echo 'WYPP''PKZXJC'
WYPPPKZXJC
root@arm:~# MARKER='NHHX''JFAJWG' run 'i2cget -y -f 2 0x60 0x23'
NHHXJFAJWG0x46
NHHXJFAJWG 0
root@arm:~# echo 'MGKZ''WVUPNK'
MGKZWVUPNK
root@arm:~# MARKER='GVMT''AOWZQT' run 'echo 1010000 1010000 > /sys/kernel/mva_tesst/regulators/buck3_set'
GVMTAOWZQTGVMTAOWZQT 0
root@arm:~# echo 'TTEQ''MWOYKG'
TTEQMWOYKG
root@arm:~# MARKER='EGME''PGHVWX' run 'i2cget -f -y 2 0x60 0x2a'
EGMEPGHVWX0x90
EGMEPGHVWX 0
root@arm:~# echo 'JHCE''LTOGLH'
JHCELTOGLH
root@arm:~# MARKER='PCFN''GUCAMY' run 'i2cget -y -f 2 0x60 0x23'
PCFNGUCAMY0x46
PCFNGUCAMY 0
root@arm:~# echo 'XSSK''CPHKPQ'
XSSKCPHKPQ
root@arm:~# MARKER='SWAJ''XPTWEF' run 'i2cget -y -f 2 0x60 0x23'
SWAJXPTWEF0x46
SWAJXPTWEF 0
root@arm:~# echo 'KBBT''LKPGTS'
KBBTLKPGTS
root@arm:~# MARKER='KFMG''AFPVMM' run 'echo 1020000 1020000 > /sys/kernel/mva_tesst/regulators/buck3_set'
KFMGAFPVMMKFMGAFPVMM 0
root@arm:~# echo 'EOSU''TWEPYO'
EOSUTWEPYO
root@arm:~# MARKER='AQWL''YFQKGQ' run 'i2cget -f -y 2 0x60 0x2a'
AQWLYFQKGQ0x91
AQWLYFQKGQ 0
root@arm:~# echo 'PZBQ''HQEKVW'
PZBQHQEKVW
root@arm:~# MARKER='ZSMJ''BOYBMH' run 'i2cget -y -f 2 0x60 0x23'
ZSMJBOYBMH0x46
ZSMJBOYBMH 0
root@arm:~# echo 'FTAF''KSCTZP'
FTAFKSCTZP
root@arm:~# MARKER='UOXQ''ZZFGEM' run 'i2cget -y -f 2 0x60 0x23'
UOXQZZFGEM0x46
UOXQZZFGEM 0
root@arm:~# echo 'FEKP''MOAPFX'
FEKPMOAPFX
root@arm:~# MARKER='AYJW''XMXAOU' run 'echo 1030000 1030000 > /sys/kernel/mva_tesst/regulators/buck3_set'
AYJWXMXAOUAYJWXMXAOU 0
root@arm:~# echo 'HKLL''PUAKGM'
HKLLPUAKGM
root@arm:~# MARKER='TBFU''ZYYCVH' run 'i2cget -f -y 2 0x60 0x2a'
TBFUZYYCVH0x92
TBFUZYYCVH 0
root@arm:~# echo 'QZFV''KSJSHY'
QZFVKSJSHY
root@arm:~# MARKER='XFQM''UWFKYU' run 'i2cget -y -f 2 0x60 0x23'
XFQMUWFKYU0x46
XFQMUWFKYU 0
root@arm:~# echo 'OHGT''LQBNMV'
OHGTLQBNMV
root@arm:~# MARKER='AEFS''BOSOEA' run 'i2cget -y -f 2 0x60 0x23'
AEFSBOSOEA0x46
AEFSBOSOEA 0
root@arm:~# echo 'LMFW''WJYPVT'
LMFWWJYPVT
root@arm:~# MARKER='MSZP''TJQPEC' run 'echo 1040000 1040000 > /sys/kernel/mva_tesst/regulators/buck3_set'
MSZPTJQPECMSZPTJQPEC 0
root@arm:~# echo 'ETZK''TGOCSZ'
ETZKTGOCSZ
root@arm:~# MARKER='PGAQ''YUGJJQ' run 'i2cget -f -y 2 0x60 0x2a'
PGAQYUGJJQ0x93
PGAQYUGJJQ 0
root@arm:~# echo 'BVWP''XKMHWT'
BVWPXKMHWT
root@arm:~# MARKER='QBJM''MJHAFP' run 'i2cget -y -f 2 0x60 0x23'
QBJMMJHAFP0x46
QBJMMJHAFP 0
root@arm:~# echo 'LSNZ''GAVFBB'
LSNZGAVFBB
root@arm:~# MARKER='CAJC''QCYXWY' run 'i2cget -y -f 2 0x60 0x23'
CAJCQCYXWY0x46
CAJCQCYXWY 0
root@arm:~# echo 'SMCU''JUSJSJ'
SMCUJUSJSJ
root@arm:~# MARKER='UETL''XGHXYS' run 'echo 1050000 1050000 > /sys/kernel/mva_tesst/regulators/buck3_set'
UETLXGHXYSUETLXGHXYS 0
root@arm:~# echo 'AHZM''KTOVVP'
AHZMKTOVVP
root@arm:~# MARKER='KOQQ''SFKANJ' run 'i2cget -f -y 2 0x60 0x2a'
KOQQSFKANJ0x94
KOQQSFKANJ 0
root@arm:~# echo 'BFVU''OUYFAQ'
BFVUOUYFAQ
root@arm:~# MARKER='PMMU''GSNUBS' run 'i2cget -y -f 2 0x60 0x23'
PMMUGSNUBS0x46
PMMUGSNUBS 0
root@arm:~# echo 'KQZJ''AQUGPX'
KQZJAQUGPX
root@arm:~# MARKER='ABKF''QVTSQF' run 'i2cget -y -f 2 0x60 0x23'
ABKFQVTSQF0x46
ABKFQVTSQF 0
root@arm:~# echo 'YYUA''OBYTBF'
YYUAOBYTBF
root@arm:~# MARKER='PQVQ''KPCPEG' run 'echo 1060000 1060000 > /sys/kernel/mva_tesst/regulators/buck3_set'
PQVQKPCPEGPQVQKPCPEG 0
root@arm:~# echo 'NMSJ''ZNZCNM'
NMSJZNZCNM
root@arm:~# MARKER='ALAX''UCQPLE' run 'i2cget -f -y 2 0x60 0x2a'
ALAXUCQPLE0x95
ALAXUCQPLE 0
root@arm:~# echo 'OONW''OTPNGF'
OONWOTPNGF
root@arm:~# MARKER='XCGC''JACJAH' run 'i2cget -y -f 2 0x60 0x23'
XCGCJACJAH0x46
XCGCJACJAH 0
root@arm:~# echo 'OSBU''HZPOQB'
OSBUHZPOQB
root@arm:~# MARKER='ULEF''FXEJJJ' run 'i2cget -y -f 2 0x60 0x23'
ULEFFXEJJJ0x46
ULEFFXEJJJ 0
root@arm:~# echo 'OAUL''GFQJWQ'
OAULGFQJWQ
root@arm:~# MARKER='CVHK''YYSENM' run 'echo 1070000 1070000 > /sys/kernel/mva_tesst/regulators/buck3_set'
CVHKYYSENMCVHKYYSENM 0
root@arm:~# echo 'VSXA''UYAJSU'
VSXAUYAJSU
root@arm:~# MARKER='PSTG''YVABOV' run 'i2cget -f -y 2 0x60 0x2a'
PSTGYVABOV0x96
PSTGYVABOV 0
root@arm:~# echo 'JBBK''PNOOUW'
JBBKPNOOUW
root@arm:~# MARKER='JTJY''OZSPBK' run 'i2cget -y -f 2 0x60 0x23'
JTJYOZSPBK0x46
JTJYOZSPBK 0
root@arm:~# echo 'QCPV''TSQHLS'
QCPVTSQHLS
root@arm:~# MARKER='FKKU''NVOUVO' run 'i2cget -y -f 2 0x60 0x23'
FKKUNVOUVO0x46
FKKUNVOUVO 0
root@arm:~# echo 'KKCT''HWTKAF'
KKCTHWTKAF
root@arm:~# MARKER='CEAT''OZOASA' run 'echo 1080000 1080000 > /sys/kernel/mva_tesst/regulators/buck3_set'
CEATOZOASACEATOZOASA 0
root@arm:~# echo 'JESA''HUCUCA'
JESAHUCUCA
root@arm:~# MARKER='TAVF''QYKWHN' run 'i2cget -f -y 2 0x60 0x2a'
TAVFQYKWHN0x97
TAVFQYKWHN 0
root@arm:~# echo 'NYWV''ZEGQHP'
NYWVZEGQHP
root@arm:~# MARKER='MNCV''PCVNTV' run 'i2cget -y -f 2 0x60 0x23'
MNCVPCVNTV0x46
MNCVPCVNTV 0
root@arm:~# echo 'SLQB''XYEJTM'
SLQBXYEJTM
root@arm:~# MARKER='HTAB''CLJGQL' run 'i2cget -y -f 2 0x60 0x23'
HTABCLJGQL0x46
HTABCLJGQL 0
root@arm:~# echo 'ZSBM''YXMHMM'
ZSBMYXMHMM
root@arm:~# MARKER='TVKC''PEUJUY' run 'echo 1090000 1090000 > /sys/kernel/mva_tesst/regulators/buck3_set'
TVKCPEUJUYTVKCPEUJUY 0
root@arm:~# echo 'JOAS''GSUOQA'
JOASGSUOQA
root@arm:~# MARKER='VMTH''BPJNZO' run 'i2cget -f -y 2 0x60 0x2a'
VMTHBPJNZO0x98
VMTHBPJNZO 0
root@arm:~# echo 'AXCP''NMAQSA'
AXCPNMAQSA
root@arm:~# MARKER='KHTW''MLGLYA' run 'i2cget -y -f 2 0x60 0x23'
KHTWMLGLYA0x46
KHTWMLGLYA 0
root@arm:~# echo 'TKVT''OMABPZ'
TKVTOMABPZ
root@arm:~# MARKER='KFEB''XKJABJ' run 'i2cget -y -f 2 0x60 0x23'
KFEBXKJABJ0x46
KFEBXKJABJ 0
root@arm:~# echo 'OCTY''OWMPVH'
OCTYOWMPVH
root@arm:~# MARKER='VBXV''SOUHZB' run 'echo 1100000 1100000 > /sys/kernel/mva_tesst/regulators/buck3_set'
VBXVSOUHZBVBXVSOUHZB 0
root@arm:~# echo 'GPFH''HPELZX'
GPFHHPELZX
root@arm:~# MARKER='UJBG''NQPQKA' run 'i2cget -f -y 2 0x60 0x2a'
UJBGNQPQKA0x99
UJBGNQPQKA 0
root@arm:~# echo 'XLOS''GAEJFY'
XLOSGAEJFY
root@arm:~# MARKER='OMFX''QQEMVF' run 'i2cget -y -f 2 0x60 0x23'
OMFXQQEMVF0x46
OMFXQQEMVF 0
root@arm:~# echo 'SQSL''ZPVWLJ'
SQSLZPVWLJ
