Labgrid Console Logfile for main
Logfile started at 2025-07-01 13:51:56.920286
=== Log starts here ===

root@arm:~# run() { echo -n "$MARKER"; sh -c "$@"; echo "$MARKER $?"; }
root@arm:~# echo 'NQMG''GOXBWK'
NQMGGOXBWK
root@arm:~# MARKER='AXHZ''XTYSQX' run 'grep -r -l rohm,bd71837 /proc/device-tree  | sed '"'"'s![^/]*$!!'"'"''
AXHZXTYSQX/proc/device-tree/ocp/interconnect@48000000/segment@100000/target-module@9c000/i2c@0/pmic@4b/
AXHZXTYSQX 0
root@arm:~# echo 'EVUS''LLMFSO'
EVUSLLMFSO
root@arm:~# MARKER='XWEM''EHKTEJ' run 'test -f /proc/device-tree/ocp/interconnectt\@48000000/segment\@100000/target-module\@9c000/i2c\@0/pmic\@4b/regulators/BUCK 1/rohm,no-regulator-enable-control ;echo $?'
XWEMEHKTEJ1
XWEMEHKTEJ 0
root@arm:~# echo 'UMWW''TGUQJJ'
UMWWTGUQJJ
root@arm:~# MARKER='LGJN''HJUNBO' run 'echo 1 > /sys/kernel/mva_test/regulators/bbuck1_en'
LGJNHJUNBOLGJNHJUNBO 0
root@arm:~# echo 'VUQM''EBZFOX'
VUQMEBZFOX
root@arm:~# MARKER='YXMJ''WHCFXP' run 'i2cget -y -f 2 0x4b 0x5'
YXMJWHCFXP0x03
YXMJWHCFXP 0
root@arm:~# echo 'AHSE''KZZUJE'
AHSEKZZUJE
root@arm:~# MARKER='GWSG''OBVBXB' run 'grep -r -l rohm,bd71837 /proc/device-tree  | sed '"'"'s![^/]*$!!'"'"''
GWSGOBVBXB/proc/device-tree/ocp/interconnect@48000000/segment@100000/target-module@9c000/i2c@0/pmic@4b/
GWSGOBVBXB 0
root@arm:~# echo 'MGUA''OBJTGB'
MGUAOBJTGB
root@arm:~# MARKER='TGYJ''YQVMKJ' run 'test -f /proc/device-tree/ocp/interconnectt\@48000000/segment\@100000/target-module\@9c000/i2c\@0/pmic\@4b/regulators/BUCK11/rohm,no-regulator-enable-control ;echo $?'
TGYJYQVMKJ1
TGYJYQVMKJ 0
root@arm:~# echo 'NKFG''QGSJEB'
NKFGQGSJEB
root@arm:~# MARKER='JSNV''EBFCJT' run 'grep -r -l rohm,bd71837 /proc/device-tree  | sed '"'"'s![^/]*$!!'"'"''
JSNVEBFCJT/proc/device-tree/ocp/interconnect@48000000/segment@100000/target-module@9c000/i2c@0/pmic@4b/
JSNVEBFCJT 0
root@arm:~# echo 'EWPZ''ZSSGGS'
EWPZZSSGGS
root@arm:~# MARKER='HPQB''MVWUVT' run 'test -f /proc/device-tree/ocp/interconnectt\@48000000/segment\@100000/target-module\@9c000/i2c\@0/pmic\@4b/regulators/BUCK11/regulator-always-on ;echo $?'
HPQBMVWUVT1
HPQBMVWUVT 0
root@arm:~# echo 'TWJG''TFTGMT'
TWJGTFTGMT
root@arm:~# MARKER='ZFGJ''FLCJEF' run 'echo 0 > /sys/kernel/mva_test/regulators/bbuck1_en'
ZFGJFLCJEFZFGJFLCJEF 0
root@arm:~# echo 'LOLL''NCOEQU'
LOLLNCOEQU
root@arm:~# MARKER='GNNJ''TZZQTO' run 'i2cget -y -f 2 0x4b 0x5'
GNNJTZZQTO0x02
GNNJTZZQTO 0
root@arm:~# echo 'CUYZ''BZMTMZ'
CUYZBZMTMZ
root@arm:~# MARKER='HZYJ''GTXLSX' run 'grep -r -l rohm,bd71837 /proc/device-tree  | sed '"'"'s![^/]*$!!'"'"''
HZYJGTXLSX/proc/device-tree/ocp/interconnect@48000000/segment@100000/target-module@9c000/i2c@0/pmic@4b/
HZYJGTXLSX 0
root@arm:~# echo 'LUJY''MSNHXM'
LUJYMSNHXM
root@arm:~# MARKER='ZSMU''LHWXCQ' run 'test -f /proc/device-tree/ocp/interconnectt\@48000000/segment\@100000/target-module\@9c000/i2c\@0/pmic\@4b/regulators/BUCK22/rohm,no-regulator-enable-control ;echo $?'
ZSMULHWXCQ1
ZSMULHWXCQ 0
root@arm:~# echo 'VCOT''WGQMWT'
VCOTWGQMWT
root@arm:~# MARKER='MZKC''ENWVCC' run 'echo 1 > /sys/kernel/mva_test/regulators/bbuck2_en'
MZKCENWVCCMZKCENWVCC 0
root@arm:~# echo 'ELUP''WVOQCC'
ELUPWVOQCC
root@arm:~# MARKER='XFNV''FCQYAZ' run 'i2cget -y -f 2 0x4b 0x6'
XFNVFCQYAZ0x43
XFNVFCQYAZ 0
root@arm:~# echo 'OUGB''FPOMQJ'
OUGBFPOMQJ
root@arm:~# MARKER='CYBL''VMFXON' run 'grep -r -l rohm,bd71837 /proc/device-tree  | sed '"'"'s![^/]*$!!'"'"''
CYBLVMFXON/proc/device-tree/ocp/interconnect@48000000/segment@100000/target-module@9c000/i2c@0/pmic@4b/
CYBLVMFXON 0
root@arm:~# echo 'KLXP''WYTNWF'
KLXPWYTNWF
root@arm:~# MARKER='WGHB''VFYZGU' run 'test -f /proc/device-tree/ocp/interconnectt\@48000000/segment\@100000/target-module\@9c000/i2c\@0/pmic\@4b/regulators/BUCK22/rohm,no-regulator-enable-control ;echo $?'
WGHBVFYZGU1
WGHBVFYZGU 0
root@arm:~# echo 'HLVE''VKAEVV'
HLVEVKAEVV
root@arm:~# MARKER='AKAB''TCPBLJ' run 'grep -r -l rohm,bd71837 /proc/device-tree  | sed '"'"'s![^/]*$!!'"'"''
AKABTCPBLJ/proc/device-tree/ocp/interconnect@48000000/segment@100000/target-module@9c000/i2c@0/pmic@4b/
AKABTCPBLJ 0
root@arm:~# echo 'WUEU''JXVGVC'
WUEUJXVGVC
root@arm:~# MARKER='EPOL''KSQCMM' run 'test -f /proc/device-tree/ocp/interconnectt\@48000000/segment\@100000/target-module\@9c000/i2c\@0/pmic\@4b/regulators/BUCK22/regulator-always-on ;echo $?'
EPOLKSQCMM0
EPOLKSQCMM 0
root@arm:~# echo 'KJCN''QHOVZJ'
KJCNQHOVZJ
root@arm:~# MARKER='NSKL''WNVQPE' run 'grep -r -l rohm,bd71837 /proc/device-tree  | sed '"'"'s![^/]*$!!'"'"''
NSKLWNVQPE/proc/device-tree/ocp/interconnect@48000000/segment@100000/target-module@9c000/i2c@0/pmic@4b/
NSKLWNVQPE 0
root@arm:~# echo 'JWQH''QTAJAA'
JWQHQTAJAA
root@arm:~# MARKER='KWUC''EOFTAA' run 'test -f /proc/device-tree/ocp/interconnectt\@48000000/segment\@100000/target-module\@9c000/i2c\@0/pmic\@4b/regulators/BUCK33/rohm,no-regulator-enable-control ;echo $?'
KWUCEOFTAA0
KWUCEOFTAA 0
root@arm:~# echo 'GSSK''VJBJVM'
GSSKVJBJVM
root@arm:~# MARKER='HAPB''SQWZFW' run 'grep -r -l rohm,bd71837 /proc/device-tree  | sed '"'"'s![^/]*$!!'"'"''
HAPBSQWZFW/proc/device-tree/ocp/interconnect@48000000/segment@100000/target-module@9c000/i2c@0/pmic@4b/
HAPBSQWZFW 0
root@arm:~# echo 'NPAB''SJSAWQ'
NPABSJSAWQ
root@arm:~# MARKER='FQJK''WHNJBH' run 'test -f /proc/device-tree/ocp/interconnectt\@48000000/segment\@100000/target-module\@9c000/i2c\@0/pmic\@4b/regulators/BUCK33/rohm,no-regulator-enable-control ;echo $?'
FQJKWHNJBH0
FQJKWHNJBH 0
root@arm:~# echo 'YBMZ''WSJPVU'
YBMZWSJPVU
root@arm:~# MARKER='OMKQ''BMSULP' run 'grep -r -l rohm,bd71837 /proc/device-tree  | sed '"'"'s![^/]*$!!'"'"''
OMKQBMSULP/proc/device-tree/ocp/interconnect@48000000/segment@100000/target-module@9c000/i2c@0/pmic@4b/
OMKQBMSULP 0
root@arm:~# echo 'LXQF''PVFQWE'
LXQFPVFQWE
root@arm:~# MARKER='NATY''AVSGMG' run 'test -f /proc/device-tree/ocp/interconnectt\@48000000/segment\@100000/target-module\@9c000/i2c\@0/pmic\@4b/regulators/BUCK44/rohm,no-regulator-enable-control ;echo $?'
NATYAVSGMG1
NATYAVSGMG 0
root@arm:~# echo 'VBEY''MNTNEP'
VBEYMNTNEP
root@arm:~# MARKER='OZSX''PGYOLX' run 'echo 1 > /sys/kernel/mva_test/regulators/bbuck4_en'
OZSXPGYOLXOZSXPGYOLX 0
root@arm:~# echo 'TTUS''MQTJXV'
TTUSMQTJXV
root@arm:~# MARKER='CYTA''HLZLYE' run 'i2cget -y -f 2 0x4b 0x8'
CYTAHLZLYE0xc7
CYTAHLZLYE 0
root@arm:~# echo 'FBML''ULTLKH'
FBMLULTLKH
root@arm:~# MARKER='PPZP''KCQOLK' run 'grep -r -l rohm,bd71837 /proc/device-tree  | sed '"'"'s![^/]*$!!'"'"''
PPZPKCQOLK/proc/device-tree/ocp/interconnect@48000000/segment@100000/target-module@9c000/i2c@0/pmic@4b/
PPZPKCQOLK 0
root@arm:~# echo 'XEVJ''ZATZPF'
XEVJZATZPF
root@arm:~# MARKER='BZLT''BWYCWY' run 'test -f /proc/device-tree/ocp/interconnectt\@48000000/segment\@100000/target-module\@9c000/i2c\@0/pmic\@4b/regulators/BUCK44/rohm,no-regulator-enable-control ;echo $?'
BZLTBWYCWY1
BZLTBWYCWY 0
root@arm:~# echo 'OKHW''BWKETZ'
OKHWBWKETZ
root@arm:~# MARKER='XFPB''GVVAQX' run 'grep -r -l rohm,bd71837 /proc/device-tree  | sed '"'"'s![^/]*$!!'"'"''
XFPBGVVAQX/proc/device-tree/ocp/interconnect@48000000/segment@100000/target-module@9c000/i2c@0/pmic@4b/
XFPBGVVAQX 0
root@arm:~# echo 'MQMC''UQAOMN'
MQMCUQAOMN
root@arm:~# MARKER='LFKJ''OJAZVN' run 'test -f /proc/device-tree/ocp/interconnectt\@48000000/segment\@100000/target-module\@9c000/i2c\@0/pmic\@4b/regulators/BUCK44/regulator-always-on ;echo $?'
LFKJOJAZVN1
LFKJOJAZVN 0
root@arm:~# echo 'WNUS''VPMNFB'
WNUSVPMNFB
root@arm:~# MARKER='PWAJ''BVJKNY' run 'echo 0 > /sys/kernel/mva_test/regulators/bbuck4_en'
PWAJBVJKNYPWAJBVJKNY 0
root@arm:~# echo 'BBMK''WQHMGL'
BBMKWQHMGL
root@arm:~# MARKER='PMFT''UHNXQZ' run 'i2cget -y -f 2 0x4b 0x8'
PMFTUHNXQZ0xc6
PMFTUHNXQZ 0
root@arm:~# echo 'AASU''WCAAOP'
AASUWCAAOP
root@arm:~# MARKER='KVFP''SQSTTX' run 'grep -r -l rohm,bd71837 /proc/device-tree  | sed '"'"'s![^/]*$!!'"'"''
KVFPSQSTTX/proc/device-tree/ocp/interconnect@48000000/segment@100000/target-module@9c000/i2c@0/pmic@4b/
KVFPSQSTTX 0
root@arm:~# echo 'QVTF''YZFLPO'
QVTFYZFLPO
root@arm:~# MARKER='FEQA''TGJNUJ' run 'test -f /proc/device-tree/ocp/interconnectt\@48000000/segment\@100000/target-module\@9c000/i2c\@0/pmic\@4b/regulators/BUCK55/rohm,no-regulator-enable-control ;echo $?'
FEQATGJNUJ1
FEQATGJNUJ 0
root@arm:~# echo 'LZNL''LHEQVH'
LZNLLHEQVH
root@arm:~# MARKER='FPAN''LAGWTC' run 'echo 1 > /sys/kernel/mva_test/regulators/bbuck5_en'
FPANLAGWTCFPANLAGWTC 0
root@arm:~# echo 'GCJH''OGEMWT'
GCJHOGEMWT
root@arm:~# MARKER='FEFQ''TQPAQZ' run 'i2cget -y -f 2 0x4b 0x9'
FEFQTQPAQZ0x03
FEFQTQPAQZ 0
root@arm:~# echo 'QHNQ''XVCQYM'
QHNQXVCQYM
root@arm:~# MARKER='OSUZ''VCHESF' run 'grep -r -l rohm,bd71837 /proc/device-tree  | sed '"'"'s![^/]*$!!'"'"''
OSUZVCHESF/proc/device-tree/ocp/interconnect@48000000/segment@100000/target-module@9c000/i2c@0/pmic@4b/
OSUZVCHESF 0
root@arm:~# echo 'OHXT''LJVVMP'
OHXTLJVVMP
root@arm:~# MARKER='HVPX''KWWPSM' run 'test -f /proc/device-tree/ocp/interconnectt\@48000000/segment\@100000/target-module\@9c000/i2c\@0/pmic\@4b/regulators/BUCK55/rohm,no-regulator-enable-control ;echo $?'
HVPXKWWPSM1
HVPXKWWPSM 0
root@arm:~# echo 'UMNX''KGQMZL'
UMNXKGQMZL
root@arm:~# MARKER='QNAG''MVBKWL' run 'grep -r -l rohm,bd71837 /proc/device-tree  | sed '"'"'s![^/]*$!!'"'"''
QNAGMVBKWL/proc/device-tree/ocp/interconnect@48000000/segment@100000/target-module@9c000/i2c@0/pmic@4b/
QNAGMVBKWL 0
root@arm:~# echo 'YOPU''GHTSLO'
YOPUGHTSLO
root@arm:~# MARKER='UNNK''LEQVFH' run 'test -f /proc/device-tree/ocp/interconnectt\@48000000/segment\@100000/target-module\@9c000/i2c\@0/pmic\@4b/regulators/BUCK55/regulator-always-on ;echo $?'
UNNKLEQVFH1
UNNKLEQVFH 0
root@arm:~# echo 'HOES''EEQSEQ'
HOESEEQSEQ
root@arm:~# MARKER='JNQC''JYFGGE' run 'echo 0 > /sys/kernel/mva_test/regulators/bbuck5_en'
JNQCJYFGGEJNQCJYFGGE 0
root@arm:~# echo 'GUTE''CYLOFA'
GUTECYLOFA
root@arm:~# MARKER='OOEN''PMSZNZ' run 'i2cget -y -f 2 0x4b 0x9'
OOENPMSZNZ0x02
OOENPMSZNZ 0
root@arm:~# echo 'ALLG''HSPGCV'
ALLGHSPGCV
root@arm:~# MARKER='PAEJ''YSMQBV' run 'grep -r -l rohm,bd71837 /proc/device-tree  | sed '"'"'s![^/]*$!!'"'"''
PAEJYSMQBV/proc/device-tree/ocp/interconnect@48000000/segment@100000/target-module@9c000/i2c@0/pmic@4b/
PAEJYSMQBV 0
root@arm:~# echo 'YKUZ''VAJCBA'
YKUZVAJCBA
root@arm:~# MARKER='XJOU''TPHGMT' run 'test -f /proc/device-tree/ocp/interconnectt\@48000000/segment\@100000/target-module\@9c000/i2c\@0/pmic\@4b/regulators/BUCK66/rohm,no-regulator-enable-control ;echo $?'
XJOUTPHGMT1
XJOUTPHGMT 0
root@arm:~# echo 'CJAE''MYONNM'
CJAEMYONNM
root@arm:~# MARKER='SYVY''PXLNLQ' run 'echo 1 > /sys/kernel/mva_test/regulators/bbuck6_en'
SYVYPXLNLQSYVYPXLNLQ 0
root@arm:~# echo 'NCCV''XCUZNQ'
NCCVXCUZNQ
root@arm:~# MARKER='JFZP''VNNZMY' run 'i2cget -y -f 2 0x4b 0xa'
JFZPVNNZMY0x03
JFZPVNNZMY 0
root@arm:~# echo 'VTAU''BGYTBZ'
VTAUBGYTBZ
root@arm:~# MARKER='ASJT''QUNYHG' run 'grep -r -l rohm,bd71837 /proc/device-tree  | sed '"'"'s![^/]*$!!'"'"''
ASJTQUNYHG/proc/device-tree/ocp/interconnect@48000000/segment@100000/target-module@9c000/i2c@0/pmic@4b/
ASJTQUNYHG 0
root@arm:~# echo 'FTYZ''COENYU'
FTYZCOENYU
root@arm:~# MARKER='WKPB''XYOFYV' run 'test -f /proc/device-tree/ocp/interconnectt\@48000000/segment\@100000/target-module\@9c000/i2c\@0/pmic\@4b/regulators/BUCK66/rohm,no-regulator-enable-control ;echo $?'
WKPBXYOFYV1
WKPBXYOFYV 0
root@arm:~# echo 'CKFX''POTUQH'
CKFXPOTUQH
root@arm:~# MARKER='QCVF''NNZBLU' run 'grep -r -l rohm,bd71837 /proc/device-tree  | sed '"'"'s![^/]*$!!'"'"''
QCVFNNZBLU/proc/device-tree/ocp/interconnect@48000000/segment@100000/target-module@9c000/i2c@0/pmic@4b/
QCVFNNZBLU 0
root@arm:~# echo 'NZMO''EGQWZT'
NZMOEGQWZT
root@arm:~# MARKER='XZQA''GZYMHA' run 'test -f /proc/device-tree/ocp/interconnectt\@48000000/segment\@100000/target-module\@9c000/i2c\@0/pmic\@4b/regulators/BUCK66/regulator-always-on ;echo $?'
XZQAGZYMHA1
XZQAGZYMHA 0
root@arm:~# echo 'PWMH''AVFELF'
PWMHAVFELF
root@arm:~# MARKER='UBAM''VYJJXG' run 'echo 0 > /sys/kernel/mva_test/regulators/bbuck6_en'
UBAMVYJJXGUBAMVYJJXG 0
root@arm:~# echo 'NUYA''YAWTNY'
NUYAYAWTNY
root@arm:~# MARKER='XLPO''YXSMPJ' run 'i2cget -y -f 2 0x4b 0xa'
XLPOYXSMPJ0x02
XLPOYXSMPJ 0
root@arm:~# echo 'PWLV''OGMEPU'
PWLVOGMEPU
root@arm:~# MARKER='ALYG''KMNBZT' run 'grep -r -l rohm,bd71837 /proc/device-tree  | sed '"'"'s![^/]*$!!'"'"''
ALYGKMNBZT/proc/device-tree/ocp/interconnect@48000000/segment@100000/target-module@9c000/i2c@0/pmic@4b/
ALYGKMNBZT 0
root@arm:~# echo 'FJBA''VVNMBY'
FJBAVVNMBY
root@arm:~# MARKER='KXSX''LPNEAK' run 'test -f /proc/device-tree/ocp/interconnectt\@48000000/segment\@100000/target-module\@9c000/i2c\@0/pmic\@4b/regulators/BUCK 7/rohm,no-regulator-enable-control ;echo $?'
KXSXLPNEAK1
KXSXLPNEAK 0
root@arm:~# echo 'YYCJ''SPZQFC'
YYCJSPZQFC
root@arm:~# MARKER='SXYU''ZCZQXG' run 'echo 1 > /sys/kernel/mva_test/regulators/bbuck7_en'
SXYUZCZQXGSXYUZCZQXG 0
root@arm:~# echo 'BVPW''TGUMSN'
BVPWTGUMSN
root@arm:~# MARKER='VXTJ''AVZLLV' run 'i2cget -y -f 2 0x4b 0xb'
VXTJAVZLLV0x03
VXTJAVZLLV 0
root@arm:~# echo 'JCOY''VPKCFX'
JCOYVPKCFX
root@arm:~# MARKER='EHXC''KMQHNW' run 'grep -r -l rohm,bd71837 /proc/device-tree  | sed '"'"'s![^/]*$!!'"'"''
EHXCKMQHNW/proc/device-tree/ocp/interconnect@48000000/segment@100000/target-module@9c000/i2c@0/pmic@4b/
EHXCKMQHNW 0
root@arm:~# echo 'WKJA''QTQNBT'
WKJAQTQNBT
root@arm:~# MARKER='TYLY''LMYBYV' run 'test -f /proc/device-tree/ocp/interconnectt\@48000000/segment\@100000/target-module\@9c000/i2c\@0/pmic\@4b/regulators/BUCK 7/rohm,no-regulator-enable-control ;echo $?'
TYLYLMYBYV1
TYLYLMYBYV 0
root@arm:~# echo 'FLSG''YEOBTN'
FLSGYEOBTN
root@arm:~# MARKER='OYQC''GQQKBT' run 'grep -r -l rohm,bd71837 /proc/device-tree  | sed '"'"'s![^/]*$!!'"'"''
OYQCGQQKBT/proc/device-tree/ocp/interconnect@48000000/segment@100000/target-module@9c000/i2c@0/pmic@4b/
OYQCGQQKBT 0
root@arm:~# echo 'JWNP''QKGPMW'
JWNPQKGPMW
root@arm:~# MARKER='FAWH''QGKAAB' run 'test -f /proc/device-tree/ocp/interconnectt\@48000000/segment\@100000/target-module\@9c000/i2c\@0/pmic\@4b/regulators/BUCK77/regulator-always-on ;echo $?'
FAWHQGKAAB1
FAWHQGKAAB 0
root@arm:~# echo 'BVVB''VVESZY'
BVVBVVESZY
root@arm:~# MARKER='MUXO''CMAHKY' run 'echo 0 > /sys/kernel/mva_test/regulators/bbuck7_en'
MUXOCMAHKYMUXOCMAHKY 0
root@arm:~# echo 'MGGZ''LSZCSZ'
MGGZLSZCSZ
root@arm:~# MARKER='SLKG''BXZYHY' run 'i2cget -y -f 2 0x4b 0xb'
SLKGBXZYHY0x02
SLKGBXZYHY 0
root@arm:~# echo 'YCYX''HJFMNT'
YCYXHJFMNT
root@arm:~# MARKER='POZL''LJVNLK' run 'grep -r -l rohm,bd71837 /proc/device-tree  | sed '"'"'s![^/]*$!!'"'"''
POZLLJVNLK/proc/device-tree/ocp/interconnect@48000000/segment@100000/target-module@9c000/i2c@0/pmic@4b/
POZLLJVNLK 0
root@arm:~# echo 'JHLZ''ZJZJJH'
JHLZZJZJJH
root@arm:~# MARKER='CJTP''OLHKQS' run 'test -f /proc/device-tree/ocp/interconnectt\@48000000/segment\@100000/target-module\@9c000/i2c\@0/pmic\@4b/regulators/BUCK88/rohm,no-regulator-enable-control ;echo $?'
CJTPOLHKQS1
CJTPOLHKQS 0
root@arm:~# echo 'WHMM''EZWQZP'
WHMMEZWQZP
root@arm:~# MARKER='QKSG''KAQAGU' run 'echo 1 > /sys/kernel/mva_test/regulators/bbuck8_en'
QKSGKAQAGUQKSGKAQAGU 0
root@arm:~# echo 'LUGF''QAEOVJ'
LUGFQAEOVJ
root@arm:~# MARKER='PHJZ''GFUBMJ' run 'i2cget -y -f 2 0x4b 0xc'
PHJZGFUBMJ0x03
PHJZGFUBMJ 0
root@arm:~# echo 'ZOGJ''HVKBNS'
ZOGJHVKBNS
root@arm:~# MARKER='OFFV''AHEFOY' run 'grep -r -l rohm,bd71837 /proc/device-tree  | sed '"'"'s![^/]*$!!'"'"''
OFFVAHEFOY/proc/device-tree/ocp/interconnect@48000000/segment@100000/target-module@9c000/i2c@0/pmic@4b/
OFFVAHEFOY 0
root@arm:~# echo 'SJFX''MNVVFQ'
SJFXMNVVFQ
root@arm:~# MARKER='PUVQ''WBETST' run 'test -f /proc/device-tree/ocp/interconnectt\@48000000/segment\@100000/target-module\@9c000/i2c\@0/pmic\@4b/regulators/BUCK88/rohm,no-regulator-enable-control ;echo $?'
PUVQWBETST1
PUVQWBETST 0
root@arm:~# echo 'YUCB''HFTONY'
YUCBHFTONY
root@arm:~# MARKER='UONV''XVKGWX' run 'grep -r -l rohm,bd71837 /proc/device-tree  | sed '"'"'s![^/]*$!!'"'"''
UONVXVKGWX/proc/device-tree/ocp/interconnect@48000000/segment@100000/target-module@9c000/i2c@0/pmic@4b/
UONVXVKGWX 0
root@arm:~# echo 'GCAE''HNYPEL'
GCAEHNYPEL
root@arm:~# MARKER='LCBL''TZAMGB' run 'test -f /proc/device-tree/ocp/interconnectt\@48000000/segment\@100000/target-module\@9c000/i2c\@0/pmic\@4b/regulators/BUCK88/regulator-always-on ;echo $?'
LCBLTZAMGB1
LCBLTZAMGB 0
root@arm:~# echo 'EKGH''XLYXOM'
EKGHXLYXOM
root@arm:~# MARKER='OVLV''WXGHCF' run 'echo 0 > /sys/kernel/mva_test/regulators/bbuck8_en'
OVLVWXGHCFOVLVWXGHCF 0
root@arm:~# echo 'HPXS''JZSCSW'
HPXSJZSCSW
root@arm:~# MARKER='KSYQ''JQEQZU' run 'i2cget -y -f 2 0x4b 0xc'
KSYQJQEQZU0x02
KSYQJQEQZU 0
root@arm:~# echo 'ESZE''JAXSWU'
ESZEJAXSWU
root@arm:~# MARKER='NVYV''FGPTJP' run 'grep -r -l rohm,bd71837 /proc/device-tree  | sed '"'"'s![^/]*$!!'"'"''
NVYVFGPTJP/proc/device-tree/ocp/interconnect@48000000/segment@100000/target-module@9c000/i2c@0/pmic@4b/
NVYVFGPTJP 0
root@arm:~# echo 'GHOL''WTTFMZ'
GHOLWTTFMZ
root@arm:~# MARKER='HJNW''HSWLLP' run 'test -f /proc/device-tree/ocp/interconnectt\@48000000/segment\@100000/target-module\@9c000/i2c\@0/pmic\@4b/regulators/LDO1//rohm,no-regulator-enable-control ;echo $?'
HJNWHSWLLP1
HJNWHSWLLP 0
root@arm:~# echo 'FOVT''FXWUWP'
FOVTFXWUWP
root@arm:~# MARKER='HLUB''CCYEOF' run 'echo 1 > /sys/kernel/mva_test/regulators/bbuck9_en'
HLUBCCYEOFHLUBCCYEOF 0
root@arm:~# echo 'CYUQ''SHWWKS'
CYUQSHWWKS
root@arm:~# MARKER='OLMA''TJZKFT' run 'i2cget -y -f 2 0x4b 0x18'
OLMATJZKFT0xc3
OLMATJZKFT 0
root@arm:~# echo 'OGPB''VTXHHG'
OGPBVTXHHG
root@arm:~# MARKER='CPOM''MOKWQM' run 'grep -r -l rohm,bd71837 /proc/device-tree  | sed '"'"'s![^/]*$!!'"'"''
CPOMMOKWQM/proc/device-tree/ocp/interconnect@48000000/segment@100000/target-module@9c000/i2c@0/pmic@4b/
CPOMMOKWQM 0
root@arm:~# echo 'YKTE''BZEGZF'
YKTEBZEGZF
root@arm:~# MARKER='HETO''CBJWNT' run 'test -f /proc/device-tree/ocp/interconnectt\@48000000/segment\@100000/target-module\@9c000/i2c\@0/pmic\@4b/regulators/LDO1//rohm,no-regulator-enable-control ;echo $?'
HETOCBJWNT1
HETOCBJWNT 0
root@arm:~# echo 'VQZP''TZQJJQ'
VQZPTZQJJQ
root@arm:~# MARKER='USCV''OVGCQE' run 'grep -r -l rohm,bd71837 /proc/device-tree  | sed '"'"'s![^/]*$!!'"'"''
USCVOVGCQE/proc/device-tree/ocp/interconnect@48000000/segment@100000/target-module@9c000/i2c@0/pmic@4b/
USCVOVGCQE 0
root@arm:~# echo 'NLZT''TQAPAB'
NLZTTQAPAB
root@arm:~# MARKER='KEVK''PCVAHY' run 'test -f /proc/device-tree/ocp/interconnectt\@48000000/segment\@100000/target-module\@9c000/i2c\@0/pmic\@4b/regulators/LDO1//regulator-always-on ;echo $?'
KEVKPCVAHY1
KEVKPCVAHY 0
root@arm:~# echo 'UFCM''AJMNHP'
UFCMAJMNHP
root@arm:~# MARKER='UWOU''SGEQSH' run 'echo 0 > /sys/kernel/mva_test/regulators/bbuck9_en'
UWOUSGEQSHUWOUSGEQSH 0
root@arm:~# echo 'EJQF''ZLNTBH'
EJQFZLNTBH
root@arm:~# MARKER='ONHO''TYKFKJ' run 'i2cget -y -f 2 0x4b 0x18'
ONHOTYKFKJ0x83
ONHOTYKFKJ 0
root@arm:~# echo 'ZVGJ''HJLHZU'
ZVGJHJLHZU
root@arm:~# MARKER='QPXS''POYHMG' run 'grep -r -l rohm,bd71837 /proc/device-tree  | sed '"'"'s![^/]*$!!'"'"''
QPXSPOYHMG/proc/device-tree/ocp/interconnect@48000000/segment@100000/target-module@9c000/i2c@0/pmic@4b/
QPXSPOYHMG 0
root@arm:~# echo 'GQBH''QXANAU'
GQBHQXANAU
root@arm:~# MARKER='PMWZ''HSOUMZ' run 'test -f /proc/device-tree/ocp/interconnectt\@48000000/segment\@100000/target-module\@9c000/i2c\@0/pmic\@4b/regulators/LDO2 /rohm,no-regulator-enable-control ;echo $?'
PMWZHSOUMZ1
PMWZHSOUMZ 0
root@arm:~# echo 'MHMT''YGQKJW'
MHMTYGQKJW
root@arm:~# MARKER='GSAS''OYLMSP' run 'echo 1 > /sys/kernel/mva_test/regulators/bbuck10_en'
GSASOYLMSPGSASOYLMSP 0
root@arm:~# echo 'ZZCK''LJPELT'
ZZCKLJPELT
root@arm:~# MARKER='WHFV''AOLJPL' run 'i2cget -y -f 2 0x4b 0x19'
WHFVAOLJPL0xc0
WHFVAOLJPL 0
root@arm:~# echo 'BZHV''FZWHVB'
BZHVFZWHVB
root@arm:~# MARKER='CBKB''NWYBAF' run 'grep -r -l rohm,bd71837 /proc/device-tree  | sed '"'"'s![^/]*$!!'"'"''
CBKBNWYBAF/proc/device-tree/ocp/interconnect@48000000/segment@100000/target-module@9c000/i2c@0/pmic@4b/
CBKBNWYBAF 0
root@arm:~# echo 'PAHO''XTTWGS'
PAHOXTTWGS
root@arm:~# MARKER='FTBS''YPKHNF' run 'test -f /proc/device-tree/ocp/interconnectt\@48000000/segment\@100000/target-module\@9c000/i2c\@0/pmic\@4b/regulators/LDO2//rohm,no-regulator-enable-control ;echo $?'
FTBSYPKHNF1
FTBSYPKHNF 0
root@arm:~# echo 'FYAA''NHFNMM'
FYAANHFNMM
root@arm:~# MARKER='MTKG''KWFQAX' run 'grep -r -l rohm,bd71837 /proc/device-tree  | sed '"'"'s![^/]*$!!'"'"''
MTKGKWFQAX/proc/device-tree/ocp/interconnect@48000000/segment@100000/target-module@9c000/i2c@0/pmic@4b/
MTKGKWFQAX 0
root@arm:~# echo 'ZWWA''NQCZKA'
ZWWANQCZKA
root@arm:~# MARKER='JZXN''MYPJAG' run 'test -f /proc/device-tree/ocp/interconnectt\@48000000/segment\@100000/target-module\@9c000/i2c\@0/pmic\@4b/regulators/LDO2//regulator-always-on ;echo $?'
JZXNMYPJAG1
JZXNMYPJAG 0
root@arm:~# echo 'HLWV''LJSGCJ'
HLWVLJSGCJ
root@arm:~# MARKER='KAPQ''HCKMEB' run 'echo 0 > /sys/kernel/mva_test/regulators/bbuck10_en'
KAPQHCKMEBKAPQHCKMEB 0
root@arm:~# echo 'CSZY''VTOVQO'
CSZYVTOVQO
root@arm:~# MARKER='CCHE''ZSPZAV' run 'i2cget -y -f 2 0x4b 0x19'
CCHEZSPZAV0x80
CCHEZSPZAV 0
root@arm:~# echo 'GBNS''LKFPNS'
GBNSLKFPNS
root@arm:~# MARKER='SAHC''CCJXQQ' run 'grep -r -l rohm,bd71837 /proc/device-tree  | sed '"'"'s![^/]*$!!'"'"''
SAHCCCJXQQ/proc/device-tree/ocp/interconnect@48000000/segment@100000/target-module@9c000/i2c@0/pmic@4b/
SAHCCCJXQQ 0
root@arm:~# echo 'BFYF''GQWMXY'
BFYFGQWMXY
root@arm:~# MARKER='GXOP''NYGLEO' run 'test -f /proc/device-tree/ocp/interconnectt\@48000000/segment\@100000/target-module\@9c000/i2c\@0/pmic\@4b/regulators/LDO3//rohm,no-regulator-enable-control ;echo $?'
GXOPNYGLEO1
GXOPNYGLEO 0
root@arm:~# echo 'UGQC''XFNQBQ'
UGQCXFNQBQ
root@arm:~# MARKER='POBJ''UMYFTL' run 'echo 1 > /sys/kernel/mva_test/regulators/bbuck11_en'
POBJUMYFTLPOBJUMYFTL 0
root@arm:~# echo 'KYBE''JBUWUL'
KYBEJBUWUL
root@arm:~# MARKER='QGCY''GAFOMV' run 'i2cget -y -f 2 0x4b 0x1a'
QGCYGAFOMV0xc0
QGCYGAFOMV 0
root@arm:~# echo 'MAPW''JUJCAH'
MAPWJUJCAH
root@arm:~# MARKER='NHNS''AZVKZB' run 'grep -r -l rohm,bd71837 /proc/device-tree  | sed '"'"'s![^/]*$!!'"'"''
NHNSAZVKZB/proc/device-tree/ocp/interconnect@48000000/segment@100000/target-module@9c000/i2c@0/pmic@4b/
NHNSAZVKZB 0
root@arm:~# echo 'HTNS''UEYHSA'
HTNSUEYHSA
root@arm:~# MARKER='QNBT''JNHGNF' run 'test -f /proc/device-tree/ocp/interconnectt\@48000000/segment\@100000/target-module\@9c000/i2c\@0/pmic\@4b/regulators/LDO3//rohm,no-regulator-enable-control ;echo $?'
QNBTJNHGNF1
QNBTJNHGNF 0
root@arm:~# echo 'XHZZ''KWXZCO'
XHZZKWXZCO
root@arm:~# MARKER='QXSG''TJBFNB' run 'grep -r -l rohm,bd71837 /proc/device-tree  | sed '"'"'s![^/]*$!!'"'"''
QXSGTJBFNB/proc/device-tree/ocp/interconnect@48000000/segment@100000/target-module@9c000/i2c@0/pmic@4b/
QXSGTJBFNB 0
root@arm:~# echo 'ZTEV''OFXJWQ'
ZTEVOFXJWQ
root@arm:~# MARKER='VFSU''AAGSQW' run 'test -f /proc/device-tree/ocp/interconnectt\@48000000/segment\@100000/target-module\@9c000/i2c\@0/pmic\@4b/regulators/LDO3 /regulator-always-on ;echo $?'
VFSUAAGSQW1
VFSUAAGSQW 0
root@arm:~# echo 'KAAC''KKFPQK'
KAACKKFPQK
root@arm:~# MARKER='JOSJ''XXTWKV' run 'echo 0 > /sys/kernel/mva_test/regulators/bbuck11_en'
JOSJXXTWKVJOSJXXTWKV 0
root@arm:~# echo 'CBSH''LXKPUU'
CBSHLXKPUU
root@arm:~# MARKER='SNEK''KGKGZA' run 'i2cget -y -f 2 0x4b 0x1a'
SNEKKGKGZA0x80
SNEKKGKGZA 0
root@arm:~# echo 'NHNV''QYJPGK'
NHNVQYJPGK
root@arm:~# MARKER='BZNH''FJMXGJ' run 'grep -r -l rohm,bd71837 /proc/device-tree  | sed '"'"'s![^/]*$!!'"'"''
BZNHFJMXGJ/proc/device-tree/ocp/interconnect@48000000/segment@100000/target-module@9c000/i2c@0/pmic@4b/
BZNHFJMXGJ 0
root@arm:~# echo 'EXTY''EALPEO'
EXTYEALPEO
root@arm:~# MARKER='NCGO''AGAFLH' run 'test -f /proc/device-tree/ocp/interconnectt\@48000000/segment\@100000/target-module\@9c000/i2c\@0/pmic\@4b/regulators/LDO4//rohm,no-regulator-enable-control ;echo $?'
NCGOAGAFLH1
NCGOAGAFLH 0
root@arm:~# echo 'ZLSG''JVVSQG'
ZLSGJVVSQG
root@arm:~# MARKER='USKB''NWJNUZ' run 'echo 1 > /sys/kernel/mva_test/regulators/bbuck12_en'
USKBNWJNUZUSKBNWJNUZ 0
root@arm:~# echo 'QYUM''LCOMKB'
QYUMLCOMKB
root@arm:~# MARKER='YWJH''NAXJHL' run 'i2cget -y -f 2 0x4b 0x1b'
YWJHNAXJHL0xc0
YWJHNAXJHL 0
root@arm:~# echo 'USZM''MYMBZX'
USZMMYMBZX
root@arm:~# MARKER='TWPZ''QCFTSW' run 'grep -r -l rohm,bd71837 /proc/device-tree  | sed '"'"'s![^/]*$!!'"'"''
TWPZQCFTSW/proc/device-tree/ocp/interconnect@48000000/segment@100000/target-module@9c000/i2c@0/pmic@4b/
TWPZQCFTSW 0
root@arm:~# echo 'AEGP''STLLKC'
AEGPSTLLKC
root@arm:~# MARKER='LWSF''VLYNWS' run 'test -f /proc/device-tree/ocp/interconnectt\@48000000/segment\@100000/target-module\@9c000/i2c\@0/pmic\@4b/regulators/LDO4 /rohm,no-regulator-enable-control ;echo $?'
LWSFVLYNWS1
LWSFVLYNWS 0
root@arm:~# echo 'EVCG''XQHJUW'
EVCGXQHJUW
root@arm:~# MARKER='BWZQ''YFGLLU' run 'grep -r -l rohm,bd71837 /proc/device-tree  | sed '"'"'s![^/]*$!!'"'"''
BWZQYFGLLU/proc/device-tree/ocp/interconnect@48000000/segment@100000/target-module@9c000/i2c@0/pmic@4b/
BWZQYFGLLU 0
root@arm:~# echo 'UTNF''LKAUVM'
UTNFLKAUVM
root@arm:~# MARKER='CKGL''WSZBQX' run 'test -f /proc/device-tree/ocp/interconnectt\@48000000/segment\@100000/target-module\@9c000/i2c\@0/pmic\@4b/regulators/LDO4//regulator-always-on ;echo $?'
CKGLWSZBQX1
CKGLWSZBQX 0
root@arm:~# echo 'FGVV''WKGLJZ'
FGVVWKGLJZ
root@arm:~# MARKER='MVYL''LZKHYT' run 'echo 0 > /sys/kernel/mva_test/regulators/bbuck12_en'
MVYLLZKHYTMVYLLZKHYT 0
root@arm:~# echo 'XPCF''ZMUNEH'
XPCFZMUNEH
root@arm:~# MARKER='ZYFZ''MHQJNN' run 'i2cget -y -f 2 0x4b 0x1b'
ZYFZMHQJNN0x80
ZYFZMHQJNN 0
root@arm:~# echo 'UQFP''GCOTNU'
UQFPGCOTNU
root@arm:~# MARKER='QXVG''MTTVGU' run 'grep -r -l rohm,bd71837 /proc/device-tree  | sed '"'"'s![^/]*$!!'"'"''
QXVGMTTVGU/proc/device-tree/ocp/interconnect@48000000/segment@100000/target-module@9c000/i2c@0/pmic@4b/
QXVGMTTVGU 0
root@arm:~# echo 'NMXN''XKGSUJ'
NMXNXKGSUJ
root@arm:~# MARKER='FYJF''FBJGKY' run 'test -f /proc/device-tree/ocp/interconnectt\@48000000/segment\@100000/target-module\@9c000/i2c\@0/pmic\@4b/regulators/LDO5//rohm,no-regulator-enable-control ;echo $?'
FYJFFBJGKY0
FYJFFBJGKY 0
root@arm:~# echo 'TCGZ''OWXZUW'
TCGZOWXZUW
root@arm:~# MARKER='FCJP''FOCUXC' run 'grep -r -l rohm,bd71837 /proc/device-tree  | sed '"'"'s![^/]*$!!'"'"''
FCJPFOCUXC/proc/device-tree/ocp/interconnect@48000000/segment@100000/target-module@9c000/i2c@0/pmic@4b/
FCJPFOCUXC 0
root@arm:~# echo 'YCTJ''TLYUQT'
YCTJTLYUQT
root@arm:~# MARKER='VGHV''VXGONG' run 'test -f /proc/device-tree/ocp/interconnectt\@48000000/segment\@100000/target-module\@9c000/i2c\@0/pmic\@4b/regulators/LDO5//rohm,no-regulator-enable-control ;echo $?'
VGHVVXGONG0
VGHVVXGONG 0
root@arm:~# echo 'QHYH''OQOWYQ'
QHYHOQOWYQ
root@arm:~# MARKER='WUUM''MYAULN' run 'grep -r -l rohm,bd71837 /proc/device-tree  | sed '"'"'s![^/]*$!!'"'"''
WUUMMYAULN/proc/device-tree/ocp/interconnect@48000000/segment@100000/target-module@9c000/i2c@0/pmic@4b/
WUUMMYAULN 0
root@arm:~# echo 'CWGX''NPPYXT'
CWGXNPPYXT
root@arm:~# MARKER='ZMYZ''JGKMSX' run 'test -f /proc/device-tree/ocp/interconnectt\@48000000/segment\@100000/target-module\@9c000/i2c\@0/pmic\@4b/regulators/LDO6//rohm,no-regulator-enable-control ;echo $?'
ZMYZJGKMSX1
ZMYZJGKMSX 0
root@arm:~# echo 'MCHZ''MSWWTG'
MCHZMSWWTG
root@arm:~# MARKER='ALUY''TZXKBG' run 'echo 1 > /sys/kernel/mva_test/regulators/bbuck14_en'
ALUYTZXKBGALUYTZXKBG 0
root@arm:~# echo 'ZYKC''PGEJTB'
ZYKCPGEJTB
root@arm:~# MARKER='AVZE''TZPNBQ' run 'i2cget -y -f 2 0x4b 0x1d'
AVZETZPNBQ0xc0
AVZETZPNBQ 0
root@arm:~# echo 'ZUXT''XPKMVT'
ZUXTXPKMVT
root@arm:~# MARKER='ZNOW''OYUOPQ' run 'grep -r -l rohm,bd71837 /proc/device-tree  | sed '"'"'s![^/]*$!!'"'"''
ZNOWOYUOPQ/proc/device-tree/ocp/interconnect@48000000/segment@100000/target-module@9c000/i2c@0/pmic@4b/
ZNOWOYUOPQ 0
root@arm:~# echo 'LNLW''CPTUPP'
LNLWCPTUPP
root@arm:~# MARKER='JNXW''AAMHWV' run 'test -f /proc/device-tree/ocp/interconnectt\@48000000/segment\@100000/target-module\@9c000/i2c\@0/pmic\@4b/regulators/LDO6 /rohm,no-regulator-enable-control ;echo $?'
JNXWAAMHWV1
JNXWAAMHWV 0
root@arm:~# echo 'KHAT''NHMJTP'
KHATNHMJTP
root@arm:~# MARKER='QKBJ''NSOYKE' run 'grep -r -l rohm,bd71837 /proc/device-tree  | sed '"'"'s![^/]*$!!'"'"''
QKBJNSOYKE/proc/device-tree/ocp/interconnect@48000000/segment@100000/target-module@9c000/i2c@0/pmic@4b/
QKBJNSOYKE 0
root@arm:~# echo 'TKYK''PWHLWA'
TKYKPWHLWA
root@arm:~# MARKER='CVPL''PMMMAO' run 'test -f /proc/device-tree/ocp/interconnectt\@48000000/segment\@100000/target-module\@9c000/i2c\@0/pmic\@4b/regulators/LDO6//regulator-always-on ;echo $?'
CVPLPMMMAO1
CVPLPMMMAO 0
root@arm:~# echo 'MCHX''YOAUCN'
MCHXYOAUCN
root@arm:~# MARKER='JJYO''BTXXFU' run 'echo 0 > /sys/kernel/mva_test/regulators/bbuck14_en'
JJYOBTXXFUJJYOBTXXFU 0
root@arm:~# echo 'MMUS''CZLLQG'
MMUSCZLLQG
root@arm:~# MARKER='VXXG''LOGVGK' run 'i2cget -y -f 2 0x4b 0x1d'
VXXGLOGVGK0x80
VXXGLOGVGK 0
root@arm:~# echo 'EABG''FLCJHJ'
EABGFLCJHJ
root@arm:~# MARKER='SSUV''CMSPJO' run 'grep -r -l rohm,bd71837 /proc/device-tree  | sed '"'"'s![^/]*$!!'"'"''
SSUVCMSPJO/proc/device-tree/ocp/interconnect@48000000/segment@100000/target-module@9c000/i2c@0/pmic@4b/
SSUVCMSPJO 0
root@arm:~# echo 'GFFF''TEAGFH'
GFFFTEAGFH
root@arm:~# MARKER='QTJC''WZYWPM' run 'test -f /proc/device-tree/ocp/interconnectt\@48000000/segment\@100000/target-module\@9c000/i2c\@0/pmic\@4b/regulators/LDO7 /rohm,no-regulator-enable-control ;echo $?'
QTJCWZYWPM1
QTJCWZYWPM 0
root@arm:~# echo 'QKKG''UUVMCY'
QKKGUUVMCY
root@arm:~# MARKER='XOXG''YWFHWN' run 'echo 1 > /sys/kernel/mva_test/regulators/bbuck15_en'
XOXGYWFHWNXOXGYWFHWN 0
root@arm:~# echo 'AQOK''VYZZNU'
AQOKVYZZNU
root@arm:~# MARKER='FEHA''BBBHVJ' run 'i2cget -y -f 2 0x4b 0x1e'
FEHABBBHVJ0xcf
FEHABBBHVJ 0
root@arm:~# echo 'TEVL''FPQBYW'
TEVLFPQBYW
root@arm:~# MARKER='SOKW''OCKWCY' run 'grep -r -l rohm,bd71837 /proc/device-tree  | sed '"'"'s![^/]*$!!'"'"''
SOKWOCKWCY/proc/device-tree/ocp/interconnect@48000000/segment@100000/target-module@9c000/i2c@0/pmic@4b/
SOKWOCKWCY 0
root@arm:~# echo 'CQPV''ZFAUVG'
CQPVZFAUVG
root@arm:~# MARKER='HHMN''ZHEWVE' run 'test -f /proc/device-tree/ocp/interconnectt\@48000000/segment\@100000/target-module\@9c000/i2c\@0/pmic\@4b/regulators/LDO7 /rohm,no-regulator-enable-control ;echo $?'
HHMNZHEWVE1
HHMNZHEWVE 0
root@arm:~# echo 'AQJM''NKQNLM'
AQJMNKQNLM
root@arm:~# MARKER='BVGZ''VHPQCL' run 'grep -r -l rohm,bd71837 /proc/device-tree  | sed '"'"'s![^/]*$!!'"'"''
BVGZVHPQCL/proc/device-tree/ocp/interconnect@48000000/segment@100000/target-module@9c000/i2c@0/pmic@4b/
BVGZVHPQCL 0
root@arm:~# echo 'TVXP''ZQVAXW'
TVXPZQVAXW
root@arm:~# MARKER='CYXW''FVBGYU' run 'test -f /proc/device-tree/ocp/interconnectt\@48000000/segment\@100000/target-module\@9c000/i2c\@0/pmic\@4b/regulators/LDO7//regulator-always-on ;echo $?'
CYXWFVBGYU1
CYXWFVBGYU 0
root@arm:~# echo 'KCQN''HKFQYQ'
KCQNHKFQYQ
root@arm:~# MARKER='BQWU''LJPOGB' run 'echo 0 > /sys/kernel/mva_test/regulators/bbuck15_en'
BQWULJPOGBBQWULJPOGB 0
root@arm:~# echo 'GOOJ''TKAOXW'
GOOJTKAOXW
root@arm:~# MARKER='NUMY''MJPKWB' run 'i2cget -y -f 2 0x4b 0x1e'
NUMYMJPKWB0x8f
NUMYMJPKWB 0
root@arm:~# Labgrid Console Logfile for main
Logfile started at 2025-07-01 13:52:31.701101
=== Log starts here ===

root@arm:~# run() { echo -n "$MARKER"; sh -c "$@"; echo "$MARKER $?"; }
root@arm:~# echo 'CUXZ''SMQBWS'
CUXZSMQBWS
root@arm:~# MARKER='GNOH''STSHCA' run 'grep -r -l rohm,bd71837 /proc/device-tree  | sed '"'"'s![^/]*$!!'"'"''
GNOHSTSHCA/proc/device-tree/ocp/interconnect@48000000/segment@100000/target-module@9c000/i2c@0/pmic@4b/
GNOHSTSHCA 0
root@arm:~# echo 'OFPT''ENLWPV'
OFPTENLWPV
root@arm:~# MARKER='HVKP''AFBZZN' run 'test -f /proc/device-tree/ocp/interconnectt\@48000000/segment\@100000/target-module\@9c000/i2c\@0/pmic\@4b/regulators/BUCK11/rohm,no-regulator-enable-control ;echo $?'
HVKPAFBZZN1
HVKPAFBZZN 0
root@arm:~# echo 'AMOJ''NYKFHO'
AMOJNYKFHO
root@arm:~# MARKER='HYYB''QSHWOJ' run 'i2cget -y -f 2 0x4b 0x5'
HYYBQSHWOJ0x02
HYYBQSHWOJ 0
root@arm:~# echo 'ZQPJ''UBWUCX'
ZQPJUBWUCX
root@arm:~# MARKER='ZXQB''YWKGTL' run 'echo 700000 700000 > /sys/kernel/mva_test//regulators/buck1_set'
ZXQBYWKGTLZXQBYWKGTL 0
root@arm:~# echo 'AGPE''CTMGMB'
AGPECTMGMB
root@arm:~# MARKER='BJWC''SSSFJB' run 'i2cget -y -f 2 0x4b 0xd'
BJWCSSSFJB0x00
BJWCSSSFJB 0
root@arm:~# echo 'AYXP''GPOKMC'
AYXPGPOKMC
root@arm:~# MARKER='ZJXL''BFJGKT' run 'echo 710000 710000 > /sys/kernel/mva_test//regulators/buck1_set'
ZJXLBFJGKTZJXLBFJGKT 0
root@arm:~# echo 'HMEU''AJTHAB'
HMEUAJTHAB
root@arm:~# MARKER='OBLB''FCKSOG' run 'i2cget -y -f 2 0x4b 0xd'
OBLBFCKSOG0x01
OBLBFCKSOG 0
root@arm:~# echo 'SWWS''WFKJTK'
SWWSWFKJTK
root@arm:~# MARKER='ZGXH''MPXNYK' run 'echo 720000 720000 > /sys/kernel/mva_test//regulators/buck1_set'
ZGXHMPXNYKZGXHMPXNYK 0
root@arm:~# echo 'PZMU''WEMTHW'
PZMUWEMTHW
root@arm:~# MARKER='JCJY''HAHJCC' run 'i2cget -y -f 2 0x4b 0xd'
JCJYHAHJCC0x02
JCJYHAHJCC 0
root@arm:~# echo 'HEHY''LYSEEV'
HEHYLYSEEV
root@arm:~# MARKER='XLZE''YYJTBS' run 'echo 730000 730000 > /sys/kernel/mva_test//regulators/buck1_set'
XLZEYYJTBSXLZEYYJTBS 0
root@arm:~# echo 'UQTP''EALUWN'
UQTPEALUWN
root@arm:~# MARKER='HGSQ''VWQJNX' run 'i2cget -y -f 2 0x4b 0xd'
HGSQVWQJNX0x03
HGSQVWQJNX 0
root@arm:~# echo 'WAKN''FKUZQL'
WAKNFKUZQL
root@arm:~# MARKER='UFGT''YOHBKT' run 'echo 740000 740000 > /sys/kernel/mva_test//regulators/buck1_set'
UFGTYOHBKTUFGTYOHBKT 0
root@arm:~# echo 'WNAW''EZZPHA'
WNAWEZZPHA
root@arm:~# MARKER='ELTZ''NBEBGW' run 'i2cget -y -f 2 0x4b 0xd'
ELTZNBEBGW0x04
ELTZNBEBGW 0
root@arm:~# echo 'QBNW''BNJOAO'
QBNWBNJOAO
root@arm:~# MARKER='ZTGS''HSETPW' run 'echo 750000 750000 > /sys/kernel/mva_test//regulators/buck1_set'
ZTGSHSETPWZTGSHSETPW 0
root@arm:~# echo 'FMTJ''AMHZTB'
FMTJAMHZTB
root@arm:~# MARKER='QGSJ''ZBXANA' run 'i2cget -y -f 2 0x4b 0xd'
QGSJZBXANA0x05
QGSJZBXANA 0
root@arm:~# echo 'XTSO''LKPWBT'
XTSOLKPWBT
root@arm:~# MARKER='NAKP''QAOCFN' run 'echo 760000 760000 > /sys/kernel/mva_test//regulators/buck1_set'
NAKPQAOCFNNAKPQAOCFN 0
root@arm:~# echo 'XQQK''WVLLAQ'
XQQKWVLLAQ
root@arm:~# MARKER='MBBA''OSNOWY' run 'i2cget -y -f 2 0x4b 0xd'
MBBAOSNOWY0x06
MBBAOSNOWY 0
root@arm:~# echo 'ZHQT''ZQWKBF'
ZHQTZQWKBF
root@arm:~# MARKER='QFFE''GBBMGP' run 'echo 770000 770000 > /sys/kernel/mva_test//regulators/buck1_set'
QFFEGBBMGPQFFEGBBMGP 0
root@arm:~# echo 'YMTQ''TBXGNX'
YMTQTBXGNX
root@arm:~# MARKER='ZZAX''HZYUXG' run 'i2cget -y -f 2 0x4b 0xd'
ZZAXHZYUXG0x07
ZZAXHZYUXG 0
root@arm:~# echo 'VYSL''TMEMTE'
VYSLTMEMTE
root@arm:~# MARKER='LOOM''ZCQGGS' run 'echo 780000 780000 > /sys/kernel/mva_test//regulators/buck1_set'
LOOMZCQGGSLOOMZCQGGS 0
root@arm:~# echo 'HKKG''UGLAEJ'
HKKGUGLAEJ
root@arm:~# MARKER='YCFA''UCGUBS' run 'i2cget -y -f 2 0x4b 0xd'
YCFAUCGUBS0x08
YCFAUCGUBS 0
root@arm:~# echo 'TUPU''TYFXXA'
TUPUTYFXXA
root@arm:~# MARKER='UFEA''TMAESY' run 'echo 790000 790000 > /sys/kernel/mva_test//regulators/buck1_set'
UFEATMAESYUFEATMAESY 0
root@arm:~# echo 'EGXM''JCWYUO'
EGXMJCWYUO
root@arm:~# MARKER='ZCUP''FNKKCN' run 'i2cget -y -f 2 0x4b 0xd'
ZCUPFNKKCN0x09
ZCUPFNKKCN 0
root@arm:~# echo 'GWGZ''PQSMON'
GWGZPQSMON
root@arm:~# MARKER='EHKQ''HVTZXN' run 'echo 800000 800000 > /sys/kernel/mva_test//regulators/buck1_set'
EHKQHVTZXNEHKQHVTZXN 0
root@arm:~# echo 'GWVQ''EUBLGU'
GWVQEUBLGU
root@arm:~# MARKER='LZQM''OBKNNS' run 'i2cget -y -f 2 0x4b 0xd'
LZQMOBKNNS0x0a
LZQMOBKNNS 0
root@arm:~# echo 'QOBQ''KXFWLQ'
QOBQKXFWLQ
root@arm:~# MARKER='SUZV''CFBCUY' run 'echo 810000 810000 > /sys/kernel/mva_test//regulators/buck1_set'
SUZVCFBCUYSUZVCFBCUY 0
root@arm:~# echo 'GZFX''OWSWPW'
GZFXOWSWPW
root@arm:~# MARKER='SMQE''CNSCZC' run 'i2cget -y -f 2 0x4b 0xd'
SMQECNSCZC0x0b
SMQECNSCZC 0
root@arm:~# echo 'ECGU''ACTUKK'
ECGUACTUKK
root@arm:~# MARKER='JULS''JMPGFG' run 'echo 820000 820000 > /sys/kernel/mva_test//regulators/buck1_set'
JULSJMPGFGJULSJMPGFG 0
root@arm:~# echo 'XVJK''HCYCOE'
XVJKHCYCOE
root@arm:~# MARKER='ZFAJ''NVKAXO' run 'i2cget -y -f 2 0x4b 0xd'
ZFAJNVKAXO0x0c
ZFAJNVKAXO 0
root@arm:~# echo 'ZHUK''GNNXGJ'
ZHUKGNNXGJ
root@arm:~# MARKER='XLXT''PFATZP' run 'echo 830000 830000 > /sys/kernel/mva_test//regulators/buck1_set'
XLXTPFATZPXLXTPFATZP 0
root@arm:~# echo 'GXLU''PHNUFV'
GXLUPHNUFV
root@arm:~# MARKER='VEMO''GPJCQT' run 'i2cget -y -f 2 0x4b 0xd'
VEMOGPJCQT0x0d
VEMOGPJCQT 0
root@arm:~# echo 'WFWH''UNLOQY'
WFWHUNLOQY
root@arm:~# MARKER='WUWC''TOYLQA' run 'echo 840000 840000 > /sys/kernel/mva_test//regulators/buck1_set'
WUWCTOYLQAWUWCTOYLQA 0
root@arm:~# echo 'QKLX''VEHCYH'
QKLXVEHCYH
root@arm:~# MARKER='SJTA''EBQGGJ' run 'i2cget -y -f 2 0x4b 0xd'
SJTAEBQGGJ0x0e
SJTAEBQGGJ 0
root@arm:~# echo 'KPTL''TVPXQG'
KPTLTVPXQG
root@arm:~# MARKER='SBWN''VBJSHP' run 'echo 850000 850000 > /sys/kernel/mva_test//regulators/buck1_set'
SBWNVBJSHPSBWNVBJSHP 0
root@arm:~# echo 'AWWV''PVESVS'
AWWVPVESVS
root@arm:~# MARKER='OBUT''TAHXMC' run 'i2cget -y -f 2 0x4b 0xd'
OBUTTAHXMC0x0f
OBUTTAHXMC 0
root@arm:~# echo 'AUKJ''ABLGZH'
AUKJABLGZH
root@arm:~# MARKER='LTLP''OHVHTM' run 'echo 860000 860000 > /sys/kernel/mva_test//regulators/buck1_set'
LTLPOHVHTMLTLPOHVHTM 0
root@arm:~# echo 'PACE''QHWXYE'
PACEQHWXYE
root@arm:~# MARKER='GPOV''UOXBHA' run 'i2cget -y -f 2 0x4b 0xd'
GPOVUOXBHA0x10
GPOVUOXBHA 0
root@arm:~# echo 'TCWW''HYNXAM'
TCWWHYNXAM
root@arm:~# MARKER='LXPE''GKOLAV' run 'echo 870000 870000 > /sys/kernel/mva_test//regulators/buck1_set'
LXPEGKOLAVLXPEGKOLAV 0
root@arm:~# echo 'LBLQ''XEQWLW'
LBLQXEQWLW
root@arm:~# MARKER='MWPN''YKQNXT' run 'i2cget -y -f 2 0x4b 0xd'
MWPNYKQNXT0x11
MWPNYKQNXT 0
root@arm:~# echo 'ZSKH''LOFTKP'
ZSKHLOFTKP
root@arm:~# MARKER='XFPU''UHOJWP' run 'echo 880000 880000 > /sys/kernel/mva_test//regulators/buck1_set'
XFPUUHOJWPXFPUUHOJWP 0
root@arm:~# echo 'YYLY''KSYVZO'
YYLYKSYVZO
root@arm:~# MARKER='FKQL''MGTFWL' run 'i2cget -y -f 2 0x4b 0xd'
FKQLMGTFWL0x12
FKQLMGTFWL 0
root@arm:~# echo 'WUNN''MBMUYQ'
WUNNMBMUYQ
root@arm:~# MARKER='ABFM''BVXHNM' run 'echo 890000 890000 > /sys/kernel/mva_test//regulators/buck1_set'
ABFMBVXHNMABFMBVXHNM 0
root@arm:~# echo 'UVFC''LOTLXN'
UVFCLOTLXN
root@arm:~# MARKER='GKXT''ELOCKX' run 'i2cget -y -f 2 0x4b 0xd'
GKXTELOCKX0x13
GKXTELOCKX 0
root@arm:~# echo 'KQOB''GZZXSF'
KQOBGZZXSF
root@arm:~# MARKER='WPJM''FCFLBV' run 'echo 900000 900000 > /sys/kernel/mva_test//regulators/buck1_set'
WPJMFCFLBVWPJMFCFLBV 0
root@arm:~# echo 'UGXF''FQNGQE'
UGXFFQNGQE
root@arm:~# MARKER='LNAL''CTEOTA' run 'i2cget -y -f 2 0x4b 0xd'
LNALCTEOTA0x14
LNALCTEOTA 0
root@arm:~# echo 'BOHZ''QBLKYU'
BOHZQBLKYU
root@arm:~# MARKER='UPSO''SWQAPW' run 'echo 910000 910000 > /sys/kernel/mva_test//regulators/buck1_set'
UPSOSWQAPWUPSOSWQAPW 0
root@arm:~# echo 'XHVG''EYBNSP'
XHVGEYBNSP
root@arm:~# MARKER='NQPE''SZHCZL' run 'i2cget -y -f 2 0x4b 0xd'
NQPESZHCZL0x15
NQPESZHCZL 0
root@arm:~# echo 'WGGY''UQPLZK'
WGGYUQPLZK
root@arm:~# MARKER='NKCT''UUZVBB' run 'echo 920000 920000 > /sys/kernel/mva_test//regulators/buck1_set'
NKCTUUZVBBNKCTUUZVBB 0
root@arm:~# echo 'YJFY''YXVGKW'
YJFYYXVGKW
root@arm:~# MARKER='WBWO''XZXGNE' run 'i2cget -y -f 2 0x4b 0xd'
WBWOXZXGNE0x16
WBWOXZXGNE 0
root@arm:~# echo 'SALW''UUXTFY'
SALWUUXTFY
root@arm:~# MARKER='MGSB''PMNVOS' run 'echo 930000 930000 > /sys/kernel/mva_test//regulators/buck1_set'
MGSBPMNVOSMGSBPMNVOS 0
root@arm:~# echo 'WJQY''FHXTCM'
WJQYFHXTCM
root@arm:~# MARKER='GNLV''KOGUKA' run 'i2cget -y -f 2 0x4b 0xd'
GNLVKOGUKA0x17
GNLVKOGUKA 0
root@arm:~# echo 'MZLB''YHJYMT'
MZLBYHJYMT
root@arm:~# MARKER='TPCL''NQVAQC' run 'echo 940000 940000 > /sys/kernel/mva_test//regulators/buck1_set'
TPCLNQVAQCTPCLNQVAQC 0
root@arm:~# echo 'QKEC''OESETH'
QKECOESETH
root@arm:~# MARKER='QJCK''MONWES' run 'i2cget -y -f 2 0x4b 0xd'
QJCKMONWES0x18
QJCKMONWES 0
root@arm:~# echo 'KMEW''MVYOLC'
KMEWMVYOLC
root@arm:~# MARKER='NZAV''EPCQWQ' run 'echo 950000 950000 > /sys/kernel/mva_test//regulators/buck1_set'
NZAVEPCQWQNZAVEPCQWQ 0
root@arm:~# echo 'JOGP''SJAOUA'
JOGPSJAOUA
root@arm:~# MARKER='SZTL''HPYWXS' run 'i2cget -y -f 2 0x4b 0xd'
SZTLHPYWXS0x19
SZTLHPYWXS 0
root@arm:~# echo 'NSHG''BQKAON'
NSHGBQKAON
root@arm:~# MARKER='ZGOP''FSHZKQ' run 'echo 960000 960000 > /sys/kernel/mva_test//regulators/buck1_set'
ZGOPFSHZKQZGOPFSHZKQ 0
root@arm:~# echo 'TNCA''JCWXXS'
TNCAJCWXXS
root@arm:~# MARKER='TQXY''HXWJCL' run 'i2cget -y -f 2 0x4b 0xd'
TQXYHXWJCL0x1a
TQXYHXWJCL 0
root@arm:~# echo 'MTGG''XOABWP'
MTGGXOABWP
root@arm:~# MARKER='JYHL''BUMXTJ' run 'echo 970000 970000 > /sys/kernel/mva_test//regulators/buck1_set'
JYHLBUMXTJJYHLBUMXTJ 0
root@arm:~# echo 'GUTG''JLFGTH'
GUTGJLFGTH
root@arm:~# MARKER='JZMQ''TFNOHG' run 'i2cget -y -f 2 0x4b 0xd'
JZMQTFNOHG0x1b
JZMQTFNOHG 0
root@arm:~# echo 'JTMC''MPTAAY'
JTMCMPTAAY
root@arm:~# MARKER='CNEM''PGLTJO' run 'echo 980000 980000 > /sys/kernel/mva_test//regulators/buck1_set'
CNEMPGLTJOCNEMPGLTJO 0
root@arm:~# echo 'YBZB''XPLXFL'
YBZBXPLXFL
root@arm:~# MARKER='KCHJ''VVHFEY' run 'i2cget -y -f 2 0x4b 0xd'
KCHJVVHFEY0x1c
KCHJVVHFEY 0
root@arm:~# echo 'AFSS''NPFYGX'
AFSSNPFYGX
root@arm:~# MARKER='TUWK''UMLGYX' run 'echo 990000 990000 > /sys/kernel/mva_test//regulators/buck1_set'
TUWKUMLGYXTUWKUMLGYX 0
root@arm:~# echo 'MXCO''PSQMYU'
MXCOPSQMYU
root@arm:~# MARKER='XFYH''YYZTAB' run 'i2cget -y -f 2 0x4b 0xd'
XFYHYYZTAB0x1d
XFYHYYZTAB 0
root@arm:~# echo 'TUQL''FQAQBX'
TUQLFQAQBX
root@arm:~# MARKER='NXHJ''EOJJXQ' run 'echo 1000000 1000000 > /sys/kernel/mva_tesst/regulators/buck1_set'
NXHJEOJJXQNXHJEOJJXQ 0
root@arm:~# echo 'ABUY''BLXSTJ'
ABUYBLXSTJ
root@arm:~# MARKER='UXEM''FAQVLA' run 'i2cget -y -f 2 0x4b 0xd'
UXEMFAQVLA0x1e
UXEMFAQVLA 0
root@arm:~# echo 'BNTM''QFSLNJ'
BNTMQFSLNJ
root@arm:~# MARKER='XVOU''KCVSEX' run 'echo 1010000 1010000 > /sys/kernel/mva_tesst/regulators/buck1_set'
XVOUKCVSEXXVOUKCVSEX 0
root@arm:~# echo 'PUBY''WZAPTL'
PUBYWZAPTL
root@arm:~# MARKER='LZCK''SVXYKV' run 'i2cget -y -f 2 0x4b 0xd'
LZCKSVXYKV0x1f
LZCKSVXYKV 0
root@arm:~# echo 'MHVV''JLEKCT'
MHVVJLEKCT
root@arm:~# MARKER='YXNX''PALBOU' run 'echo 1020000 1020000 > /sys/kernel/mva_tesst/regulators/buck1_set'
YXNXPALBOUYXNXPALBOU 0
root@arm:~# echo 'BYWM''UCFCHZ'
BYWMUCFCHZ
root@arm:~# MARKER='QEUS''AHPXQV' run 'i2cget -y -f 2 0x4b 0xd'
QEUSAHPXQV0x20
QEUSAHPXQV 0
root@arm:~# echo 'QFZY''XXFBWL'
QFZYXXFBWL
root@arm:~# MARKER='XEBK''GVSZSA' run 'echo 1030000 1030000 > /sys/kernel/mva_tesst/regulators/buck1_set'
XEBKGVSZSAXEBKGVSZSA 0
root@arm:~# echo 'WKUA''CEFJLK'
WKUACEFJLK
root@arm:~# MARKER='NQCG''TQSFMG' run 'i2cget -y -f 2 0x4b 0xd'
NQCGTQSFMG0x21
NQCGTQSFMG 0
root@arm:~# echo 'GGWQ''NKMAQC'
GGWQNKMAQC
root@arm:~# MARKER='VZQT''WJZGTG' run 'echo 1040000 1040000 > /sys/kernel/mva_tesst/regulators/buck1_set'
VZQTWJZGTGVZQTWJZGTG 0
root@arm:~# echo 'BVCA''LONXBT'
BVCALONXBT
root@arm:~# MARKER='AMLP''MALLYN' run 'i2cget -y -f 2 0x4b 0xd'
AMLPMALLYN0x22
AMLPMALLYN 0
root@arm:~# echo 'OOCB''CNTCHL'
OOCBCNTCHL
root@arm:~# MARKER='XQWG''FTKOJZ' run 'echo 1050000 1050000 > /sys/kernel/mva_tesst/regulators/buck1_set'
XQWGFTKOJZXQWGFTKOJZ 0
root@arm:~# echo 'MWWX''UVBXYF'
MWWXUVBXYF
root@arm:~# MARKER='AGNA''LBKEVN' run 'i2cget -y -f 2 0x4b 0xd'
AGNALBKEVN0x23
AGNALBKEVN 0
root@arm:~# echo 'JVVH''ZQPJEG'
JVVHZQPJEG
root@arm:~# MARKER='QJOP''USFHFN' run 'echo 1060000 1060000 > /sys/kernel/mva_tesst/regulators/buck1_set'
QJOPUSFHFNQJOPUSFHFN 0
root@arm:~# echo 'BOSP''ENGGPU'
BOSPENGGPU
root@arm:~# MARKER='SVUK''QYVEHQ' run 'i2cget -y -f 2 0x4b 0xd'
SVUKQYVEHQ0x24
SVUKQYVEHQ 0
root@arm:~# echo 'ZGGK''LBNOEX'
ZGGKLBNOEX
root@arm:~# MARKER='HANT''OLOUSH' run 'echo 1070000 1070000 > /sys/kernel/mva_tesst/regulators/buck1_set'
HANTOLOUSHHANTOLOUSH 0
root@arm:~# echo 'LHCY''UOQELC'
LHCYUOQELC
root@arm:~# MARKER='ENLG''YCEQPP' run 'i2cget -y -f 2 0x4b 0xd'
ENLGYCEQPP0x25
ENLGYCEQPP 0
root@arm:~# echo 'XYOF''FWKELO'
XYOFFWKELO
root@arm:~# MARKER='KFES''SGSEFX' run 'echo 1080000 1080000 > /sys/kernel/mva_tesst/regulators/buck1_set'
KFESSGSEFXKFESSGSEFX 0
root@arm:~# echo 'MMHK''FCBLGW'
MMHKFCBLGW
root@arm:~# MARKER='JECX''CNSAZZ' run 'i2cget -y -f 2 0x4b 0xd'
JECXCNSAZZ0x26
JECXCNSAZZ 0
root@arm:~# echo 'XCAT''FXKOGB'
XCATFXKOGB
root@arm:~# MARKER='EOMC''AHYFGZ' run 'echo 1090000 1090000 > /sys/kernel/mva_tesst/regulators/buck1_set'
EOMCAHYFGZEOMCAHYFGZ 0
root@arm:~# echo 'JFZV''FXSXFU'
JFZVFXSXFU
root@arm:~# MARKER='ZAUY''AESKKF' run 'i2cget -y -f 2 0x4b 0xd'
ZAUYAESKKF0x27
ZAUYAESKKF 0
root@arm:~# echo 'PUCU''ESLBLK'
PUCUESLBLK
root@arm:~# MARKER='UGAM''NJZTNU' run 'echo 1100000 1100000 > /sys/kernel/mva_tesst/regulators/buck1_set'
UGAMNJZTNUUGAMNJZTNU 0
root@arm:~# echo 'BZCC''MXCMWM'
BZCCMXCMWM
root@arm:~# MARKER='KMYL''QAVCLS' run 'i2cget -y -f 2 0x4b 0xd'
KMYLQAVCLS0x28
KMYLQAVCLS 0
root@arm:~# echo 'BHFC''GOYVQC'
BHFCGOYVQC
root@arm:~# MARKER='PSYG''PTCVXO' run 'echo 1110000 1110000 > /sys/kernel/mva_tesst/regulators/buck1_set'
PSYGPTCVXOPSYGPTCVXO 0
root@arm:~# echo 'KKEO''CPJKWP'
KKEOCPJKWP
root@arm:~# MARKER='TKTY''JZKPJZ' run 'i2cget -y -f 2 0x4b 0xd'
TKTYJZKPJZ0x29
TKTYJZKPJZ 0
root@arm:~# echo 'VKJU''VKVKPN'
VKJUVKVKPN
root@arm:~# MARKER='SGWF''GFKXPA' run 'echo 1120000 1120000 > /sys/kernel/mva_tesst/regulators/buck1_set'
SGWFGFKXPASGWFGFKXPA 0
root@arm:~# echo 'LWVY''WAAYQN'
LWVYWAAYQN
root@arm:~# MARKER='ONEK''LKLQLA' run 'i2cget -y -f 2 0x4b 0xd'
ONEKLKLQLA0x2a
ONEKLKLQLA 0
root@arm:~# echo 'STTS''LGMJGG'
STTSLGMJGG
root@arm:~# MARKER='LOFL''TGVQEP' run 'echo 1130000 1130000 > /sys/kernel/mva_tesst/regulators/buck1_set'
LOFLTGVQEPLOFLTGVQEP 0
root@arm:~# echo 'GZTP''SZKPOZ'
GZTPSZKPOZ
root@arm:~# MARKER='UEFX''UTUGMZ' run 'i2cget -y -f 2 0x4b 0xd'
UEFXUTUGMZ0x2b
UEFXUTUGMZ 0
root@arm:~# echo 'WYYU''UKFNGL'
WYYUUKFNGL
root@arm:~# MARKER='WGCQ''HKEVWK' run 'echo 1140000 1140000 > /sys/kernel/mva_tesst/regulators/buck1_set'
WGCQHKEVWKWGCQHKEVWK 0
root@arm:~# echo 'AOMJ''AZLJVG'
AOMJAZLJVG
root@arm:~# MARKER='OGLY''LPVXAG' run 'i2cget -y -f 2 0x4b 0xd'
OGLYLPVXAG0x2c
OGLYLPVXAG 0
root@arm:~# echo 'ZJLV''ZYOBLU'
ZJLVZYOBLU
root@arm:~# MARKER='AMPQ''KVNEPC' run 'echo 1150000 1150000 > /sys/kernel/mva_tesst/regulators/buck1_set'
AMPQKVNEPCAMPQKVNEPC 0
root@arm:~# echo 'QWKW''GPGMKY'
QWKWGPGMKY
root@arm:~# MARKER='YXEO''HJLEAK' run 'i2cget -y -f 2 0x4b 0xd'
YXEOHJLEAK0x2d
YXEOHJLEAK 0
root@arm:~# echo 'TVLA''UAXNGM'
TVLAUAXNGM
root@arm:~# MARKER='YMXK''ABSPVA' run 'echo 1160000 1160000 > /sys/kernel/mva_tesst/regulators/buck1_set'
YMXKABSPVAYMXKABSPVA 0
root@arm:~# echo 'VVEQ''KABKTE'
VVEQKABKTE
root@arm:~# MARKER='GBUZ''BFKXVP' run 'i2cget -y -f 2 0x4b 0xd'
GBUZBFKXVP0x2e
GBUZBFKXVP 0
root@arm:~# echo 'GWXY''WAPPXO'
GWXYWAPPXO
root@arm:~# MARKER='FPFQ''GHGNWV' run 'echo 1170000 1170000 > /sys/kernel/mva_tesst/regulators/buck1_set'
FPFQGHGNWVFPFQGHGNWV 0
root@arm:~# echo 'ONXY''VXGHHB'
ONXYVXGHHB
root@arm:~# MARKER='TBBJ''JTHCFO' run 'i2cget -y -f 2 0x4b 0xd'
TBBJJTHCFO0x2f
TBBJJTHCFO 0
root@arm:~# echo 'PLZU''SQQESG'
PLZUSQQESG
root@arm:~# MARKER='FZWE''LJXBLV' run 'echo 1180000 1180000 > /sys/kernel/mva_tesst/regulators/buck1_set'
FZWELJXBLVFZWELJXBLV 0
root@arm:~# echo 'CQVG''OHJPUQ'
CQVGOHJPUQ
root@arm:~# MARKER='NTMX''QXXKOU' run 'i2cget -y -f 2 0x4b 0xd'
NTMXQXXKOU0x30
NTMXQXXKOU 0
root@arm:~# echo 'GGTO''ACAYUM'
GGTOACAYUM
root@arm:~# MARKER='WJYQ''VQOBVQ' run 'echo 1190000 1190000 > /sys/kernel/mva_tesst/regulators/buck1_set'
WJYQVQOBVQWJYQVQOBVQ 0
root@arm:~# echo 'SQUN''WXQAXB'
SQUNWXQAXB
root@arm:~# MARKER='NZKK''BXPNVJ' run 'i2cget -y -f 2 0x4b 0xd'
NZKKBXPNVJ0x31
NZKKBXPNVJ 0
root@arm:~# echo 'MVBF''UZJSNO'
MVBFUZJSNO
root@arm:~# MARKER='KPLO''KYNPTC' run 'echo 1200000 1200000 > /sys/kernel/mva_tesst/regulators/buck1_set'
KPLOKYNPTCKPLOKYNPTC 0
root@arm:~# echo 'MGPG''MXLTGB'
MGPGMXLTGB
root@arm:~# MARKER='CEJF''EEFTYH' run 'i2cget -y -f 2 0x4b 0xd'
CEJFEEFTYH0x32
CEJFEEFTYH 0
root@arm:~# echo 'VOMS''LOLVUX'
VOMSLOLVUX
root@arm:~# MARKER='LZYM''HCPVYU' run 'echo 1210000 1210000 > /sys/kernel/mva_tesst/regulators/buck1_set'
LZYMHCPVYULZYMHCPVYU 0
root@arm:~# echo 'JWVE''WEQOOE'
JWVEWEQOOE
root@arm:~# MARKER='ZALM''HACHJE' run 'i2cget -y -f 2 0x4b 0xd'
ZALMHACHJE0x33
ZALMHACHJE 0
root@arm:~# echo 'NFYS''UHJQGQ'
NFYSUHJQGQ
root@arm:~# MARKER='QFHP''XPMHPW' run 'echo 1220000 1220000 > /sys/kernel/mva_tesst/regulators/buck1_set'
QFHPXPMHPWQFHPXPMHPW 0
root@arm:~# echo 'STXL''BKPSGO'
STXLBKPSGO
root@arm:~# MARKER='FUCT''GEGSMV' run 'i2cget -y -f 2 0x4b 0xd'
FUCTGEGSMV0x34
FUCTGEGSMV 0
root@arm:~# echo 'MKHB''WYOESJ'
MKHBWYOESJ
root@arm:~# MARKER='LFQT''ZXWVXK' run 'echo 1230000 1230000 > /sys/kernel/mva_tesst/regulators/buck1_set'
LFQTZXWVXKLFQTZXWVXK 0
root@arm:~# echo 'UPFE''TMQLLH'
UPFETMQLLH
root@arm:~# MARKER='VYJM''CTCUJM' run 'i2cget -y -f 2 0x4b 0xd'
VYJMCTCUJM0x35
VYJMCTCUJM 0
root@arm:~# echo 'CKXO''JTLLGX'
CKXOJTLLGX
root@arm:~# MARKER='EXKO''CPKPBZ' run 'echo 1240000 1240000 > /sys/kernel/mva_tesst/regulators/buck1_set'
EXKOCPKPBZEXKOCPKPBZ 0
root@arm:~# echo 'QALX''YMECAF'
QALXYMECAF
root@arm:~# MARKER='AGBW''JMKYPJ' run 'i2cget -y -f 2 0x4b 0xd'
AGBWJMKYPJ0x36
AGBWJMKYPJ 0
root@arm:~# echo 'EXKG''GZTJSP'
EXKGGZTJSP
root@arm:~# MARKER='GOPS''HTWAWO' run 'echo 1250000 1250000 > /sys/kernel/mva_tesst/regulators/buck1_set'
GOPSHTWAWOGOPSHTWAWO 0
root@arm:~# echo 'XQAH''NGPTOQ'
XQAHNGPTOQ
root@arm:~# MARKER='QUKE''HWQXZM' run 'i2cget -y -f 2 0x4b 0xd'
QUKEHWQXZM0x37
QUKEHWQXZM 0
root@arm:~# echo 'XQKL''ZTZGLG'
XQKLZTZGLG
root@arm:~# MARKER='YOWT''LBXFWM' run 'echo 1260000 1260000 > /sys/kernel/mva_tesst/regulators/buck1_set'
YOWTLBXFWMYOWTLBXFWM 0
root@arm:~# echo 'LXXF''JCYGXG'
LXXFJCYGXG
root@arm:~# MARKER='VYTN''MGVJCH' run 'i2cget -y -f 2 0x4b 0xd'
VYTNMGVJCH0x38
VYTNMGVJCH 0
root@arm:~# echo 'QOAC''KBKOPF'
QOACKBKOPF
root@arm:~# MARKER='LMWL''ESCXFZ' run 'echo 1270000 1270000 > /sys/kernel/mva_tesst/regulators/buck1_set'
LMWLESCXFZLMWLESCXFZ 0
root@arm:~# echo 'AHNN''BGPWSE'
AHNNBGPWSE
root@arm:~# MARKER='MLBW''AFHNKH' run 'i2cget -y -f 2 0x4b 0xd'
MLBWAFHNKH0x39
MLBWAFHNKH 0
root@arm:~# echo 'FMMY''LTCJNT'
FMMYLTCJNT
root@arm:~# MARKER='TSKS''OGHEVY' run 'echo 1280000 1280000 > /sys/kernel/mva_tesst/regulators/buck1_set'
TSKSOGHEVYTSKSOGHEVY 0
root@arm:~# echo 'KTMX''MKNYLJ'
KTMXMKNYLJ
root@arm:~# MARKER='UTGC''KEOWTS' run 'i2cget -y -f 2 0x4b 0xd'
UTGCKEOWTS0x3a
UTGCKEOWTS 0
root@arm:~# echo 'NZWY''SGZVKO'
NZWYSGZVKO
root@arm:~# MARKER='WUFV''VJEKBV' run 'echo 1290000 1290000 > /sys/kernel/mva_tesst/regulators/buck1_set'
WUFVVJEKBVWUFVVJEKBV 0
root@arm:~# echo 'XJLO''GCYVSF'
XJLOGCYVSF
root@arm:~# MARKER='ZMLV''CAHZXJ' run 'i2cget -y -f 2 0x4b 0xd'
ZMLVCAHZXJ0x3b
ZMLVCAHZXJ 0
root@arm:~# echo 'MVNZ''ZFHNHQ'
MVNZZFHNHQ
root@arm:~# MARKER='OONT''FFQHJB' run 'echo 1300000 1300000 > /sys/kernel/mva_tesst/regulators/buck1_set'
OONTFFQHJBOONTFFQHJB 0
root@arm:~# echo 'NBNS''UKPVNB'
NBNSUKPVNB
root@arm:~# MARKER='GLMX''SSEVOG' run 'i2cget -y -f 2 0x4b 0xd'
GLMXSSEVOG0x3c
GLMXSSEVOG 0
root@arm:~# echo 'YQJH''FCETQS'
YQJHFCETQS
root@arm:~# MARKER='YCEK''CHTKQU' run 'grep -r -l rohm,bd71837 /proc/device-tree  | sed '"'"'s![^/]*$!!'"'"''
YCEKCHTKQU/proc/device-tree/ocp/interconnect@48000000/segment@100000/target-module@9c000/i2c@0/pmic@4b/
YCEKCHTKQU 0
root@arm:~# echo 'VBLX''GSFBEZ'
VBLXGSFBEZ
root@arm:~# MARKER='PXWX''TANZWP' run 'test -f /proc/device-tree/ocp/interconnectt\@48000000/segment\@100000/target-module\@9c000/i2c\@0/pmic\@4b/regulators/BUCK22/rohm,no-regulator-enable-control ;echo $?'
PXWXTANZWP1
PXWXTANZWP 0
root@arm:~# echo 'GQUT''AQKCAT'
GQUTAQKCAT
root@arm:~# MARKER='SJQS''FBCTPX' run 'i2cget -y -f 2 0x4b 0x6'
SJQSFBCTPX0x43
SJQSFBCTPX 0
root@arm:~# echo 'VUMZ''YPFLXG'
VUMZYPFLXG
root@arm:~# MARKER='FVZO''LMJHTW' run 'echo 700000 700000 > /sys/kernel/mva_test//regulators/buck2_set'
FVZOLMJHTWFVZOLMJHTW 0
root@arm:~# echo 'SJOB''HAYYZT'
SJOBHAYYZT
root@arm:~# MARKER='PBLV''ZYUUAP' run 'i2cget -y -f 2 0x4b 0x10'
PBLVZYUUAP0x00
PBLVZYUUAP 0
root@arm:~# echo 'XBNT''AAALXB'
XBNTAAALXB
root@arm:~# MARKER='FJGH''OFMJSY' run 'echo 710000 710000 > /sys/kernel/mva_test//regulators/buck2_set'
FJGHOFMJSYFJGHOFMJSY 0
root@arm:~# echo 'PEPG''ZLVNPP'
PEPGZLVNPP
root@arm:~# MARKER='AKPY''YWUZMG' run 'i2cget -y -f 2 0x4b 0x10'
AKPYYWUZMG0x01
AKPYYWUZMG 0
root@arm:~# echo 'HYFX''LFVKWO'
HYFXLFVKWO
root@arm:~# MARKER='ETAV''ZLTFVJ' run 'echo 720000 720000 > /sys/kernel/mva_test//regulators/buck2_set'
ETAVZLTFVJETAVZLTFVJ 0
root@arm:~# echo 'LSLH''CZQHHB'
LSLHCZQHHB
root@arm:~# MARKER='PXTK''BZMWST' run 'i2cget -y -f 2 0x4b 0x10'
PXTKBZMWST0x02
PXTKBZMWST 0
root@arm:~# echo 'XCGH''ENTVZE'
XCGHENTVZE
root@arm:~# MARKER='PXKZ''KBYMYB' run 'echo 730000 730000 > /sys/kernel/mva_test//regulators/buck2_set'
PXKZKBYMYBPXKZKBYMYB 0
root@arm:~# echo 'EUTJ''HBVQXC'
EUTJHBVQXC
root@arm:~# MARKER='UYVB''QOQXZT' run 'i2cget -y -f 2 0x4b 0x10'
UYVBQOQXZT0x03
UYVBQOQXZT 0
root@arm:~# echo 'PTZM''CXXPPP'
PTZMCXXPPP
root@arm:~# MARKER='XXLA''KYFGBT' run 'echo 740000 740000 > /sys/kernel/mva_test//regulators/buck2_set'
XXLAKYFGBTXXLAKYFGBT 0
root@arm:~# echo 'UMQB''GSUGJZ'
UMQBGSUGJZ
root@arm:~# MARKER='OXGW''QHNPPM' run 'i2cget -y -f 2 0x4b 0x10'
OXGWQHNPPM0x04
OXGWQHNPPM 0
root@arm:~# echo 'SFJZ''TOCYTU'
SFJZTOCYTU
root@arm:~# MARKER='TCGM''FPZHVP' run 'echo 750000 750000 > /sys/kernel/mva_test//regulators/buck2_set'
TCGMFPZHVPTCGMFPZHVP 0
root@arm:~# echo 'WYBY''QHEAQY'
WYBYQHEAQY
root@arm:~# MARKER='WJWB''MACUEF' run 'i2cget -y -f 2 0x4b 0x10'
WJWBMACUEF0x05
WJWBMACUEF 0
root@arm:~# echo 'LJSO''OGXVVJ'
LJSOOGXVVJ
root@arm:~# MARKER='QJTE''SGXCTC' run 'echo 760000 760000 > /sys/kernel/mva_test//regulators/buck2_set'
QJTESGXCTCQJTESGXCTC 0
root@arm:~# echo 'HCTY''JGXJQF'
HCTYJGXJQF
root@arm:~# MARKER='BVQK''YPJPFM' run 'i2cget -y -f 2 0x4b 0x10'
BVQKYPJPFM0x06
BVQKYPJPFM 0
root@arm:~# echo 'NYXM''XHVWYK'
NYXMXHVWYK
root@arm:~# MARKER='NNBZ''YSOALV' run 'echo 770000 770000 > /sys/kernel/mva_test//regulators/buck2_set'
NNBZYSOALVNNBZYSOALV 0
root@arm:~# echo 'TSFA''FSNMNL'
TSFAFSNMNL
root@arm:~# MARKER='FAQL''MGLBNB' run 'i2cget -y -f 2 0x4b 0x10'
FAQLMGLBNB0x07
FAQLMGLBNB 0
root@arm:~# echo 'AVCQ''MOAKSE'
AVCQMOAKSE
root@arm:~# MARKER='BLAL''AMJYVT' run 'echo 780000 780000 > /sys/kernel/mva_test//regulators/buck2_set'
BLALAMJYVTBLALAMJYVT 0
root@arm:~# echo 'MYWQ''WAHUYW'
MYWQWAHUYW
root@arm:~# MARKER='YFOW''BHXGXE' run 'i2cget -y -f 2 0x4b 0x10'
YFOWBHXGXE0x08
YFOWBHXGXE 0
root@arm:~# echo 'KEYG''HHBGOU'
KEYGHHBGOU
root@arm:~# MARKER='LXOL''KVALFS' run 'echo 790000 790000 > /sys/kernel/mva_test//regulators/buck2_set'
LXOLKVALFSLXOLKVALFS 0
root@arm:~# echo 'CBXM''YBMGEV'
CBXMYBMGEV
root@arm:~# MARKER='TQUB''PAYUNF' run 'i2cget -y -f 2 0x4b 0x10'
TQUBPAYUNF0x09
TQUBPAYUNF 0
root@arm:~# echo 'OYZM''AWAHUC'
OYZMAWAHUC
root@arm:~# MARKER='KMWP''AFSZOB' run 'echo 800000 800000 > /sys/kernel/mva_test//regulators/buck2_set'
KMWPAFSZOBKMWPAFSZOB 0
root@arm:~# echo 'OZGJ''JCSWZZ'
OZGJJCSWZZ
root@arm:~# MARKER='ZLOM''MKEHOL' run 'i2cget -y -f 2 0x4b 0x10'
ZLOMMKEHOL0x0a
ZLOMMKEHOL 0
root@arm:~# echo 'LVEY''VJTPZH'
LVEYVJTPZH
root@arm:~# MARKER='AJHY''LPHNBB' run 'echo 810000 810000 > /sys/kernel/mva_test//regulators/buck2_set'
AJHYLPHNBBAJHYLPHNBB 0
root@arm:~# echo 'PYEZ''GHZNJA'
PYEZGHZNJA
root@arm:~# MARKER='WSJG''BUTKAC' run 'i2cget -y -f 2 0x4b 0x10'
WSJGBUTKAC0x0b
WSJGBUTKAC 0
root@arm:~# echo 'OWQO''VNCWVX'
OWQOVNCWVX
root@arm:~# MARKER='TJLO''EKKUBC' run 'echo 820000 820000 > /sys/kernel/mva_test//regulators/buck2_set'
TJLOEKKUBCTJLOEKKUBC 0
root@arm:~# echo 'KMQC''UCYANM'
KMQCUCYANM
root@arm:~# MARKER='OKXT''NLGFNP' run 'i2cget -y -f 2 0x4b 0x10'
OKXTNLGFNP0x0c
OKXTNLGFNP 0
root@arm:~# echo 'ZBWO''YUJFPN'
ZBWOYUJFPN
root@arm:~# MARKER='ALAB''NMSXJK' run 'echo 830000 830000 > /sys/kernel/mva_test//regulators/buck2_set'
ALABNMSXJKALABNMSXJK 0
root@arm:~# echo 'ENTJ''OAUWWM'
ENTJOAUWWM
root@arm:~# MARKER='XXTK''AFXWPZ' run 'i2cget -y -f 2 0x4b 0x10'
XXTKAFXWPZ0x0d
XXTKAFXWPZ 0
root@arm:~# echo 'NXZO''AYNWCK'
NXZOAYNWCK
root@arm:~# MARKER='JJFJ''WKFYWN' run 'echo 840000 840000 > /sys/kernel/mva_test//regulators/buck2_set'
JJFJWKFYWNJJFJWKFYWN 0
root@arm:~# echo 'JEMC''GEUMFJ'
JEMCGEUMFJ
root@arm:~# MARKER='SEPX''GQZFJX' run 'i2cget -y -f 2 0x4b 0x10'
SEPXGQZFJX0x0e
SEPXGQZFJX 0
root@arm:~# echo 'WFYP''SVFKEK'
WFYPSVFKEK
root@arm:~# MARKER='YWZT''QVMOAO' run 'echo 850000 850000 > /sys/kernel/mva_test//regulators/buck2_set'
YWZTQVMOAOYWZTQVMOAO 0
root@arm:~# echo 'PPOE''KYOSZY'
PPOEKYOSZY
root@arm:~# MARKER='YCHO''QFBGPG' run 'i2cget -y -f 2 0x4b 0x10'
YCHOQFBGPG0x0f
YCHOQFBGPG 0
root@arm:~# echo 'KOGW''PBGVPB'
KOGWPBGVPB
root@arm:~# MARKER='VFCG''WSJYKV' run 'echo 860000 860000 > /sys/kernel/mva_test//regulators/buck2_set'
VFCGWSJYKVVFCGWSJYKV 0
root@arm:~# echo 'WWAS''HHFZSC'
WWASHHFZSC
root@arm:~# MARKER='OWLK''XWKQFU' run 'i2cget -y -f 2 0x4b 0x10'
OWLKXWKQFU0x10
OWLKXWKQFU 0
root@arm:~# echo 'YGYB''BZHAML'
YGYBBZHAML
root@arm:~# MARKER='XNBJ''QKJPJM' run 'echo 870000 870000 > /sys/kernel/mva_test//regulators/buck2_set'
XNBJQKJPJMXNBJQKJPJM 0
root@arm:~# echo 'LCPX''EQVJEP'
LCPXEQVJEP
root@arm:~# MARKER='YLOT''MKOBEV' run 'i2cget -y -f 2 0x4b 0x10'
YLOTMKOBEV0x11
YLOTMKOBEV 0
root@arm:~# echo 'GGYF''ACGFWS'
GGYFACGFWS
root@arm:~# MARKER='EMZF''UUMFGB' run 'echo 880000 880000 > /sys/kernel/mva_test//regulators/buck2_set'
EMZFUUMFGBEMZFUUMFGB 0
root@arm:~# echo 'OTEU''GVHMCA'
OTEUGVHMCA
root@arm:~# MARKER='OSTT''QQKTNO' run 'i2cget -y -f 2 0x4b 0x10'
OSTTQQKTNO0x12
OSTTQQKTNO 0
root@arm:~# echo 'BJQF''VMNUZZ'
BJQFVMNUZZ
root@arm:~# MARKER='CSUK''XKBTKN' run 'echo 890000 890000 > /sys/kernel/mva_test//regulators/buck2_set'
CSUKXKBTKNCSUKXKBTKN 0
root@arm:~# echo 'LVBE''CMUVEN'
LVBECMUVEN
root@arm:~# MARKER='LFKO''OZUPLF' run 'i2cget -y -f 2 0x4b 0x10'
LFKOOZUPLF0x13
LFKOOZUPLF 0
root@arm:~# echo 'TXHY''YQVLYK'
TXHYYQVLYK
root@arm:~# MARKER='JQYT''FCCGJZ' run 'echo 900000 900000 > /sys/kernel/mva_test//regulators/buck2_set'
JQYTFCCGJZJQYTFCCGJZ 0
root@arm:~# echo 'AQYT''OKLKGQ'
AQYTOKLKGQ
root@arm:~# MARKER='ZLKZ''NVHQFX' run 'i2cget -y -f 2 0x4b 0x10'
ZLKZNVHQFX0x14
ZLKZNVHQFX 0
root@arm:~# echo 'YUAW''PCKJLZ'
YUAWPCKJLZ
root@arm:~# MARKER='BPTQ''MQJNBM' run 'echo 910000 910000 > /sys/kernel/mva_test//regulators/buck2_set'
BPTQMQJNBMBPTQMQJNBM 0
root@arm:~# echo 'XNVX''YNMBML'
XNVXYNMBML
root@arm:~# MARKER='SOKY''UUOEVV' run 'i2cget -y -f 2 0x4b 0x10'
SOKYUUOEVV0x15
SOKYUUOEVV 0
root@arm:~# echo 'GVSM''YZFKWU'
GVSMYZFKWU
root@arm:~# MARKER='TAGA''BLSFHG' run 'echo 920000 920000 > /sys/kernel/mva_test//regulators/buck2_set'
TAGABLSFHGTAGABLSFHG 0
root@arm:~# echo 'LGAJ''CFMBHL'
LGAJCFMBHL
root@arm:~# MARKER='QOMB''LVGZGT' run 'i2cget -y -f 2 0x4b 0x10'
QOMBLVGZGT0x16
QOMBLVGZGT 0
root@arm:~# echo 'LYQN''TSXUJL'
LYQNTSXUJL
root@arm:~# MARKER='PKUA''HKTBES' run 'echo 930000 930000 > /sys/kernel/mva_test//regulators/buck2_set'
PKUAHKTBESPKUAHKTBES 0
root@arm:~# echo 'ZKMX''ENHUUM'
ZKMXENHUUM
root@arm:~# MARKER='VKQS''PHUWNT' run 'i2cget -y -f 2 0x4b 0x10'
VKQSPHUWNT0x17
VKQSPHUWNT 0
root@arm:~# echo 'USBA''TKKMNP'
USBATKKMNP
root@arm:~# MARKER='CXFU''ZKKVSV' run 'echo 940000 940000 > /sys/kernel/mva_test//regulators/buck2_set'
CXFUZKKVSVCXFUZKKVSV 0
root@arm:~# echo 'MKUA''KJVFZV'
MKUAKJVFZV
root@arm:~# MARKER='WENX''ONVWLM' run 'i2cget -y -f 2 0x4b 0x10'
WENXONVWLM0x18
WENXONVWLM 0
root@arm:~# echo 'QBZE''OMYUYN'
QBZEOMYUYN
root@arm:~# MARKER='FZGC''YTTVMX' run 'echo 950000 950000 > /sys/kernel/mva_test//regulators/buck2_set'
FZGCYTTVMXFZGCYTTVMX 0
root@arm:~# echo 'EHUZ''VNWFTS'
EHUZVNWFTS
root@arm:~# MARKER='XXZC''KLMCFS' run 'i2cget -y -f 2 0x4b 0x10'
XXZCKLMCFS0x19
XXZCKLMCFS 0
root@arm:~# echo 'KSEP''CWUCVY'
KSEPCWUCVY
root@arm:~# MARKER='POES''AWMJVB' run 'echo 960000 960000 > /sys/kernel/mva_test//regulators/buck2_set'
POESAWMJVBPOESAWMJVB 0
root@arm:~# echo 'YZXS''MPJZQL'
YZXSMPJZQL
root@arm:~# MARKER='PNYT''SQGHON' run 'i2cget -y -f 2 0x4b 0x10'
PNYTSQGHON0x1a
PNYTSQGHON 0
root@arm:~# echo 'KKXM''QXSSUM'
KKXMQXSSUM
root@arm:~# MARKER='QEHM''TJHFXH' run 'echo 970000 970000 > /sys/kernel/mva_test//regulators/buck2_set'
QEHMTJHFXHQEHMTJHFXH 0
root@arm:~# echo 'JEKC''VFLPQB'
JEKCVFLPQB
root@arm:~# MARKER='ECAS''KBNTVJ' run 'i2cget -y -f 2 0x4b 0x10'
ECASKBNTVJ0x1b
ECASKBNTVJ 0
root@arm:~# echo 'HANH''HWUPAF'
HANHHWUPAF
root@arm:~# MARKER='YJNT''MYYTCK' run 'echo 980000 980000 > /sys/kernel/mva_test//regulators/buck2_set'
YJNTMYYTCKYJNTMYYTCK 0
root@arm:~# echo 'ZNQO''OEFGLJ'
ZNQOOEFGLJ
root@arm:~# MARKER='OYAY''GESMYL' run 'i2cget -y -f 2 0x4b 0x10'
OYAYGESMYL0x1c
OYAYGESMYL 0
root@arm:~# echo 'EHCU''KCYSXA'
EHCUKCYSXA
root@arm:~# MARKER='CTUF''QNZPMU' run 'echo 990000 990000 > /sys/kernel/mva_test//regulators/buck2_set'
CTUFQNZPMUCTUFQNZPMU 0
root@arm:~# echo 'VOOL''ZXTFWS'
VOOLZXTFWS
root@arm:~# MARKER='QFQJ''MSJKZM' run 'i2cget -y -f 2 0x4b 0x10'
QFQJMSJKZM0x1d
QFQJMSJKZM 0
root@arm:~# echo 'KHJU''FVOQZN'
KHJUFVOQZN
root@arm:~# MARKER='FSEC''PUXUMS' run 'echo 1000000 1000000 > /sys/kernel/mva_tesst/regulators/buck2_set'
FSECPUXUMSFSECPUXUMS 0
root@arm:~# echo 'QGGA''BTGXLM'
QGGABTGXLM
root@arm:~# MARKER='LSSN''GTEZXV' run 'i2cget -y -f 2 0x4b 0x10'
LSSNGTEZXV0x1e
LSSNGTEZXV 0
root@arm:~# echo 'ZTBH''HBJQJO'
ZTBHHBJQJO
root@arm:~# MARKER='HPQZ''YOXQBQ' run 'echo 1010000 1010000 > /sys/kernel/mva_tesst/regulators/buck2_set'
HPQZYOXQBQHPQZYOXQBQ 0
root@arm:~# echo 'QLJC''BPZUHZ'
QLJCBPZUHZ
root@arm:~# MARKER='EAZC''NWZWBK' run 'i2cget -y -f 2 0x4b 0x10'
EAZCNWZWBK0x1f
EAZCNWZWBK 0
root@arm:~# echo 'NFNG''WFFQCH'
NFNGWFFQCH
root@arm:~# MARKER='VHVB''NZHFHS' run 'echo 1020000 1020000 > /sys/kernel/mva_tesst/regulators/buck2_set'
VHVBNZHFHSVHVBNZHFHS 0
root@arm:~# echo 'AHBK''GQATPJ'
AHBKGQATPJ
root@arm:~# MARKER='CPZG''YFYOYB' run 'i2cget -y -f 2 0x4b 0x10'
CPZGYFYOYB0x20
CPZGYFYOYB 0
root@arm:~# echo 'QTME''YLFKJB'
QTMEYLFKJB
root@arm:~# MARKER='MYNQ''HWBKFT' run 'echo 1030000 1030000 > /sys/kernel/mva_tesst/regulators/buck2_set'
MYNQHWBKFTMYNQHWBKFT 0
root@arm:~# echo 'FEKQ''JTJAYP'
FEKQJTJAYP
root@arm:~# MARKER='YYCB''TZVUHO' run 'i2cget -y -f 2 0x4b 0x10'
YYCBTZVUHO0x21
YYCBTZVUHO 0
root@arm:~# echo 'AACL''VUEMVN'
AACLVUEMVN
root@arm:~# MARKER='JYTK''KCWLZF' run 'echo 1040000 1040000 > /sys/kernel/mva_tesst/regulators/buck2_set'
JYTKKCWLZFJYTKKCWLZF 0
root@arm:~# echo 'AWPW''CXZAGY'
AWPWCXZAGY
root@arm:~# MARKER='VEKJ''JOFCBS' run 'i2cget -y -f 2 0x4b 0x10'
VEKJJOFCBS0x22
VEKJJOFCBS 0
root@arm:~# echo 'WMCT''YCBHSY'
WMCTYCBHSY
root@arm:~# MARKER='VUPQ''EFTPUC' run 'echo 1050000 1050000 > /sys/kernel/mva_tesst/regulators/buck2_set'
VUPQEFTPUCVUPQEFTPUC 0
root@arm:~# echo 'NCWG''QOXFCQ'
NCWGQOXFCQ
root@arm:~# MARKER='PLUK''FCAAPW' run 'i2cget -y -f 2 0x4b 0x10'
PLUKFCAAPW0x23
PLUKFCAAPW 0
root@arm:~# echo 'KKBV''EQMVBU'
KKBVEQMVBU
root@arm:~# MARKER='LFBO''PVBLMY' run 'echo 1060000 1060000 > /sys/kernel/mva_tesst/regulators/buck2_set'
LFBOPVBLMYLFBOPVBLMY 0
root@arm:~# echo 'XLVZ''NFUOVG'
XLVZNFUOVG
root@arm:~# MARKER='MGEX''KCXWVQ' run 'i2cget -y -f 2 0x4b 0x10'
MGEXKCXWVQ0x24
MGEXKCXWVQ 0
root@arm:~# echo 'YQUE''ZSOKPZ'
YQUEZSOKPZ
root@arm:~# MARKER='ZMAZ''BMFEFJ' run 'echo 1070000 1070000 > /sys/kernel/mva_tesst/regulators/buck2_set'
ZMAZBMFEFJZMAZBMFEFJ 0
root@arm:~# echo 'PMAZ''JHZFUO'
PMAZJHZFUO
root@arm:~# MARKER='FUPO''EEXXGW' run 'i2cget -y -f 2 0x4b 0x10'
FUPOEEXXGW0x25
FUPOEEXXGW 0
root@arm:~# echo 'LWVN''SCZKKE'
LWVNSCZKKE
root@arm:~# MARKER='ZESX''ZLWXWY' run 'echo 1080000 1080000 > /sys/kernel/mva_tesst/regulators/buck2_set'
ZESXZLWXWYZESXZLWXWY 0
root@arm:~# echo 'ZVUV''OVKTBT'
ZVUVOVKTBT
root@arm:~# MARKER='SMNY''CTUUFK' run 'i2cget -y -f 2 0x4b 0x10'
SMNYCTUUFK0x26
SMNYCTUUFK 0
root@arm:~# echo 'OPFC''HXJUJM'
OPFCHXJUJM
root@arm:~# MARKER='UOHT''AUTNLA' run 'echo 1090000 1090000 > /sys/kernel/mva_tesst/regulators/buck2_set'
UOHTAUTNLAUOHTAUTNLA 0
root@arm:~# echo 'LJBW''KTOWJV'
LJBWKTOWJV
root@arm:~# MARKER='JKHS''GJYEOC' run 'i2cget -y -f 2 0x4b 0x10'
JKHSGJYEOC0x27
JKHSGJYEOC 0
root@arm:~# echo 'KGXL''GFAATM'
KGXLGFAATM
root@arm:~# MARKER='JXJH''KGXVVT' run 'echo 1100000 1100000 > /sys/kernel/mva_tesst/regulators/buck2_set'
JXJHKGXVVTJXJHKGXVVT 0
root@arm:~# echo 'MPVW''ASKLOG'
MPVWASKLOG
root@arm:~# MARKER='XSKF''FGWVLM' run 'i2cget -y -f 2 0x4b 0x10'
XSKFFGWVLM0x28
XSKFFGWVLM 0
root@arm:~# echo 'CEXH''USPSSZ'
CEXHUSPSSZ
root@arm:~# MARKER='HYKQ''QCNLUP' run 'echo 1110000 1110000 > /sys/kernel/mva_tesst/regulators/buck2_set'
HYKQQCNLUPHYKQQCNLUP 0
root@arm:~# echo 'HGTJ''GEJOYW'
HGTJGEJOYW
root@arm:~# MARKER='NYVA''YJFVQY' run 'i2cget -y -f 2 0x4b 0x10'
NYVAYJFVQY0x29
NYVAYJFVQY 0
root@arm:~# echo 'KZMV''APPBYU'
KZMVAPPBYU
root@arm:~# MARKER='JUXN''CLSZSY' run 'echo 1120000 1120000 > /sys/kernel/mva_tesst/regulators/buck2_set'
JUXNCLSZSYJUXNCLSZSY 0
root@arm:~# echo 'FSXQ''AOHNCJ'
FSXQAOHNCJ
root@arm:~# MARKER='QUHA''HENEKT' run 'i2cget -y -f 2 0x4b 0x10'
QUHAHENEKT0x2a
QUHAHENEKT 0
root@arm:~# echo 'PHGB''JPNUCB'
PHGBJPNUCB
root@arm:~# MARKER='YKUU''CFQHLN' run 'echo 1130000 1130000 > /sys/kernel/mva_tesst/regulators/buck2_set'
YKUUCFQHLNYKUUCFQHLN 0
root@arm:~# echo 'NMCX''CYNFFK'
NMCXCYNFFK
root@arm:~# MARKER='WJWG''MUEJEU' run 'i2cget -y -f 2 0x4b 0x10'
WJWGMUEJEU0x2b
WJWGMUEJEU 0
root@arm:~# echo 'LKBU''GCSWJT'
LKBUGCSWJT
root@arm:~# MARKER='FFOE''WMLFYV' run 'echo 1140000 1140000 > /sys/kernel/mva_tesst/regulators/buck2_set'
FFOEWMLFYVFFOEWMLFYV 0
root@arm:~# echo 'NYXE''TZJAPL'
NYXETZJAPL
root@arm:~# MARKER='MNGN''BPHZNP' run 'i2cget -y -f 2 0x4b 0x10'
MNGNBPHZNP0x2c
MNGNBPHZNP 0
root@arm:~# echo 'PNFS''MWOCKF'
PNFSMWOCKF
root@arm:~# MARKER='OQOZ''ZQPYPW' run 'echo 1150000 1150000 > /sys/kernel/mva_tesst/regulators/buck2_set'
OQOZZQPYPWOQOZZQPYPW 0
root@arm:~# echo 'ZPAE''GKSYEY'
ZPAEGKSYEY
root@arm:~# MARKER='EGYX''GQMNKY' run 'i2cget -y -f 2 0x4b 0x10'
EGYXGQMNKY0x2d
EGYXGQMNKY 0
root@arm:~# echo 'JCZL''JJHAEH'
JCZLJJHAEH
root@arm:~# MARKER='EZSO''QGACZV' run 'echo 1160000 1160000 > /sys/kernel/mva_tesst/regulators/buck2_set'
EZSOQGACZVEZSOQGACZV 0
root@arm:~# echo 'GFBB''WSFAPB'
GFBBWSFAPB
root@arm:~# MARKER='GXEQ''ZBCBSN' run 'i2cget -y -f 2 0x4b 0x10'
GXEQZBCBSN0x2e
GXEQZBCBSN 0
root@arm:~# echo 'UAYT''EHHUVQ'
UAYTEHHUVQ
root@arm:~# MARKER='AJSK''GBGVBB' run 'echo 1170000 1170000 > /sys/kernel/mva_tesst/regulators/buck2_set'
AJSKGBGVBBAJSKGBGVBB 0
root@arm:~# echo 'EQAP''BMMLAM'
EQAPBMMLAM
root@arm:~# MARKER='NGYW''WLZSAK' run 'i2cget -y -f 2 0x4b 0x10'
NGYWWLZSAK0x2f
NGYWWLZSAK 0
root@arm:~# echo 'YLPA''CUEXBF'
YLPACUEXBF
root@arm:~# MARKER='PTAS''TCACSY' run 'echo 1180000 1180000 > /sys/kernel/mva_tesst/regulators/buck2_set'
PTASTCACSYPTASTCACSY 0
root@arm:~# echo 'OXOP''PFKWHQ'
OXOPPFKWHQ
root@arm:~# MARKER='TJPJ''XMOCSN' run 'i2cget -y -f 2 0x4b 0x10'
TJPJXMOCSN0x30
TJPJXMOCSN 0
root@arm:~# echo 'GFOH''ZHPKFY'
GFOHZHPKFY
root@arm:~# MARKER='KUEJ''GUULFE' run 'echo 1190000 1190000 > /sys/kernel/mva_tesst/regulators/buck2_set'
KUEJGUULFEKUEJGUULFE 0
root@arm:~# echo 'QPJJ''UBEWST'
QPJJUBEWST
root@arm:~# MARKER='OHWW''AZBNMW' run 'i2cget -y -f 2 0x4b 0x10'
OHWWAZBNMW0x31
OHWWAZBNMW 0
root@arm:~# echo 'ZEWP''KELWOK'
ZEWPKELWOK
root@arm:~# MARKER='OLJP''OBSEBQ' run 'echo 1200000 1200000 > /sys/kernel/mva_tesst/regulators/buck2_set'
OLJPOBSEBQOLJPOBSEBQ 0
root@arm:~# echo 'ZQQN''GEHSGJ'
ZQQNGEHSGJ
root@arm:~# MARKER='CONK''TWVNBY' run 'i2cget -y -f 2 0x4b 0x10'
CONKTWVNBY0x32
CONKTWVNBY 0
root@arm:~# echo 'UBXU''ZFCNQA'
UBXUZFCNQA
root@arm:~# MARKER='EENW''TEQGVG' run 'echo 1210000 1210000 > /sys/kernel/mva_tesst/regulators/buck2_set'
EENWTEQGVGEENWTEQGVG 0
root@arm:~# echo 'PNOU''FUOKAG'
PNOUFUOKAG
root@arm:~# MARKER='LXQQ''MAALUF' run 'i2cget -y -f 2 0x4b 0x10'
LXQQMAALUF0x33
LXQQMAALUF 0
root@arm:~# echo 'KWYM''JLVLFO'
KWYMJLVLFO
root@arm:~# MARKER='ACVZ''VLYSHB' run 'echo 1220000 1220000 > /sys/kernel/mva_tesst/regulators/buck2_set'
ACVZVLYSHBACVZVLYSHB 0
root@arm:~# echo 'BONC''TCWEEM'
BONCTCWEEM
root@arm:~# MARKER='UUVT''YOCOYV' run 'i2cget -y -f 2 0x4b 0x10'
UUVTYOCOYV0x34
UUVTYOCOYV 0
root@arm:~# echo 'QTYY''HTYBKV'
QTYYHTYBKV
root@arm:~# MARKER='WTLW''CHVXCT' run 'echo 1230000 1230000 > /sys/kernel/mva_tesst/regulators/buck2_set'
WTLWCHVXCTWTLWCHVXCT 0
root@arm:~# echo 'BGHW''VECMUP'
BGHWVECMUP
root@arm:~# MARKER='LJNL''FSUASF' run 'i2cget -y -f 2 0x4b 0x10'
LJNLFSUASF0x35
LJNLFSUASF 0
root@arm:~# echo 'MCGN''FGCCVH'
MCGNFGCCVH
root@arm:~# MARKER='GHYF''KYNTNK' run 'echo 1240000 1240000 > /sys/kernel/mva_tesst/regulators/buck2_set'
GHYFKYNTNKGHYFKYNTNK 0
root@arm:~# echo 'LFMF''GXTHVC'
LFMFGXTHVC
root@arm:~# MARKER='CZBQ''NHJFBQ' run 'i2cget -y -f 2 0x4b 0x10'
CZBQNHJFBQ0x36
CZBQNHJFBQ 0
root@arm:~# echo 'OQQW''PBKLFC'
OQQWPBKLFC
root@arm:~# MARKER='QJAZ''BEXBWE' run 'echo 1250000 1250000 > /sys/kernel/mva_tesst/regulators/buck2_set'
QJAZBEXBWEQJAZBEXBWE 0
root@arm:~# echo 'QOCS''MBMTJK'
QOCSMBMTJK
root@arm:~# MARKER='UATE''YOLGWA' run 'i2cget -y -f 2 0x4b 0x10'
UATEYOLGWA0x37
UATEYOLGWA 0
root@arm:~# echo 'YLKL''AHAJTL'
YLKLAHAJTL
root@arm:~# MARKER='PELF''ZYGTLB' run 'echo 1260000 1260000 > /sys/kernel/mva_tesst/regulators/buck2_set'
PELFZYGTLBPELFZYGTLB 0
root@arm:~# echo 'PXMP''NXLACM'
PXMPNXLACM
root@arm:~# MARKER='PQYL''VSAKYW' run 'i2cget -y -f 2 0x4b 0x10'
PQYLVSAKYW0x38
PQYLVSAKYW 0
root@arm:~# echo 'LPTJ''ZNTKSM'
LPTJZNTKSM
root@arm:~# MARKER='YZZO''UKUGPN' run 'echo 1270000 1270000 > /sys/kernel/mva_tesst/regulators/buck2_set'
YZZOUKUGPNYZZOUKUGPN 0
root@arm:~# echo 'COQG''PQJJEE'
COQGPQJJEE
root@arm:~# MARKER='PGKZ''NOJSQV' run 'i2cget -y -f 2 0x4b 0x10'
PGKZNOJSQV0x39
PGKZNOJSQV 0
root@arm:~# echo 'QCFY''POBAMB'
QCFYPOBAMB
root@arm:~# MARKER='QBKW''VUZFWJ' run 'echo 1280000 1280000 > /sys/kernel/mva_tesst/regulators/buck2_set'
QBKWVUZFWJQBKWVUZFWJ 0
root@arm:~# echo 'NLPZ''MCXPJV'
NLPZMCXPJV
root@arm:~# MARKER='BCET''PAPHNN' run 'i2cget -y -f 2 0x4b 0x10'
BCETPAPHNN0x3a
BCETPAPHNN 0
root@arm:~# echo 'XUOO''WYMLLQ'
XUOOWYMLLQ
root@arm:~# MARKER='WSHM''GXHFUN' run 'echo 1290000 1290000 > /sys/kernel/mva_tesst/regulators/buck2_set'
WSHMGXHFUNWSHMGXHFUN 0
root@arm:~# echo 'SBHH''JHYQPO'
SBHHJHYQPO
root@arm:~# MARKER='SGFE''CJLQUE' run 'i2cget -y -f 2 0x4b 0x10'
SGFECJLQUE0x3b
SGFECJLQUE 0
root@arm:~# echo 'SGFM''TKVGVL'
SGFMTKVGVL
root@arm:~# MARKER='LVMN''TAOZLP' run 'echo 1300000 1300000 > /sys/kernel/mva_tesst/regulators/buck2_set'
LVMNTAOZLPLVMNTAOZLP 0
root@arm:~# echo 'OXHV''FHYWUP'
OXHVFHYWUP
root@arm:~# MARKER='TFKV''EXQMGZ' run 'i2cget -y -f 2 0x4b 0x10'
TFKVEXQMGZ0x3c
TFKVEXQMGZ 0
root@arm:~# echo 'JGFA''FQOSFP'
JGFAFQOSFP
root@arm:~# MARKER='ZZYL''LUAMAU' run 'grep -r -l rohm,bd71837 /proc/device-tree  | sed '"'"'s![^/]*$!!'"'"''
ZZYLLUAMAU/proc/device-tree/ocp/interconnect@48000000/segment@100000/target-module@9c000/i2c@0/pmic@4b/
ZZYLLUAMAU 0
root@arm:~# echo 'FBUT''JYBMTS'
FBUTJYBMTS
root@arm:~# MARKER='MPHC''PEXNUJ' run 'test -f /proc/device-tree/ocp/interconnectt\@48000000/segment\@100000/target-module\@9c000/i2c\@0/pmic\@4b/regulators/BUCK33/rohm,no-regulator-enable-control ;echo $?'
MPHCPEXNUJ0
MPHCPEXNUJ 0
root@arm:~# echo 'CWKT''MOPHBO'
CWKTMOPHBO
root@arm:~# MARKER='TPAU''HHBFES' run 'echo 700000 700000 > /sys/kernel/mva_test//regulators/buck3_set'
TPAUHHBFESTPAUHHBFES 0
root@arm:~# echo 'XXYY''MVVYWO'
XXYYMVVYWO
root@arm:~# MARKER='VKNC''KXWVAF' run 'i2cget -y -f 2 0x4b 0x12'
VKNCKXWVAF0x00
VKNCKXWVAF 0
root@arm:~# echo 'QNOP''EAEHEP'
QNOPEAEHEP
root@arm:~# MARKER='GKTE''ZUEQGX' run 'echo 710000 710000 > /sys/kernel/mva_test//regulators/buck3_set'
GKTEZUEQGXGKTEZUEQGX 0
root@arm:~# echo 'QVEW''UCTAPB'
QVEWUCTAPB
root@arm:~# MARKER='GZGJ''ZNYWKH' run 'i2cget -y -f 2 0x4b 0x12'
GZGJZNYWKH0x01
GZGJZNYWKH 0
root@arm:~# echo 'LMLP''HKJNOH'
LMLPHKJNOH
root@arm:~# MARKER='TESK''FOWENL' run 'echo 720000 720000 > /sys/kernel/mva_test//regulators/buck3_set'
TESKFOWENLTESKFOWENL 0
root@arm:~# echo 'XCSF''KMZGPM'
XCSFKMZGPM
root@arm:~# MARKER='BOXU''BOFTWK' run 'i2cget -y -f 2 0x4b 0x12'
BOXUBOFTWK0x02
BOXUBOFTWK 0
root@arm:~# echo 'AZSS''SFMWGV'
AZSSSFMWGV
root@arm:~# MARKER='BOPE''EOOBMX' run 'echo 730000 730000 > /sys/kernel/mva_test//regulators/buck3_set'
BOPEEOOBMXBOPEEOOBMX 0
root@arm:~# echo 'FAOM''GHMOXW'
FAOMGHMOXW
root@arm:~# MARKER='BUMX''EFCNTV' run 'i2cget -y -f 2 0x4b 0x12'
BUMXEFCNTV0x03
BUMXEFCNTV 0
root@arm:~# echo 'ZSZN''JCBOEO'
ZSZNJCBOEO
root@arm:~# MARKER='PVCJ''VJHKWU' run 'echo 740000 740000 > /sys/kernel/mva_test//regulators/buck3_set'
PVCJVJHKWUPVCJVJHKWU 0
root@arm:~# echo 'NEUQ''HJPCQA'
NEUQHJPCQA
root@arm:~# MARKER='OUJM''SJOBTK' run 'i2cget -y -f 2 0x4b 0x12'
OUJMSJOBTK0x04
OUJMSJOBTK 0
root@arm:~# echo 'CKWW''MMLCAG'
CKWWMMLCAG
root@arm:~# MARKER='SHWB''HXZZXT' run 'echo 750000 750000 > /sys/kernel/mva_test//regulators/buck3_set'
SHWBHXZZXTSHWBHXZZXT 0
root@arm:~# echo 'SNKC''BNPQLX'
SNKCBNPQLX
root@arm:~# MARKER='KMFC''QKFYXN' run 'i2cget -y -f 2 0x4b 0x12'
KMFCQKFYXN0x05
KMFCQKFYXN 0
root@arm:~# echo 'KVHX''WXQZQH'
KVHXWXQZQH
root@arm:~# MARKER='KFTS''BJVGZV' run 'echo 760000 760000 > /sys/kernel/mva_test//regulators/buck3_set'
KFTSBJVGZVKFTSBJVGZV 0
root@arm:~# echo 'VHEA''COXZLH'
VHEACOXZLH
root@arm:~# MARKER='UQBY''MPOQAL' run 'i2cget -y -f 2 0x4b 0x12'
UQBYMPOQAL0x06
UQBYMPOQAL 0
root@arm:~# echo 'NXGO''KKEGXB'
NXGOKKEGXB
root@arm:~# MARKER='KJEM''ZEPUBP' run 'echo 770000 770000 > /sys/kernel/mva_test//regulators/buck3_set'
KJEMZEPUBPKJEMZEPUBP 0
root@arm:~# echo 'HVXA''PAAVAM'
HVXAPAAVAM
root@arm:~# MARKER='UHEG''ZPNWXF' run 'i2cget -y -f 2 0x4b 0x12'
UHEGZPNWXF0x07
UHEGZPNWXF 0
root@arm:~# echo 'JMLJ''EUCVUV'
JMLJEUCVUV
root@arm:~# MARKER='WGTS''PTNZTL' run 'echo 780000 780000 > /sys/kernel/mva_test//regulators/buck3_set'
WGTSPTNZTLWGTSPTNZTL 0
root@arm:~# echo 'CCYJ''HLZZQU'
CCYJHLZZQU
root@arm:~# MARKER='UOTC''WEZYHK' run 'i2cget -y -f 2 0x4b 0x12'
UOTCWEZYHK0x08
UOTCWEZYHK 0
root@arm:~# echo 'NVLK''QWHEXS'
NVLKQWHEXS
root@arm:~# MARKER='BQQU''JCCXPB' run 'echo 790000 790000 > /sys/kernel/mva_test//regulators/buck3_set'
BQQUJCCXPBBQQUJCCXPB 0
root@arm:~# echo 'UOMA''SLESGC'
UOMASLESGC
root@arm:~# MARKER='FMPL''OUFUQG' run 'i2cget -y -f 2 0x4b 0x12'
FMPLOUFUQG0x09
FMPLOUFUQG 0
root@arm:~# echo 'JUCU''WGSUKH'
JUCUWGSUKH
root@arm:~# MARKER='LEPT''YYSMZJ' run 'echo 800000 800000 > /sys/kernel/mva_test//regulators/buck3_set'
LEPTYYSMZJLEPTYYSMZJ 0
root@arm:~# echo 'QCSH''WYYYVC'
QCSHWYYYVC
root@arm:~# MARKER='SMXA''UPAFKJ' run 'i2cget -y -f 2 0x4b 0x12'
SMXAUPAFKJ0x0a
SMXAUPAFKJ 0
root@arm:~# echo 'SWNP''LYHHYK'
SWNPLYHHYK
root@arm:~# MARKER='WWPE''ZXWAHL' run 'echo 810000 810000 > /sys/kernel/mva_test//regulators/buck3_set'
WWPEZXWAHLWWPEZXWAHL 0
root@arm:~# echo 'KAQK''YKXEGJ'
KAQKYKXEGJ
root@arm:~# MARKER='HYPO''JTWLMA' run 'i2cget -y -f 2 0x4b 0x12'
HYPOJTWLMA0x0b
HYPOJTWLMA 0
root@arm:~# echo 'NTUQ''JZCYLK'
NTUQJZCYLK
root@arm:~# MARKER='HBYJ''NAGBEL' run 'echo 820000 820000 > /sys/kernel/mva_test//regulators/buck3_set'
HBYJNAGBELHBYJNAGBEL 0
root@arm:~# echo 'QFSB''HAUMBV'
QFSBHAUMBV
root@arm:~# MARKER='EFSC''OFHTTY' run 'i2cget -y -f 2 0x4b 0x12'
EFSCOFHTTY0x0c
EFSCOFHTTY 0
root@arm:~# echo 'YZQX''VYVKHN'
YZQXVYVKHN
root@arm:~# MARKER='TZVH''YBUPVU' run 'echo 830000 830000 > /sys/kernel/mva_test//regulators/buck3_set'
TZVHYBUPVUTZVHYBUPVU 0
root@arm:~# echo 'EBSP''VZLEAY'
EBSPVZLEAY
root@arm:~# MARKER='QVML''ZUVZMH' run 'i2cget -y -f 2 0x4b 0x12'
QVMLZUVZMH0x0d
QVMLZUVZMH 0
root@arm:~# echo 'CGAK''JUHNCF'
CGAKJUHNCF
root@arm:~# MARKER='OFAT''YVFHAW' run 'echo 840000 840000 > /sys/kernel/mva_test//regulators/buck3_set'
OFATYVFHAWOFATYVFHAW 0
root@arm:~# echo 'HXQH''XHYSWL'
HXQHXHYSWL
root@arm:~# MARKER='UJXG''OLNUWW' run 'i2cget -y -f 2 0x4b 0x12'
UJXGOLNUWW0x0e
UJXGOLNUWW 0
root@arm:~# echo 'YFWN''FJWQPG'
YFWNFJWQPG
root@arm:~# MARKER='ULCP''UFYLFQ' run 'echo 850000 850000 > /sys/kernel/mva_test//regulators/buck3_set'
ULCPUFYLFQULCPUFYLFQ 0
root@arm:~# echo 'QUFV''SPWQGL'
QUFVSPWQGL
root@arm:~# MARKER='HMGT''LSLMVN' run 'i2cget -y -f 2 0x4b 0x12'
HMGTLSLMVN0x0f
HMGTLSLMVN 0
root@arm:~# echo 'PZGG''UPGFWS'
PZGGUPGFWS
root@arm:~# MARKER='VQSY''EKOBJF' run 'echo 860000 860000 > /sys/kernel/mva_test//regulators/buck3_set'
VQSYEKOBJFVQSYEKOBJF 0
root@arm:~# echo 'VTON''HBPSXJ'
VTONHBPSXJ
root@arm:~# MARKER='HLZJ''QZUULB' run 'i2cget -y -f 2 0x4b 0x12'
HLZJQZUULB0x10
HLZJQZUULB 0
root@arm:~# echo 'LSZY''WSYKKJ'
LSZYWSYKKJ
root@arm:~# MARKER='UOJB''AONFYU' run 'echo 870000 870000 > /sys/kernel/mva_test//regulators/buck3_set'
UOJBAONFYUUOJBAONFYU 0
root@arm:~# echo 'BLVZ''JTMSAS'
BLVZJTMSAS
root@arm:~# MARKER='LKML''QLECPX' run 'i2cget -y -f 2 0x4b 0x12'
LKMLQLECPX0x11
LKMLQLECPX 0
root@arm:~# echo 'UYJH''PFAPPT'
UYJHPFAPPT
root@arm:~# MARKER='ZPBN''YFZXAO' run 'echo 880000 880000 > /sys/kernel/mva_test//regulators/buck3_set'
ZPBNYFZXAOZPBNYFZXAO 0
root@arm:~# echo 'QTGF''EPWCOS'
QTGFEPWCOS
root@arm:~# MARKER='CPAE''HKOMBP' run 'i2cget -y -f 2 0x4b 0x12'
CPAEHKOMBP0x12
CPAEHKOMBP 0
root@arm:~# echo 'QVZP''KUBKWM'
QVZPKUBKWM
root@arm:~# MARKER='POEE''EOYNLC' run 'echo 890000 890000 > /sys/kernel/mva_test//regulators/buck3_set'
POEEEOYNLCPOEEEOYNLC 0
root@arm:~# echo 'LGLX''WKSHXW'
LGLXWKSHXW
root@arm:~# MARKER='MEBN''CPAVFF' run 'i2cget -y -f 2 0x4b 0x12'
MEBNCPAVFF0x13
MEBNCPAVFF 0
root@arm:~# echo 'ESGQ''HVOJYL'
ESGQHVOJYL
root@arm:~# MARKER='ZMYV''LPWAYJ' run 'echo 900000 900000 > /sys/kernel/mva_test//regulators/buck3_set'
ZMYVLPWAYJZMYVLPWAYJ 0
root@arm:~# echo 'KGBL''EBLALQ'
KGBLEBLALQ
root@arm:~# MARKER='PYLM''COGBFV' run 'i2cget -y -f 2 0x4b 0x12'
PYLMCOGBFV0x14
PYLMCOGBFV 0
root@arm:~# echo 'TPAM''PVEEZE'
TPAMPVEEZE
root@arm:~# MARKER='VWKP''AVVUQP' run 'echo 910000 910000 > /sys/kernel/mva_test//regulators/buck3_set'
VWKPAVVUQPVWKPAVVUQP 0
root@arm:~# echo 'OCBZ''SJTPBT'
OCBZSJTPBT
root@arm:~# MARKER='YXLF''FVBMMK' run 'i2cget -y -f 2 0x4b 0x12'
YXLFFVBMMK0x15
YXLFFVBMMK 0
root@arm:~# echo 'GUKN''AWBBVW'
GUKNAWBBVW
root@arm:~# MARKER='CECA''BKLPHN' run 'echo 920000 920000 > /sys/kernel/mva_test//regulators/buck3_set'
CECABKLPHNCECABKLPHN 0
root@arm:~# echo 'AYFM''JSEFGU'
AYFMJSEFGU
root@arm:~# MARKER='NOYG''OCCPAS' run 'i2cget -y -f 2 0x4b 0x12'
NOYGOCCPAS0x16
NOYGOCCPAS 0
root@arm:~# echo 'MACH''XVFCON'
MACHXVFCON
root@arm:~# MARKER='CSLN''JBQZFZ' run 'echo 930000 930000 > /sys/kernel/mva_test//regulators/buck3_set'
CSLNJBQZFZCSLNJBQZFZ 0
root@arm:~# echo 'WPFM''PZNXJV'
WPFMPZNXJV
root@arm:~# MARKER='SFFT''OHHMPG' run 'i2cget -y -f 2 0x4b 0x12'
SFFTOHHMPG0x17
SFFTOHHMPG 0
root@arm:~# echo 'PBNL''HGLSWN'
PBNLHGLSWN
root@arm:~# MARKER='LLLL''XHVTBE' run 'echo 940000 940000 > /sys/kernel/mva_test//regulators/buck3_set'
LLLLXHVTBELLLLXHVTBE 0
root@arm:~# echo 'WXFL''UCGOPK'
WXFLUCGOPK
root@arm:~# MARKER='GPPM''NNXYBY' run 'i2cget -y -f 2 0x4b 0x12'
GPPMNNXYBY0x18
GPPMNNXYBY 0
root@arm:~# echo 'ECET''QJCYEL'
ECETQJCYEL
root@arm:~# MARKER='APPM''EMQYKY' run 'echo 950000 950000 > /sys/kernel/mva_test//regulators/buck3_set'
APPMEMQYKYAPPMEMQYKY 0
root@arm:~# echo 'SJTL''VJFSGF'
SJTLVJFSGF
root@arm:~# MARKER='YNQF''NMCQNE' run 'i2cget -y -f 2 0x4b 0x12'
YNQFNMCQNE0x19
YNQFNMCQNE 0
root@arm:~# echo 'VFLS''OTBNPL'
VFLSOTBNPL
root@arm:~# MARKER='UZSJ''BKSPNK' run 'echo 960000 960000 > /sys/kernel/mva_test//regulators/buck3_set'
UZSJBKSPNKUZSJBKSPNK 0
root@arm:~# echo 'FBVZ''NGCPST'
FBVZNGCPST
root@arm:~# MARKER='SXMM''VVWFHW' run 'i2cget -y -f 2 0x4b 0x12'
SXMMVVWFHW0x1a
SXMMVVWFHW 0
root@arm:~# echo 'TMQX''QETCYX'
TMQXQETCYX
root@arm:~# MARKER='OHNF''PJSWKV' run 'echo 970000 970000 > /sys/kernel/mva_test//regulators/buck3_set'
OHNFPJSWKVOHNFPJSWKV 0
root@arm:~# echo 'QTWF''SPWUJP'
QTWFSPWUJP
root@arm:~# MARKER='ZMEA''XBOXHM' run 'i2cget -y -f 2 0x4b 0x12'
ZMEAXBOXHM0x1b
ZMEAXBOXHM 0
root@arm:~# echo 'MHPL''ZNCEQT'
MHPLZNCEQT
root@arm:~# MARKER='YTZM''JVYCLE' run 'echo 980000 980000 > /sys/kernel/mva_test//regulators/buck3_set'
YTZMJVYCLEYTZMJVYCLE 0
root@arm:~# echo 'PLYV''HENSYC'
PLYVHENSYC
root@arm:~# MARKER='CMGE''HMMMKL' run 'i2cget -y -f 2 0x4b 0x12'
CMGEHMMMKL0x1c
CMGEHMMMKL 0
root@arm:~# echo 'SNHA''SXPMUW'
SNHASXPMUW
root@arm:~# MARKER='LMMY''OYFXGC' run 'echo 990000 990000 > /sys/kernel/mva_test//regulators/buck3_set'
LMMYOYFXGCLMMYOYFXGC 0
root@arm:~# echo 'UBOT''NZXUFY'
UBOTNZXUFY
root@arm:~# MARKER='HUKN''XQGACJ' run 'i2cget -y -f 2 0x4b 0x12'
HUKNXQGACJ0x1d
HUKNXQGACJ 0
root@arm:~# echo 'CSNJ''MFCXAP'
CSNJMFCXAP
root@arm:~# MARKER='MJQS''YQUTHC' run 'echo 1000000 1000000 > /sys/kernel/mva_tesst/regulators/buck3_set'
MJQSYQUTHCMJQSYQUTHC 0
root@arm:~# echo 'WUGV''BPFPCF'
WUGVBPFPCF
root@arm:~# MARKER='UQTT''ZEKCHV' run 'i2cget -y -f 2 0x4b 0x12'
UQTTZEKCHV0x1e
UQTTZEKCHV 0
root@arm:~# echo 'XSKX''NLQPSA'
XSKXNLQPSA
root@arm:~# MARKER='XAKP''PLCLPZ' run 'echo 1010000 1010000 > /sys/kernel/mva_tesst/regulators/buck3_set'
XAKPPLCLPZXAKPPLCLPZ 0
root@arm:~# echo 'QTNN''ZNXPAO'
QTNNZNXPAO
root@arm:~# MARKER='XNLS''ZFVTKK' run 'i2cget -y -f 2 0x4b 0x12'
XNLSZFVTKK0x1f
XNLSZFVTKK 0
root@arm:~# echo 'CUZT''QMVJYK'
CUZTQMVJYK
root@arm:~# MARKER='EHAW''PLPALV' run 'echo 1020000 1020000 > /sys/kernel/mva_tesst/regulators/buck3_set'
EHAWPLPALVEHAWPLPALV 0
root@arm:~# echo 'UMHL''WGLWYB'
UMHLWGLWYB
root@arm:~# MARKER='ZYGH''YVOAZB' run 'i2cget -y -f 2 0x4b 0x12'
ZYGHYVOAZB0x20
ZYGHYVOAZB 0
root@arm:~# echo 'GWBV''BOPACU'
GWBVBOPACU
root@arm:~# MARKER='QMXS''NJCBGC' run 'echo 1030000 1030000 > /sys/kernel/mva_tesst/regulators/buck3_set'
QMXSNJCBGCQMXSNJCBGC 0
root@arm:~# echo 'HKTW''GNMKYE'
HKTWGNMKYE
root@arm:~# MARKER='CYHY''PKZKGW' run 'i2cget -y -f 2 0x4b 0x12'
CYHYPKZKGW0x21
CYHYPKZKGW 0
root@arm:~# echo 'EVOX''ZXQJXE'
EVOXZXQJXE
root@arm:~# MARKER='LACG''GUTSJC' run 'echo 1040000 1040000 > /sys/kernel/mva_tesst/regulators/buck3_set'
LACGGUTSJCLACGGUTSJC 0
root@arm:~# echo 'TXKQ''VAJCVL'
TXKQVAJCVL
root@arm:~# MARKER='GKQF''YYYQML' run 'i2cget -y -f 2 0x4b 0x12'
GKQFYYYQML0x22
GKQFYYYQML 0
root@arm:~# echo 'ZEJG''TMAJPC'
ZEJGTMAJPC
root@arm:~# MARKER='KWLO''SVKCBA' run 'echo 1050000 1050000 > /sys/kernel/mva_tesst/regulators/buck3_set'
KWLOSVKCBAKWLOSVKCBA 0
root@arm:~# echo 'FCZN''FYLEKW'
FCZNFYLEKW
root@arm:~# MARKER='UHOH''QMBNCP' run 'i2cget -y -f 2 0x4b 0x12'
UHOHQMBNCP0x23
UHOHQMBNCP 0
root@arm:~# echo 'TVCV''NNGBJO'
TVCVNNGBJO
root@arm:~# MARKER='ZQBJ''KTHSQB' run 'echo 1060000 1060000 > /sys/kernel/mva_tesst/regulators/buck3_set'
ZQBJKTHSQBZQBJKTHSQB 0
root@arm:~# echo 'UBCH''BJAQWZ'
UBCHBJAQWZ
root@arm:~# MARKER='FXLT''CAPOTO' run 'i2cget -y -f 2 0x4b 0x12'
FXLTCAPOTO0x24
FXLTCAPOTO 0
root@arm:~# echo 'JZTX''FFMKUZ'
JZTXFFMKUZ
root@arm:~# MARKER='MOJV''FJESHA' run 'echo 1070000 1070000 > /sys/kernel/mva_tesst/regulators/buck3_set'
MOJVFJESHAMOJVFJESHA 0
root@arm:~# echo 'NQJN''VXUWZQ'
NQJNVXUWZQ
root@arm:~# MARKER='TQHM''MNXTAJ' run 'i2cget -y -f 2 0x4b 0x12'
TQHMMNXTAJ0x25
TQHMMNXTAJ 0
root@arm:~# echo 'LMMT''PYBPQG'
LMMTPYBPQG
root@arm:~# MARKER='TMUV''GBXBCL' run 'echo 1080000 1080000 > /sys/kernel/mva_tesst/regulators/buck3_set'
TMUVGBXBCLTMUVGBXBCL 0
root@arm:~# echo 'HSNF''QQASCC'
HSNFQQASCC
root@arm:~# MARKER='FZXS''PJHMNO' run 'i2cget -y -f 2 0x4b 0x12'
FZXSPJHMNO0x26
FZXSPJHMNO 0
root@arm:~# echo 'UXHU''WYCFHL'
UXHUWYCFHL
root@arm:~# MARKER='XFAF''FFEXWM' run 'echo 1090000 1090000 > /sys/kernel/mva_tesst/regulators/buck3_set'
XFAFFFEXWMXFAFFFEXWM 0
root@arm:~# echo 'PTUC''FVMEUG'
PTUCFVMEUG
root@arm:~# MARKER='FKBX''PZTAOW' run 'i2cget -y -f 2 0x4b 0x12'
FKBXPZTAOW0x27
FKBXPZTAOW 0
root@arm:~# echo 'AQKS''PPMJMT'
AQKSPPMJMT
root@arm:~# MARKER='VCJL''CECXHA' run 'echo 1100000 1100000 > /sys/kernel/mva_tesst/regulators/buck3_set'
VCJLCECXHAVCJLCECXHA 0
root@arm:~# echo 'AXTJ''HHNZSX'
AXTJHHNZSX
root@arm:~# MARKER='WQOS''OMGPQE' run 'i2cget -y -f 2 0x4b 0x12'
WQOSOMGPQE0x28
WQOSOMGPQE 0
root@arm:~# echo 'XNLO''ZSFGXE'
XNLOZSFGXE
root@arm:~# MARKER='LCEM''NJFAML' run 'echo 1110000 1110000 > /sys/kernel/mva_tesst/regulators/buck3_set'
LCEMNJFAMLLCEMNJFAML 0
root@arm:~# echo 'ELTA''GBXHGZ'
ELTAGBXHGZ
root@arm:~# MARKER='SQQF''ZWTWMK' run 'i2cget -y -f 2 0x4b 0x12'
SQQFZWTWMK0x29
SQQFZWTWMK 0
root@arm:~# echo 'FGPK''ZVOVFO'
FGPKZVOVFO
root@arm:~# MARKER='PKPM''BSSHUU' run 'echo 1120000 1120000 > /sys/kernel/mva_tesst/regulators/buck3_set'
PKPMBSSHUUPKPMBSSHUU 0
root@arm:~# echo 'SAZA''AUGLWO'
SAZAAUGLWO
root@arm:~# MARKER='JCSN''QCZYSH' run 'i2cget -y -f 2 0x4b 0x12'
JCSNQCZYSH0x2a
JCSNQCZYSH 0
root@arm:~# echo 'CGKW''VAKCNC'
CGKWVAKCNC
root@arm:~# MARKER='ZJGC''LBMHSH' run 'echo 1130000 1130000 > /sys/kernel/mva_tesst/regulators/buck3_set'
ZJGCLBMHSHZJGCLBMHSH 0
root@arm:~# echo 'PEFT''YZTFXO'
PEFTYZTFXO
root@arm:~# MARKER='PQSQ''FYAJBB' run 'i2cget -y -f 2 0x4b 0x12'
PQSQFYAJBB0x2b
PQSQFYAJBB 0
root@arm:~# echo 'SGWM''WUQFOQ'
SGWMWUQFOQ
root@arm:~# MARKER='BAUJ''ZUGXBG' run 'echo 1140000 1140000 > /sys/kernel/mva_tesst/regulators/buck3_set'
BAUJZUGXBGBAUJZUGXBG 0
root@arm:~# echo 'EYXH''SVTBOF'
EYXHSVTBOF
root@arm:~# MARKER='QLVC''CTCJQY' run 'i2cget -y -f 2 0x4b 0x12'
QLVCCTCJQY0x2c
QLVCCTCJQY 0
root@arm:~# echo 'XWUH''NYCVAV'
XWUHNYCVAV
root@arm:~# MARKER='LVOJ''ZWYKUL' run 'echo 1150000 1150000 > /sys/kernel/mva_tesst/regulators/buck3_set'
LVOJZWYKULLVOJZWYKUL 0
root@arm:~# echo 'ZPGJ''OZOCHJ'
ZPGJOZOCHJ
root@arm:~# MARKER='WUJZ''KYCTLF' run 'i2cget -y -f 2 0x4b 0x12'
WUJZKYCTLF0x2d
WUJZKYCTLF 0
root@arm:~# echo 'KJGY''ZZNYWQ'
KJGYZZNYWQ
root@arm:~# MARKER='FMXT''SLMZBM' run 'echo 1160000 1160000 > /sys/kernel/mva_tesst/regulators/buck3_set'
FMXTSLMZBMFMXTSLMZBM 0
root@arm:~# echo 'BOEQ''EULQVC'
BOEQEULQVC
root@arm:~# MARKER='GFNW''VBMQKO' run 'i2cget -y -f 2 0x4b 0x12'
GFNWVBMQKO0x2e
GFNWVBMQKO 0
root@arm:~# echo 'WMXO''BWYYLF'
WMXOBWYYLF
root@arm:~# MARKER='YNQQ''PKZSUN' run 'echo 1170000 1170000 > /sys/kernel/mva_tesst/regulators/buck3_set'
YNQQPKZSUNYNQQPKZSUN 0
root@arm:~# echo 'XZQT''YUWUUP'
XZQTYUWUUP
root@arm:~# MARKER='BGNX''QVJTFW' run 'i2cget -y -f 2 0x4b 0x12'
BGNXQVJTFW0x2f
BGNXQVJTFW 0
root@arm:~# echo 'LTPE''YSLAYP'
LTPEYSLAYP
root@arm:~# MARKER='KNZY''QBMOAH' run 'echo 1180000 1180000 > /sys/kernel/mva_tesst/regulators/buck3_set'
KNZYQBMOAHKNZYQBMOAH 0
root@arm:~# echo 'XVOM''KAPEEH'
XVOMKAPEEH
root@arm:~# MARKER='FABN''BNTVFP' run 'i2cget -y -f 2 0x4b 0x12'
FABNBNTVFP0x30
FABNBNTVFP 0
root@arm:~# echo 'ETBH''LEOHJH'
ETBHLEOHJH
root@arm:~# MARKER='VQES''XTCAAN' run 'echo 1190000 1190000 > /sys/kernel/mva_tesst/regulators/buck3_set'
VQESXTCAANVQESXTCAAN 0
root@arm:~# echo 'TKYK''BBZFGP'
TKYKBBZFGP
root@arm:~# MARKER='CHKZ''MJNQAB' run 'i2cget -y -f 2 0x4b 0x12'
CHKZMJNQAB0x31
CHKZMJNQAB 0
root@arm:~# echo 'GLAY''KQFCAL'
GLAYKQFCAL
root@arm:~# MARKER='MSEZ''EPJXNJ' run 'echo 1200000 1200000 > /sys/kernel/mva_tesst/regulators/buck3_set'
MSEZEPJXNJMSEZEPJXNJ 0
root@arm:~# echo 'KZAN''OLGMHO'
KZANOLGMHO
root@arm:~# MARKER='ZYFP''OGBAGQ' run 'i2cget -y -f 2 0x4b 0x12'
ZYFPOGBAGQ0x32
ZYFPOGBAGQ 0
root@arm:~# echo 'JGQZ''VEKKYU'
JGQZVEKKYU
root@arm:~# MARKER='STFY''HESHCV' run 'echo 1210000 1210000 > /sys/kernel/mva_tesst/regulators/buck3_set'
STFYHESHCVSTFYHESHCV 0
root@arm:~# echo 'WYYJ''SMEGES'
WYYJSMEGES
root@arm:~# MARKER='ZJYY''CZPEOL' run 'i2cget -y -f 2 0x4b 0x12'
ZJYYCZPEOL0x33
ZJYYCZPEOL 0
root@arm:~# echo 'BBYH''QFPCXH'
BBYHQFPCXH
root@arm:~# MARKER='HCWZ''OWYQCF' run 'echo 1220000 1220000 > /sys/kernel/mva_tesst/regulators/buck3_set'
HCWZOWYQCFHCWZOWYQCF 0
root@arm:~# echo 'XKPS''GBMCUU'
XKPSGBMCUU
root@arm:~# MARKER='THGA''KTGMOQ' run 'i2cget -y -f 2 0x4b 0x12'
THGAKTGMOQ0x34
THGAKTGMOQ 0
root@arm:~# echo 'BVXS''SHJUHN'
BVXSSHJUHN
root@arm:~# MARKER='JWPU''GHVWTL' run 'echo 1230000 1230000 > /sys/kernel/mva_tesst/regulators/buck3_set'
JWPUGHVWTLJWPUGHVWTL 0
root@arm:~# echo 'LVQF''UNMSNN'
LVQFUNMSNN
root@arm:~# MARKER='PZUP''VYFAVG' run 'i2cget -y -f 2 0x4b 0x12'
PZUPVYFAVG0x35
PZUPVYFAVG 0
root@arm:~# echo 'NNKL''LKZXWV'
NNKLLKZXWV
root@arm:~# MARKER='OGGF''TZAPMW' run 'echo 1240000 1240000 > /sys/kernel/mva_tesst/regulators/buck3_set'
OGGFTZAPMWOGGFTZAPMW 0
root@arm:~# echo 'XZKW''VGPASL'
XZKWVGPASL
root@arm:~# MARKER='APWF''ETXEWB' run 'i2cget -y -f 2 0x4b 0x12'
APWFETXEWB0x36
APWFETXEWB 0
root@arm:~# echo 'WXFN''AYZJZC'
WXFNAYZJZC
root@arm:~# MARKER='MFGV''UWPOAC' run 'echo 1250000 1250000 > /sys/kernel/mva_tesst/regulators/buck3_set'
MFGVUWPOACMFGVUWPOAC 0
root@arm:~# echo 'AYBC''AQUGKE'
AYBCAQUGKE
root@arm:~# MARKER='WXQB''VSZGCJ' run 'i2cget -y -f 2 0x4b 0x12'
WXQBVSZGCJ0x37
WXQBVSZGCJ 0
root@arm:~# echo 'SXXF''ZVMQEH'
SXXFZVMQEH
root@arm:~# MARKER='VSVU''QKSJMP' run 'echo 1260000 1260000 > /sys/kernel/mva_tesst/regulators/buck3_set'
VSVUQKSJMPVSVUQKSJMP 0
root@arm:~# echo 'EXXF''ALOOBM'
EXXFALOOBM
root@arm:~# MARKER='BJVO''WLCOXP' run 'i2cget -y -f 2 0x4b 0x12'
BJVOWLCOXP0x38
BJVOWLCOXP 0
root@arm:~# echo 'EZAM''PANSQB'
EZAMPANSQB
root@arm:~# MARKER='JHWG''XYHZLT' run 'echo 1270000 1270000 > /sys/kernel/mva_tesst/regulators/buck3_set'
JHWGXYHZLTJHWGXYHZLT 0
root@arm:~# echo 'KOOW''QQSTXW'
KOOWQQSTXW
root@arm:~# MARKER='UCTH''KYMHPZ' run 'i2cget -y -f 2 0x4b 0x12'
UCTHKYMHPZ0x39
UCTHKYMHPZ 0
root@arm:~# echo 'JZMO''XTEBCM'
JZMOXTEBCM
root@arm:~# MARKER='XOAW''APMECZ' run 'echo 1280000 1280000 > /sys/kernel/mva_tesst/regulators/buck3_set'
XOAWAPMECZXOAWAPMECZ 0
root@arm:~# echo 'WVHS''JLPGKX'
WVHSJLPGKX
root@arm:~# MARKER='EJFM''JFKLFQ' run 'i2cget -y -f 2 0x4b 0x12'
EJFMJFKLFQ0x3a
EJFMJFKLFQ 0
root@arm:~# echo 'PBPC''EPMNCK'
PBPCEPMNCK
root@arm:~# MARKER='KTLL''UBLJLJ' run 'echo 1290000 1290000 > /sys/kernel/mva_tesst/regulators/buck3_set'
KTLLUBLJLJKTLLUBLJLJ 0
root@arm:~# echo 'AEET''VSHZEQ'
AEETVSHZEQ
root@arm:~# MARKER='OVHO''XMVOJB' run 'i2cget -y -f 2 0x4b 0x12'
OVHOXMVOJB0x3b
OVHOXMVOJB 0
root@arm:~# echo 'QYOG''JSZBHZ'
QYOGJSZBHZ
root@arm:~# MARKER='FUZY''JOYKGJ' run 'echo 1300000 1300000 > /sys/kernel/mva_tesst/regulators/buck3_set'
FUZYJOYKGJFUZYJOYKGJ 0
root@arm:~# echo 'PCLK''PGSLGX'
PCLKPGSLGX
root@arm:~# MARKER='NXUZ''BXXLQB' run 'i2cget -y -f 2 0x4b 0x12'
NXUZBXXLQB0x3c
NXUZBXXLQB 0
root@arm:~# echo 'ALYL''OJKFPK'
ALYLOJKFPK
root@arm:~# MARKER='TZFW''OJPOOM' run 'grep -r -l rohm,bd71837 /proc/device-tree  | sed '"'"'s![^/]*$!!'"'"''
TZFWOJPOOM/proc/device-tree/ocp/interconnect@48000000/segment@100000/target-module@9c000/i2c@0/pmic@4b/
TZFWOJPOOM 0
root@arm:~# echo 'TFLA''XOFAYS'
TFLAXOFAYS
root@arm:~# MARKER='EEAU''KSJCJJ' run 'test -f /proc/device-tree/ocp/interconnectt\@48000000/segment\@100000/target-module\@9c000/i2c\@0/pmic\@4b/regulators/BUCK44/rohm,no-regulator-enable-control ;echo $?'
EEAUKSJCJJ1
EEAUKSJCJJ 0
root@arm:~# echo 'PGGQ''LKJACK'
PGGQLKJACK
root@arm:~# MARKER='WCON''LVEYJP' run 'i2cget -y -f 2 0x4b 0x8'
WCONLVEYJP0xc6
WCONLVEYJP 0
root@arm:~# echo 'VNZG''HTLUAU'
VNZGHTLUAU
root@arm:~# MARKER='NFGK''FFKLWJ' run 'echo 700000 700000 > /sys/kernel/mva_test//regulators/buck4_set'
NFGKFFKLWJNFGKFFKLWJ 0
root@arm:~# echo 'MWMC''NXHNXJ'
MWMCNXHNXJ
root@arm:~# MARKER='HUSW''KCMZCX' run 'i2cget -y -f 2 0x4b 0x13'
HUSWKCMZCX0x00
HUSWKCMZCX 0
root@arm:~# echo 'UYPQ''CJOYLY'
UYPQCJOYLY
root@arm:~# MARKER='OWHZ''LUPWFZ' run 'echo 710000 710000 > /sys/kernel/mva_test//regulators/buck4_set'
OWHZLUPWFZOWHZLUPWFZ 0
root@arm:~# echo 'WBHT''PFFAYH'
WBHTPFFAYH
root@arm:~# MARKER='AKNP''PXEYHT' run 'i2cget -y -f 2 0x4b 0x13'
AKNPPXEYHT0x01
AKNPPXEYHT 0
root@arm:~# echo 'GHSE''LXHMEK'
GHSELXHMEK
root@arm:~# MARKER='ANAX''TWKUOY' run 'echo 720000 720000 > /sys/kernel/mva_test//regulators/buck4_set'
ANAXTWKUOYANAXTWKUOY 0
root@arm:~# echo 'OSZP''FQJNEN'
OSZPFQJNEN
root@arm:~# MARKER='JNOO''BELKXZ' run 'i2cget -y -f 2 0x4b 0x13'
JNOOBELKXZ0x02
JNOOBELKXZ 0
root@arm:~# echo 'EQZH''CEXNWN'
EQZHCEXNWN
root@arm:~# MARKER='GSYB''VKVGFT' run 'echo 730000 730000 > /sys/kernel/mva_test//regulators/buck4_set'
GSYBVKVGFTGSYBVKVGFT 0
root@arm:~# echo 'HHXY''UTJHYL'
HHXYUTJHYL
root@arm:~# MARKER='ACMC''GOAXMN' run 'i2cget -y -f 2 0x4b 0x13'
ACMCGOAXMN0x03
ACMCGOAXMN 0
root@arm:~# echo 'KFCP''TQTXAT'
KFCPTQTXAT
root@arm:~# MARKER='ZMZY''NOLLQE' run 'echo 740000 740000 > /sys/kernel/mva_test//regulators/buck4_set'
ZMZYNOLLQEZMZYNOLLQE 0
root@arm:~# echo 'MXGS''PBPTSA'
MXGSPBPTSA
root@arm:~# MARKER='CMOM''SACHJE' run 'i2cget -y -f 2 0x4b 0x13'
CMOMSACHJE0x04
CMOMSACHJE 0
root@arm:~# echo 'WAVF''NFJFWQ'
WAVFNFJFWQ
root@arm:~# MARKER='ESVF''OCYSUA' run 'echo 750000 750000 > /sys/kernel/mva_test//regulators/buck4_set'
ESVFOCYSUAESVFOCYSUA 0
root@arm:~# echo 'KKTV''KPAKBB'
KKTVKPAKBB
root@arm:~# MARKER='ABBB''AAJWXK' run 'i2cget -y -f 2 0x4b 0x13'
ABBBAAJWXK0x05
ABBBAAJWXK 0
root@arm:~# echo 'HUUG''JKLKQJ'
HUUGJKLKQJ
root@arm:~# MARKER='KEEA''ZNONUV' run 'echo 760000 760000 > /sys/kernel/mva_test//regulators/buck4_set'
KEEAZNONUVKEEAZNONUV 0
root@arm:~# echo 'OQAN''SSEXKA'
OQANSSEXKA
root@arm:~# MARKER='ABLA''MYJGUX' run 'i2cget -y -f 2 0x4b 0x13'
ABLAMYJGUX0x06
ABLAMYJGUX 0
root@arm:~# echo 'YGOC''OCWPQB'
YGOCOCWPQB
root@arm:~# MARKER='JZMB''TWFKZX' run 'echo 770000 770000 > /sys/kernel/mva_test//regulators/buck4_set'
JZMBTWFKZXJZMBTWFKZX 0
root@arm:~# echo 'KTKN''EPPZTB'
KTKNEPPZTB
root@arm:~# MARKER='JBSF''MVFXKQ' run 'i2cget -y -f 2 0x4b 0x13'
JBSFMVFXKQ0x07
JBSFMVFXKQ 0
root@arm:~# echo 'GFCP''NJUZBU'
GFCPNJUZBU
root@arm:~# MARKER='ZXYB''KCZWWU' run 'echo 780000 780000 > /sys/kernel/mva_test//regulators/buck4_set'
ZXYBKCZWWUZXYBKCZWWU 0
root@arm:~# echo 'XJOF''QKNLNS'
XJOFQKNLNS
root@arm:~# MARKER='ZOKA''JABAKZ' run 'i2cget -y -f 2 0x4b 0x13'
ZOKAJABAKZ0x08
ZOKAJABAKZ 0
root@arm:~# echo 'TEZY''NZQEXS'
TEZYNZQEXS
root@arm:~# MARKER='JMFM''OFTVLG' run 'echo 790000 790000 > /sys/kernel/mva_test//regulators/buck4_set'
JMFMOFTVLGJMFMOFTVLG 0
root@arm:~# echo 'HWNB''VXOHYB'
HWNBVXOHYB
root@arm:~# MARKER='HXYH''XTLOVP' run 'i2cget -y -f 2 0x4b 0x13'
HXYHXTLOVP0x09
HXYHXTLOVP 0
root@arm:~# echo 'MGWS''VSQKUS'
MGWSVSQKUS
root@arm:~# MARKER='LVFQ''UBJONV' run 'echo 800000 800000 > /sys/kernel/mva_test//regulators/buck4_set'
LVFQUBJONVLVFQUBJONV 0
root@arm:~# echo 'ONGZ''UOKAGV'
ONGZUOKAGV
root@arm:~# MARKER='YNQY''WGPPMC' run 'i2cget -y -f 2 0x4b 0x13'
YNQYWGPPMC0x0a
YNQYWGPPMC 0
root@arm:~# echo 'HFTV''JCWXJQ'
HFTVJCWXJQ
root@arm:~# MARKER='VANM''EETYKW' run 'echo 810000 810000 > /sys/kernel/mva_test//regulators/buck4_set'
VANMEETYKWVANMEETYKW 0
root@arm:~# echo 'CMZM''JBZZZW'
CMZMJBZZZW
root@arm:~# MARKER='JKEN''ZJVBBS' run 'i2cget -y -f 2 0x4b 0x13'
JKENZJVBBS0x0b
JKENZJVBBS 0
root@arm:~# echo 'XANP''JAQHPB'
XANPJAQHPB
root@arm:~# MARKER='ZWMK''UVABMJ' run 'echo 820000 820000 > /sys/kernel/mva_test//regulators/buck4_set'
ZWMKUVABMJZWMKUVABMJ 0
root@arm:~# echo 'GGUS''CLCNCC'
GGUSCLCNCC
root@arm:~# MARKER='OQHF''GUJJLB' run 'i2cget -y -f 2 0x4b 0x13'
OQHFGUJJLB0x0c
OQHFGUJJLB 0
root@arm:~# echo 'HLPB''PQYGTM'
HLPBPQYGTM
root@arm:~# MARKER='ZEEM''NMELVC' run 'echo 830000 830000 > /sys/kernel/mva_test//regulators/buck4_set'
ZEEMNMELVCZEEMNMELVC 0
root@arm:~# echo 'WPLS''VMXJQC'
WPLSVMXJQC
root@arm:~# MARKER='VEAP''XASXTL' run 'i2cget -y -f 2 0x4b 0x13'
VEAPXASXTL0x0d
VEAPXASXTL 0
root@arm:~# echo 'FXON''GVTUUX'
FXONGVTUUX
root@arm:~# MARKER='TTUF''CZNMKS' run 'echo 840000 840000 > /sys/kernel/mva_test//regulators/buck4_set'
TTUFCZNMKSTTUFCZNMKS 0
root@arm:~# echo 'AMYN''NPBXEQ'
AMYNNPBXEQ
root@arm:~# MARKER='QATB''TMUBUT' run 'i2cget -y -f 2 0x4b 0x13'
QATBTMUBUT0x0e
QATBTMUBUT 0
root@arm:~# echo 'CBNJ''GMAEON'
CBNJGMAEON
root@arm:~# MARKER='CSPF''FYXKGO' run 'echo 850000 850000 > /sys/kernel/mva_test//regulators/buck4_set'
CSPFFYXKGOCSPFFYXKGO 0
root@arm:~# echo 'BLQU''WOFZGP'
BLQUWOFZGP
root@arm:~# MARKER='NVNG''JUKXMS' run 'i2cget -y -f 2 0x4b 0x13'
NVNGJUKXMS0x0f
NVNGJUKXMS 0
root@arm:~# echo 'LOAS''AHPPTV'
LOASAHPPTV
root@arm:~# MARKER='ASUP''BFEOHZ' run 'echo 860000 860000 > /sys/kernel/mva_test//regulators/buck4_set'
ASUPBFEOHZASUPBFEOHZ 0
root@arm:~# echo 'MQGK''OQBCMH'
MQGKOQBCMH
root@arm:~# MARKER='QXAK''FWNFBV' run 'i2cget -y -f 2 0x4b 0x13'
QXAKFWNFBV0x10
QXAKFWNFBV 0
root@arm:~# echo 'SGLX''CEWQOW'
SGLXCEWQOW
root@arm:~# MARKER='NASC''PJQXQC' run 'echo 870000 870000 > /sys/kernel/mva_test//regulators/buck4_set'
NASCPJQXQCNASCPJQXQC 0
root@arm:~# echo 'COVE''GUEKEW'
COVEGUEKEW
root@arm:~# MARKER='THWC''VOTGHH' run 'i2cget -y -f 2 0x4b 0x13'
THWCVOTGHH0x11
THWCVOTGHH 0
root@arm:~# echo 'PFTW''MHFQTX'
PFTWMHFQTX
root@arm:~# MARKER='VZMO''ZBXEYC' run 'echo 880000 880000 > /sys/kernel/mva_test//regulators/buck4_set'
VZMOZBXEYCVZMOZBXEYC 0
root@arm:~# echo 'XZAL''ZPTGQX'
XZALZPTGQX
root@arm:~# MARKER='ZBCL''ESMCLV' run 'i2cget -y -f 2 0x4b 0x13'
ZBCLESMCLV0x12
ZBCLESMCLV 0
root@arm:~# echo 'UNQF''UNWOPM'
UNQFUNWOPM
root@arm:~# MARKER='SQGV''OAFEOW' run 'echo 890000 890000 > /sys/kernel/mva_test//regulators/buck4_set'
SQGVOAFEOWSQGVOAFEOW 0
root@arm:~# echo 'GQSB''UCPTHC'
GQSBUCPTHC
root@arm:~# MARKER='ETSY''PUAVFK' run 'i2cget -y -f 2 0x4b 0x13'
ETSYPUAVFK0x13
ETSYPUAVFK 0
root@arm:~# echo 'BFKC''SMFVMH'
BFKCSMFVMH
root@arm:~# MARKER='KETU''EXMUOO' run 'echo 900000 900000 > /sys/kernel/mva_test//regulators/buck4_set'
KETUEXMUOOKETUEXMUOO 0
root@arm:~# echo 'UZAK''EWAKBH'
UZAKEWAKBH
root@arm:~# MARKER='YQVX''GNTCNJ' run 'i2cget -y -f 2 0x4b 0x13'
YQVXGNTCNJ0x14
YQVXGNTCNJ 0
root@arm:~# echo 'CVYG''SOHSMH'
CVYGSOHSMH
root@arm:~# MARKER='NGYE''QYKZVU' run 'echo 910000 910000 > /sys/kernel/mva_test//regulators/buck4_set'
NGYEQYKZVUNGYEQYKZVU 0
root@arm:~# echo 'ESXZ''KTPVWZ'
ESXZKTPVWZ
root@arm:~# MARKER='LNNH''WVCUPV' run 'i2cget -y -f 2 0x4b 0x13'
LNNHWVCUPV0x15
LNNHWVCUPV 0
root@arm:~# echo 'GSOF''LXUSBT'
GSOFLXUSBT
root@arm:~# MARKER='MVVH''CSHSTF' run 'echo 920000 920000 > /sys/kernel/mva_test//regulators/buck4_set'
MVVHCSHSTFMVVHCSHSTF 0
root@arm:~# echo 'YXZY''UTXSWS'
YXZYUTXSWS
root@arm:~# MARKER='NLWS''ZVYBAL' run 'i2cget -y -f 2 0x4b 0x13'
NLWSZVYBAL0x16
NLWSZVYBAL 0
root@arm:~# echo 'USLP''YQSMZL'
USLPYQSMZL
root@arm:~# MARKER='GNHC''SVJXEV' run 'echo 930000 930000 > /sys/kernel/mva_test//regulators/buck4_set'
GNHCSVJXEVGNHCSVJXEV 0
root@arm:~# echo 'UZAB''SEXHHC'
UZABSEXHHC
root@arm:~# MARKER='WNAM''HJZGBU' run 'i2cget -y -f 2 0x4b 0x13'
WNAMHJZGBU0x17
WNAMHJZGBU 0
root@arm:~# echo 'VKEA''WJZKKP'
VKEAWJZKKP
