Labgrid Console Logfile for main
Logfile started at 2025-04-08 09:50:30.499585
=== Log starts here ===

root@arm:~# run() { echo -n "$MARKER"; sh -c "$@"; echo "$MARKER $?"; }
root@arm:~# echo 'TOXF''NHFQZZ'
TOXFNHFQZZ
root@arm:~# MARKER='QFCH''TMSAGA' run 'grep -r -l rohm,bd71847 /proc/device-tree  | sed '"'"'s![^/]*$!!'"'"''
QFCHTMSAGA/proc/device-tree/ocp/interconnect@48000000/segment@0/target-module@2a000/i2c@0/pmic@4b/
QFCHTMSAGA 0
root@arm:~# echo 'XGAP''UVETON'
XGAPUVETON
root@arm:~# MARKER='CKNH''XYMCWJ' run 'test -f /proc/device-tree/ocp/interconnectt\@48000000/segment\@0/target-module\@2a000/i2c\@0/pmic\@4b/regulators/BUCK1/rohmm,no-regulator-enable-control ;echo $?'
CKNHXYMCWJ1
CKNHXYMCWJ 0
root@arm:~# echo 'WGBW''AWMBGU'
WGBWAWMBGU
root@arm:~# MARKER='FZHT''MHBBEM' run 'echo 1 > /sys/kernel/mva_test/regulators/bbuck1_en'
FZHTMHBBEMFZHTMHBBEM 0
root@arm:~# echo 'FGQV''GCHNHP'
FGQVGCHNHP
root@arm:~# MARKER='SFFT''HLYGAF' run 'i2cget -y -f 1 0x4b 0x5'
SFFTHLYGAF0x03
SFFTHLYGAF 0
root@arm:~# echo 'XJTG''KUEMWQ'
XJTGKUEMWQ
root@arm:~# MARKER='NFAA''JOSAWU' run 'grep -r -l rohm,bd71847 /proc/device-tree  | sed '"'"'s![^/]*$!!'"'"''
NFAAJOSAWU/proc/device-tree/ocp/interconnect@48000000/segment@0/target-module@2a000/i2c@0/pmic@4b/
NFAAJOSAWU 0
root@arm:~# echo 'JAOZ''HBMQKO'
JAOZHBMQKO
root@arm:~# MARKER='UZZT''LLQYYY' run 'test -f /proc/device-tree/ocp/interconnectt\@48000000/segment\@0/target-module\@2a000/i2c\@0/pmic\@4b/regulators/BUCK1/rohmm,no-regulator-enable-control ;echo $?'
UZZTLLQYYY1
UZZTLLQYYY 0
root@arm:~# echo 'ZGYB''TZSOQU'
ZGYBTZSOQU
root@arm:~# MARKER='PGKC''ZGTVLQ' run 'grep -r -l rohm,bd71847 /proc/device-tree  | sed '"'"'s![^/]*$!!'"'"''
PGKCZGTVLQ/proc/device-tree/ocp/interconnect@48000000/segment@0/target-module@2a000/i2c@0/pmic@4b/
PGKCZGTVLQ 0
root@arm:~# echo 'YYLS''UUHZOA'
YYLSUUHZOA
root@arm:~# MARKER='HXGZ''ATXLWL' run 'test -f /proc/device-tree/ocp/interconnectt\@48000000/segment\@0/target-module\@2a000/i2c\@0/pmic\@4b/regulators/BUCK1/reguulator-always-on ;echo $?'
HXGZATXLWL1
HXGZATXLWL 0
root@arm:~# echo 'AHYB''JNXSAZ'
AHYBJNXSAZ
root@arm:~# MARKER='JUAB''SPJTKP' run 'echo 0 > /sys/kernel/mva_test/regulators/bbuck1_en'
JUABSPJTKPJUABSPJTKP 0
root@arm:~# echo 'CEKH''EJBSNQ'
CEKHEJBSNQ
root@arm:~# MARKER='VNKN''PFOKZL' run 'i2cget -y -f 1 0x4b 0x5'
VNKNPFOKZL0x02
VNKNPFOKZL 0
root@arm:~# echo 'NOON''YOXQBJ'
NOONYOXQBJ
root@arm:~# MARKER='ZEWX''LULYYU' run 'grep -r -l rohm,bd71847 /proc/device-tree  | sed '"'"'s![^/]*$!!'"'"''
ZEWXLULYYU/proc/device-tree/ocp/interconnect@48000000/segment@0/target-module@2a000/i2c@0/pmic@4b/
ZEWXLULYYU 0
root@arm:~# echo 'LOAL''FLLCBB'
LOALFLLCBB
root@arm:~# MARKER='TUVL''WQTZPJ' run 'test -f /proc/device-tree/ocp/interconnectt\@48000000/segment\@0/target-module\@2a000/i2c\@0/pmic\@4b/regulators/BUCK2/roh m,no-regulator-enable-control ;echo $?'
TUVLWQTZPJ1
TUVLWQTZPJ 0
root@arm:~# echo 'PZQG''JVVOZG'
PZQGJVVOZG
root@arm:~# MARKER='NYJN''BNUJOM' run 'echo 1 > /sys/kernel/mva_test/regulators/bbuck2_en'
NYJNBNUJOMNYJNBNUJOM 0
root@arm:~# echo 'TTXC''HFOANS'
TTXCHFOANS
root@arm:~# MARKER='PBUW''QEXNKC' run 'i2cget -y -f 1 0x4b 0x6'
PBUWQEXNKC0x43
PBUWQEXNKC 0
root@arm:~# echo 'OJWG''OKPLOG'
OJWGOKPLOG
root@arm:~# MARKER='PUSQ''SYJEZH' run 'grep -r -l rohm,bd71847 /proc/device-tree  | sed '"'"'s![^/]*$!!'"'"''
PUSQSYJEZH/proc/device-tree/ocp/interconnect@48000000/segment@0/target-module@2a000/i2c@0/pmic@4b/
PUSQSYJEZH 0
root@arm:~# echo 'QGJP''JYOEJS'
QGJPJYOEJS
root@arm:~# MARKER='MYMP''YNAYZS' run 'test -f /proc/device-tree/ocp/interconnectt\@48000000/segment\@0/target-module\@2a000/i2c\@0/pmic\@4b/regulators/BUCK2/rohmm,no-regulator-enable-control ;echo $?'
MYMPYNAYZS1
MYMPYNAYZS 0
root@arm:~# echo 'WUCF''MXBYHV'
WUCFMXBYHV
root@arm:~# MARKER='YMSZ''HNHPFG' run 'grep -r -l rohm,bd71847 /proc/device-tree  | sed '"'"'s![^/]*$!!'"'"''
YMSZHNHPFG/proc/device-tree/ocp/interconnect@48000000/segment@0/target-module@2a000/i2c@0/pmic@4b/
YMSZHNHPFG 0
root@arm:~# echo 'TQLG''FLLXZU'
TQLGFLLXZU
root@arm:~# MARKER='CSSV''OLFTZM' run 'test -f /proc/device-tree/ocp/interconnectt\@48000000/segment\@0/target-module\@2a000/i2c\@0/pmic\@4b/regulators/BUCK2/reguulator-always-on ;echo $?'
CSSVOLFTZM0
CSSVOLFTZM 0
root@arm:~# echo 'EFSY''KAVAMA'
EFSYKAVAMA
root@arm:~# MARKER='ASTV''VSEJVE' run 'grep -r -l rohm,bd71847 /proc/device-tree  | sed '"'"'s![^/]*$!!'"'"''
ASTVVSEJVE/proc/device-tree/ocp/interconnect@48000000/segment@0/target-module@2a000/i2c@0/pmic@4b/
ASTVVSEJVE 0
root@arm:~# echo 'ZEVA''TPSPWW'
ZEVATPSPWW
root@arm:~# MARKER='LJXQ''LTBTAJ' run 'test -f /proc/device-tree/ocp/interconnectt\@48000000/segment\@0/target-module\@2a000/i2c\@0/pmic\@4b/regulators/BUCK3/rohmm,no-regulator-enable-control ;echo $?'
LJXQLTBTAJ0
LJXQLTBTAJ 0
root@arm:~# echo 'LLLY''TTVEJZ'
LLLYTTVEJZ
root@arm:~# MARKER='YQMT''UGUOJP' run 'grep -r -l rohm,bd71847 /proc/device-tree  | sed '"'"'s![^/]*$!!'"'"''
YQMTUGUOJP/proc/device-tree/ocp/interconnect@48000000/segment@0/target-module@2a000/i2c@0/pmic@4b/
YQMTUGUOJP 0
root@arm:~# echo 'WGCL''JUBBSB'
WGCLJUBBSB
root@arm:~# MARKER='ZPVX''NOYPYA' run 'test -f /proc/device-tree/ocp/interconnectt\@48000000/segment\@0/target-module\@2a000/i2c\@0/pmic\@4b/regulators/BUCK3/roh m,no-regulator-enable-control ;echo $?'
ZPVXNOYPYA0
ZPVXNOYPYA 0
root@arm:~# echo 'BKLB''MWTYZY'
BKLBMWTYZY
root@arm:~# MARKER='JPGL''ACJLTV' run 'grep -r -l rohm,bd71847 /proc/device-tree  | sed '"'"'s![^/]*$!!'"'"''
JPGLACJLTV/proc/device-tree/ocp/interconnect@48000000/segment@0/target-module@2a000/i2c@0/pmic@4b/
JPGLACJLTV 0
root@arm:~# echo 'JYYY''TFOJAF'
JYYYTFOJAF
root@arm:~# MARKER='QFHG''FPAAEA' run 'test -f /proc/device-tree/ocp/interconnectt\@48000000/segment\@0/target-module\@2a000/i2c\@0/pmic\@4b/regulators/BUCK4/rohmm,no-regulator-enable-control ;echo $?'
QFHGFPAAEA1
QFHGFPAAEA 0
root@arm:~# echo 'NLOQ''EHVZEB'
NLOQEHVZEB
root@arm:~# MARKER='BFBV''JZWBNU' run 'echo 1 > /sys/kernel/mva_test/regulators/bbuck4_en'
BFBVJZWBNUBFBVJZWBNU 0
root@arm:~# echo 'XFKZ''GLGJOE'
XFKZGLGJOE
root@arm:~# MARKER='TWEM''VKMKNL' run 'i2cget -y -f 1 0x4b 0xa'
TWEMVKMKNL0x03
TWEMVKMKNL 0
root@arm:~# echo 'PSLQ''LXTWLC'
PSLQLXTWLC
root@arm:~# MARKER='CGFN''QOJCLS' run 'grep -r -l rohm,bd71847 /proc/device-tree  | sed '"'"'s![^/]*$!!'"'"''
CGFNQOJCLS/proc/device-tree/ocp/interconnect@48000000/segment@0/target-module@2a000/i2c@0/pmic@4b/
CGFNQOJCLS 0
root@arm:~# echo 'YCFM''QBMLYO'
YCFMQBMLYO
root@arm:~# MARKER='HWXO''KHXPNL' run 'test -f /proc/device-tree/ocp/interconnectt\@48000000/segment\@0/target-module\@2a000/i2c\@0/pmic\@4b/regulators/BUCK4/rohmm,no-regulator-enable-control ;echo $?'
HWXOKHXPNL1
HWXOKHXPNL 0
root@arm:~# echo 'XCMQ''MNKHYK'
XCMQMNKHYK
root@arm:~# MARKER='VMFW''FNUBFA' run 'grep -r -l rohm,bd71847 /proc/device-tree  | sed '"'"'s![^/]*$!!'"'"''
VMFWFNUBFA/proc/device-tree/ocp/interconnect@48000000/segment@0/target-module@2a000/i2c@0/pmic@4b/
VMFWFNUBFA 0
root@arm:~# echo 'YYNV''VCGTPQ'
YYNVVCGTPQ
root@arm:~# MARKER='XBNG''HAELAO' run 'test -f /proc/device-tree/ocp/interconnectt\@48000000/segment\@0/target-module\@2a000/i2c\@0/pmic\@4b/regulators/BUCK4/reg ulator-always-on ;echo $?'
XBNGHAELAO1
XBNGHAELAO 0
root@arm:~# echo 'OMFA''YWHHCE'
OMFAYWHHCE
root@arm:~# MARKER='XUWM''WFGTKA' run 'echo 0 > /sys/kernel/mva_test/regulators/bbuck4_en'
XUWMWFGTKAXUWMWFGTKA 0
root@arm:~# echo 'NVVW''UZQSGJ'
NVVWUZQSGJ
root@arm:~# MARKER='UWXE''OZBBZQ' run 'i2cget -y -f 1 0x4b 0xa'
UWXEOZBBZQ0x02
UWXEOZBBZQ 0
root@arm:~# echo 'YHHZ''ZBGBNS'
YHHZZBGBNS
root@arm:~# MARKER='KBQE''YUUWVM' run 'grep -r -l rohm,bd71847 /proc/device-tree  | sed '"'"'s![^/]*$!!'"'"''
KBQEYUUWVM/proc/device-tree/ocp/interconnect@48000000/segment@0/target-module@2a000/i2c@0/pmic@4b/
KBQEYUUWVM 0
root@arm:~# echo 'YWCV''LOHXBS'
YWCVLOHXBS
root@arm:~# MARKER='TCHB''CTVONX' run 'test -f /proc/device-tree/ocp/interconnectt\@48000000/segment\@0/target-module\@2a000/i2c\@0/pmic\@4b/regulators/BUCK5/rohmm,no-regulator-enable-control ;echo $?'
TCHBCTVONX1
TCHBCTVONX 0
root@arm:~# echo 'KFBO''NUNGHA'
KFBONUNGHA
root@arm:~# MARKER='EKZY''SOMNGF' run 'echo 1 > /sys/kernel/mva_test/regulators/bbuck5_en'
EKZYSOMNGFEKZYSOMNGF 0
root@arm:~# echo 'QWAC''EYPXXJ'
QWACEYPXXJ
root@arm:~# MARKER='FZGY''JEXPPF' run 'i2cget -y -f 1 0x4b 0xb'
FZGYJEXPPF0x03
FZGYJEXPPF 0
root@arm:~# echo 'ZOHC''BWHXLE'
ZOHCBWHXLE
root@arm:~# MARKER='ZFEA''FJQPEC' run 'grep -r -l rohm,bd71847 /proc/device-tree  | sed '"'"'s![^/]*$!!'"'"''
ZFEAFJQPEC/proc/device-tree/ocp/interconnect@48000000/segment@0/target-module@2a000/i2c@0/pmic@4b/
ZFEAFJQPEC 0
root@arm:~# echo 'NESW''ZFEAWM'
NESWZFEAWM
root@arm:~# MARKER='TEYV''TMAQOQ' run 'test -f /proc/device-tree/ocp/interconnectt\@48000000/segment\@0/target-module\@2a000/i2c\@0/pmic\@4b/regulators/BUCK5/rohmm,no-regulator-enable-control ;echo $?'
TEYVTMAQOQ1
TEYVTMAQOQ 0
root@arm:~# echo 'PKEB''YVQPTV'
PKEBYVQPTV
root@arm:~# MARKER='NUSC''TOYKLS' run 'grep -r -l rohm,bd71847 /proc/device-tree  | sed '"'"'s![^/]*$!!'"'"''
NUSCTOYKLS/proc/device-tree/ocp/interconnect@48000000/segment@0/target-module@2a000/i2c@0/pmic@4b/
NUSCTOYKLS 0
root@arm:~# echo 'PGAX''PSKWKW'
PGAXPSKWKW
root@arm:~# MARKER='NVEP''WATQFY' run 'test -f /proc/device-tree/ocp/interconnectt\@48000000/segment\@0/target-module\@2a000/i2c\@0/pmic\@4b/regulators/BUCK5/reguulator-always-on ;echo $?'
NVEPWATQFY1
NVEPWATQFY 0
root@arm:~# echo 'VWJL''WMEWPF'
VWJLWMEWPF
root@arm:~# MARKER='EPHY''WTPKJZ' run 'echo 0 > /sys/kernel/mva_test/regulators/bbuck5_en'
EPHYWTPKJZEPHYWTPKJZ 0
root@arm:~# echo 'HELN''XYSAAQ'
HELNXYSAAQ
root@arm:~# MARKER='SOKY''MAXMCM' run 'i2cget -y -f 1 0x4b 0xb'
SOKYMAXMCM0x02
SOKYMAXMCM 0
root@arm:~# echo 'AWFM''MLMQAB'
AWFMMLMQAB
root@arm:~# MARKER='SUHP''SVMNVS' run 'grep -r -l rohm,bd71847 /proc/device-tree  | sed '"'"'s![^/]*$!!'"'"''
SUHPSVMNVS/proc/device-tree/ocp/interconnect@48000000/segment@0/target-module@2a000/i2c@0/pmic@4b/
SUHPSVMNVS 0
root@arm:~# echo 'NTHA''TJHZNM'
NTHATJHZNM
root@arm:~# MARKER='VLQM''PCSNUC' run 'test -f /proc/device-tree/ocp/interconnectt\@48000000/segment\@0/target-module\@2a000/i2c\@0/pmic\@4b/regulators/BUCK6/rohmm,no-regulator-enable-control ;echo $?'
VLQMPCSNUC1
VLQMPCSNUC 0
root@arm:~# echo 'LQLF''NYNNGO'
LQLFNYNNGO
root@arm:~# MARKER='PUXG''KJOWVB' run 'echo 1 > /sys/kernel/mva_test/regulators/bbuck6_en'
PUXGKJOWVBPUXGKJOWVB 0
root@arm:~# echo 'QLUE''GXKPYS'
QLUEGXKPYS
root@arm:~# MARKER='ZAGH''WSHWJZ' run 'i2cget -y -f 1 0x4b 0xc'
ZAGHWSHWJZ0x03
ZAGHWSHWJZ 0
root@arm:~# echo 'ACQT''VUZZQS'
ACQTVUZZQS
root@arm:~# MARKER='GEXC''BKZLMX' run 'grep -r -l rohm,bd71847 /proc/device-tree  | sed '"'"'s![^/]*$!!'"'"''
GEXCBKZLMX/proc/device-tree/ocp/interconnect@48000000/segment@0/target-module@2a000/i2c@0/pmic@4b/
GEXCBKZLMX 0
root@arm:~# echo 'NECF''CUGGOV'
NECFCUGGOV
root@arm:~# MARKER='QBQQ''STNWKS' run 'test -f /proc/device-tree/ocp/interconnectt\@48000000/segment\@0/target-module\@2a000/i2c\@0/pmic\@4b/regulators/BUCK6/rohmm,no-regulator-enable-control ;echo $?'
QBQQSTNWKS1
QBQQSTNWKS 0
root@arm:~# echo 'MMWN''KUMOMU'
MMWNKUMOMU
root@arm:~# MARKER='JGEO''XTZJVY' run 'grep -r -l rohm,bd71847 /proc/device-tree  | sed '"'"'s![^/]*$!!'"'"''
JGEOXTZJVY/proc/device-tree/ocp/interconnect@48000000/segment@0/target-module@2a000/i2c@0/pmic@4b/
JGEOXTZJVY 0
root@arm:~# echo 'HUXA''QCXWHX'
HUXAQCXWHX
root@arm:~# MARKER='XGBB''UJQLOT' run 'test -f /proc/device-tree/ocp/interconnectt\@48000000/segment\@0/target-module\@2a000/i2c\@0/pmic\@4b/regulators/BUCK6/reguulator-always-on ;echo $?'
XGBBUJQLOT1
XGBBUJQLOT 0
root@arm:~# echo 'MSCY''XHGZVL'
MSCYXHGZVL
root@arm:~# MARKER='USLW''LOZVOT' run 'echo 0 > /sys/kernel/mva_test/regulators/bbuck6_en'
USLWLOZVOTUSLWLOZVOT 0
root@arm:~# echo 'LVHX''KAKGEM'
LVHXKAKGEM
root@arm:~# MARKER='NQUW''KEOAAP' run 'i2cget -y -f 1 0x4b 0xc'
NQUWKEOAAP0x02
NQUWKEOAAP 0
root@arm:~# echo 'TKEW''JMAXNK'
TKEWJMAXNK
root@arm:~# MARKER='VXXY''WWLWKX' run 'grep -r -l rohm,bd71847 /proc/device-tree  | sed '"'"'s![^/]*$!!'"'"''
VXXYWWLWKX/proc/device-tree/ocp/interconnect@48000000/segment@0/target-module@2a000/i2c@0/pmic@4b/
VXXYWWLWKX 0
root@arm:~# echo 'MHXB''KQMLPG'
MHXBKQMLPG
root@arm:~# MARKER='XCGY''XNZGTV' run 'test -f /proc/device-tree/ocp/interconnectt\@48000000/segment\@0/target-module\@2a000/i2c\@0/pmic\@4b/regulators/LDO1/rohm,,no-regulator-enable-control ;echo $?'
XCGYXNZGTV1
XCGYXNZGTV 0
root@arm:~# echo 'NTPQ''OGLBBM'
NTPQOGLBBM
root@arm:~# MARKER='UTFH''SQHNTC' run 'echo 1 > /sys/kernel/mva_test/regulators/bbuck7_en'
UTFHSQHNTCUTFHSQHNTC 0
root@arm:~# echo 'GVOO''WSKYOK'
GVOOWSKYOK
root@arm:~# MARKER='CEGN''UMETFG' run 'i2cget -y -f 1 0x4b 0x18'
CEGNUMETFG0xe2
CEGNUMETFG 0
root@arm:~# echo 'XMGO''LHSWCB'
XMGOLHSWCB
root@arm:~# MARKER='PYHF''YKQMOF' run 'grep -r -l rohm,bd71847 /proc/device-tree  | sed '"'"'s![^/]*$!!'"'"''
PYHFYKQMOF/proc/device-tree/ocp/interconnect@48000000/segment@0/target-module@2a000/i2c@0/pmic@4b/
PYHFYKQMOF 0
root@arm:~# echo 'XHVF''ZQVKGS'
XHVFZQVKGS
root@arm:~# MARKER='PVXQ''GJJHFN' run 'test -f /proc/device-tree/ocp/interconnectt\@48000000/segment\@0/target-module\@2a000/i2c\@0/pmic\@4b/regulators/LDO1/rohm ,no-regulator-enable-control ;echo $?'
PVXQGJJHFN1
PVXQGJJHFN 0
root@arm:~# echo 'NHHO''ZQGMGY'
NHHOZQGMGY
root@arm:~# MARKER='KBPX''JCOPBQ' run 'grep -r -l rohm,bd71847 /proc/device-tree  | sed '"'"'s![^/]*$!!'"'"''
KBPXJCOPBQ/proc/device-tree/ocp/interconnect@48000000/segment@0/target-module@2a000/i2c@0/pmic@4b/
KBPXJCOPBQ 0
root@arm:~# echo 'GMZS''MWUFNB'
GMZSMWUFNB
root@arm:~# MARKER='VBEQ''MAKTHV' run 'test -f /proc/device-tree/ocp/interconnectt\@48000000/segment\@0/target-module\@2a000/i2c\@0/pmic\@4b/regulators/LDO1/regullator-always-on ;echo $?'
VBEQMAKTHV1
VBEQMAKTHV 0
root@arm:~# echo 'SPPN''GVZTBJ'
SPPNGVZTBJ
root@arm:~# MARKER='JJAO''QLZOUN' run 'echo 0 > /sys/kernel/mva_test/regulators/bbuck7_en'
JJAOQLZOUNJJAOQLZOUN 0
root@arm:~# echo 'HSSH''YWMZKP'
HSSHYWMZKP
root@arm:~# MARKER='ONCN''GJJHUU' run 'i2cget -y -f 1 0x4b 0x18'
ONCNGJJHUU0xa2
ONCNGJJHUU 0
root@arm:~# echo 'XBAU''PCUPOH'
XBAUPCUPOH
root@arm:~# MARKER='EMTQ''PYZYKL' run 'grep -r -l rohm,bd71847 /proc/device-tree  | sed '"'"'s![^/]*$!!'"'"''
EMTQPYZYKL/proc/device-tree/ocp/interconnect@48000000/segment@0/target-module@2a000/i2c@0/pmic@4b/
EMTQPYZYKL 0
root@arm:~# echo 'LKZQ''ATTMFM'
LKZQATTMFM
root@arm:~# MARKER='MCVU''WOFAYL' run 'test -f /proc/device-tree/ocp/interconnectt\@48000000/segment\@0/target-module\@2a000/i2c\@0/pmic\@4b/regulators/LDO2/rohm,,no-regulator-enable-control ;echo $?'
MCVUWOFAYL1
MCVUWOFAYL 0
root@arm:~# echo 'PPHT''GSOPBM'
PPHTGSOPBM
root@arm:~# MARKER='OATW''BGPMHL' run 'echo 1 > /sys/kernel/mva_test/regulators/bbuck8_en'
OATWBGPMHLOATWBGPMHL 0
root@arm:~# echo 'NMUC''YOAPCQ'
NMUCYOAPCQ
root@arm:~# MARKER='LAYN''MPZQUT' run 'i2cget -y -f 1 0x4b 0x19'
LAYNMPZQUT0xe0
LAYNMPZQUT 0
root@arm:~# echo 'YOON''AXWOWC'
YOONAXWOWC
root@arm:~# MARKER='KCUZ''YNGWMZ' run 'grep -r -l rohm,bd71847 /proc/device-tree  | sed '"'"'s![^/]*$!!'"'"''
KCUZYNGWMZ/proc/device-tree/ocp/interconnect@48000000/segment@0/target-module@2a000/i2c@0/pmic@4b/
KCUZYNGWMZ 0
root@arm:~# echo 'FKSM''FVGOJC'
FKSMFVGOJC
root@arm:~# MARKER='UMBY''BZNXBZ' run 'test -f /proc/device-tree/ocp/interconnectt\@48000000/segment\@0/target-module\@2a000/i2c\@0/pmic\@4b/regulators/LDO2/rohm ,no-regulator-enable-control ;echo $?'
UMBYBZNXBZ1
UMBYBZNXBZ 0
root@arm:~# echo 'BHGC''WJBNEM'
BHGCWJBNEM
root@arm:~# MARKER='UKQH''GXGETZ' run 'grep -r -l rohm,bd71847 /proc/device-tree  | sed '"'"'s![^/]*$!!'"'"''
UKQHGXGETZ/proc/device-tree/ocp/interconnect@48000000/segment@0/target-module@2a000/i2c@0/pmic@4b/
UKQHGXGETZ 0
root@arm:~# echo 'HFVJ''VWZYZO'
HFVJVWZYZO
root@arm:~# MARKER='GFWB''PZESJM' run 'test -f /proc/device-tree/ocp/interconnectt\@48000000/segment\@0/target-module\@2a000/i2c\@0/pmic\@4b/regulators/LDO2/regullator-always-on ;echo $?'
GFWBPZESJM1
GFWBPZESJM 0
root@arm:~# echo 'AFYP''AFOCGK'
AFYPAFOCGK
root@arm:~# MARKER='QBBL''PXNFZV' run 'echo 0 > /sys/kernel/mva_test/regulators/bbuck8_en'
QBBLPXNFZVQBBLPXNFZV 0
root@arm:~# echo 'MLJK''QFZPTV'
MLJKQFZPTV
root@arm:~# MARKER='SSGJ''SWHZQT' run 'i2cget -y -f 1 0x4b 0x19'
SSGJSWHZQT0xa0
SSGJSWHZQT 0
root@arm:~# echo 'FPWU''LSFUBU'
FPWULSFUBU
root@arm:~# MARKER='LHMX''ENQGWX' run 'grep -r -l rohm,bd71847 /proc/device-tree  | sed '"'"'s![^/]*$!!'"'"''
LHMXENQGWX/proc/device-tree/ocp/interconnect@48000000/segment@0/target-module@2a000/i2c@0/pmic@4b/
LHMXENQGWX 0
root@arm:~# echo 'QNMJ''OKNOUL'
QNMJOKNOUL
root@arm:~# MARKER='OXNY''JUUMMC' run 'test -f /proc/device-tree/ocp/interconnectt\@48000000/segment\@0/target-module\@2a000/i2c\@0/pmic\@4b/regulators/LDO3/rohm,,no-regulator-enable-control ;echo $?'
OXNYJUUMMC1
OXNYJUUMMC 0
root@arm:~# echo 'CSEA''SWYHFO'
CSEASWYHFO
root@arm:~# MARKER='ZAHO''OBWNKZ' run 'echo 1 > /sys/kernel/mva_test/regulators/bbuck9_en'
ZAHOOBWNKZZAHOOBWNKZ 0
root@arm:~# echo 'PMFV''ALMUEE'
PMFVALMUEE
root@arm:~# MARKER='UWKA''UUMUMY' run 'i2cget -y -f 1 0x4b 0x1a'
UWKAUUMUMY0xc0
UWKAUUMUMY 0
root@arm:~# echo 'VHJA''LSHPYE'
VHJALSHPYE
root@arm:~# MARKER='HQZQ''WCHHOV' run 'grep -r -l rohm,bd71847 /proc/device-tree  | sed '"'"'s![^/]*$!!'"'"''
HQZQWCHHOV/proc/device-tree/ocp/interconnect@48000000/segment@0/target-module@2a000/i2c@0/pmic@4b/
HQZQWCHHOV 0
root@arm:~# echo 'HBAX''XPOTAN'
HBAXXPOTAN
root@arm:~# MARKER='PZMN''YYYJTJ' run 'test -f /proc/device-tree/ocp/interconnectt\@48000000/segment\@0/target-module\@2a000/i2c\@0/pmic\@4b/regulators/LDO3/rohm ,no-regulator-enable-control ;echo $?'
PZMNYYYJTJ1
PZMNYYYJTJ 0
root@arm:~# echo 'KFTH''MCHHXO'
KFTHMCHHXO
root@arm:~# MARKER='YLJO''NPHFSJ' run 'grep -r -l rohm,bd71847 /proc/device-tree  | sed '"'"'s![^/]*$!!'"'"''
YLJONPHFSJ/proc/device-tree/ocp/interconnect@48000000/segment@0/target-module@2a000/i2c@0/pmic@4b/
YLJONPHFSJ 0
root@arm:~# echo 'UUGV''XCVVYZ'
UUGVXCVVYZ
root@arm:~# MARKER='OJVN''YNJOBY' run 'test -f /proc/device-tree/ocp/interconnectt\@48000000/segment\@0/target-module\@2a000/i2c\@0/pmic\@4b/regulators/LDO3/regullator-always-on ;echo $?'
OJVNYNJOBY1
OJVNYNJOBY 0
root@arm:~# echo 'AFFS''LXWKMK'
AFFSLXWKMK
root@arm:~# MARKER='KUMP''BABPJN' run 'echo 0 > /sys/kernel/mva_test/regulators/bbuck9_en'
KUMPBABPJNKUMPBABPJN 0
root@arm:~# echo 'PHSK''NPTQVS'
PHSKNPTQVS
root@arm:~# MARKER='XCXH''XYLQFW' run 'i2cget -y -f 1 0x4b 0x1a'
XCXHXYLQFW0x80
XCXHXYLQFW 0
root@arm:~# echo 'QLBW''TTSNCC'
QLBWTTSNCC
root@arm:~# MARKER='HWYP''ZCKAFX' run 'grep -r -l rohm,bd71847 /proc/device-tree  | sed '"'"'s![^/]*$!!'"'"''
HWYPZCKAFX/proc/device-tree/ocp/interconnect@48000000/segment@0/target-module@2a000/i2c@0/pmic@4b/
HWYPZCKAFX 0
root@arm:~# echo 'TTHE''AMPZSO'
TTHEAMPZSO
root@arm:~# MARKER='FEQE''HCSSTT' run 'test -f /proc/device-tree/ocp/interconnectt\@48000000/segment\@0/target-module\@2a000/i2c\@0/pmic\@4b/regulators/LDO4/rohm ,no-regulator-enable-control ;echo $?'
FEQEHCSSTT1
FEQEHCSSTT 0
root@arm:~# echo 'EBPW''LJXYPS'
EBPWLJXYPS
root@arm:~# MARKER='KKEG''XTZSSE' run 'echo 1 > /sys/kernel/mva_test/regulators/bbuck10_en'
KKEGXTZSSEKKEGXTZSSE 0
root@arm:~# echo 'VSSG''GCSEQY'
VSSGGCSEQY
root@arm:~# MARKER='JZQU''EGXKSC' run 'i2cget -y -f 1 0x4b 0x1b'
JZQUEGXKSC0xc0
JZQUEGXKSC 0
root@arm:~# echo 'PHKG''SZHJQG'
PHKGSZHJQG
root@arm:~# MARKER='JUZS''SXEBNV' run 'grep -r -l rohm,bd71847 /proc/device-tree  | sed '"'"'s![^/]*$!!'"'"''
JUZSSXEBNV/proc/device-tree/ocp/interconnect@48000000/segment@0/target-module@2a000/i2c@0/pmic@4b/
JUZSSXEBNV 0
root@arm:~# echo 'ANBV''YECNSC'
ANBVYECNSC
root@arm:~# MARKER='QGQO''AFJOLT' run 'test -f /proc/device-tree/ocp/interconnectt\@48000000/segment\@0/target-module\@2a000/i2c\@0/pmic\@4b/regulators/LDO4/rohm,,no-regulator-enable-control ;echo $?'
QGQOAFJOLT1
QGQOAFJOLT 0
root@arm:~# echo 'CJXE''TKUTPP'
CJXETKUTPP
root@arm:~# MARKER='GEHP''KMVVHS' run 'grep -r -l rohm,bd71847 /proc/device-tree  | sed '"'"'s![^/]*$!!'"'"''
GEHPKMVVHS/proc/device-tree/ocp/interconnect@48000000/segment@0/target-module@2a000/i2c@0/pmic@4b/
GEHPKMVVHS 0
root@arm:~# echo 'EYTV''JSTSPZ'
EYTVJSTSPZ
root@arm:~# MARKER='FLVL''BSKUSC' run 'test -f /proc/device-tree/ocp/interconnectt\@48000000/segment\@0/target-module\@2a000/i2c\@0/pmic\@4b/regulators/LDO4/regullator-always-on ;echo $?'
FLVLBSKUSC1
FLVLBSKUSC 0
root@arm:~# echo 'ZQGE''SUVOHV'
ZQGESUVOHV
root@arm:~# MARKER='EQTM''FEBKHH' run 'echo 0 > /sys/kernel/mva_test/regulators/bbuck10_en'
EQTMFEBKHHEQTMFEBKHH 0
root@arm:~# echo 'BOKH''SAQEKP'
BOKHSAQEKP
root@arm:~# MARKER='NHNY''CALXCK' run 'i2cget -y -f 1 0x4b 0x1b'
NHNYCALXCK0x80
NHNYCALXCK 0
root@arm:~# echo 'AMBF''HPWXEW'
AMBFHPWXEW
root@arm:~# MARKER='BLCC''FVLJKB' run 'grep -r -l rohm,bd71847 /proc/device-tree  | sed '"'"'s![^/]*$!!'"'"''
BLCCFVLJKB/proc/device-tree/ocp/interconnect@48000000/segment@0/target-module@2a000/i2c@0/pmic@4b/
BLCCFVLJKB 0
root@arm:~# echo 'PMTF''VKVNUG'
PMTFVKVNUG
root@arm:~# MARKER='WZNJ''AKSUGT' run 'test -f /proc/device-tree/ocp/interconnectt\@48000000/segment\@0/target-module\@2a000/i2c\@0/pmic\@4b/regulators/LDO5/rohm,,no-regulator-enable-control ;echo $?'
WZNJAKSUGT0
WZNJAKSUGT 0
root@arm:~# echo 'CCUU''LLGXFE'
CCUULLGXFE
root@arm:~# MARKER='MOYQ''OMMKEB' run 'grep -r -l rohm,bd71847 /proc/device-tree  | sed '"'"'s![^/]*$!!'"'"''
MOYQOMMKEB/proc/device-tree/ocp/interconnect@48000000/segment@0/target-module@2a000/i2c@0/pmic@4b/
MOYQOMMKEB 0
root@arm:~# echo 'NZCS''SLXFNB'
NZCSSLXFNB
root@arm:~# MARKER='AQBH''VPSLUX' run 'test -f /proc/device-tree/ocp/interconnectt\@48000000/segment\@0/target-module\@2a000/i2c\@0/pmic\@4b/regulators/LDO5/rohm,,no-regulator-enable-control ;echo $?'
AQBHVPSLUX0
AQBHVPSLUX 0
root@arm:~# echo 'ONAY''GGCWWE'
ONAYGGCWWE
root@arm:~# MARKER='XXQP''AQCAFP' run 'grep -r -l rohm,bd71847 /proc/device-tree  | sed '"'"'s![^/]*$!!'"'"''
XXQPAQCAFP/proc/device-tree/ocp/interconnect@48000000/segment@0/target-module@2a000/i2c@0/pmic@4b/
XXQPAQCAFP 0
root@arm:~# echo 'ZBQU''UKTCLG'
ZBQUUKTCLG
root@arm:~# MARKER='CLFF''NJVYLG' run 'test -f /proc/device-tree/ocp/interconnectt\@48000000/segment\@0/target-module\@2a000/i2c\@0/pmic\@4b/regulators/LDO6/rohm,,no-regulator-enable-control ;echo $?'
CLFFNJVYLG1
CLFFNJVYLG 0
root@arm:~# echo 'HYHB''EJZCWT'
HYHBEJZCWT
root@arm:~# MARKER='WFTZ''PFVFFW' run 'echo 1 > /sys/kernel/mva_test/regulators/bbuck12_en'
WFTZPFVFFWWFTZPFVFFW 0
root@arm:~# echo 'PHCY''OTFGWS'
PHCYOTFGWS
root@arm:~# MARKER='ETFB''TMVENW' run 'i2cget -y -f 1 0x4b 0x1d'
ETFBTMVENW0xc3
ETFBTMVENW 0
root@arm:~# echo 'BAAT''CXWMEF'
BAATCXWMEF
root@arm:~# MARKER='ZCVU''HSGNJU' run 'grep -r -l rohm,bd71847 /proc/device-tree  | sed '"'"'s![^/]*$!!'"'"''
ZCVUHSGNJU/proc/device-tree/ocp/interconnect@48000000/segment@0/target-module@2a000/i2c@0/pmic@4b/
ZCVUHSGNJU 0
root@arm:~# echo 'ACZC''KQCYEO'
ACZCKQCYEO
root@arm:~# MARKER='NAJE''OONUGX' run 'test -f /proc/device-tree/ocp/interconnectt\@48000000/segment\@0/target-module\@2a000/i2c\@0/pmic\@4b/regulators/LDO6/rohm,,no-regulator-enable-control ;echo $?'
NAJEOONUGX1
NAJEOONUGX 0
root@arm:~# echo 'HQSK''WTSZBV'
HQSKWTSZBV
root@arm:~# MARKER='QZWH''FLZHXC' run 'grep -r -l rohm,bd71847 /proc/device-tree  | sed '"'"'s![^/]*$!!'"'"''
QZWHFLZHXC/proc/device-tree/ocp/interconnect@48000000/segment@0/target-module@2a000/i2c@0/pmic@4b/
QZWHFLZHXC 0
root@arm:~# echo 'XWVP''ZZNVTA'
XWVPZZNVTA
root@arm:~# MARKER='CAAA''QKWXNF' run 'test -f /proc/device-tree/ocp/interconnectt\@48000000/segment\@0/target-module\@2a000/i2c\@0/pmic\@4b/regulators/LDO6/regullator-always-on ;echo $?'
CAAAQKWXNF1
CAAAQKWXNF 0
root@arm:~# echo 'GJVA''KSGQEY'
GJVAKSGQEY
root@arm:~# MARKER='VVPA''OMPGXB' run 'echo 0 > /sys/kernel/mva_test/regulators/bbuck12_en'
VVPAOMPGXBVVPAOMPGXB 0
root@arm:~# echo 'AJAM''CKWGFC'
AJAMCKWGFC
root@arm:~# MARKER='MGCW''TQVEEY' run 'i2cget -y -f 1 0x4b 0x1d'
MGCWTQVEEY0x83
MGCWTQVEEY 0
root@arm:~# Labgrid Console Logfile for main
Logfile started at 2025-04-08 09:50:57.974627
=== Log starts here ===

root@arm:~# run() { echo -n "$MARKER"; sh -c "$@"; echo "$MARKER $?"; }
root@arm:~# echo 'YHEE''CEEAAW'
YHEECEEAAW
root@arm:~# MARKER='VJKK''ZZSLTB' run 'grep -r -l rohm,bd71847 /proc/device-tree  | sed '"'"'s![^/]*$!!'"'"''
VJKKZZSLTB/proc/device-tree/ocp/interconnect@48000000/segment@0/target-module@2a000/i2c@0/pmic@4b/
VJKKZZSLTB 0
root@arm:~# echo 'EQQK''FQYEKG'
EQQKFQYEKG
root@arm:~# MARKER='FELU''HKHJUN' run 'test -f /proc/device-tree/ocp/interconnectt\@48000000/segment\@0/target-module\@2a000/i2c\@0/pmic\@4b/regulators/BUCK1/roh m,no-regulator-enable-control ;echo $?'
FELUHKHJUN1
FELUHKHJUN 0
root@arm:~# echo 'BUVQ''OBJCGF'
BUVQOBJCGF
root@arm:~# MARKER='UVVJ''OOLKBO' run 'i2cget -y -f 1 0x4b 0x5'
UVVJOOLKBO0x02
UVVJOOLKBO 0
root@arm:~# echo 'ZVMP''ONWTOQ'
ZVMPONWTOQ
root@arm:~# MARKER='VKFL''AOJJOJ' run 'echo 700000 700000 > /sys/kernel/mva_test//regulators/buck1_set'
VKFLAOJJOJVKFLAOJJOJ 0
root@arm:~# echo 'TLEC''YYYFBT'
TLECYYYFBT
root@arm:~# MARKER='GCOQ''GNHJGA' run 'i2cget -y -f 1 0x4b 0xd'
GCOQGNHJGA0x00
GCOQGNHJGA 0
root@arm:~# echo 'HOEU''OAWZNZ'
HOEUOAWZNZ
root@arm:~# MARKER='CMKG''ULLHYL' run 'echo 710000 710000 > /sys/kernel/mva_test//regulators/buck1_set'
CMKGULLHYLCMKGULLHYL 0
root@arm:~# echo 'PPXS''KBHZPQ'
PPXSKBHZPQ
root@arm:~# MARKER='BZYW''UBTZNS' run 'i2cget -y -f 1 0x4b 0xd'
BZYWUBTZNS0x01
BZYWUBTZNS 0
root@arm:~# echo 'HPOV''HTEZKN'
HPOVHTEZKN
root@arm:~# MARKER='YZKM''YVUOQQ' run 'echo 720000 720000 > /sys/kernel/mva_test//regulators/buck1_set'
YZKMYVUOQQYZKMYVUOQQ 0
root@arm:~# echo 'NAXA''GXUHNH'
NAXAGXUHNH
root@arm:~# MARKER='QLXO''TGJTCV' run 'i2cget -y -f 1 0x4b 0xd'
QLXOTGJTCV0x02
QLXOTGJTCV 0
root@arm:~# echo 'TSWP''YKAECO'
TSWPYKAECO
root@arm:~# MARKER='BZJF''CUKYTM' run 'echo 730000 730000 > /sys/kernel/mva_test//regulators/buck1_set'
BZJFCUKYTMBZJFCUKYTM 0
root@arm:~# echo 'QKNJ''QPCSKT'
QKNJQPCSKT
root@arm:~# MARKER='ASNB''NNOGVB' run 'i2cget -y -f 1 0x4b 0xd'
ASNBNNOGVB0x03
ASNBNNOGVB 0
root@arm:~# echo 'CBKV''SSSYQN'
CBKVSSSYQN
root@arm:~# MARKER='YBEU''KAMQYX' run 'echo 740000 740000 > /sys/kernel/mva_test//regulators/buck1_set'
YBEUKAMQYXYBEUKAMQYX 0
root@arm:~# echo 'CXFN''WXSBSE'
CXFNWXSBSE
root@arm:~# MARKER='HYJH''VNWOHF' run 'i2cget -y -f 1 0x4b 0xd'
HYJHVNWOHF0x04
HYJHVNWOHF 0
root@arm:~# echo 'GEVQ''FAZLPJ'
GEVQFAZLPJ
root@arm:~# MARKER='QFLS''WJJVXO' run 'echo 750000 750000 > /sys/kernel/mva_test//regulators/buck1_set'
QFLSWJJVXOQFLSWJJVXO 0
root@arm:~# echo 'GQZB''HMWJVJ'
GQZBHMWJVJ
root@arm:~# MARKER='FHVT''XLWYHW' run 'i2cget -y -f 1 0x4b 0xd'
FHVTXLWYHW0x05
FHVTXLWYHW 0
root@arm:~# echo 'SFKH''WHNCNT'
SFKHWHNCNT
root@arm:~# MARKER='MOPC''ZHKAQX' run 'echo 760000 760000 > /sys/kernel/mva_test//regulators/buck1_set'
MOPCZHKAQXMOPCZHKAQX 0
root@arm:~# echo 'ZHHA''XHGTNZ'
ZHHAXHGTNZ
root@arm:~# MARKER='HJSS''GKUWBF' run 'i2cget -y -f 1 0x4b 0xd'
HJSSGKUWBF0x06
HJSSGKUWBF 0
root@arm:~# echo 'UENN''XSMOEN'
UENNXSMOEN
root@arm:~# MARKER='UZTT''EWSNGQ' run 'echo 770000 770000 > /sys/kernel/mva_test//regulators/buck1_set'
UZTTEWSNGQUZTTEWSNGQ 0
root@arm:~# echo 'KOSN''BSUFAC'
KOSNBSUFAC
root@arm:~# MARKER='XWEG''TOQVGF' run 'i2cget -y -f 1 0x4b 0xd'
XWEGTOQVGF0x07
XWEGTOQVGF 0
root@arm:~# echo 'FQMH''SEXQGA'
FQMHSEXQGA
root@arm:~# MARKER='PFMK''UBCMOC' run 'echo 780000 780000 > /sys/kernel/mva_test//regulators/buck1_set'
PFMKUBCMOCPFMKUBCMOC 0
root@arm:~# echo 'YQXC''PXLJGN'
YQXCPXLJGN
root@arm:~# MARKER='TYFQ''BQUSLQ' run 'i2cget -y -f 1 0x4b 0xd'
TYFQBQUSLQ0x08
TYFQBQUSLQ 0
root@arm:~# echo 'OCKX''UAXTSB'
OCKXUAXTSB
root@arm:~# MARKER='HVLT''NCTGAA' run 'echo 790000 790000 > /sys/kernel/mva_test//regulators/buck1_set'
HVLTNCTGAAHVLTNCTGAA 0
root@arm:~# echo 'COOE''JPBFGE'
COOEJPBFGE
root@arm:~# MARKER='AUZL''FUZAYH' run 'i2cget -y -f 1 0x4b 0xd'
AUZLFUZAYH0x09
AUZLFUZAYH 0
root@arm:~# echo 'WLWS''MUZHYN'
WLWSMUZHYN
root@arm:~# MARKER='ZLLF''AJBFMA' run 'echo 800000 800000 > /sys/kernel/mva_test//regulators/buck1_set'
ZLLFAJBFMAZLLFAJBFMA 0
root@arm:~# echo 'UNAJ''QBWNPB'
UNAJQBWNPB
root@arm:~# MARKER='VSPN''AZJMJW' run 'i2cget -y -f 1 0x4b 0xd'
VSPNAZJMJW0x0a
VSPNAZJMJW 0
root@arm:~# echo 'MGGG''QSJULJ'
MGGGQSJULJ
root@arm:~# MARKER='LHVT''MXGNVS' run 'echo 810000 810000 > /sys/kernel/mva_test//regulators/buck1_set'
LHVTMXGNVSLHVTMXGNVS 0
root@arm:~# echo 'HMKO''LAMOQU'
HMKOLAMOQU
root@arm:~# MARKER='LYBP''VMOASK' run 'i2cget -y -f 1 0x4b 0xd'
LYBPVMOASK0x0b
LYBPVMOASK 0
root@arm:~# echo 'FXJU''ZPTWYL'
FXJUZPTWYL
root@arm:~# MARKER='JWKB''QBQOPC' run 'echo 820000 820000 > /sys/kernel/mva_test//regulators/buck1_set'
JWKBQBQOPCJWKBQBQOPC 0
root@arm:~# echo 'WUWE''YHKYNY'
WUWEYHKYNY
root@arm:~# MARKER='NEPT''LWLOBO' run 'i2cget -y -f 1 0x4b 0xd'
NEPTLWLOBO0x0c
NEPTLWLOBO 0
root@arm:~# echo 'LEZX''EWJPFQ'
LEZXEWJPFQ
root@arm:~# MARKER='CQEN''ABBMQM' run 'echo 830000 830000 > /sys/kernel/mva_test//regulators/buck1_set'
CQENABBMQMCQENABBMQM 0
root@arm:~# echo 'OJMB''LKBLNG'
OJMBLKBLNG
root@arm:~# MARKER='MJWV''HJJGCK' run 'i2cget -y -f 1 0x4b 0xd'
MJWVHJJGCK0x0d
MJWVHJJGCK 0
root@arm:~# echo 'GBOA''GLYNNP'
GBOAGLYNNP
root@arm:~# MARKER='QVJZ''QFNJCX' run 'echo 840000 840000 > /sys/kernel/mva_test//regulators/buck1_set'
QVJZQFNJCXQVJZQFNJCX 0
root@arm:~# echo 'SUVK''JYNCGU'
SUVKJYNCGU
root@arm:~# MARKER='JVCK''NFJNAK' run 'i2cget -y -f 1 0x4b 0xd'
JVCKNFJNAK0x0e
JVCKNFJNAK 0
root@arm:~# echo 'ATLZ''PKTLET'
ATLZPKTLET
root@arm:~# MARKER='CJKY''HGEEQZ' run 'echo 850000 850000 > /sys/kernel/mva_test//regulators/buck1_set'
CJKYHGEEQZCJKYHGEEQZ 0
root@arm:~# echo 'JNVC''UKGYMT'
JNVCUKGYMT
root@arm:~# MARKER='LCTK''WNZFMX' run 'i2cget -y -f 1 0x4b 0xd'
LCTKWNZFMX0x0f
LCTKWNZFMX 0
root@arm:~# echo 'HOUH''FJLALV'
HOUHFJLALV
root@arm:~# MARKER='YNNG''VPYUJL' run 'echo 860000 860000 > /sys/kernel/mva_test//regulators/buck1_set'
YNNGVPYUJLYNNGVPYUJL 0
root@arm:~# echo 'YNFV''OVLYZZ'
YNFVOVLYZZ
root@arm:~# MARKER='YXZK''KYKTVJ' run 'i2cget -y -f 1 0x4b 0xd'
YXZKKYKTVJ0x10
YXZKKYKTVJ 0
root@arm:~# echo 'XVQS''AEZYQE'
XVQSAEZYQE
root@arm:~# MARKER='LWBG''STXBAS' run 'echo 870000 870000 > /sys/kernel/mva_test//regulators/buck1_set'
LWBGSTXBASLWBGSTXBAS 0
root@arm:~# echo 'AVXN''NQJYEU'
AVXNNQJYEU
root@arm:~# MARKER='XXNK''UBKSLZ' run 'i2cget -y -f 1 0x4b 0xd'
XXNKUBKSLZ0x11
XXNKUBKSLZ 0
root@arm:~# echo 'AYLQ''TXKONJ'
AYLQTXKONJ
root@arm:~# MARKER='VNQM''HJWUAO' run 'echo 880000 880000 > /sys/kernel/mva_test//regulators/buck1_set'
VNQMHJWUAOVNQMHJWUAO 0
root@arm:~# echo 'HJKP''KNPKKG'
HJKPKNPKKG
root@arm:~# MARKER='LVGB''SOONST' run 'i2cget -y -f 1 0x4b 0xd'
LVGBSOONST0x12
LVGBSOONST 0
root@arm:~# echo 'NXYX''TSFPHN'
NXYXTSFPHN
root@arm:~# MARKER='BESU''ZGJSKP' run 'echo 890000 890000 > /sys/kernel/mva_test//regulators/buck1_set'
BESUZGJSKPBESUZGJSKP 0
root@arm:~# echo 'JBUB''AKXWBL'
JBUBAKXWBL
root@arm:~# MARKER='QXUO''WGGXFW' run 'i2cget -y -f 1 0x4b 0xd'
QXUOWGGXFW0x13
QXUOWGGXFW 0
root@arm:~# echo 'VNZF''YQEENE'
VNZFYQEENE
root@arm:~# MARKER='QFXK''EWJGZT' run 'echo 900000 900000 > /sys/kernel/mva_test//regulators/buck1_set'
QFXKEWJGZTQFXKEWJGZT 0
root@arm:~# echo 'FOTA''JMSXLU'
FOTAJMSXLU
root@arm:~# MARKER='BSBH''VPQETN' run 'i2cget -y -f 1 0x4b 0xd'
BSBHVPQETN0x14
BSBHVPQETN 0
root@arm:~# echo 'HJKQ''GCNPAF'
HJKQGCNPAF
root@arm:~# MARKER='SHHX''JWWJVK' run 'echo 910000 910000 > /sys/kernel/mva_test//regulators/buck1_set'
SHHXJWWJVKSHHXJWWJVK 0
root@arm:~# echo 'WTJE''ASGYWL'
WTJEASGYWL
root@arm:~# MARKER='SJWB''ZJGXYB' run 'i2cget -y -f 1 0x4b 0xd'
SJWBZJGXYB0x15
SJWBZJGXYB 0
root@arm:~# echo 'WXKB''SLNGFL'
WXKBSLNGFL
root@arm:~# MARKER='OSYF''HXXVZM' run 'echo 920000 920000 > /sys/kernel/mva_test//regulators/buck1_set'
OSYFHXXVZMOSYFHXXVZM 0
root@arm:~# echo 'XFMA''NXEYWG'
XFMANXEYWG
root@arm:~# MARKER='KCMG''QWTMWY' run 'i2cget -y -f 1 0x4b 0xd'
KCMGQWTMWY0x16
KCMGQWTMWY 0
root@arm:~# echo 'JNZB''WUOGUW'
JNZBWUOGUW
root@arm:~# MARKER='AQJZ''EMKNBN' run 'echo 930000 930000 > /sys/kernel/mva_test//regulators/buck1_set'
AQJZEMKNBNAQJZEMKNBN 0
root@arm:~# echo 'XQEB''TYWVGC'
XQEBTYWVGC
root@arm:~# MARKER='EQAV''SVVZSW' run 'i2cget -y -f 1 0x4b 0xd'
EQAVSVVZSW0x17
EQAVSVVZSW 0
root@arm:~# echo 'MZLQ''FWOGZM'
MZLQFWOGZM
root@arm:~# MARKER='LYUH''UWWONQ' run 'echo 940000 940000 > /sys/kernel/mva_test//regulators/buck1_set'
LYUHUWWONQLYUHUWWONQ 0
root@arm:~# echo 'OXBL''KSCKLV'
OXBLKSCKLV
root@arm:~# MARKER='NZFU''WXZHMP' run 'i2cget -y -f 1 0x4b 0xd'
NZFUWXZHMP0x18
NZFUWXZHMP 0
root@arm:~# echo 'ECBY''PXVAEJ'
ECBYPXVAEJ
root@arm:~# MARKER='POFT''UCEZQX' run 'echo 950000 950000 > /sys/kernel/mva_test//regulators/buck1_set'
POFTUCEZQXPOFTUCEZQX 0
root@arm:~# echo 'VHCX''BTMOGM'
VHCXBTMOGM
root@arm:~# MARKER='ZHXL''WWPFLU' run 'i2cget -y -f 1 0x4b 0xd'
ZHXLWWPFLU0x19
ZHXLWWPFLU 0
root@arm:~# echo 'KHPP''CNHPJK'
KHPPCNHPJK
root@arm:~# MARKER='CXYH''PFETCU' run 'echo 960000 960000 > /sys/kernel/mva_test//regulators/buck1_set'
CXYHPFETCUCXYHPFETCU 0
root@arm:~# echo 'XLEK''UHNFHQ'
XLEKUHNFHQ
root@arm:~# MARKER='MALV''HUZQQV' run 'i2cget -y -f 1 0x4b 0xd'
MALVHUZQQV0x1a
MALVHUZQQV 0
root@arm:~# echo 'AMQH''FCUCPM'
AMQHFCUCPM
root@arm:~# MARKER='CCSB''QATHFM' run 'echo 970000 970000 > /sys/kernel/mva_test//regulators/buck1_set'
CCSBQATHFMCCSBQATHFM 0
root@arm:~# echo 'VLVZ''WZQPAG'
VLVZWZQPAG
root@arm:~# MARKER='GLCC''ZSMSZN' run 'i2cget -y -f 1 0x4b 0xd'
GLCCZSMSZN0x1b
GLCCZSMSZN 0
root@arm:~# echo 'QNQW''GJAAKK'
QNQWGJAAKK
root@arm:~# MARKER='JJYF''QQJNWT' run 'echo 980000 980000 > /sys/kernel/mva_test//regulators/buck1_set'
JJYFQQJNWTJJYFQQJNWT 0
root@arm:~# echo 'XEUV''EYOGVS'
XEUVEYOGVS
root@arm:~# MARKER='SAHE''JVXMXH' run 'i2cget -y -f 1 0x4b 0xd'
SAHEJVXMXH0x1c
SAHEJVXMXH 0
root@arm:~# echo 'WFCS''HFSQYF'
WFCSHFSQYF
root@arm:~# MARKER='YXWL''YAQNJW' run 'echo 990000 990000 > /sys/kernel/mva_test//regulators/buck1_set'
YXWLYAQNJWYXWLYAQNJW 0
root@arm:~# echo 'XSPJ''ACLULB'
XSPJACLULB
root@arm:~# MARKER='WMVY''KBNFKL' run 'i2cget -y -f 1 0x4b 0xd'
WMVYKBNFKL0x1d
WMVYKBNFKL 0
root@arm:~# echo 'TXWV''FBLXZF'
TXWVFBLXZF
root@arm:~# MARKER='HLBC''LXMNSV' run 'echo 1000000 1000000 > /sys/kernel/mva_tesst/regulators/buck1_set'
HLBCLXMNSVHLBCLXMNSV 0
root@arm:~# echo 'AAXL''AJUAUX'
AAXLAJUAUX
root@arm:~# MARKER='FJEE''MAKCUU' run 'i2cget -y -f 1 0x4b 0xd'
FJEEMAKCUU0x1e
FJEEMAKCUU 0
root@arm:~# echo 'LCUF''KJEUKM'
LCUFKJEUKM
root@arm:~# MARKER='OWTC''LYQAKY' run 'echo 1010000 1010000 > /sys/kernel/mva_tesst/regulators/buck1_set'
OWTCLYQAKYOWTCLYQAKY 0
root@arm:~# echo 'OWFW''NEBPOB'
OWFWNEBPOB
root@arm:~# MARKER='BPOY''QVKNLJ' run 'i2cget -y -f 1 0x4b 0xd'
BPOYQVKNLJ0x1f
BPOYQVKNLJ 0
root@arm:~# echo 'GVEL''GUNNOF'
GVELGUNNOF
root@arm:~# MARKER='WPNQ''KATVMX' run 'echo 1020000 1020000 > /sys/kernel/mva_tesst/regulators/buck1_set'
WPNQKATVMXWPNQKATVMX 0
root@arm:~# echo 'PMXW''LPQQKK'
PMXWLPQQKK
root@arm:~# MARKER='QNCZ''FKHNAP' run 'i2cget -y -f 1 0x4b 0xd'
QNCZFKHNAP0x20
QNCZFKHNAP 0
root@arm:~# echo 'NKQT''FLALZP'
NKQTFLALZP
root@arm:~# MARKER='WCQQ''QHYKGP' run 'echo 1030000 1030000 > /sys/kernel/mva_tesst/regulators/buck1_set'
WCQQQHYKGPWCQQQHYKGP 0
root@arm:~# echo 'XMLP''QELLEL'
XMLPQELLEL
root@arm:~# MARKER='UPHC''VFYUQC' run 'i2cget -y -f 1 0x4b 0xd'
UPHCVFYUQC0x21
UPHCVFYUQC 0
root@arm:~# echo 'SMNS''THOZCN'
SMNSTHOZCN
root@arm:~# MARKER='HNNJ''PLYBYM' run 'echo 1040000 1040000 > /sys/kernel/mva_tesst/regulators/buck1_set'
HNNJPLYBYMHNNJPLYBYM 0
root@arm:~# echo 'BZZC''POFVNU'
BZZCPOFVNU
root@arm:~# MARKER='VPHM''CYQBEA' run 'i2cget -y -f 1 0x4b 0xd'
VPHMCYQBEA0x22
VPHMCYQBEA 0
root@arm:~# echo 'NQBZ''MAYBZJ'
NQBZMAYBZJ
root@arm:~# MARKER='UYFU''JGMVYS' run 'echo 1050000 1050000 > /sys/kernel/mva_tesst/regulators/buck1_set'
UYFUJGMVYSUYFUJGMVYS 0
root@arm:~# echo 'PQTF''QHGZVN'
PQTFQHGZVN
root@arm:~# MARKER='ZFVV''XNEHSF' run 'i2cget -y -f 1 0x4b 0xd'
ZFVVXNEHSF0x23
ZFVVXNEHSF 0
root@arm:~# echo 'HBVL''FCXABP'
HBVLFCXABP
root@arm:~# MARKER='OZMA''YUZJJK' run 'echo 1060000 1060000 > /sys/kernel/mva_tesst/regulators/buck1_set'
OZMAYUZJJKOZMAYUZJJK 0
root@arm:~# echo 'XYMP''XOFQUN'
XYMPXOFQUN
root@arm:~# MARKER='ZBWV''ZNFKWK' run 'i2cget -y -f 1 0x4b 0xd'
ZBWVZNFKWK0x24
ZBWVZNFKWK 0
root@arm:~# echo 'YQPL''NJJJCF'
YQPLNJJJCF
root@arm:~# MARKER='KUKG''VVWJJF' run 'echo 1070000 1070000 > /sys/kernel/mva_tesst/regulators/buck1_set'
KUKGVVWJJFKUKGVVWJJF 0
root@arm:~# echo 'WYJJ''HYHUPL'
WYJJHYHUPL
root@arm:~# MARKER='HYTV''FFSCYU' run 'i2cget -y -f 1 0x4b 0xd'
HYTVFFSCYU0x25
HYTVFFSCYU 0
root@arm:~# echo 'WVLE''AOFMEX'
WVLEAOFMEX
root@arm:~# MARKER='SNXK''WYBHZT' run 'echo 1080000 1080000 > /sys/kernel/mva_tesst/regulators/buck1_set'
SNXKWYBHZTSNXKWYBHZT 0
root@arm:~# echo 'JNLP''QEHPUX'
JNLPQEHPUX
root@arm:~# MARKER='YCHA''QPTNEJ' run 'i2cget -y -f 1 0x4b 0xd'
YCHAQPTNEJ0x26
YCHAQPTNEJ 0
root@arm:~# echo 'EVCN''ATSBOS'
EVCNATSBOS
root@arm:~# MARKER='JNCL''VWTZUB' run 'echo 1090000 1090000 > /sys/kernel/mva_tesst/regulators/buck1_set'
JNCLVWTZUBJNCLVWTZUB 0
root@arm:~# echo 'YXSJ''UVNYXP'
YXSJUVNYXP
root@arm:~# MARKER='JBGB''ATGACC' run 'i2cget -y -f 1 0x4b 0xd'
JBGBATGACC0x27
JBGBATGACC 0
root@arm:~# echo 'NJYB''OGJTZY'
NJYBOGJTZY
root@arm:~# MARKER='VFBW''NLOEZA' run 'echo 1100000 1100000 > /sys/kernel/mva_tesst/regulators/buck1_set'
VFBWNLOEZAVFBWNLOEZA 0
root@arm:~# echo 'NABU''EAASGV'
NABUEAASGV
root@arm:~# MARKER='MMMQ''QQAYYF' run 'i2cget -y -f 1 0x4b 0xd'
MMMQQQAYYF0x28
MMMQQQAYYF 0
root@arm:~# echo 'FFVS''BLMTWN'
FFVSBLMTWN
root@arm:~# MARKER='HLCA''BMNAAK' run 'echo 1110000 1110000 > /sys/kernel/mva_tesst/regulators/buck1_set'
HLCABMNAAKHLCABMNAAK 0
root@arm:~# echo 'OOWO''KYZCGL'
OOWOKYZCGL
root@arm:~# MARKER='LAUG''CTFMHF' run 'i2cget -y -f 1 0x4b 0xd'
LAUGCTFMHF0x29
LAUGCTFMHF 0
root@arm:~# echo 'WOLA''YABSPG'
WOLAYABSPG
root@arm:~# MARKER='GUXT''KNHLXT' run 'echo 1120000 1120000 > /sys/kernel/mva_tesst/regulators/buck1_set'
GUXTKNHLXTGUXTKNHLXT 0
root@arm:~# echo 'FHZT''FASOHZ'
FHZTFASOHZ
root@arm:~# MARKER='WWUO''SSUTSU' run 'i2cget -y -f 1 0x4b 0xd'
WWUOSSUTSU0x2a
WWUOSSUTSU 0
root@arm:~# echo 'YZYS''AJCYEW'
YZYSAJCYEW
root@arm:~# MARKER='PSLP''FFWBJW' run 'echo 1130000 1130000 > /sys/kernel/mva_tesst/regulators/buck1_set'
PSLPFFWBJWPSLPFFWBJW 0
root@arm:~# echo 'UZNV''WLEQZJ'
UZNVWLEQZJ
root@arm:~# MARKER='KMGP''HTZAHB' run 'i2cget -y -f 1 0x4b 0xd'
KMGPHTZAHB0x2b
KMGPHTZAHB 0
root@arm:~# echo 'JZSQ''XPOYGG'
JZSQXPOYGG
root@arm:~# MARKER='VQXA''BNZAOC' run 'echo 1140000 1140000 > /sys/kernel/mva_tesst/regulators/buck1_set'
VQXABNZAOCVQXABNZAOC 0
root@arm:~# echo 'WHQC''HMBMBU'
WHQCHMBMBU
root@arm:~# MARKER='KOCP''GSWXBX' run 'i2cget -y -f 1 0x4b 0xd'
KOCPGSWXBX0x2c
KOCPGSWXBX 0
root@arm:~# echo 'JXBJ''JGGAZW'
JXBJJGGAZW
root@arm:~# MARKER='VBAA''WMZSZE' run 'echo 1150000 1150000 > /sys/kernel/mva_tesst/regulators/buck1_set'
VBAAWMZSZEVBAAWMZSZE 0
root@arm:~# echo 'JGXW''ZPGUKG'
JGXWZPGUKG
root@arm:~# MARKER='NLFO''MBFYQL' run 'i2cget -y -f 1 0x4b 0xd'
NLFOMBFYQL0x2d
NLFOMBFYQL 0
root@arm:~# echo 'FGXC''TLPUUM'
FGXCTLPUUM
root@arm:~# MARKER='TXUK''EAFEKJ' run 'echo 1160000 1160000 > /sys/kernel/mva_tesst/regulators/buck1_set'
TXUKEAFEKJTXUKEAFEKJ 0
root@arm:~# echo 'EUOK''ALCSKQ'
EUOKALCSKQ
root@arm:~# MARKER='QUGO''CMLJSJ' run 'i2cget -y -f 1 0x4b 0xd'
QUGOCMLJSJ0x2e
QUGOCMLJSJ 0
root@arm:~# echo 'TZAV''OYVCAF'
TZAVOYVCAF
root@arm:~# MARKER='NNUA''MFUPWH' run 'echo 1170000 1170000 > /sys/kernel/mva_tesst/regulators/buck1_set'
NNUAMFUPWHNNUAMFUPWH 0
root@arm:~# echo 'OSYE''EMKMSV'
OSYEEMKMSV
root@arm:~# MARKER='FBAH''ZMFBJX' run 'i2cget -y -f 1 0x4b 0xd'
FBAHZMFBJX0x2f
FBAHZMFBJX 0
root@arm:~# echo 'FWNB''BNGVAF'
FWNBBNGVAF
root@arm:~# MARKER='KNMG''THEEOP' run 'echo 1180000 1180000 > /sys/kernel/mva_tesst/regulators/buck1_set'
KNMGTHEEOPKNMGTHEEOP 0
root@arm:~# echo 'OZBU''TXBQXG'
OZBUTXBQXG
root@arm:~# MARKER='BZUK''GFBWBO' run 'i2cget -y -f 1 0x4b 0xd'
BZUKGFBWBO0x30
BZUKGFBWBO 0
root@arm:~# echo 'XYPS''YMABCM'
XYPSYMABCM
root@arm:~# MARKER='QXHW''SSXMLY' run 'echo 1190000 1190000 > /sys/kernel/mva_tesst/regulators/buck1_set'
QXHWSSXMLYQXHWSSXMLY 0
root@arm:~# echo 'PLXQ''LQLZCK'
PLXQLQLZCK
root@arm:~# MARKER='FPXN''ENCHQN' run 'i2cget -y -f 1 0x4b 0xd'
FPXNENCHQN0x31
FPXNENCHQN 0
root@arm:~# echo 'XLUW''QBSKGY'
XLUWQBSKGY
root@arm:~# MARKER='JZTL''FGBJVB' run 'echo 1200000 1200000 > /sys/kernel/mva_tesst/regulators/buck1_set'
JZTLFGBJVBJZTLFGBJVB 0
root@arm:~# echo 'USJE''YEELXG'
USJEYEELXG
root@arm:~# MARKER='VCNN''FUTECX' run 'i2cget -y -f 1 0x4b 0xd'
VCNNFUTECX0x32
VCNNFUTECX 0
root@arm:~# echo 'FGZV''CNAGWX'
FGZVCNAGWX
root@arm:~# MARKER='OMXM''TPMWYZ' run 'echo 1210000 1210000 > /sys/kernel/mva_tesst/regulators/buck1_set'
OMXMTPMWYZOMXMTPMWYZ 0
root@arm:~# echo 'WSWO''GFGLSY'
WSWOGFGLSY
root@arm:~# MARKER='QHUJ''BBYZXN' run 'i2cget -y -f 1 0x4b 0xd'
QHUJBBYZXN0x33
QHUJBBYZXN 0
root@arm:~# echo 'PWTS''OZBEOX'
PWTSOZBEOX
root@arm:~# MARKER='MJMV''WPZBVB' run 'echo 1220000 1220000 > /sys/kernel/mva_tesst/regulators/buck1_set'
MJMVWPZBVBMJMVWPZBVB 0
root@arm:~# echo 'ZQAO''AJGQQC'
ZQAOAJGQQC
root@arm:~# MARKER='JZXU''KAJZAA' run 'i2cget -y -f 1 0x4b 0xd'
JZXUKAJZAA0x34
JZXUKAJZAA 0
root@arm:~# echo 'SBZY''JZKBOZ'
SBZYJZKBOZ
root@arm:~# MARKER='NGYY''VCYCEU' run 'echo 1230000 1230000 > /sys/kernel/mva_tesst/regulators/buck1_set'
NGYYVCYCEUNGYYVCYCEU 0
root@arm:~# echo 'YCQE''JGJBPH'
YCQEJGJBPH
root@arm:~# MARKER='ULPG''UMXEQQ' run 'i2cget -y -f 1 0x4b 0xd'
ULPGUMXEQQ0x35
ULPGUMXEQQ 0
root@arm:~# echo 'GECW''TFHAUB'
GECWTFHAUB
root@arm:~# MARKER='QWCT''GAOUSL' run 'echo 1240000 1240000 > /sys/kernel/mva_tesst/regulators/buck1_set'
QWCTGAOUSLQWCTGAOUSL 0
root@arm:~# echo 'FCON''QHYEYJ'
FCONQHYEYJ
root@arm:~# MARKER='HEZG''TFTNAS' run 'i2cget -y -f 1 0x4b 0xd'
HEZGTFTNAS0x36
HEZGTFTNAS 0
root@arm:~# echo 'CBWQ''QMGFAG'
CBWQQMGFAG
root@arm:~# MARKER='MLJY''JTKLGB' run 'echo 1250000 1250000 > /sys/kernel/mva_tesst/regulators/buck1_set'
MLJYJTKLGBMLJYJTKLGB 0
root@arm:~# echo 'USQW''FZOOVQ'
USQWFZOOVQ
root@arm:~# MARKER='APWY''XSBXPS' run 'i2cget -y -f 1 0x4b 0xd'
APWYXSBXPS0x37
APWYXSBXPS 0
root@arm:~# echo 'YTPM''PESFBE'
YTPMPESFBE
root@arm:~# MARKER='JKFS''MUKEFL' run 'echo 1260000 1260000 > /sys/kernel/mva_tesst/regulators/buck1_set'
JKFSMUKEFLJKFSMUKEFL 0
root@arm:~# echo 'LGHX''XFNAAG'
LGHXXFNAAG
root@arm:~# MARKER='QGKQ''OFLKQM' run 'i2cget -y -f 1 0x4b 0xd'
QGKQOFLKQM0x38
QGKQOFLKQM 0
root@arm:~# echo 'KVVL''KQUCOG'
KVVLKQUCOG
root@arm:~# MARKER='GPQE''QQKBPW' run 'echo 1270000 1270000 > /sys/kernel/mva_tesst/regulators/buck1_set'
GPQEQQKBPWGPQEQQKBPW 0
root@arm:~# echo 'WYOL''FEKYYO'
WYOLFEKYYO
root@arm:~# MARKER='ZSKM''HQFWWH' run 'i2cget -y -f 1 0x4b 0xd'
ZSKMHQFWWH0x39
ZSKMHQFWWH 0
root@arm:~# echo 'YYUL''XGQHXQ'
YYULXGQHXQ
root@arm:~# MARKER='TXCB''YNJZQE' run 'echo 1280000 1280000 > /sys/kernel/mva_tesst/regulators/buck1_set'
TXCBYNJZQETXCBYNJZQE 0
root@arm:~# echo 'QVAU''UGTOKO'
QVAUUGTOKO
root@arm:~# MARKER='QGEV''FUAOUP' run 'i2cget -y -f 1 0x4b 0xd'
QGEVFUAOUP0x3a
QGEVFUAOUP 0
root@arm:~# echo 'FSNW''EMQHXZ'
FSNWEMQHXZ
root@arm:~# MARKER='KAVF''THZOEK' run 'echo 1290000 1290000 > /sys/kernel/mva_tesst/regulators/buck1_set'
KAVFTHZOEKKAVFTHZOEK 0
root@arm:~# echo 'ESFJ''ANMQNP'
ESFJANMQNP
root@arm:~# MARKER='XAMO''EYGHVF' run 'i2cget -y -f 1 0x4b 0xd'
XAMOEYGHVF0x3b
XAMOEYGHVF 0
root@arm:~# echo 'GFJZ''MBMXPW'
GFJZMBMXPW
root@arm:~# MARKER='GFWU''GXENYZ' run 'echo 1300000 1300000 > /sys/kernel/mva_tesst/regulators/buck1_set'
GFWUGXENYZGFWUGXENYZ 0
root@arm:~# echo 'HCNY''FCYAAP'
HCNYFCYAAP
root@arm:~# MARKER='VFPA''PKZCYA' run 'i2cget -y -f 1 0x4b 0xd'
VFPAPKZCYA0x3c
VFPAPKZCYA 0
root@arm:~# echo 'YWFU''KYYHOF'
YWFUKYYHOF
root@arm:~# MARKER='EMHK''HBBTYX' run 'grep -r -l rohm,bd71847 /proc/device-tree  | sed '"'"'s![^/]*$!!'"'"''
EMHKHBBTYX/proc/device-tree/ocp/interconnect@48000000/segment@0/target-module@2a000/i2c@0/pmic@4b/
EMHKHBBTYX 0
root@arm:~# echo 'FOLM''QUOUMW'
FOLMQUOUMW
root@arm:~# MARKER='MTKS''OSXLNZ' run 'test -f /proc/device-tree/ocp/interconnectt\@48000000/segment\@0/target-module\@2a000/i2c\@0/pmic\@4b/regulators/BUCK2/rohmm,no-regulator-enable-control ;echo $?'
MTKSOSXLNZ1
MTKSOSXLNZ 0
root@arm:~# echo 'ZJQK''VUHZVX'
ZJQKVUHZVX
root@arm:~# MARKER='XFSW''ATVKCX' run 'i2cget -y -f 1 0x4b 0x6'
XFSWATVKCX0x43
XFSWATVKCX 0
root@arm:~# echo 'WVKB''LOKMKQ'
WVKBLOKMKQ
root@arm:~# MARKER='KXNX''NFQJWG' run 'echo 700000 700000 > /sys/kernel/mva_test//regulators/buck2_set'
KXNXNFQJWGKXNXNFQJWG 0
root@arm:~# echo 'KOFN''BGOAWK'
KOFNBGOAWK
root@arm:~# MARKER='WLAE''WLZTMU' run 'i2cget -y -f 1 0x4b 0x10'
WLAEWLZTMU0x00
WLAEWLZTMU 0
root@arm:~# echo 'PNOM''GTFEXA'
PNOMGTFEXA
root@arm:~# MARKER='HVTP''CBUFHN' run 'echo 710000 710000 > /sys/kernel/mva_test//regulators/buck2_set'
HVTPCBUFHNHVTPCBUFHN 0
root@arm:~# echo 'CMNT''VHZBTQ'
CMNTVHZBTQ
root@arm:~# MARKER='KCSU''FBCMJU' run 'i2cget -y -f 1 0x4b 0x10'
KCSUFBCMJU0x01
KCSUFBCMJU 0
root@arm:~# echo 'ZHYT''XZTETY'
ZHYTXZTETY
root@arm:~# MARKER='HMFS''NZFKVS' run 'echo 720000 720000 > /sys/kernel/mva_test//regulators/buck2_set'
HMFSNZFKVSHMFSNZFKVS 0
root@arm:~# echo 'TSEY''CEAHFA'
TSEYCEAHFA
root@arm:~# MARKER='SSBW''WFMEFZ' run 'i2cget -y -f 1 0x4b 0x10'
SSBWWFMEFZ0x02
SSBWWFMEFZ 0
root@arm:~# echo 'MTAM''CQNGXW'
MTAMCQNGXW
root@arm:~# MARKER='JCQB''FCSGWC' run 'echo 730000 730000 > /sys/kernel/mva_test//regulators/buck2_set'
JCQBFCSGWCJCQBFCSGWC 0
root@arm:~# echo 'BHTK''ZUHQJZ'
BHTKZUHQJZ
root@arm:~# MARKER='MJEK''SCGLEH' run 'i2cget -y -f 1 0x4b 0x10'
MJEKSCGLEH0x03
MJEKSCGLEH 0
root@arm:~# echo 'ZSJQ''OWTUKJ'
ZSJQOWTUKJ
root@arm:~# MARKER='FLUT''LWTKYS' run 'echo 740000 740000 > /sys/kernel/mva_test//regulators/buck2_set'
FLUTLWTKYSFLUTLWTKYS 0
root@arm:~# echo 'NJSX''WVNOVB'
NJSXWVNOVB
root@arm:~# MARKER='VYKK''KAQZLH' run 'i2cget -y -f 1 0x4b 0x10'
VYKKKAQZLH0x04
VYKKKAQZLH 0
root@arm:~# echo 'VFJW''LCJZAF'
VFJWLCJZAF
root@arm:~# MARKER='PZVT''QPCLET' run 'echo 750000 750000 > /sys/kernel/mva_test//regulators/buck2_set'
PZVTQPCLETPZVTQPCLET 0
root@arm:~# echo 'EQLZ''SEXKWY'
EQLZSEXKWY
root@arm:~# MARKER='WWXJ''JZTOEZ' run 'i2cget -y -f 1 0x4b 0x10'
WWXJJZTOEZ0x05
WWXJJZTOEZ 0
root@arm:~# echo 'FCUH''MFGNKL'
FCUHMFGNKL
root@arm:~# MARKER='EVXS''ZGBZPS' run 'echo 760000 760000 > /sys/kernel/mva_test//regulators/buck2_set'
EVXSZGBZPSEVXSZGBZPS 0
root@arm:~# echo 'NPWB''UMSBEO'
NPWBUMSBEO
root@arm:~# MARKER='XPZM''FQWHHO' run 'i2cget -y -f 1 0x4b 0x10'
XPZMFQWHHO0x06
XPZMFQWHHO 0
root@arm:~# echo 'PSPC''VJTPYA'
PSPCVJTPYA
root@arm:~# MARKER='PTBE''PTZBEJ' run 'echo 770000 770000 > /sys/kernel/mva_test//regulators/buck2_set'
PTBEPTZBEJPTBEPTZBEJ 0
root@arm:~# echo 'NGPB''QUTTLW'
NGPBQUTTLW
root@arm:~# MARKER='PAPV''JPOCLM' run 'i2cget -y -f 1 0x4b 0x10'
PAPVJPOCLM0x07
PAPVJPOCLM 0
root@arm:~# echo 'UHMB''SLTXSJ'
UHMBSLTXSJ
root@arm:~# MARKER='WESY''YAYLSB' run 'echo 780000 780000 > /sys/kernel/mva_test//regulators/buck2_set'
WESYYAYLSBWESYYAYLSB 0
root@arm:~# echo 'WMXF''JKKMTT'
WMXFJKKMTT
root@arm:~# MARKER='AONE''VWCENA' run 'i2cget -y -f 1 0x4b 0x10'
AONEVWCENA0x08
AONEVWCENA 0
root@arm:~# echo 'HYEJ''SGOAYB'
HYEJSGOAYB
root@arm:~# MARKER='HUYQ''ZHENOU' run 'echo 790000 790000 > /sys/kernel/mva_test//regulators/buck2_set'
HUYQZHENOUHUYQZHENOU 0
root@arm:~# echo 'CNXT''SMJMYP'
CNXTSMJMYP
root@arm:~# MARKER='KBPY''UFMJPX' run 'i2cget -y -f 1 0x4b 0x10'
KBPYUFMJPX0x09
KBPYUFMJPX 0
root@arm:~# echo 'HYUZ''OQTKHQ'
HYUZOQTKHQ
root@arm:~# MARKER='ZMEY''UXUPWK' run 'echo 800000 800000 > /sys/kernel/mva_test//regulators/buck2_set'
ZMEYUXUPWKZMEYUXUPWK 0
root@arm:~# echo 'ULGE''TLVAGP'
ULGETLVAGP
root@arm:~# MARKER='AXJN''YXEKKW' run 'i2cget -y -f 1 0x4b 0x10'
AXJNYXEKKW0x0a
AXJNYXEKKW 0
root@arm:~# echo 'OVOF''CWQLOF'
OVOFCWQLOF
root@arm:~# MARKER='VWSW''VOACWH' run 'echo 810000 810000 > /sys/kernel/mva_test//regulators/buck2_set'
VWSWVOACWHVWSWVOACWH 0
root@arm:~# echo 'QYOJ''XEXFGL'
QYOJXEXFGL
root@arm:~# MARKER='VBAK''UBNBVG' run 'i2cget -y -f 1 0x4b 0x10'
VBAKUBNBVG0x0b
VBAKUBNBVG 0
root@arm:~# echo 'PNPG''ANUQSH'
PNPGANUQSH
root@arm:~# MARKER='NGHW''PHJOUA' run 'echo 820000 820000 > /sys/kernel/mva_test//regulators/buck2_set'
NGHWPHJOUANGHWPHJOUA 0
root@arm:~# echo 'JQZA''QZAKMV'
JQZAQZAKMV
root@arm:~# MARKER='QCLH''WZEEQK' run 'i2cget -y -f 1 0x4b 0x10'
QCLHWZEEQK0x0c
QCLHWZEEQK 0
root@arm:~# echo 'QHVV''CZNSOL'
QHVVCZNSOL
root@arm:~# MARKER='ZNWU''SVGQEL' run 'echo 830000 830000 > /sys/kernel/mva_test//regulators/buck2_set'
ZNWUSVGQELZNWUSVGQEL 0
root@arm:~# echo 'EMVQ''NKGCKF'
EMVQNKGCKF
root@arm:~# MARKER='NMQG''GOAHZK' run 'i2cget -y -f 1 0x4b 0x10'
NMQGGOAHZK0x0d
NMQGGOAHZK 0
root@arm:~# echo 'CJYW''WPZXMS'
CJYWWPZXMS
root@arm:~# MARKER='PVBQ''GXLBPU' run 'echo 840000 840000 > /sys/kernel/mva_test//regulators/buck2_set'
PVBQGXLBPUPVBQGXLBPU 0
root@arm:~# echo 'LCFX''KNHNWV'
LCFXKNHNWV
root@arm:~# MARKER='BLXA''SFZVSU' run 'i2cget -y -f 1 0x4b 0x10'
BLXASFZVSU0x0e
BLXASFZVSU 0
root@arm:~# echo 'YVAZ''AACTQF'
YVAZAACTQF
root@arm:~# MARKER='KLGP''KGJJPF' run 'echo 850000 850000 > /sys/kernel/mva_test//regulators/buck2_set'
KLGPKGJJPFKLGPKGJJPF 0
root@arm:~# echo 'HSPH''NCUTZB'
HSPHNCUTZB
root@arm:~# MARKER='KMYN''FHOVQG' run 'i2cget -y -f 1 0x4b 0x10'
KMYNFHOVQG0x0f
KMYNFHOVQG 0
root@arm:~# echo 'UJLG''ETMSUL'
UJLGETMSUL
root@arm:~# MARKER='WETB''YHAJJV' run 'echo 860000 860000 > /sys/kernel/mva_test//regulators/buck2_set'
WETBYHAJJVWETBYHAJJV 0
root@arm:~# echo 'ZATW''WOCKWU'
ZATWWOCKWU
root@arm:~# MARKER='WKKK''QGEOTZ' run 'i2cget -y -f 1 0x4b 0x10'
WKKKQGEOTZ0x10
WKKKQGEOTZ 0
root@arm:~# echo 'FCQW''LSUNEP'
FCQWLSUNEP
root@arm:~# MARKER='GNZA''KCJZZW' run 'echo 870000 870000 > /sys/kernel/mva_test//regulators/buck2_set'
GNZAKCJZZWGNZAKCJZZW 0
root@arm:~# echo 'STOY''VYBZGO'
STOYVYBZGO
root@arm:~# MARKER='MVNT''PULXFZ' run 'i2cget -y -f 1 0x4b 0x10'
MVNTPULXFZ0x11
MVNTPULXFZ 0
root@arm:~# echo 'UMWQ''AVNTXX'
UMWQAVNTXX
root@arm:~# MARKER='JPEF''PEXCJQ' run 'echo 880000 880000 > /sys/kernel/mva_test//regulators/buck2_set'
JPEFPEXCJQJPEFPEXCJQ 0
root@arm:~# echo 'XWAV''AYSGQO'
XWAVAYSGQO
root@arm:~# MARKER='OKUS''XOKETJ' run 'i2cget -y -f 1 0x4b 0x10'
OKUSXOKETJ0x12
OKUSXOKETJ 0
root@arm:~# echo 'EJLJ''MBHLMN'
EJLJMBHLMN
root@arm:~# MARKER='BJWC''NUXQMG' run 'echo 890000 890000 > /sys/kernel/mva_test//regulators/buck2_set'
BJWCNUXQMGBJWCNUXQMG 0
root@arm:~# echo 'XWQE''QLNPBM'
XWQEQLNPBM
root@arm:~# MARKER='ENQZ''ELOPPT' run 'i2cget -y -f 1 0x4b 0x10'
ENQZELOPPT0x13
ENQZELOPPT 0
root@arm:~# echo 'VWSN''PANWCU'
VWSNPANWCU
root@arm:~# MARKER='NXLT''YOFTQQ' run 'echo 900000 900000 > /sys/kernel/mva_test//regulators/buck2_set'
NXLTYOFTQQNXLTYOFTQQ 0
root@arm:~# echo 'FTQN''NGGKAN'
FTQNNGGKAN
root@arm:~# MARKER='GQUQ''TYWBJZ' run 'i2cget -y -f 1 0x4b 0x10'
GQUQTYWBJZ0x14
GQUQTYWBJZ 0
root@arm:~# echo 'AGQW''FGNEYF'
AGQWFGNEYF
root@arm:~# MARKER='KKGB''EVLBQQ' run 'echo 910000 910000 > /sys/kernel/mva_test//regulators/buck2_set'
KKGBEVLBQQKKGBEVLBQQ 0
root@arm:~# echo 'JXGZ''AFPKSC'
JXGZAFPKSC
root@arm:~# MARKER='CXAG''FGVBST' run 'i2cget -y -f 1 0x4b 0x10'
CXAGFGVBST0x15
CXAGFGVBST 0
root@arm:~# echo 'ZEVU''VVGAZE'
ZEVUVVGAZE
root@arm:~# MARKER='QQKN''ZFSLWG' run 'echo 920000 920000 > /sys/kernel/mva_test//regulators/buck2_set'
QQKNZFSLWGQQKNZFSLWG 0
root@arm:~# echo 'HPTX''KFCYNU'
HPTXKFCYNU
root@arm:~# MARKER='CMBJ''HPUKCF' run 'i2cget -y -f 1 0x4b 0x10'
CMBJHPUKCF0x16
CMBJHPUKCF 0
root@arm:~# echo 'XZPQ''BVOLYA'
XZPQBVOLYA
root@arm:~# MARKER='VJCM''AELSCQ' run 'echo 930000 930000 > /sys/kernel/mva_test//regulators/buck2_set'
VJCMAELSCQVJCMAELSCQ 0
root@arm:~# echo 'UKHT''OAOBFT'
UKHTOAOBFT
root@arm:~# MARKER='GVXF''AGMTAS' run 'i2cget -y -f 1 0x4b 0x10'
GVXFAGMTAS0x17
GVXFAGMTAS 0
root@arm:~# echo 'EENA''XMBFMZ'
EENAXMBFMZ
root@arm:~# MARKER='ZKAK''QXABYU' run 'echo 940000 940000 > /sys/kernel/mva_test//regulators/buck2_set'
ZKAKQXABYUZKAKQXABYU 0
root@arm:~# echo 'ZAGQ''EQUSYE'
ZAGQEQUSYE
root@arm:~# MARKER='EMSG''GEXNWS' run 'i2cget -y -f 1 0x4b 0x10'
EMSGGEXNWS0x18
EMSGGEXNWS 0
root@arm:~# echo 'TKPW''ENLMUS'
TKPWENLMUS
root@arm:~# MARKER='MVQA''OEAYUB' run 'echo 950000 950000 > /sys/kernel/mva_test//regulators/buck2_set'
MVQAOEAYUBMVQAOEAYUB 0
root@arm:~# echo 'FWPX''YPNGPC'
FWPXYPNGPC
root@arm:~# MARKER='VTGX''ESOHZV' run 'i2cget -y -f 1 0x4b 0x10'
VTGXESOHZV0x19
VTGXESOHZV 0
root@arm:~# echo 'TBAG''SQWEOW'
TBAGSQWEOW
root@arm:~# MARKER='YBGM''EABBBT' run 'echo 960000 960000 > /sys/kernel/mva_test//regulators/buck2_set'
YBGMEABBBTYBGMEABBBT 0
root@arm:~# echo 'LSOS''NYOPPS'
LSOSNYOPPS
root@arm:~# MARKER='WZGQ''PFEKSO' run 'i2cget -y -f 1 0x4b 0x10'
WZGQPFEKSO0x1a
WZGQPFEKSO 0
root@arm:~# echo 'PMNS''NWEEUS'
PMNSNWEEUS
root@arm:~# MARKER='PYBG''QLQWNE' run 'echo 970000 970000 > /sys/kernel/mva_test//regulators/buck2_set'
PYBGQLQWNEPYBGQLQWNE 0
root@arm:~# echo 'LBBG''OXZSAG'
LBBGOXZSAG
root@arm:~# MARKER='NQMX''BMEPFZ' run 'i2cget -y -f 1 0x4b 0x10'
NQMXBMEPFZ0x1b
NQMXBMEPFZ 0
root@arm:~# echo 'UMKH''FVWSHS'
UMKHFVWSHS
root@arm:~# MARKER='BXLG''WQGWKK' run 'echo 980000 980000 > /sys/kernel/mva_test//regulators/buck2_set'
BXLGWQGWKKBXLGWQGWKK 0
root@arm:~# echo 'TQKG''JBUCLS'
TQKGJBUCLS
root@arm:~# MARKER='BJEF''WXYQNV' run 'i2cget -y -f 1 0x4b 0x10'
BJEFWXYQNV0x1c
BJEFWXYQNV 0
root@arm:~# echo 'CZZH''NTUKWQ'
CZZHNTUKWQ
root@arm:~# MARKER='SPMT''MBSBXX' run 'echo 990000 990000 > /sys/kernel/mva_test//regulators/buck2_set'
SPMTMBSBXXSPMTMBSBXX 0
root@arm:~# echo 'LGBT''YBAPYL'
LGBTYBAPYL
root@arm:~# MARKER='CMBY''PCXNJS' run 'i2cget -y -f 1 0x4b 0x10'
CMBYPCXNJS0x1d
CMBYPCXNJS 0
root@arm:~# echo 'PUJX''LVMNJZ'
PUJXLVMNJZ
root@arm:~# MARKER='XHNT''GHVMPB' run 'echo 1000000 1000000 > /sys/kernel/mva_tesst/regulators/buck2_set'
XHNTGHVMPBXHNTGHVMPB 0
root@arm:~# echo 'TMCN''SVHOUU'
TMCNSVHOUU
root@arm:~# MARKER='BHVC''OBYSXU' run 'i2cget -y -f 1 0x4b 0x10'
BHVCOBYSXU0x1e
BHVCOBYSXU 0
root@arm:~# echo 'XUMZ''ZTNYFV'
XUMZZTNYFV
root@arm:~# MARKER='NGZJ''LTGOAP' run 'echo 1010000 1010000 > /sys/kernel/mva_tesst/regulators/buck2_set'
NGZJLTGOAPNGZJLTGOAP 0
root@arm:~# echo 'QAJL''XTVSSN'
QAJLXTVSSN
root@arm:~# MARKER='MCMA''HTNOKA' run 'i2cget -y -f 1 0x4b 0x10'
MCMAHTNOKA0x1f
MCMAHTNOKA 0
root@arm:~# echo 'AJGC''YWZPYO'
AJGCYWZPYO
root@arm:~# MARKER='QGSA''LVLZGP' run 'echo 1020000 1020000 > /sys/kernel/mva_tesst/regulators/buck2_set'
QGSALVLZGPQGSALVLZGP 0
root@arm:~# echo 'HKFA''SONUHV'
HKFASONUHV
root@arm:~# MARKER='HKST''FFGSQH' run 'i2cget -y -f 1 0x4b 0x10'
HKSTFFGSQH0x20
HKSTFFGSQH 0
root@arm:~# echo 'YEVY''JBSUKH'
YEVYJBSUKH
root@arm:~# MARKER='ZBPY''TZJEZT' run 'echo 1030000 1030000 > /sys/kernel/mva_tesst/regulators/buck2_set'
ZBPYTZJEZTZBPYTZJEZT 0
root@arm:~# echo 'JCMS''VUBCUN'
JCMSVUBCUN
root@arm:~# MARKER='YCPQ''AUVPNH' run 'i2cget -y -f 1 0x4b 0x10'
YCPQAUVPNH0x21
YCPQAUVPNH 0
root@arm:~# echo 'AAAW''BWMMGP'
AAAWBWMMGP
root@arm:~# MARKER='GSBS''ZZQFXL' run 'echo 1040000 1040000 > /sys/kernel/mva_tesst/regulators/buck2_set'
GSBSZZQFXLGSBSZZQFXL 0
root@arm:~# echo 'OWMN''QOEUJU'
OWMNQOEUJU
root@arm:~# MARKER='CMSV''ONTKVM' run 'i2cget -y -f 1 0x4b 0x10'
CMSVONTKVM0x22
CMSVONTKVM 0
root@arm:~# echo 'TVES''PZXMFU'
TVESPZXMFU
root@arm:~# MARKER='YXLE''ALVQTK' run 'echo 1050000 1050000 > /sys/kernel/mva_tesst/regulators/buck2_set'
YXLEALVQTKYXLEALVQTK 0
root@arm:~# echo 'PAWV''LYVFAC'
PAWVLYVFAC
root@arm:~# MARKER='SEEO''ZHMHJT' run 'i2cget -y -f 1 0x4b 0x10'
SEEOZHMHJT0x23
SEEOZHMHJT 0
root@arm:~# echo 'JWHA''EAPGWK'
JWHAEAPGWK
root@arm:~# MARKER='HWCN''FXQGBJ' run 'echo 1060000 1060000 > /sys/kernel/mva_tesst/regulators/buck2_set'
HWCNFXQGBJHWCNFXQGBJ 0
root@arm:~# echo 'MAUS''WCBWXL'
MAUSWCBWXL
root@arm:~# MARKER='MWSL''WMXVFV' run 'i2cget -y -f 1 0x4b 0x10'
MWSLWMXVFV0x24
MWSLWMXVFV 0
root@arm:~# echo 'AXQT''VSKSFA'
AXQTVSKSFA
root@arm:~# MARKER='VZBV''LSFWJO' run 'echo 1070000 1070000 > /sys/kernel/mva_tesst/regulators/buck2_set'
VZBVLSFWJOVZBVLSFWJO 0
root@arm:~# echo 'NBGZ''QJXTEK'
NBGZQJXTEK
root@arm:~# MARKER='YGJF''MQWHPA' run 'i2cget -y -f 1 0x4b 0x10'
YGJFMQWHPA0x25
YGJFMQWHPA 0
root@arm:~# echo 'BVSX''AYTEKQ'
BVSXAYTEKQ
root@arm:~# MARKER='MWZA''JKOQEZ' run 'echo 1080000 1080000 > /sys/kernel/mva_tesst/regulators/buck2_set'
MWZAJKOQEZMWZAJKOQEZ 0
root@arm:~# echo 'WJHT''QKCQAZ'
WJHTQKCQAZ
root@arm:~# MARKER='FHFN''VKFOOH' run 'i2cget -y -f 1 0x4b 0x10'
FHFNVKFOOH0x26
FHFNVKFOOH 0
root@arm:~# echo 'UOAX''SPEGAE'
UOAXSPEGAE
root@arm:~# MARKER='JVNG''HWKXVC' run 'echo 1090000 1090000 > /sys/kernel/mva_tesst/regulators/buck2_set'
JVNGHWKXVCJVNGHWKXVC 0
root@arm:~# echo 'AZCP''LOAAZJ'
AZCPLOAAZJ
root@arm:~# MARKER='JZMK''VVJVZC' run 'i2cget -y -f 1 0x4b 0x10'
JZMKVVJVZC0x27
JZMKVVJVZC 0
root@arm:~# echo 'WJSX''TAPVSA'
WJSXTAPVSA
root@arm:~# MARKER='PQXY''VAAHEC' run 'echo 1100000 1100000 > /sys/kernel/mva_tesst/regulators/buck2_set'
PQXYVAAHECPQXYVAAHEC 0
root@arm:~# echo 'MTCY''UKUMYL'
MTCYUKUMYL
root@arm:~# MARKER='SSWB''BKPCBZ' run 'i2cget -y -f 1 0x4b 0x10'
SSWBBKPCBZ0x28
SSWBBKPCBZ 0
root@arm:~# echo 'KKCS''NXSGYV'
KKCSNXSGYV
root@arm:~# MARKER='JACM''UUJYCB' run 'echo 1110000 1110000 > /sys/kernel/mva_tesst/regulators/buck2_set'
JACMUUJYCBJACMUUJYCB 0
root@arm:~# echo 'AOPF''HJESSL'
AOPFHJESSL
root@arm:~# MARKER='LZQV''LYYXEV' run 'i2cget -y -f 1 0x4b 0x10'
LZQVLYYXEV0x29
LZQVLYYXEV 0
root@arm:~# echo 'JYFZ''YNLUBA'
JYFZYNLUBA
root@arm:~# MARKER='PJUZ''YESXES' run 'echo 1120000 1120000 > /sys/kernel/mva_tesst/regulators/buck2_set'
PJUZYESXESPJUZYESXES 0
root@arm:~# echo 'OKEC''SCPPVU'
OKECSCPPVU
root@arm:~# MARKER='MQAU''LWNUMH' run 'i2cget -y -f 1 0x4b 0x10'
MQAULWNUMH0x2a
MQAULWNUMH 0
root@arm:~# echo 'SPLQ''EZAWQN'
SPLQEZAWQN
root@arm:~# MARKER='WJPH''NSWGEG' run 'echo 1130000 1130000 > /sys/kernel/mva_tesst/regulators/buck2_set'
WJPHNSWGEGWJPHNSWGEG 0
root@arm:~# echo 'ZJOQ''YXVSOA'
ZJOQYXVSOA
root@arm:~# MARKER='LHPG''UMFKJJ' run 'i2cget -y -f 1 0x4b 0x10'
LHPGUMFKJJ0x2b
LHPGUMFKJJ 0
root@arm:~# echo 'NNGJ''SFANNF'
NNGJSFANNF
root@arm:~# MARKER='XELS''QNXVKB' run 'echo 1140000 1140000 > /sys/kernel/mva_tesst/regulators/buck2_set'
XELSQNXVKBXELSQNXVKB 0
root@arm:~# echo 'ZOPQ''XMGBZT'
ZOPQXMGBZT
root@arm:~# MARKER='AGAM''UTKBZX' run 'i2cget -y -f 1 0x4b 0x10'
AGAMUTKBZX0x2c
AGAMUTKBZX 0
root@arm:~# echo 'CJHM''YNBGMU'
CJHMYNBGMU
root@arm:~# MARKER='PVLL''GSCOQH' run 'echo 1150000 1150000 > /sys/kernel/mva_tesst/regulators/buck2_set'
PVLLGSCOQHPVLLGSCOQH 0
root@arm:~# echo 'HQZU''PLZQOH'
HQZUPLZQOH
root@arm:~# MARKER='XXSV''XVZAJB' run 'i2cget -y -f 1 0x4b 0x10'
XXSVXVZAJB0x2d
XXSVXVZAJB 0
root@arm:~# echo 'WGLJ''VBHEYJ'
WGLJVBHEYJ
root@arm:~# MARKER='AVGH''MFLWBQ' run 'echo 1160000 1160000 > /sys/kernel/mva_tesst/regulators/buck2_set'
AVGHMFLWBQAVGHMFLWBQ 0
root@arm:~# echo 'NNLL''EBWHLC'
NNLLEBWHLC
root@arm:~# MARKER='AOQK''VVHAUF' run 'i2cget -y -f 1 0x4b 0x10'
AOQKVVHAUF0x2e
AOQKVVHAUF 0
root@arm:~# echo 'XSWN''WAHTBQ'
XSWNWAHTBQ
root@arm:~# MARKER='UHAM''ENHTNO' run 'echo 1170000 1170000 > /sys/kernel/mva_tesst/regulators/buck2_set'
UHAMENHTNOUHAMENHTNO 0
root@arm:~# echo 'MHBW''OTXSSX'
MHBWOTXSSX
root@arm:~# MARKER='PAVF''XUPHFH' run 'i2cget -y -f 1 0x4b 0x10'
PAVFXUPHFH0x2f
PAVFXUPHFH 0
root@arm:~# echo 'ZJGZ''KMWJSJ'
ZJGZKMWJSJ
root@arm:~# MARKER='JSZQ''WVUFYM' run 'echo 1180000 1180000 > /sys/kernel/mva_tesst/regulators/buck2_set'
JSZQWVUFYMJSZQWVUFYM 0
root@arm:~# echo 'BZNA''FXTYZW'
BZNAFXTYZW
root@arm:~# MARKER='OBPB''SHNVFO' run 'i2cget -y -f 1 0x4b 0x10'
OBPBSHNVFO0x30
OBPBSHNVFO 0
root@arm:~# echo 'CNFG''POCMAX'
CNFGPOCMAX
root@arm:~# MARKER='ZHZT''TMBOYP' run 'echo 1190000 1190000 > /sys/kernel/mva_tesst/regulators/buck2_set'
ZHZTTMBOYPZHZTTMBOYP 0
root@arm:~# echo 'QSFB''UFYCBW'
QSFBUFYCBW
root@arm:~# MARKER='KEZL''LJUOWJ' run 'i2cget -y -f 1 0x4b 0x10'
KEZLLJUOWJ0x31
KEZLLJUOWJ 0
root@arm:~# echo 'QPVU''TBAYON'
QPVUTBAYON
root@arm:~# MARKER='AXBP''TCTVLZ' run 'echo 1200000 1200000 > /sys/kernel/mva_tesst/regulators/buck2_set'
AXBPTCTVLZAXBPTCTVLZ 0
root@arm:~# echo 'YTLQ''ZYPYWG'
YTLQZYPYWG
root@arm:~# MARKER='QEOB''JXWVZO' run 'i2cget -y -f 1 0x4b 0x10'
QEOBJXWVZO0x32
QEOBJXWVZO 0
root@arm:~# echo 'BZGB''UPHMLW'
BZGBUPHMLW
root@arm:~# MARKER='BXBK''MQFKOE' run 'echo 1210000 1210000 > /sys/kernel/mva_tesst/regulators/buck2_set'
BXBKMQFKOEBXBKMQFKOE 0
root@arm:~# echo 'TXPB''MWFEOM'
TXPBMWFEOM
root@arm:~# MARKER='LUVS''LGSPFL' run 'i2cget -y -f 1 0x4b 0x10'
LUVSLGSPFL0x33
LUVSLGSPFL 0
root@arm:~# echo 'EVTK''WFEWSK'
EVTKWFEWSK
root@arm:~# MARKER='SLMX''YFWBFO' run 'echo 1220000 1220000 > /sys/kernel/mva_tesst/regulators/buck2_set'
SLMXYFWBFOSLMXYFWBFO 0
root@arm:~# echo 'ZEGA''YPZQJU'
ZEGAYPZQJU
root@arm:~# MARKER='YWJJ''VZWHSA' run 'i2cget -y -f 1 0x4b 0x10'
YWJJVZWHSA0x34
YWJJVZWHSA 0
root@arm:~# echo 'WXQP''XEQJAE'
WXQPXEQJAE
root@arm:~# MARKER='PKZV''TNPQUQ' run 'echo 1230000 1230000 > /sys/kernel/mva_tesst/regulators/buck2_set'
PKZVTNPQUQPKZVTNPQUQ 0
root@arm:~# echo 'HOKV''UPXAKH'
HOKVUPXAKH
root@arm:~# MARKER='MAWE''TKYFGF' run 'i2cget -y -f 1 0x4b 0x10'
MAWETKYFGF0x35
MAWETKYFGF 0
root@arm:~# echo 'BXYC''NOGHAZ'
BXYCNOGHAZ
root@arm:~# MARKER='HTCT''MJPCPV' run 'echo 1240000 1240000 > /sys/kernel/mva_tesst/regulators/buck2_set'
HTCTMJPCPVHTCTMJPCPV 0
root@arm:~# echo 'PULX''ZKMFQX'
PULXZKMFQX
root@arm:~# MARKER='XXMH''GTFPQQ' run 'i2cget -y -f 1 0x4b 0x10'
XXMHGTFPQQ0x36
XXMHGTFPQQ 0
root@arm:~# echo 'NOUA''SPCQAX'
NOUASPCQAX
root@arm:~# MARKER='HVBO''POYEFP' run 'echo 1250000 1250000 > /sys/kernel/mva_tesst/regulators/buck2_set'
HVBOPOYEFPHVBOPOYEFP 0
root@arm:~# echo 'HATE''PBMEPJ'
HATEPBMEPJ
root@arm:~# MARKER='CMAZ''OJXBLG' run 'i2cget -y -f 1 0x4b 0x10'
CMAZOJXBLG0x37
CMAZOJXBLG 0
root@arm:~# echo 'FZTG''NXPZVB'
FZTGNXPZVB
root@arm:~# MARKER='QQGU''GSNUHU' run 'echo 1260000 1260000 > /sys/kernel/mva_tesst/regulators/buck2_set'
QQGUGSNUHUQQGUGSNUHU 0
root@arm:~# echo 'LVFT''XLZFOC'
LVFTXLZFOC
root@arm:~# MARKER='KBBK''GQYGNK' run 'i2cget -y -f 1 0x4b 0x10'
KBBKGQYGNK0x38
KBBKGQYGNK 0
root@arm:~# echo 'FAOG''AZKYHF'
FAOGAZKYHF
root@arm:~# MARKER='EOSU''JEKJJQ' run 'echo 1270000 1270000 > /sys/kernel/mva_tesst/regulators/buck2_set'
EOSUJEKJJQEOSUJEKJJQ 0
root@arm:~# echo 'STBW''QXPPUC'
STBWQXPPUC
root@arm:~# MARKER='PGST''TSYKUX' run 'i2cget -y -f 1 0x4b 0x10'
PGSTTSYKUX0x39
PGSTTSYKUX 0
root@arm:~# echo 'WNZX''KZLXCF'
WNZXKZLXCF
root@arm:~# MARKER='NXLM''EVEOGZ' run 'echo 1280000 1280000 > /sys/kernel/mva_tesst/regulators/buck2_set'
NXLMEVEOGZNXLMEVEOGZ 0
root@arm:~# echo 'OPKZ''XMAJFY'
OPKZXMAJFY
root@arm:~# MARKER='OXUA''ZSHXAF' run 'i2cget -y -f 1 0x4b 0x10'
OXUAZSHXAF0x3a
OXUAZSHXAF 0
root@arm:~# echo 'SCWJ''CVNFUY'
SCWJCVNFUY
root@arm:~# MARKER='YXPL''MQVLYE' run 'echo 1290000 1290000 > /sys/kernel/mva_tesst/regulators/buck2_set'
YXPLMQVLYEYXPLMQVLYE 0
root@arm:~# echo 'QFKA''EJQJNA'
QFKAEJQJNA
root@arm:~# MARKER='STNB''NCHOZC' run 'i2cget -y -f 1 0x4b 0x10'
STNBNCHOZC0x3b
STNBNCHOZC 0
root@arm:~# echo 'NWXE''NWFHTS'
NWXENWFHTS
root@arm:~# MARKER='OYLU''GFCTVU' run 'echo 1300000 1300000 > /sys/kernel/mva_tesst/regulators/buck2_set'
OYLUGFCTVUOYLUGFCTVU 0
root@arm:~# echo 'OPFO''XNTQEE'
OPFOXNTQEE
root@arm:~# MARKER='WZAW''KCNCEF' run 'i2cget -y -f 1 0x4b 0x10'
WZAWKCNCEF0x3c
WZAWKCNCEF 0
root@arm:~# echo 'LSCQ''KOWEBS'
LSCQKOWEBS
root@arm:~# MARKER='ZNQO''JTLALE' run 'grep -r -l rohm,bd71847 /proc/device-tree  | sed '"'"'s![^/]*$!!'"'"''
ZNQOJTLALE/proc/device-tree/ocp/interconnect@48000000/segment@0/target-module@2a000/i2c@0/pmic@4b/
ZNQOJTLALE 0
root@arm:~# echo 'ONCQ''VZKNGN'
ONCQVZKNGN
root@arm:~# MARKER='EMNX''CXVLGU' run 'test -f /proc/device-tree/ocp/interconnectt\@48000000/segment\@0/target-module\@2a000/i2c\@0/pmic\@4b/regulators/BUCK3/rohmm,no-regulator-enable-control ;echo $?'
EMNXCXVLGU0
EMNXCXVLGU 0
root@arm:~# echo 'ZVZL''ANCNKZ'
ZVZLANCNKZ
root@arm:~# MARKER='QECX''OTUHAY' run 'echo 700000 700000 > /sys/kernel/mva_test//regulators/buck3_set'
QECXOTUHAYQECXOTUHAY 0
root@arm:~# echo 'GGPU''BFZYYG'
GGPUBFZYYG
root@arm:~# MARKER='YQQX''FSALPX' run 'i2cget -y -f 1 0x4b 0x14'
YQQXFSALPX0x00
YQQXFSALPX 0
root@arm:~# echo 'PTSA''TLOUKO'
PTSATLOUKO
root@arm:~# MARKER='COZA''SFQJSL' run 'echo 800000 800000 > /sys/kernel/mva_test//regulators/buck3_set'
COZASFQJSLCOZASFQJSL 0
root@arm:~# echo 'UNGH''GWYAYM'
UNGHGWYAYM
root@arm:~# MARKER='XHFK''VLVGPX' run 'i2cget -y -f 1 0x4b 0x14'
XHFKVLVGPX0x01
XHFKVLVGPX 0
root@arm:~# echo 'ZAVJ''QLJTYY'
ZAVJQLJTYY
root@arm:~# MARKER='LTJE''MEATUU' run 'echo 900000 900000 > /sys/kernel/mva_test//regulators/buck3_set'
LTJEMEATUULTJEMEATUU 0
root@arm:~# echo 'QEKY''MXFGOB'
QEKYMXFGOB
root@arm:~# MARKER='NQJG''VPXSQA' run 'i2cget -y -f 1 0x4b 0x14'
NQJGVPXSQA0x02
NQJGVPXSQA 0
root@arm:~# echo 'TTTO''GSEGXS'
TTTOGSEGXS
root@arm:~# MARKER='ZKCK''TSFFYT' run 'echo 1000000 1000000 > /sys/kernel/mva_tesst/regulators/buck3_set'
ZKCKTSFFYTZKCKTSFFYT 0
root@arm:~# echo 'TVHM''SPCVJN'
TVHMSPCVJN
root@arm:~# MARKER='ZGYN''WBVTAK' run 'i2cget -y -f 1 0x4b 0x14'
ZGYNWBVTAK0x03
ZGYNWBVTAK 0
root@arm:~# echo 'PSBB''YXUGTV'
PSBBYXUGTV
root@arm:~# MARKER='TZQV''CHGYWT' run 'echo 1050000 1050000 > /sys/kernel/mva_tesst/regulators/buck3_set'
TZQVCHGYWTTZQVCHGYWT 0
root@arm:~# echo 'OUVK''LCUJVC'
OUVKLCUJVC
root@arm:~# MARKER='KAQX''JLCQTM' run 'i2cget -y -f 1 0x4b 0x14'
KAQXJLCQTM0x04
KAQXJLCQTM 0
root@arm:~# echo 'PMLN''VOLOET'
PMLNVOLOET
root@arm:~# MARKER='KNVS''CSSJYM' run 'echo 1100000 1100000 > /sys/kernel/mva_tesst/regulators/buck3_set'
KNVSCSSJYMKNVSCSSJYM 0
root@arm:~# echo 'UBNT''PSFCSG'
UBNTPSFCSG
root@arm:~# MARKER='FUQH''MLMFNC' run 'i2cget -y -f 1 0x4b 0x14'
FUQHMLMFNC0x05
FUQHMLMFNC 0
root@arm:~# echo 'OBSJ''EFQTQV'
OBSJEFQTQV
root@arm:~# MARKER='ONPU''FXTSQB' run 'echo 1200000 1200000 > /sys/kernel/mva_tesst/regulators/buck3_set'
ONPUFXTSQBONPUFXTSQB 0
root@arm:~# echo 'AEOE''ZPBJEG'
AEOEZPBJEG
root@arm:~# MARKER='WZLN''KJHKHB' run 'i2cget -y -f 1 0x4b 0x14'
WZLNKJHKHB0x06
WZLNKJHKHB 0
root@arm:~# echo 'JPNU''LBEQVB'
JPNULBEQVB
root@arm:~# MARKER='PMCN''MQXLEP' run 'echo 1350000 1350000 > /sys/kernel/mva_tesst/regulators/buck3_set'
PMCNMQXLEPPMCNMQXLEP 0
root@arm:~# echo 'EMEU''XQCYBY'
EMEUXQCYBY
root@arm:~# MARKER='OTBV''YJBLOL' run 'i2cget -y -f 1 0x4b 0x14'
OTBVYJBLOL0x07
OTBVYJBLOL 0
root@arm:~# echo 'OPYB''SVXOQY'
OPYBSVXOQY
root@arm:~# MARKER='OJXB''ENWSAN' run 'echo 550000 550000 > /sys/kernel/mva_test//regulators/buck3_set'
OJXBENWSANOJXBENWSAN 0
root@arm:~# echo 'SLBB''MCKNAN'
SLBBMCKNAN
root@arm:~# MARKER='XZAW''PGWTQX' run 'i2cget -y -f 1 0x4b 0x14'
XZAWPGWTQX0x40
XZAWPGWTQX 0
root@arm:~# echo 'NPOP''YJXQUQ'
NPOPYJXQUQ
root@arm:~# MARKER='PVGY''SQAGEK' run 'echo 600000 600000 > /sys/kernel/mva_test//regulators/buck3_set'
PVGYSQAGEKPVGYSQAGEK 0
root@arm:~# echo 'EOHN''KBBSOX'
EOHNKBBSOX
root@arm:~# MARKER='SXMC''NELSGC' run 'i2cget -y -f 1 0x4b 0x14'
SXMCNELSGC0x41
SXMCNELSGC 0
root@arm:~# echo 'WHTZ''OZJNMQ'
WHTZOZJNMQ
root@arm:~# MARKER='NWOX''WBEMHU' run 'echo 650000 650000 > /sys/kernel/mva_test//regulators/buck3_set'
NWOXWBEMHUNWOXWBEMHU 0
root@arm:~# echo 'TNEX''NABFMU'
TNEXNABFMU
root@arm:~# MARKER='SAUT''EEKNVJ' run 'i2cget -y -f 1 0x4b 0x14'
SAUTEEKNVJ0x42
SAUTEEKNVJ 0
root@arm:~# echo 'HACF''PLHTYP'
HACFPLHTYP
root@arm:~# MARKER='HOFM''AEAJFP' run 'echo 700000 700000 > /sys/kernel/mva_test//regulators/buck3_set'
HOFMAEAJFPHOFMAEAJFP 0
root@arm:~# echo 'NMPU''OTCBMT'
NMPUOTCBMT
root@arm:~# MARKER='ZMSN''NZMKLU' run 'i2cget -y -f 1 0x4b 0x14'
ZMSNNZMKLU0x00
ZMSNNZMKLU 0
root@arm:~# echo 'QBXE''EZMSNH'
QBXEEZMSNH
root@arm:~# MARKER='TBQQ''KUHETH' run 'echo 750000 750000 > /sys/kernel/mva_test//regulators/buck3_set'
TBQQKUHETHTBQQKUHETH 0
root@arm:~# echo 'KTCH''XSGVHH'
KTCHXSGVHH
root@arm:~# MARKER='LLGN''GGEKUJ' run 'i2cget -y -f 1 0x4b 0x14'
LLGNGGEKUJ0x44
LLGNGGEKUJ 0
root@arm:~# echo 'OLLJ''OWYHAS'
OLLJOWYHAS
root@arm:~# MARKER='FPJB''SUUXEC' run 'echo 800000 800000 > /sys/kernel/mva_test//regulators/buck3_set'
FPJBSUUXECFPJBSUUXEC 0
root@arm:~# echo 'NBFY''VXKSBT'
NBFYVXKSBT
root@arm:~# MARKER='BSJZ''WPLTXH' run 'i2cget -y -f 1 0x4b 0x14'
BSJZWPLTXH0x01
BSJZWPLTXH 0
root@arm:~# echo 'OMTP''HWFXAC'
OMTPHWFXAC
root@arm:~# MARKER='PCGZ''UZVELC' run 'echo 850000 850000 > /sys/kernel/mva_test//regulators/buck3_set'
PCGZUZVELCPCGZUZVELC 0
root@arm:~# echo 'CZFS''FAJQJC'
CZFSFAJQJC
root@arm:~# MARKER='AYWY''MFBXQO' run 'i2cget -y -f 1 0x4b 0x14'
AYWYMFBXQO0x46
AYWYMFBXQO 0
root@arm:~# echo 'VFWS''VPAQQF'
VFWSVPAQQF
root@arm:~# MARKER='KKQM''TZTQSE' run 'echo 900000 900000 > /sys/kernel/mva_test//regulators/buck3_set'
KKQMTZTQSEKKQMTZTQSE 0
root@arm:~# echo 'GNWL''KLSGUX'
GNWLKLSGUX
root@arm:~# MARKER='MQGX''EOMMVZ' run 'i2cget -y -f 1 0x4b 0x14'
MQGXEOMMVZ0x02
MQGXEOMMVZ 0
root@arm:~# echo 'FGHZ''NXGGUG'
FGHZNXGGUG
root@arm:~# MARKER='HWHX''HBZUBW' run 'echo 675000 675000 > /sys/kernel/mva_test//regulators/buck3_set'
HWHXHBZUBWHWHXHBZUBW 0
root@arm:~# echo 'WUOL''SNNTHW'
WUOLSNNTHW
root@arm:~# MARKER='WXLL''PTWHYP' run 'i2cget -y -f 1 0x4b 0x14'
WXLLPTWHYP0x80
WXLLPTWHYP 0
root@arm:~# echo 'XHTZ''LTUXFZ'
XHTZLTUXFZ
root@arm:~# MARKER='EYMQ''WOLWEJ' run 'echo 775000 775000 > /sys/kernel/mva_test//regulators/buck3_set'
EYMQWOLWEJEYMQWOLWEJ 0
root@arm:~# echo 'FAJF''XLSYOX'
FAJFXLSYOX
root@arm:~# MARKER='PYPC''JVFGVG' run 'i2cget -y -f 1 0x4b 0x14'
PYPCJVFGVG0x81
PYPCJVFGVG 0
root@arm:~# echo 'PUAX''QYMXTY'
PUAXQYMXTY
root@arm:~# MARKER='NSAA''XGBXZB' run 'echo 875000 875000 > /sys/kernel/mva_test//regulators/buck3_set'
NSAAXGBXZBNSAAXGBXZB 0
root@arm:~# echo 'VFTL''KTGSLU'
VFTLKTGSLU
root@arm:~# MARKER='JQFB''JLLPYV' run 'i2cget -y -f 1 0x4b 0x14'
JQFBJLLPYV0x82
JQFBJLLPYV 0
root@arm:~# echo 'LCOE''JFYAWF'
LCOEJFYAWF
root@arm:~# MARKER='GCSN''GMLNFB' run 'echo 975000 975000 > /sys/kernel/mva_test//regulators/buck3_set'
GCSNGMLNFBGCSNGMLNFB 0
root@arm:~# echo 'OKPN''AJSKPH'
OKPNAJSKPH
root@arm:~# MARKER='VHBV''ELQESH' run 'i2cget -y -f 1 0x4b 0x14'
VHBVELQESH0x83
VHBVELQESH 0
root@arm:~# echo 'PGTZ''OFXHPH'
PGTZOFXHPH
root@arm:~# MARKER='UZOK''UCOEEP' run 'echo 1025000 1025000 > /sys/kernel/mva_tesst/regulators/buck3_set'
UZOKUCOEEPUZOKUCOEEP 0
root@arm:~# echo 'EXUE''USWOSE'
EXUEUSWOSE
root@arm:~# MARKER='OPEU''WTYYOQ' run 'i2cget -y -f 1 0x4b 0x14'
OPEUWTYYOQ0x84
OPEUWTYYOQ 0
root@arm:~# echo 'GBWN''NVUJKQ'
GBWNNVUJKQ
root@arm:~# MARKER='XMNJ''MXBJMB' run 'echo 1075000 1075000 > /sys/kernel/mva_tesst/regulators/buck3_set'
XMNJMXBJMBXMNJMXBJMB 0
root@arm:~# echo 'OAHA''AVBAGP'
OAHAAVBAGP
root@arm:~# MARKER='ZJCG''ZNETWW' run 'i2cget -y -f 1 0x4b 0x14'
ZJCGZNETWW0x85
ZJCGZNETWW 0
root@arm:~# echo 'KEPP''NKHJTX'
KEPPNKHJTX
root@arm:~# MARKER='TUZH''AYEWBY' run 'echo 1175000 1175000 > /sys/kernel/mva_tesst/regulators/buck3_set'
TUZHAYEWBYTUZHAYEWBY 0
root@arm:~# echo 'WVSQ''GQYJCL'
WVSQGQYJCL
root@arm:~# MARKER='MOFF''LTXSWJ' run 'i2cget -y -f 1 0x4b 0x14'
MOFFLTXSWJ0x86
MOFFLTXSWJ 0
root@arm:~# echo 'BTHL''BXLMLZ'
BTHLBXLMLZ
root@arm:~# MARKER='VQVO''CLBSPV' run 'echo 1325000 1325000 > /sys/kernel/mva_tesst/regulators/buck3_set'
VQVOCLBSPVVQVOCLBSPV 0
root@arm:~# echo 'QPPH''AFFBOK'
QPPHAFFBOK
root@arm:~# MARKER='SUKV''SNNOPJ' run 'i2cget -y -f 1 0x4b 0x14'
SUKVSNNOPJ0x87
SUKVSNNOPJ 0
root@arm:~# echo 'SUVQ''GSKMNT'
SUVQGSKMNT
root@arm:~# MARKER='WGOA''UGYAUJ' run 'grep -r -l rohm,bd71847 /proc/device-tree  | sed '"'"'s![^/]*$!!'"'"''
WGOAUGYAUJ/proc/device-tree/ocp/interconnect@48000000/segment@0/target-module@2a000/i2c@0/pmic@4b/
WGOAUGYAUJ 0
root@arm:~# echo 'XBVC''OXMCPX'
XBVCOXMCPX
root@arm:~# MARKER='HJME''KPAXUS' run 'test -f /proc/device-tree/ocp/interconnectt\@48000000/segment\@0/target-module\@2a000/i2c\@0/pmic\@4b/regulators/BUCK4/rohmm,no-regulator-enable-control ;echo $?'
HJMEKPAXUS1
HJMEKPAXUS 0
root@arm:~# echo 'VCOL''AXVZUS'
VCOLAXVZUS
root@arm:~# MARKER='ENEP''QQMGLQ' run 'i2cget -y -f 1 0x4b 0xa'
ENEPQQMGLQ0x02
ENEPQQMGLQ 0
root@arm:~# echo 'ZNHN''QKNBWO'
ZNHNQKNBWO
root@arm:~# MARKER='PKCN''FKUUEE' run 'echo 3000000 3000000 > /sys/kernel/mva_tesst/regulators/buck4_set'
PKCNFKUUEEPKCNFKUUEE 0
root@arm:~# echo 'JQJX''MYCMVP'
JQJXMYCMVP
root@arm:~# MARKER='UNEZ''ZYONAH' run 'i2cget -y -f 1 0x4b 0x15'
UNEZZYONAH0x00
UNEZZYONAH 0
root@arm:~# echo 'HGXO''VCYUBF'
HGXOVCYUBF
root@arm:~# MARKER='YTJT''ZUHYZP' run 'echo 3100000 3100000 > /sys/kernel/mva_tesst/regulators/buck4_set'
YTJTZUHYZPYTJTZUHYZP 0
root@arm:~# echo 'SSZY''VFZYAZ'
SSZYVFZYAZ
root@arm:~# MARKER='YGMW''ZSCGYW' run 'i2cget -y -f 1 0x4b 0x15'
YGMWZSCGYW0x01
YGMWZSCGYW 0
root@arm:~# echo 'UUWO''VUABPZ'
UUWOVUABPZ
root@arm:~# MARKER='XJNA''YOEJFJ' run 'echo 3200000 3200000 > /sys/kernel/mva_tesst/regulators/buck4_set'
XJNAYOEJFJXJNAYOEJFJ 0
root@arm:~# echo 'BJZB''OGTYKC'
BJZBOGTYKC
root@arm:~# MARKER='BUYY''QGXTSF' run 'i2cget -y -f 1 0x4b 0x15'
BUYYQGXTSF0x02
BUYYQGXTSF 0
root@arm:~# echo 'GLEW''NVXFUU'
GLEWNVXFUU
root@arm:~# MARKER='KXUA''UFSXPM' run 'echo 3300000 3300000 > /sys/kernel/mva_tesst/regulators/buck4_set'
KXUAUFSXPMKXUAUFSXPM 0
root@arm:~# echo 'MQVP''FSGOMO'
MQVPFSGOMO
root@arm:~# MARKER='GOJW''VVTAYA' run 'i2cget -y -f 1 0x4b 0x15'
GOJWVVTAYA0x03
GOJWVVTAYA 0
root@arm:~# echo 'AFMV''CXOYEE'
AFMVCXOYEE
root@arm:~# MARKER='WMAA''CNVUXZ' run 'echo 2600000 2600000 > /sys/kernel/mva_tesst/regulators/buck4_set'
WMAACNVUXZWMAACNVUXZ 0
root@arm:~# echo 'TNGA''TYLZAC'
TNGATYLZAC
root@arm:~# MARKER='KLGT''MMMAQS' run 'i2cget -y -f 1 0x4b 0x15'
KLGTMMMAQS0x40
KLGTMMMAQS 0
root@arm:~# echo 'KQCQ''EJOLCX'
KQCQEJOLCX
root@arm:~# MARKER='XZKO''JQLMJE' run 'echo 2700000 2700000 > /sys/kernel/mva_tesst/regulators/buck4_set'
XZKOJQLMJEXZKOJQLMJE 0
root@arm:~# echo 'NJWU''XEZUYY'
NJWUXEZUYY
root@arm:~# MARKER='AZAU''UVVJXF' run 'i2cget -y -f 1 0x4b 0x15'
AZAUUVVJXF0x41
AZAUUVVJXF 0
root@arm:~# echo 'QAOG''ZOKZWJ'
QAOGZOKZWJ
root@arm:~# MARKER='TKOO''MQVBWX' run 'echo 2800000 2800000 > /sys/kernel/mva_tesst/regulators/buck4_set'
TKOOMQVBWXTKOOMQVBWX 0
root@arm:~# echo 'ABZW''JGCQES'
ABZWJGCQES
root@arm:~# MARKER='BXTF''SHGBAH' run 'i2cget -y -f 1 0x4b 0x15'
BXTFSHGBAH0x42
BXTFSHGBAH 0
root@arm:~# echo 'JMPU''UHJUGY'
JMPUUHJUGY
root@arm:~# MARKER='HCYL''EJGJXS' run 'echo 2900000 2900000 > /sys/kernel/mva_tesst/regulators/buck4_set'
HCYLEJGJXSHCYLEJGJXS 0
root@arm:~# echo 'UOAW''PGLUXN'
UOAWPGLUXN
root@arm:~# MARKER='ZFCG''NZELOC' run 'i2cget -y -f 1 0x4b 0x15'
ZFCGNZELOC0x43
ZFCGNZELOC 0
root@arm:~# echo 'SCWH''ZEUBKQ'
SCWHZEUBKQ
root@arm:~# MARKER='EKFT''BCEEEV' run 'grep -r -l rohm,bd71847 /proc/device-tree  | sed '"'"'s![^/]*$!!'"'"''
EKFTBCEEEV/proc/device-tree/ocp/interconnect@48000000/segment@0/target-module@2a000/i2c@0/pmic@4b/
EKFTBCEEEV 0
root@arm:~# echo 'MXMB''ETKAMW'
MXMBETKAMW
root@arm:~# MARKER='MMMC''BOTFTE' run 'test -f /proc/device-tree/ocp/interconnectt\@48000000/segment\@0/target-module\@2a000/i2c\@0/pmic\@4b/regulators/BUCK5/rohmm,no-regulator-enable-control ;echo $?'
MMMCBOTFTE1
MMMCBOTFTE 0
root@arm:~# echo 'QUBS''JXNNHP'
QUBSJXNNHP
root@arm:~# MARKER='WZGA''SSEOTL' run 'i2cget -y -f 1 0x4b 0xb'
WZGASSEOTL0x02
WZGASSEOTL 0
root@arm:~# echo 'FKMT''XNYTHF'
FKMTXNYTHF
root@arm:~# MARKER='NEVF''JGWLGC' run 'echo 1605000 1605000 > /sys/kernel/mva_tesst/regulators/buck5_set'
NEVFJGWLGCNEVFJGWLGC 0
root@arm:~# echo 'TLNT''EUYGZK'
TLNTEUYGZK
root@arm:~# MARKER='PAVH''CXOEHN' run 'i2cget -y -f 1 0x4b 0x16'
PAVHCXOEHN0x00
PAVHCXOEHN 0
root@arm:~# echo 'WFEV''COOWTN'
WFEVCOOWTN
root@arm:~# MARKER='LNYK''SQTCLJ' run 'echo 1695000 1695000 > /sys/kernel/mva_tesst/regulators/buck5_set'
LNYKSQTCLJLNYKSQTCLJ 0
root@arm:~# echo 'OMFQ''VMLWFN'
OMFQVMLWFN
root@arm:~# MARKER='HKYQ''HKYFEO' run 'i2cget -y -f 1 0x4b 0x16'
HKYQHKYFEO0x01
HKYQHKYFEO 0
root@arm:~# echo 'HTGT''HQVJMN'
HTGTHQVJMN
root@arm:~# MARKER='XPHS''UKAFQW' run 'echo 1755000 1755000 > /sys/kernel/mva_tesst/regulators/buck5_set'
XPHSUKAFQWXPHSUKAFQW 0
root@arm:~# echo 'NHGB''BVUPJT'
NHGBBVUPJT
root@arm:~# MARKER='SLPT''WTQOHV' run 'i2cget -y -f 1 0x4b 0x16'
SLPTWTQOHV0x02
SLPTWTQOHV 0
root@arm:~# echo 'WTBV''EEYVGQ'
WTBVEEYVGQ
root@arm:~# MARKER='KESU''OTYNFY' run 'echo 1800000 1800000 > /sys/kernel/mva_tesst/regulators/buck5_set'
KESUOTYNFYKESUOTYNFY 0
root@arm:~# echo 'YXBK''SZJZSF'
YXBKSZJZSF
root@arm:~# MARKER='XTEO''ZLSEBA' run 'i2cget -y -f 1 0x4b 0x16'
XTEOZLSEBA0x03
XTEOZLSEBA 0
root@arm:~# echo 'GUAC''NGNXMP'
GUACNGNXMP
root@arm:~# MARKER='FVNT''PBLFHA' run 'echo 1845000 1845000 > /sys/kernel/mva_tesst/regulators/buck5_set'
FVNTPBLFHAFVNTPBLFHA 0
root@arm:~# echo 'HNVC''XKCPBN'
HNVCXKCPBN
root@arm:~# MARKER='COLZ''JYMOPK' run 'i2cget -y -f 1 0x4b 0x16'
COLZJYMOPK0x04
COLZJYMOPK 0
root@arm:~# echo 'UHXO''NOKJQX'
UHXONOKJQX
root@arm:~# MARKER='GMLS''WKEXOG' run 'echo 1905000 1905000 > /sys/kernel/mva_tesst/regulators/buck5_set'
GMLSWKEXOGGMLSWKEXOG 0
root@arm:~# echo 'CUUZ''SMFJZB'
CUUZSMFJZB
root@arm:~# MARKER='XHYO''YJWOWG' run 'i2cget -y -f 1 0x4b 0x16'
XHYOYJWOWG0x05
XHYOYJWOWG 0
root@arm:~# echo 'PKZU''SSWPXJ'
PKZUSSWPXJ
root@arm:~# MARKER='XYNU''SOSSBL' run 'echo 1950000 1950000 > /sys/kernel/mva_tesst/regulators/buck5_set'
XYNUSOSSBLXYNUSOSSBL 0
root@arm:~# echo 'XFUY''EWTXHP'
XFUYEWTXHP
root@arm:~# MARKER='HLHY''LBHVAL' run 'i2cget -y -f 1 0x4b 0x16'
HLHYLBHVAL0x06
HLHYLBHVAL 0
root@arm:~# echo 'EZWN''AGJQFS'
EZWNAGJQFS
root@arm:~# MARKER='CSPU''WMMSOS' run 'echo 1995000 1995000 > /sys/kernel/mva_tesst/regulators/buck5_set'
CSPUWMMSOSCSPUWMMSOS 0
root@arm:~# echo 'LUEL''ANHEBL'
LUELANHEBL
root@arm:~# MARKER='KXAU''GEYZCF' run 'i2cget -y -f 1 0x4b 0x16'
KXAUGEYZCF0x07
KXAUGEYZCF 0
root@arm:~# echo 'GGMO''YMJYYQ'
GGMOYMJYYQ
root@arm:~# MARKER='WKFJ''TEKZEH' run 'grep -r -l rohm,bd71847 /proc/device-tree  | sed '"'"'s![^/]*$!!'"'"''
WKFJTEKZEH/proc/device-tree/ocp/interconnect@48000000/segment@0/target-module@2a000/i2c@0/pmic@4b/
WKFJTEKZEH 0
root@arm:~# echo 'KAEF''GCQYTO'
KAEFGCQYTO
root@arm:~# MARKER='QZAU''EYSVXO' run 'test -f /proc/device-tree/ocp/interconnectt\@48000000/segment\@0/target-module\@2a000/i2c\@0/pmic\@4b/regulators/BUCK6/rohmm,no-regulator-enable-control ;echo $?'
QZAUEYSVXO1
QZAUEYSVXO 0
root@arm:~# echo 'LJYK''KTMYGE'
LJYKKTMYGE
root@arm:~# MARKER='GNMN''GXTXUS' run 'i2cget -y -f 1 0x4b 0xc'
GNMNGXTXUS0x02
GNMNGXTXUS 0
root@arm:~# echo 'YHVC''KVFXHQ'
YHVCKVFXHQ
root@arm:~# MARKER='ZWHE''CTUNJE' run 'echo 800000 800000 > /sys/kernel/mva_test//regulators/buck6_set'
ZWHECTUNJEZWHECTUNJE 0
root@arm:~# echo 'MAYL''QNHPNV'
MAYLQNHPNV
root@arm:~# MARKER='FEOJ''EMTUPB' run 'i2cget -y -f 1 0x4b 0x17'
FEOJEMTUPB0x00
FEOJEMTUPB 0
root@arm:~# echo 'GNVV''PBHMBG'
GNVVPBHMBG
root@arm:~# MARKER='ANMC''UQTOXE' run 'echo 810000 810000 > /sys/kernel/mva_test//regulators/buck6_set'
ANMCUQTOXEANMCUQTOXE 0
root@arm:~# echo 'ZHTU''AXVQHO'
ZHTUAXVQHO
root@arm:~# MARKER='EKYV''QWPLNK' run 'i2cget -y -f 1 0x4b 0x17'
EKYVQWPLNK0x01
EKYVQWPLNK 0
root@arm:~# echo 'POXS''TWOLQX'
POXSTWOLQX
root@arm:~# MARKER='XGHT''LAMOOJ' run 'echo 820000 820000 > /sys/kernel/mva_test//regulators/buck6_set'
XGHTLAMOOJXGHTLAMOOJ 0
root@arm:~# echo 'BJUV''KJUFOF'
BJUVKJUFOF
root@arm:~# MARKER='ZEOZ''PVZGCZ' run 'i2cget -y -f 1 0x4b 0x17'
ZEOZPVZGCZ0x02
ZEOZPVZGCZ 0
root@arm:~# echo 'FVXU''NLCGHB'
FVXUNLCGHB
root@arm:~# MARKER='BMPX''GPJKOW' run 'echo 830000 830000 > /sys/kernel/mva_test//regulators/buck6_set'
BMPXGPJKOWBMPXGPJKOW 0
root@arm:~# echo 'YVOQ''TFYHLU'
YVOQTFYHLU
root@arm:~# MARKER='PWUC''SLCUFM' run 'i2cget -y -f 1 0x4b 0x17'
PWUCSLCUFM0x03
PWUCSLCUFM 0
root@arm:~# echo 'ZAUH''ESTCOM'
ZAUHESTCOM
root@arm:~# MARKER='FPZB''HPOYHU' run 'echo 840000 840000 > /sys/kernel/mva_test//regulators/buck6_set'
FPZBHPOYHUFPZBHPOYHU 0
root@arm:~# echo 'ZQQZ''XOHBNS'
ZQQZXOHBNS
root@arm:~# MARKER='CTKF''CEWESW' run 'i2cget -y -f 1 0x4b 0x17'
CTKFCEWESW0x04
CTKFCEWESW 0
root@arm:~# echo 'TONB''YXAQHF'
TONBYXAQHF
root@arm:~# MARKER='YMSK''MPSBXA' run 'echo 850000 850000 > /sys/kernel/mva_test//regulators/buck6_set'
YMSKMPSBXAYMSKMPSBXA 0
root@arm:~# echo 'SFZQ''JHBLUL'
SFZQJHBLUL
root@arm:~# MARKER='EKTW''TTALYY' run 'i2cget -y -f 1 0x4b 0x17'
EKTWTTALYY0x05
EKTWTTALYY 0
root@arm:~# echo 'BSQW''SUOOEJ'
BSQWSUOOEJ
root@arm:~# MARKER='PNPP''OFAWAG' run 'echo 860000 860000 > /sys/kernel/mva_test//regulators/buck6_set'
PNPPOFAWAGPNPPOFAWAG 0
root@arm:~# echo 'HQGY''UZWSYQ'
HQGYUZWSYQ
root@arm:~# MARKER='AKFX''QGJEUM' run 'i2cget -y -f 1 0x4b 0x17'
AKFXQGJEUM0x06
AKFXQGJEUM 0
root@arm:~# echo 'QACN''SEHNSB'
QACNSEHNSB
root@arm:~# MARKER='JWBB''CCPKEL' run 'echo 870000 870000 > /sys/kernel/mva_test//regulators/buck6_set'
JWBBCCPKELJWBBCCPKEL 0
root@arm:~# echo 'WWJC''XEGTNV'
WWJCXEGTNV
root@arm:~# MARKER='FBVY''GUKYKJ' run 'i2cget -y -f 1 0x4b 0x17'
FBVYGUKYKJ0x07
FBVYGUKYKJ 0
root@arm:~# echo 'WJQQ''YYZSXQ'
WJQQYYZSXQ
root@arm:~# MARKER='TLOZ''EBZXQZ' run 'echo 880000 880000 > /sys/kernel/mva_test//regulators/buck6_set'
TLOZEBZXQZTLOZEBZXQZ 0
root@arm:~# echo 'AMVZ''TCQMOF'
AMVZTCQMOF
root@arm:~# MARKER='BMGG''MBAKWS' run 'i2cget -y -f 1 0x4b 0x17'
BMGGMBAKWS0x08
BMGGMBAKWS 0
root@arm:~# echo 'UUUB''QXQNXM'
UUUBQXQNXM
root@arm:~# MARKER='LCXU''GNASAS' run 'echo 890000 890000 > /sys/kernel/mva_test//regulators/buck6_set'
LCXUGNASASLCXUGNASAS 0
root@arm:~# echo 'CQNH''AQGVPY'
CQNHAQGVPY
root@arm:~# MARKER='UUZU''ZQZKGA' run 'i2cget -y -f 1 0x4b 0x17'
UUZUZQZKGA0x09
UUZUZQZKGA 0
root@arm:~# echo 'XQBZ''NFNZEX'
XQBZNFNZEX
root@arm:~# MARKER='MVLF''FUEEBU' run 'echo 900000 900000 > /sys/kernel/mva_test//regulators/buck6_set'
MVLFFUEEBUMVLFFUEEBU 0
root@arm:~# echo 'FMFT''TYPNJE'
FMFTTYPNJE
root@arm:~# MARKER='WMQE''LJUXMU' run 'i2cget -y -f 1 0x4b 0x17'
WMQELJUXMU0x0a
WMQELJUXMU 0
root@arm:~# echo 'TPBH''XOJXCN'
TPBHXOJXCN
root@arm:~# MARKER='KMVQ''LGCYVV' run 'echo 910000 910000 > /sys/kernel/mva_test//regulators/buck6_set'
KMVQLGCYVVKMVQLGCYVV 0
root@arm:~# echo 'PPSM''PALOTQ'
PPSMPALOTQ
root@arm:~# MARKER='WLQF''WBNHZM' run 'i2cget -y -f 1 0x4b 0x17'
WLQFWBNHZM0x0b
WLQFWBNHZM 0
root@arm:~# echo 'LWKN''JNBWKJ'
LWKNJNBWKJ
root@arm:~# MARKER='NTUC''TOJBYY' run 'echo 920000 920000 > /sys/kernel/mva_test//regulators/buck6_set'
NTUCTOJBYYNTUCTOJBYY 0
root@arm:~# echo 'QCES''WHTOYS'
QCESWHTOYS
root@arm:~# MARKER='PKTS''XBTJUE' run 'i2cget -y -f 1 0x4b 0x17'
PKTSXBTJUE0x0c
PKTSXBTJUE 0
root@arm:~# echo 'OBWT''CJFHKJ'
OBWTCJFHKJ
root@arm:~# MARKER='TXFK''MALGLS' run 'echo 930000 930000 > /sys/kernel/mva_test//regulators/buck6_set'
TXFKMALGLSTXFKMALGLS 0
root@arm:~# echo 'JOJA''SJFELU'
JOJASJFELU
root@arm:~# MARKER='BKQP''HTCQNW' run 'i2cget -y -f 1 0x4b 0x17'
BKQPHTCQNW0x0d
BKQPHTCQNW 0
root@arm:~# echo 'HFYK''YFBNKY'
HFYKYFBNKY
root@arm:~# MARKER='QNPG''ZSQLJZ' run 'echo 940000 940000 > /sys/kernel/mva_test//regulators/buck6_set'
QNPGZSQLJZQNPGZSQLJZ 0
root@arm:~# echo 'EPGA''MKFTGX'
EPGAMKFTGX
root@arm:~# MARKER='QZTU''BTUOGQ' run 'i2cget -y -f 1 0x4b 0x17'
QZTUBTUOGQ0x0e
QZTUBTUOGQ 0
root@arm:~# echo 'BELL''CBCTMC'
BELLCBCTMC
root@arm:~# MARKER='VPKU''KNBUVU' run 'echo 950000 950000 > /sys/kernel/mva_test//regulators/buck6_set'
VPKUKNBUVUVPKUKNBUVU 0
root@arm:~# echo 'CHCS''QNPSFG'
CHCSQNPSFG
root@arm:~# MARKER='ZUQO''LKHNGH' run 'i2cget -y -f 1 0x4b 0x17'
ZUQOLKHNGH0x0f
ZUQOLKHNGH 0
root@arm:~# echo 'TCBU''EMUGNW'
TCBUEMUGNW
root@arm:~# MARKER='BBCP''UCMUFX' run 'echo 960000 960000 > /sys/kernel/mva_test//regulators/buck6_set'
BBCPUCMUFXBBCPUCMUFX 0
root@arm:~# echo 'PFWK''VWWMKP'
PFWKVWWMKP
root@arm:~# MARKER='HQNM''VYEZCM' run 'i2cget -y -f 1 0x4b 0x17'
HQNMVYEZCM0x10
HQNMVYEZCM 0
root@arm:~# echo 'MWXZ''UEBZXX'
MWXZUEBZXX
root@arm:~# MARKER='XOXY''FXKKBX' run 'echo 970000 970000 > /sys/kernel/mva_test//regulators/buck6_set'
XOXYFXKKBXXOXYFXKKBX 0
root@arm:~# echo 'FPNU''GOKHZL'
FPNUGOKHZL
root@arm:~# MARKER='SUMH''WTCPYB' run 'i2cget -y -f 1 0x4b 0x17'
SUMHWTCPYB0x11
SUMHWTCPYB 0
root@arm:~# echo 'GXPZ''LZVYKA'
GXPZLZVYKA
root@arm:~# MARKER='SFCY''VQSCZW' run 'echo 980000 980000 > /sys/kernel/mva_test//regulators/buck6_set'
SFCYVQSCZWSFCYVQSCZW 0
root@arm:~# echo 'CWWW''AEXOAN'
CWWWAEXOAN
root@arm:~# MARKER='LUEG''EPOQAL' run 'i2cget -y -f 1 0x4b 0x17'
LUEGEPOQAL0x12
LUEGEPOQAL 0
root@arm:~# echo 'XFJC''KWBHKL'
XFJCKWBHKL
root@arm:~# MARKER='UYHV''WMJULV' run 'echo 990000 990000 > /sys/kernel/mva_test//regulators/buck6_set'
UYHVWMJULVUYHVWMJULV 0
root@arm:~# echo 'EFNV''ZZOBQN'
EFNVZZOBQN
root@arm:~# MARKER='SWLG''BBFYVS' run 'i2cget -y -f 1 0x4b 0x17'
SWLGBBFYVS0x13
SWLGBBFYVS 0
root@arm:~# echo 'KPXE''SYFAUE'
KPXESYFAUE
root@arm:~# MARKER='VLQU''OJEZWY' run 'echo 1000000 1000000 > /sys/kernel/mva_tesst/regulators/buck6_set'
VLQUOJEZWYVLQUOJEZWY 0
root@arm:~# echo 'AFBE''TZNEKT'
AFBETZNEKT
root@arm:~# MARKER='PETJ''UYKYXO' run 'i2cget -y -f 1 0x4b 0x17'
PETJUYKYXO0x14
PETJUYKYXO 0
root@arm:~# echo 'NOAZ''ZLBTSC'
NOAZZLBTSC
root@arm:~# MARKER='NHZU''LTCXXB' run 'echo 1010000 1010000 > /sys/kernel/mva_tesst/regulators/buck6_set'
NHZULTCXXBNHZULTCXXB 0
root@arm:~# echo 'WYLW''OVBFYG'
WYLWOVBFYG
root@arm:~# MARKER='MPKH''ETQOWY' run 'i2cget -y -f 1 0x4b 0x17'
MPKHETQOWY0x15
MPKHETQOWY 0
root@arm:~# echo 'ECTF''WNAJUY'
ECTFWNAJUY
root@arm:~# MARKER='OOCG''TVTZTK' run 'echo 1020000 1020000 > /sys/kernel/mva_tesst/regulators/buck6_set'
OOCGTVTZTKOOCGTVTZTK 0
root@arm:~# echo 'LUOO''CAOQYN'
LUOOCAOQYN
root@arm:~# MARKER='HVEF''QQJBFM' run 'i2cget -y -f 1 0x4b 0x17'
HVEFQQJBFM0x16
HVEFQQJBFM 0
root@arm:~# echo 'EGBG''TCQJSC'
EGBGTCQJSC
root@arm:~# MARKER='ETST''VYTYOK' run 'echo 1030000 1030000 > /sys/kernel/mva_tesst/regulators/buck6_set'
ETSTVYTYOKETSTVYTYOK 0
root@arm:~# echo 'SSLX''OEGQNL'
SSLXOEGQNL
root@arm:~# MARKER='EYKK''PZNOSJ' run 'i2cget -y -f 1 0x4b 0x17'
EYKKPZNOSJ0x17
EYKKPZNOSJ 0
root@arm:~# echo 'BYJK''MPYJBJ'
BYJKMPYJBJ
root@arm:~# MARKER='KJAN''ZFZGMH' run 'echo 1040000 1040000 > /sys/kernel/mva_tesst/regulators/buck6_set'
KJANZFZGMHKJANZFZGMH 0
root@arm:~# echo 'QUPB''TGKUMO'
QUPBTGKUMO
root@arm:~# MARKER='VNMW''AMBQKK' run 'i2cget -y -f 1 0x4b 0x17'
VNMWAMBQKK0x18
VNMWAMBQKK 0
root@arm:~# echo 'FOZT''WEXNHH'
FOZTWEXNHH
root@arm:~# MARKER='LAFL''VEMNSV' run 'echo 1050000 1050000 > /sys/kernel/mva_tesst/regulators/buck6_set'
LAFLVEMNSVLAFLVEMNSV 0
root@arm:~# echo 'JHNL''GTVKNK'
JHNLGTVKNK
root@arm:~# MARKER='QHKP''VEGNEX' run 'i2cget -y -f 1 0x4b 0x17'
QHKPVEGNEX0x19
QHKPVEGNEX 0
root@arm:~# echo 'HGXB''XWJHZL'
HGXBXWJHZL
root@arm:~# MARKER='NJZJ''QBSVSF' run 'echo 1060000 1060000 > /sys/kernel/mva_tesst/regulators/buck6_set'
NJZJQBSVSFNJZJQBSVSF 0
root@arm:~# echo 'LKKE''UKTJYL'
LKKEUKTJYL
root@arm:~# MARKER='JZGE''MYBCEU' run 'i2cget -y -f 1 0x4b 0x17'
JZGEMYBCEU0x1a
JZGEMYBCEU 0
root@arm:~# echo 'EMSM''JTETCE'
EMSMJTETCE
root@arm:~# MARKER='ACVV''BWNSEK' run 'echo 1070000 1070000 > /sys/kernel/mva_tesst/regulators/buck6_set'
ACVVBWNSEKACVVBWNSEK 0
root@arm:~# echo 'CMEZ''CKZNSN'
CMEZCKZNSN
root@arm:~# MARKER='XNFL''YYOPWJ' run 'i2cget -y -f 1 0x4b 0x17'
XNFLYYOPWJ0x1b
XNFLYYOPWJ 0
root@arm:~# echo 'XKTX''AHBOJS'
XKTXAHBOJS
root@arm:~# MARKER='PMKX''GAMVNW' run 'echo 1080000 1080000 > /sys/kernel/mva_tesst/regulators/buck6_set'
PMKXGAMVNWPMKXGAMVNW 0
root@arm:~# echo 'VCKJ''CCVMUJ'
VCKJCCVMUJ
root@arm:~# MARKER='BMUH''JTBGHZ' run 'i2cget -y -f 1 0x4b 0x17'
BMUHJTBGHZ0x1c
BMUHJTBGHZ 0
root@arm:~# echo 'OMKG''QOZQGU'
OMKGQOZQGU
root@arm:~# MARKER='GWKJ''VLEZCS' run 'echo 1090000 1090000 > /sys/kernel/mva_tesst/regulators/buck6_set'
GWKJVLEZCSGWKJVLEZCS 0
root@arm:~# echo 'LPOK''KJGCBM'
LPOKKJGCBM
root@arm:~# MARKER='OXHJ''GXSGNV' run 'i2cget -y -f 1 0x4b 0x17'
OXHJGXSGNV0x1d
OXHJGXSGNV 0
root@arm:~# echo 'NQVM''KBZLGT'
NQVMKBZLGT
root@arm:~# MARKER='NFCH''YLAHQN' run 'echo 1100000 1100000 > /sys/kernel/mva_tesst/regulators/buck6_set'
NFCHYLAHQNNFCHYLAHQN 0
root@arm:~# echo 'SMQN''UOBCWL'
SMQNUOBCWL
root@arm:~# MARKER='UZYJ''QULMZX' run 'i2cget -y -f 1 0x4b 0x17'
UZYJQULMZX0x1e
UZYJQULMZX 0
root@arm:~# echo 'FLHV''OEHXGX'
FLHVOEHXGX
root@arm:~# MARKER='GQHH''WCBGQN' run 'echo 1110000 1110000 > /sys/kernel/mva_tesst/regulators/buck6_set'
GQHHWCBGQNGQHHWCBGQN 0
root@arm:~# echo 'NBUQ''ALTWUL'
NBUQALTWUL
root@arm:~# MARKER='PFXC''UTUFTY' run 'i2cget -y -f 1 0x4b 0x17'
PFXCUTUFTY0x1f
PFXCUTUFTY 0
root@arm:~# echo 'TJMV''GXUUFH'
TJMVGXUUFH
root@arm:~# MARKER='SMKK''AVKTJY' run 'echo 1120000 1120000 > /sys/kernel/mva_tesst/regulators/buck6_set'
SMKKAVKTJYSMKKAVKTJY 0
root@arm:~# echo 'TWZJ''MZLHCS'
TWZJMZLHCS
root@arm:~# MARKER='CLXV''BUHPNU' run 'i2cget -y -f 1 0x4b 0x17'
CLXVBUHPNU0x20
CLXVBUHPNU 0
root@arm:~# echo 'JHOG''FPLSAG'
JHOGFPLSAG
root@arm:~# MARKER='BOLK''AHXOCY' run 'echo 1130000 1130000 > /sys/kernel/mva_tesst/regulators/buck6_set'
BOLKAHXOCYBOLKAHXOCY 0
root@arm:~# echo 'BOCX''EKOKTW'
BOCXEKOKTW
root@arm:~# MARKER='JWKL''AWZLCY' run 'i2cget -y -f 1 0x4b 0x17'
JWKLAWZLCY0x21
JWKLAWZLCY 0
root@arm:~# echo 'KGWC''AXTXWT'
KGWCAXTXWT
root@arm:~# MARKER='CUBY''EBLGEA' run 'echo 1140000 1140000 > /sys/kernel/mva_tesst/regulators/buck6_set'
CUBYEBLGEACUBYEBLGEA 0
root@arm:~# echo 'QZJA''PZPFZQ'
QZJAPZPFZQ
root@arm:~# MARKER='JBTS''YAHBJY' run 'i2cget -y -f 1 0x4b 0x17'
JBTSYAHBJY0x22
JBTSYAHBJY 0
root@arm:~# echo 'UXJM''AJQZLZ'
UXJMAJQZLZ
root@arm:~# MARKER='PJWE''UEGUJN' run 'echo 1150000 1150000 > /sys/kernel/mva_tesst/regulators/buck6_set'
PJWEUEGUJNPJWEUEGUJN 0
root@arm:~# echo 'LVPZ''AWONMT'
LVPZAWONMT
root@arm:~# MARKER='PNTL''NUYHVT' run 'i2cget -y -f 1 0x4b 0x17'
PNTLNUYHVT0x23
PNTLNUYHVT 0
root@arm:~# echo 'JMLH''OHEAUN'
JMLHOHEAUN
root@arm:~# MARKER='GLFK''GJSEHA' run 'echo 1160000 1160000 > /sys/kernel/mva_tesst/regulators/buck6_set'
GLFKGJSEHAGLFKGJSEHA 0
root@arm:~# echo 'CKCW''JFCEJG'
CKCWJFCEJG
root@arm:~# MARKER='VCHN''VUXKMU' run 'i2cget -y -f 1 0x4b 0x17'
VCHNVUXKMU0x24
VCHNVUXKMU 0
root@arm:~# echo 'PWNW''ACNXFZ'
PWNWACNXFZ
root@arm:~# MARKER='WZJT''KQYUYZ' run 'echo 1170000 1170000 > /sys/kernel/mva_tesst/regulators/buck6_set'
WZJTKQYUYZWZJTKQYUYZ 0
root@arm:~# echo 'OBEE''ETAMYJ'
OBEEETAMYJ
root@arm:~# MARKER='MFQQ''GWQSWN' run 'i2cget -y -f 1 0x4b 0x17'
MFQQGWQSWN0x25
MFQQGWQSWN 0
root@arm:~# echo 'PZSN''OWOFGX'
PZSNOWOFGX
root@arm:~# MARKER='GSVV''ABKAYU' run 'echo 1180000 1180000 > /sys/kernel/mva_tesst/regulators/buck6_set'
GSVVABKAYUGSVVABKAYU 0
root@arm:~# echo 'XXOF''ATPFWB'
XXOFATPFWB
root@arm:~# MARKER='WLGN''UNOPJN' run 'i2cget -y -f 1 0x4b 0x17'
WLGNUNOPJN0x26
WLGNUNOPJN 0
root@arm:~# echo 'TCVY''OSOSUB'
TCVYOSOSUB
root@arm:~# MARKER='PCLO''QJMSFJ' run 'echo 1190000 1190000 > /sys/kernel/mva_tesst/regulators/buck6_set'
PCLOQJMSFJPCLOQJMSFJ 0
root@arm:~# echo 'UVNP''KTVLTY'
UVNPKTVLTY
root@arm:~# MARKER='KAQH''TJWPFA' run 'i2cget -y -f 1 0x4b 0x17'
KAQHTJWPFA0x27
KAQHTJWPFA 0
root@arm:~# echo 'JBXK''UNAXLQ'
JBXKUNAXLQ
root@arm:~# MARKER='CTJA''XJKUAS' run 'echo 1200000 1200000 > /sys/kernel/mva_tesst/regulators/buck6_set'
CTJAXJKUASCTJAXJKUAS 0
root@arm:~# echo 'VUQJ''JELCMS'
VUQJJELCMS
root@arm:~# MARKER='EMGS''CCLHXB' run 'i2cget -y -f 1 0x4b 0x17'
EMGSCCLHXB0x28
EMGSCCLHXB 0
root@arm:~# echo 'PQXU''ZBKZXE'
PQXUZBKZXE
root@arm:~# MARKER='VXMB''JCWFKX' run 'echo 1210000 1210000 > /sys/kernel/mva_tesst/regulators/buck6_set'
VXMBJCWFKXVXMBJCWFKX 0
root@arm:~# echo 'COWF''YHUFLQ'
COWFYHUFLQ
root@arm:~# MARKER='OFKK''YXBGOV' run 'i2cget -y -f 1 0x4b 0x17'
OFKKYXBGOV0x29
OFKKYXBGOV 0
root@arm:~# echo 'TAVK''GBPLTZ'
TAVKGBPLTZ
root@arm:~# MARKER='YPEU''LQVSNS' run 'echo 1220000 1220000 > /sys/kernel/mva_tesst/regulators/buck6_set'
YPEULQVSNSYPEULQVSNS 0
root@arm:~# echo 'EWOP''XXXLWJ'
EWOPXXXLWJ
root@arm:~# MARKER='WFBG''OZLXPH' run 'i2cget -y -f 1 0x4b 0x17'
WFBGOZLXPH0x2a
WFBGOZLXPH 0
root@arm:~# echo 'QKYV''NYVWNH'
QKYVNYVWNH
root@arm:~# MARKER='TACZ''ASKZKS' run 'echo 1230000 1230000 > /sys/kernel/mva_tesst/regulators/buck6_set'
TACZASKZKSTACZASKZKS 0
root@arm:~# echo 'VWLX''GGBNEY'
VWLXGGBNEY
root@arm:~# MARKER='UQBH''HWGOUV' run 'i2cget -y -f 1 0x4b 0x17'
UQBHHWGOUV0x2b
UQBHHWGOUV 0
root@arm:~# echo 'EFKB''KXKJNT'
EFKBKXKJNT
root@arm:~# MARKER='LPLG''GJNTHL' run 'echo 1240000 1240000 > /sys/kernel/mva_tesst/regulators/buck6_set'
LPLGGJNTHLLPLGGJNTHL 0
root@arm:~# echo 'GLGK''JETKHE'
GLGKJETKHE
root@arm:~# MARKER='NALK''EJWNOG' run 'i2cget -y -f 1 0x4b 0x17'
NALKEJWNOG0x2c
NALKEJWNOG 0
root@arm:~# echo 'OXEP''KWBWGC'
OXEPKWBWGC
root@arm:~# MARKER='TYZW''WGQUJB' run 'echo 1250000 1250000 > /sys/kernel/mva_tesst/regulators/buck6_set'
TYZWWGQUJBTYZWWGQUJB 0
root@arm:~# echo 'SKVJ''UBTMOE'
SKVJUBTMOE
root@arm:~# MARKER='QATY''ABOKNS' run 'i2cget -y -f 1 0x4b 0x17'
QATYABOKNS0x2d
QATYABOKNS 0
root@arm:~# echo 'GPJO''OBEQJG'
GPJOOBEQJG
root@arm:~# MARKER='CXEK''YJATGZ' run 'echo 1260000 1260000 > /sys/kernel/mva_tesst/regulators/buck6_set'
CXEKYJATGZCXEKYJATGZ 0
root@arm:~# echo 'NOQS''YGVHCM'
NOQSYGVHCM
root@arm:~# MARKER='LHQP''HLMEUC' run 'i2cget -y -f 1 0x4b 0x17'
LHQPHLMEUC0x2e
LHQPHLMEUC 0
root@arm:~# echo 'UPWB''WPYHUQ'
UPWBWPYHUQ
root@arm:~# MARKER='KKQV''QWJMPK' run 'echo 1270000 1270000 > /sys/kernel/mva_tesst/regulators/buck6_set'
KKQVQWJMPKKKQVQWJMPK 0
root@arm:~# echo 'FKOE''AFCNMU'
FKOEAFCNMU
root@arm:~# MARKER='FQQQ''CBOJMQ' run 'i2cget -y -f 1 0x4b 0x17'
FQQQCBOJMQ0x2f
FQQQCBOJMQ 0
root@arm:~# echo 'OVQU''SZAUMH'
OVQUSZAUMH
root@arm:~# MARKER='OUHP''YLWTCE' run 'echo 1280000 1280000 > /sys/kernel/mva_tesst/regulators/buck6_set'
OUHPYLWTCEOUHPYLWTCE 0
root@arm:~# echo 'BNAF''YWEZAG'
BNAFYWEZAG
root@arm:~# MARKER='AAXZ''UEXCJA' run 'i2cget -y -f 1 0x4b 0x17'
AAXZUEXCJA0x30
AAXZUEXCJA 0
root@arm:~# echo 'SAEV''OVTBVS'
SAEVOVTBVS
root@arm:~# MARKER='OPQN''FFZJXS' run 'echo 1290000 1290000 > /sys/kernel/mva_tesst/regulators/buck6_set'
OPQNFFZJXSOPQNFFZJXS 0
root@arm:~# echo 'KLHM''SGOJCB'
KLHMSGOJCB
root@arm:~# MARKER='GHPB''LSMBUN' run 'i2cget -y -f 1 0x4b 0x17'
GHPBLSMBUN0x31
GHPBLSMBUN 0
root@arm:~# echo 'NNON''CBOJBX'
NNONCBOJBX
root@arm:~# MARKER='JWYQ''QXGACJ' run 'echo 1300000 1300000 > /sys/kernel/mva_tesst/regulators/buck6_set'
JWYQQXGACJJWYQQXGACJ 0
root@arm:~# echo 'WKFT''UEAWQU'
WKFTUEAWQU
root@arm:~# MARKER='BOKY''PLLZSC' run 'i2cget -y -f 1 0x4b 0x17'
BOKYPLLZSC0x32
BOKYPLLZSC 0
root@arm:~# echo 'NFZN''LLKXGE'
NFZNLLKXGE
root@arm:~# MARKER='KAVU''KBSUUG' run 'echo 1310000 1310000 > /sys/kernel/mva_tesst/regulators/buck6_set'
KAVUKBSUUGKAVUKBSUUG 0
root@arm:~# echo 'USET''OUFNKQ'
USETOUFNKQ
root@arm:~# MARKER='KNGC''LLVTKM' run 'i2cget -y -f 1 0x4b 0x17'
KNGCLLVTKM0x33
KNGCLLVTKM 0
root@arm:~# echo 'GOHW''QVGMFE'
GOHWQVGMFE
root@arm:~# MARKER='PKHP''XXVANM' run 'echo 1320000 1320000 > /sys/kernel/mva_tesst/regulators/buck6_set'
PKHPXXVANMPKHPXXVANM 0
root@arm:~# echo 'MVQN''AVAUBY'
MVQNAVAUBY
root@arm:~# MARKER='SXWH''WNPMYZ' run 'i2cget -y -f 1 0x4b 0x17'
SXWHWNPMYZ0x34
SXWHWNPMYZ 0
root@arm:~# echo 'MCKC''BKZMHB'
MCKCBKZMHB
root@arm:~# MARKER='QWBQ''ECJOMZ' run 'echo 1330000 1330000 > /sys/kernel/mva_tesst/regulators/buck6_set'
QWBQECJOMZQWBQECJOMZ 0
root@arm:~# echo 'QWAY''CPCVMG'
QWAYCPCVMG
root@arm:~# MARKER='NLTK''FQGUUE' run 'i2cget -y -f 1 0x4b 0x17'
NLTKFQGUUE0x35
NLTKFQGUUE 0
root@arm:~# echo 'JAJS''ALSMJL'
JAJSALSMJL
root@arm:~# MARKER='AKJU''KSOBOC' run 'echo 1340000 1340000 > /sys/kernel/mva_tesst/regulators/buck6_set'
AKJUKSOBOCAKJUKSOBOC 0
root@arm:~# echo 'LPNN''ZTWAUG'
LPNNZTWAUG
root@arm:~# MARKER='UBMW''JZTUZV' run 'i2cget -y -f 1 0x4b 0x17'
UBMWJZTUZV0x36
UBMWJZTUZV 0
root@arm:~# echo 'PTJH''ESKBHO'
PTJHESKBHO
root@arm:~# MARKER='GKVG''THZUCS' run 'echo 1350000 1350000 > /sys/kernel/mva_tesst/regulators/buck6_set'
GKVGTHZUCSGKVGTHZUCS 0
root@arm:~# echo 'SOFF''JCMKGT'
SOFFJCMKGT
root@arm:~# MARKER='PHSX''YLLKJW' run 'i2cget -y -f 1 0x4b 0x17'
PHSXYLLKJW0x37
PHSXYLLKJW 0
root@arm:~# echo 'TLOV''NVUAPU'
TLOVNVUAPU
root@arm:~# MARKER='CKHC''TEEYFU' run 'echo 1360000 1360000 > /sys/kernel/mva_tesst/regulators/buck6_set'
CKHCTEEYFUCKHCTEEYFU 0
root@arm:~# echo 'XVVE''EZKSHN'
XVVEEZKSHN
root@arm:~# MARKER='HCGX''NLWZJH' run 'i2cget -y -f 1 0x4b 0x17'
HCGXNLWZJH0x38
HCGXNLWZJH 0
root@arm:~# echo 'VOGZ''OJVZXA'
VOGZOJVZXA
root@arm:~# MARKER='GSXW''EPJXYF' run 'echo 1370000 1370000 > /sys/kernel/mva_tesst/regulators/buck6_set'
GSXWEPJXYFGSXWEPJXYF 0
root@arm:~# echo 'QBET''KPXBGO'
QBETKPXBGO
root@arm:~# MARKER='UOHH''MZJSLE' run 'i2cget -y -f 1 0x4b 0x17'
UOHHMZJSLE0x39
UOHHMZJSLE 0
root@arm:~# echo 'YQSN''ONNSZW'
YQSNONNSZW
root@arm:~# MARKER='PVSC''TVSQHX' run 'echo 1380000 1380000 > /sys/kernel/mva_tesst/regulators/buck6_set'
PVSCTVSQHXPVSCTVSQHX 0
root@arm:~# echo 'UZUW''LHQXEK'
UZUWLHQXEK
root@arm:~# MARKER='MLLS''SXBHYC' run 'i2cget -y -f 1 0x4b 0x17'
MLLSSXBHYC0x3a
MLLSSXBHYC 0
root@arm:~# echo 'KHZK''COXZGB'
KHZKCOXZGB
root@arm:~# MARKER='CKEU''CQXPXT' run 'echo 1390000 1390000 > /sys/kernel/mva_tesst/regulators/buck6_set'
CKEUCQXPXTCKEUCQXPXT 0
root@arm:~# echo 'GQUA''GKSTJB'
GQUAGKSTJB
root@arm:~# MARKER='YTJA''JTXFSO' run 'i2cget -y -f 1 0x4b 0x17'
YTJAJTXFSO0x3b
YTJAJTXFSO 0
root@arm:~# echo 'YBMV''KONBJP'
YBMVKONBJP
root@arm:~# MARKER='XQZU''XWOSEC' run 'echo 1400000 1400000 > /sys/kernel/mva_tesst/regulators/buck6_set'
XQZUXWOSECXQZUXWOSEC 0
root@arm:~# echo 'YTSG''NAPLHE'
YTSGNAPLHE
root@arm:~# MARKER='VUZU''EZCLZH' run 'i2cget -y -f 1 0x4b 0x17'
VUZUEZCLZH0x3c
VUZUEZCLZH 0
root@arm:~# echo 'WNMF''SWYNPO'
WNMFSWYNPO
root@arm:~# MARKER='AFWS''QUCWFF' run 'grep -r -l rohm,bd71847 /proc/device-tree  | sed '"'"'s![^/]*$!!'"'"''
AFWSQUCWFF/proc/device-tree/ocp/interconnect@48000000/segment@0/target-module@2a000/i2c@0/pmic@4b/
AFWSQUCWFF 0
root@arm:~# echo 'XOFQ''LPGWNS'
XOFQLPGWNS
root@arm:~# MARKER='YLUQ''BJZAGA' run 'test -f /proc/device-tree/ocp/interconnectt\@48000000/segment\@0/target-module\@2a000/i2c\@0/pmic\@4b/regulators/LDO1/rohm,,no-regulator-enable-control ;echo $?'
YLUQBJZAGA1
YLUQBJZAGA 0
root@arm:~# echo 'VJSS''SSVHUZ'
VJSSSSVHUZ
root@arm:~# MARKER='QFNN''VVPJNB' run 'i2cget -y -f 1 0x4b 0x18'
QFNNVVPJNB0xa2
QFNNVVPJNB 0
root@arm:~# echo 'VWUO''YZQHCY'
VWUOYZQHCY
