Labgrid Console Logfile for main
Logfile started at 2025-10-29 18:12:53.052606
=== Log starts here ===

root@arm:~# run() { echo -n "$MARKER"; sh -c "$@"; echo "$MARKER $?"; }
root@arm:~# echo 'WGGW''TTCWYM'
WGGWTTCWYM
root@arm:~# MARKER='JNMM''EPLYEH' run 'grep -r -l rohm,bd71847 /proc/device-tree  | sed '"'"'s![^/]*$!!'"'"''
JNMMEPLYEH/proc/device-tree/ocp/interconnect@48000000/segment@0/target-module@2a000/i2c@0/pmic@4b/
JNMMEPLYEH 0
root@arm:~# echo 'FNTV''PPFAKO'
FNTVPPFAKO
root@arm:~# MARKER='GAGZ''HHZYVT' run 'test -f /proc/device-tree/ocp/interconnectt\@48000000/segment\@0/target-module\@2a000/i2c\@0/pmic\@4b/regulators/BUCK1/rohmm,no-regulator-enable-control ;echo $?'
GAGZHHZYVT1
GAGZHHZYVT 0
root@arm:~# echo 'YHWO''NCCULP'
YHWONCCULP
root@arm:~# MARKER='EOPJ''THVMFT' run 'echo 1 > /sys/kernel/mva_test/regulators/bbuck1_en'
EOPJTHVMFTEOPJTHVMFT 0
root@arm:~# echo 'SZOZ''MNJNQZ'
SZOZMNJNQZ
root@arm:~# MARKER='GHUX''OETPES' run 'i2cget -y -f 1 0x4b 0x5'
GHUXOETPES0x03
GHUXOETPES 0
root@arm:~# echo 'PUOW''LYNHON'
PUOWLYNHON
root@arm:~# MARKER='STVV''HENUST' run 'grep -r -l rohm,bd71847 /proc/device-tree  | sed '"'"'s![^/]*$!!'"'"''
STVVHENUST/proc/device-tree/ocp/interconnect@48000000/segment@0/target-module@2a000/i2c@0/pmic@4b/
STVVHENUST 0
root@arm:~# echo 'CGAF''NLESKA'
CGAFNLESKA
root@arm:~# MARKER='GEWY''HWJTQY' run 'test -f /proc/device-tree/ocp/interconnectt\@48000000/segment\@0/target-module\@2a000/i2c\@0/pmic\@4b/regulators/BUCK1/rohmm,no-regulator-enable-control ;echo $?'
GEWYHWJTQY1
GEWYHWJTQY 0
root@arm:~# echo 'XPLQ''QGBUVN'
XPLQQGBUVN
root@arm:~# MARKER='LSMS''BEOKAP' run 'grep -r -l rohm,bd71847 /proc/device-tree  | sed '"'"'s![^/]*$!!'"'"''
LSMSBEOKAP/proc/device-tree/ocp/interconnect@48000000/segment@0/target-module@2a000/i2c@0/pmic@4b/
LSMSBEOKAP 0
root@arm:~# echo 'GFKL''ZNKCPS'
GFKLZNKCPS
root@arm:~# MARKER='NUYF''XAQYZH' run 'test -f /proc/device-tree/ocp/interconnectt\@48000000/segment\@0/target-module\@2a000/i2c\@0/pmic\@4b/regulators/BUCK1/reguulator-always-on ;echo $?'
NUYFXAQYZH1
NUYFXAQYZH 0
root@arm:~# echo 'FCYQ''PGASMX'
FCYQPGASMX
root@arm:~# MARKER='XGSY''TGGMWH' run 'echo 0 > /sys/kernel/mva_test/regulators/bbuck1_en'
XGSYTGGMWHXGSYTGGMWH 0
root@arm:~# echo 'MHBY''NOJXFS'
MHBYNOJXFS
root@arm:~# MARKER='SPFQ''FLABLX' run 'i2cget -y -f 1 0x4b 0x5'
SPFQFLABLX0x02
SPFQFLABLX 0
root@arm:~# echo 'GYOH''OKPTTY'
GYOHOKPTTY
root@arm:~# MARKER='CZTM''VBZSOQ' run 'grep -r -l rohm,bd71847 /proc/device-tree  | sed '"'"'s![^/]*$!!'"'"''
CZTMVBZSOQ/proc/device-tree/ocp/interconnect@48000000/segment@0/target-module@2a000/i2c@0/pmic@4b/
CZTMVBZSOQ 0
root@arm:~# echo 'PXZP''AEGZYG'
PXZPAEGZYG
root@arm:~# MARKER='HYWX''ZENPGM' run 'test -f /proc/device-tree/ocp/interconnectt\@48000000/segment\@0/target-module\@2a000/i2c\@0/pmic\@4b/regulators/BUCK2/rohmm,no-regulator-enable-control ;echo $?'
HYWXZENPGM1
HYWXZENPGM 0
root@arm:~# echo 'XVUW''XAQOAS'
XVUWXAQOAS
root@arm:~# MARKER='MWTE''MVOVAX' run 'echo 1 > /sys/kernel/mva_test/regulators/bbuck2_en'
MWTEMVOVAXMWTEMVOVAX 0
root@arm:~# echo 'OEBT''MCMVFT'
OEBTMCMVFT
root@arm:~# MARKER='UMQU''PYGOKT' run 'i2cget -y -f 1 0x4b 0x6'
UMQUPYGOKT0x43
UMQUPYGOKT 0
root@arm:~# echo 'CSXW''XMCZXC'
CSXWXMCZXC
root@arm:~# MARKER='CZPC''YPPLXT' run 'grep -r -l rohm,bd71847 /proc/device-tree  | sed '"'"'s![^/]*$!!'"'"''
CZPCYPPLXT/proc/device-tree/ocp/interconnect@48000000/segment@0/target-module@2a000/i2c@0/pmic@4b/
CZPCYPPLXT 0
root@arm:~# echo 'LELK''QFNBYJ'
LELKQFNBYJ
root@arm:~# MARKER='TAUY''SVHNVL' run 'test -f /proc/device-tree/ocp/interconnectt\@48000000/segment\@0/target-module\@2a000/i2c\@0/pmic\@4b/regulators/BUCK2/rohmm,no-regulator-enable-control ;echo $?'
TAUYSVHNVL1
TAUYSVHNVL 0
root@arm:~# echo 'KAQL''VZKNEO'
KAQLVZKNEO
root@arm:~# MARKER='MTGX''MMOSBP' run 'grep -r -l rohm,bd71847 /proc/device-tree  | sed '"'"'s![^/]*$!!'"'"''
MTGXMMOSBP/proc/device-tree/ocp/interconnect@48000000/segment@0/target-module@2a000/i2c@0/pmic@4b/
MTGXMMOSBP 0
root@arm:~# echo 'CEBS''CPNSVX'
CEBSCPNSVX
root@arm:~# MARKER='LCNT''LVWHOH' run 'test -f /proc/device-tree/ocp/interconnectt\@48000000/segment\@0/target-module\@2a000/i2c\@0/pmic\@4b/regulators/BUCK2/reguulator-always-on ;echo $?'
LCNTLVWHOH0
LCNTLVWHOH 0
root@arm:~# echo 'GCQA''HBAWJW'
GCQAHBAWJW
root@arm:~# MARKER='GPWZ''UYKTVG' run 'grep -r -l rohm,bd71847 /proc/device-tree  | sed '"'"'s![^/]*$!!'"'"''
GPWZUYKTVG/proc/device-tree/ocp/interconnect@48000000/segment@0/target-module@2a000/i2c@0/pmic@4b/
GPWZUYKTVG 0
root@arm:~# echo 'TUPN''FKOGNE'
TUPNFKOGNE
root@arm:~# MARKER='VLZB''TYYONK' run 'test -f /proc/device-tree/ocp/interconnectt\@48000000/segment\@0/target-module\@2a000/i2c\@0/pmic\@4b/regulators/BUCK3/rohmm,no-regulator-enable-control ;echo $?'
VLZBTYYONK0
VLZBTYYONK 0
root@arm:~# echo 'SGOL''CFXCOJ'
SGOLCFXCOJ
root@arm:~# MARKER='NLHH''GGLPOL' run 'grep -r -l rohm,bd71847 /proc/device-tree  | sed '"'"'s![^/]*$!!'"'"''
NLHHGGLPOL/proc/device-tree/ocp/interconnect@48000000/segment@0/target-module@2a000/i2c@0/pmic@4b/
NLHHGGLPOL 0
root@arm:~# echo 'EMQV''VZLLWX'
EMQVVZLLWX
root@arm:~# MARKER='TJWG''ZJZYHO' run 'test -f /proc/device-tree/ocp/interconnectt\@48000000/segment\@0/target-module\@2a000/i2c\@0/pmic\@4b/regulators/BUCK3/rohmm,no-regulator-enable-control ;echo $?'
TJWGZJZYHO0
TJWGZJZYHO 0
root@arm:~# echo 'CEMJ''CFXVWV'
CEMJCFXVWV
root@arm:~# MARKER='XHYT''TNEUOL' run 'grep -r -l rohm,bd71847 /proc/device-tree  | sed '"'"'s![^/]*$!!'"'"''
XHYTTNEUOL/proc/device-tree/ocp/interconnect@48000000/segment@0/target-module@2a000/i2c@0/pmic@4b/
XHYTTNEUOL 0
root@arm:~# echo 'CVCH''LLHYFQ'
CVCHLLHYFQ
root@arm:~# MARKER='PUPS''KCQUQZ' run 'test -f /proc/device-tree/ocp/interconnectt\@48000000/segment\@0/target-module\@2a000/i2c\@0/pmic\@4b/regulators/BUCK4/rohmm,no-regulator-enable-control ;echo $?'
PUPSKCQUQZ1
PUPSKCQUQZ 0
root@arm:~# echo 'OXTC''YXZAKH'
OXTCYXZAKH
root@arm:~# MARKER='BSQE''WMLHHS' run 'echo 1 > /sys/kernel/mva_test/regulators/bbuck4_en'
BSQEWMLHHSBSQEWMLHHS 0
root@arm:~# echo 'OKAB''MKGPQZ'
OKABMKGPQZ
root@arm:~# MARKER='FBCG''XXLSSC' run 'i2cget -y -f 1 0x4b 0xa'
FBCGXXLSSC0x03
FBCGXXLSSC 0
root@arm:~# echo 'WUZN''AVAKTC'
WUZNAVAKTC
root@arm:~# MARKER='GPFU''GBFNJS' run 'grep -r -l rohm,bd71847 /proc/device-tree  | sed '"'"'s![^/]*$!!'"'"''
GPFUGBFNJS/proc/device-tree/ocp/interconnect@48000000/segment@0/target-module@2a000/i2c@0/pmic@4b/
GPFUGBFNJS 0
root@arm:~# echo 'CCUA''PSXFNG'
CCUAPSXFNG
root@arm:~# MARKER='EQAN''FAYUGJ' run 'test -f /proc/device-tree/ocp/interconnectt\@48000000/segment\@0/target-module\@2a000/i2c\@0/pmic\@4b/regulators/BUCK4/rohmm,no-regulator-enable-control ;echo $?'
EQANFAYUGJ1
EQANFAYUGJ 0
root@arm:~# echo 'BFSO''SJSCHN'
BFSOSJSCHN
root@arm:~# MARKER='EWNF''BZLQMK' run 'grep -r -l rohm,bd71847 /proc/device-tree  | sed '"'"'s![^/]*$!!'"'"''
EWNFBZLQMK/proc/device-tree/ocp/interconnect@48000000/segment@0/target-module@2a000/i2c@0/pmic@4b/
EWNFBZLQMK 0
root@arm:~# echo 'WTFY''VLBMBX'
WTFYVLBMBX
root@arm:~# MARKER='PNEF''BQVVMN' run 'test -f /proc/device-tree/ocp/interconnectt\@48000000/segment\@0/target-module\@2a000/i2c\@0/pmic\@4b/regulators/BUCK4/reguulator-always-on ;echo $?'
PNEFBQVVMN1
PNEFBQVVMN 0
root@arm:~# echo 'PHVJ''XZAJUA'
PHVJXZAJUA
root@arm:~# MARKER='KEWO''CZCZXL' run 'echo 0 > /sys/kernel/mva_test/regulators/bbuck4_en'
KEWOCZCZXLKEWOCZCZXL 0
root@arm:~# echo 'JNPJ''LKTGLL'
JNPJLKTGLL
root@arm:~# MARKER='KYNP''QWQJXE' run 'i2cget -y -f 1 0x4b 0xa'
KYNPQWQJXE0x02
KYNPQWQJXE 0
root@arm:~# echo 'QJTQ''NKZOAN'
QJTQNKZOAN
root@arm:~# MARKER='NBJF''LCUFEE' run 'grep -r -l rohm,bd71847 /proc/device-tree  | sed '"'"'s![^/]*$!!'"'"''
NBJFLCUFEE/proc/device-tree/ocp/interconnect@48000000/segment@0/target-module@2a000/i2c@0/pmic@4b/
NBJFLCUFEE 0
root@arm:~# echo 'LVYX''SWSBLT'
LVYXSWSBLT
root@arm:~# MARKER='PKBW''FAKMXO' run 'test -f /proc/device-tree/ocp/interconnectt\@48000000/segment\@0/target-module\@2a000/i2c\@0/pmic\@4b/regulators/BUCK5/rohmm,no-regulator-enable-control ;echo $?'
PKBWFAKMXO1
PKBWFAKMXO 0
root@arm:~# echo 'NCGS''PAQFHM'
NCGSPAQFHM
root@arm:~# MARKER='BFFC''YAHOPK' run 'echo 1 > /sys/kernel/mva_test/regulators/bbuck5_en'
BFFCYAHOPKBFFCYAHOPK 0
root@arm:~# echo 'NKHM''AQAJHH'
NKHMAQAJHH
root@arm:~# MARKER='NVXN''QTUMSF' run 'i2cget -y -f 1 0x4b 0xb'
NVXNQTUMSF0x03
NVXNQTUMSF 0
root@arm:~# echo 'PJEL''KBGFVO'
PJELKBGFVO
root@arm:~# MARKER='AOCP''BSFGLF' run 'grep -r -l rohm,bd71847 /proc/device-tree  | sed '"'"'s![^/]*$!!'"'"''
AOCPBSFGLF/proc/device-tree/ocp/interconnect@48000000/segment@0/target-module@2a000/i2c@0/pmic@4b/
AOCPBSFGLF 0
root@arm:~# echo 'QBVT''JXOQSE'
QBVTJXOQSE
root@arm:~# MARKER='JKPT''CXSGOF' run 'test -f /proc/device-tree/ocp/interconnectt\@48000000/segment\@0/target-module\@2a000/i2c\@0/pmic\@4b/regulators/BUCK5/rohmm,no-regulator-enable-control ;echo $?'
JKPTCXSGOF1
JKPTCXSGOF 0
root@arm:~# echo 'LZSS''HCEFMN'
LZSSHCEFMN
root@arm:~# MARKER='ZGYO''NYSNOF' run 'grep -r -l rohm,bd71847 /proc/device-tree  | sed '"'"'s![^/]*$!!'"'"''
ZGYONYSNOF/proc/device-tree/ocp/interconnect@48000000/segment@0/target-module@2a000/i2c@0/pmic@4b/
ZGYONYSNOF 0
root@arm:~# echo 'GFNA''GACMAS'
GFNAGACMAS
root@arm:~# MARKER='XMGW''QHUHZQ' run 'test -f /proc/device-tree/ocp/interconnectt\@48000000/segment\@0/target-module\@2a000/i2c\@0/pmic\@4b/regulators/BUCK5/reguulator-always-on ;echo $?'
XMGWQHUHZQ1
XMGWQHUHZQ 0
root@arm:~# echo 'QEZM''PKJCYX'
QEZMPKJCYX
root@arm:~# MARKER='KNUJ''LSGZBN' run 'echo 0 > /sys/kernel/mva_test/regulators/bbuck5_en'
KNUJLSGZBNKNUJLSGZBN 0
root@arm:~# echo 'KHCO''XNMUBT'
KHCOXNMUBT
root@arm:~# MARKER='XYVA''SMLPKZ' run 'i2cget -y -f 1 0x4b 0xb'
XYVASMLPKZ0x02
XYVASMLPKZ 0
root@arm:~# echo 'LJJC''LLOWJB'
LJJCLLOWJB
root@arm:~# MARKER='UZJL''UZSWJY' run 'grep -r -l rohm,bd71847 /proc/device-tree  | sed '"'"'s![^/]*$!!'"'"''
UZJLUZSWJY/proc/device-tree/ocp/interconnect@48000000/segment@0/target-module@2a000/i2c@0/pmic@4b/
UZJLUZSWJY 0
root@arm:~# echo 'LJMH''ZQFHEF'
LJMHZQFHEF
root@arm:~# MARKER='OGJX''FNBGNX' run 'test -f /proc/device-tree/ocp/interconnectt\@48000000/segment\@0/target-module\@2a000/i2c\@0/pmic\@4b/regulators/BUCK6/rohmm,no-regulator-enable-control ;echo $?'
OGJXFNBGNX1
OGJXFNBGNX 0
root@arm:~# echo 'QCPH''KQKEAZ'
QCPHKQKEAZ
root@arm:~# MARKER='KYAN''NNPHNG' run 'echo 1 > /sys/kernel/mva_test/regulators/bbuck6_en'
KYANNNPHNGKYANNNPHNG 0
root@arm:~# echo 'FHBH''NMSFPO'
FHBHNMSFPO
root@arm:~# MARKER='WNZQ''MOULJV' run 'i2cget -y -f 1 0x4b 0xc'
WNZQMOULJV0x03
WNZQMOULJV 0
root@arm:~# echo 'MXNK''GFMVJT'
MXNKGFMVJT
root@arm:~# MARKER='OQSX''KCGJGN' run 'grep -r -l rohm,bd71847 /proc/device-tree  | sed '"'"'s![^/]*$!!'"'"''
OQSXKCGJGN/proc/device-tree/ocp/interconnect@48000000/segment@0/target-module@2a000/i2c@0/pmic@4b/
OQSXKCGJGN 0
root@arm:~# echo 'ZZGH''GSTEWQ'
ZZGHGSTEWQ
root@arm:~# MARKER='EGFA''UWUEFC' run 'test -f /proc/device-tree/ocp/interconnectt\@48000000/segment\@0/target-module\@2a000/i2c\@0/pmic\@4b/regulators/BUCK6/rohmm,no-regulator-enable-control ;echo $?'
EGFAUWUEFC1
EGFAUWUEFC 0
root@arm:~# echo 'TQVF''LLCSNW'
TQVFLLCSNW
root@arm:~# MARKER='EJYG''QMPGAV' run 'grep -r -l rohm,bd71847 /proc/device-tree  | sed '"'"'s![^/]*$!!'"'"''
EJYGQMPGAV/proc/device-tree/ocp/interconnect@48000000/segment@0/target-module@2a000/i2c@0/pmic@4b/
EJYGQMPGAV 0
root@arm:~# echo 'ASZG''PPEAAE'
ASZGPPEAAE
root@arm:~# MARKER='AEQU''WOPMVU' run 'test -f /proc/device-tree/ocp/interconnectt\@48000000/segment\@0/target-module\@2a000/i2c\@0/pmic\@4b/regulators/BUCK6/reguulator-always-on ;echo $?'
AEQUWOPMVU1
AEQUWOPMVU 0
root@arm:~# echo 'XXJU''NEJEPT'
XXJUNEJEPT
root@arm:~# MARKER='TUPB''LYAPCY' run 'echo 0 > /sys/kernel/mva_test/regulators/bbuck6_en'
TUPBLYAPCYTUPBLYAPCY 0
root@arm:~# echo 'AQWQ''MYWCBC'
AQWQMYWCBC
root@arm:~# MARKER='QJGZ''TBWNGY' run 'i2cget -y -f 1 0x4b 0xc'
QJGZTBWNGY0x02
QJGZTBWNGY 0
root@arm:~# echo 'MCGJ''AHWLBS'
MCGJAHWLBS
root@arm:~# MARKER='ZXNT''HUUONJ' run 'grep -r -l rohm,bd71847 /proc/device-tree  | sed '"'"'s![^/]*$!!'"'"''
ZXNTHUUONJ/proc/device-tree/ocp/interconnect@48000000/segment@0/target-module@2a000/i2c@0/pmic@4b/
ZXNTHUUONJ 0
root@arm:~# echo 'LKKP''OOJBAN'
LKKPOOJBAN
root@arm:~# MARKER='EFBG''WXSANK' run 'test -f /proc/device-tree/ocp/interconnectt\@48000000/segment\@0/target-module\@2a000/i2c\@0/pmic\@4b/regulators/LDO1/rohm,,no-regulator-enable-control ;echo $?'
EFBGWXSANK1
EFBGWXSANK 0
root@arm:~# echo 'ONVQ''SXTKFN'
ONVQSXTKFN
root@arm:~# MARKER='PZCZ''JGHLBS' run 'echo 1 > /sys/kernel/mva_test/regulators/bbuck7_en'
PZCZJGHLBSPZCZJGHLBS 0
root@arm:~# echo 'OMEG''LEYCQE'
OMEGLEYCQE
root@arm:~# MARKER='HAUB''HKPAFK' run 'i2cget -y -f 1 0x4b 0x18'
HAUBHKPAFK0xe2
HAUBHKPAFK 0
root@arm:~# echo 'YBGP''ESBOTP'
YBGPESBOTP
root@arm:~# MARKER='PKWM''FTBWLP' run 'grep -r -l rohm,bd71847 /proc/device-tree  | sed '"'"'s![^/]*$!!'"'"''
PKWMFTBWLP/proc/device-tree/ocp/interconnect@48000000/segment@0/target-module@2a000/i2c@0/pmic@4b/
PKWMFTBWLP 0
root@arm:~# echo 'TTKC''YSAVPL'
TTKCYSAVPL
root@arm:~# MARKER='TSBH''NLYXOA' run 'test -f /proc/device-tree/ocp/interconnectt\@48000000/segment\@0/target-module\@2a000/i2c\@0/pmic\@4b/regulators/LDO1/rohm,,no-regulator-enable-control ;echo $?'
TSBHNLYXOA1
TSBHNLYXOA 0
root@arm:~# echo 'GXAG''NNGFOX'
GXAGNNGFOX
root@arm:~# MARKER='ZCSO''TOAKAA' run 'grep -r -l rohm,bd71847 /proc/device-tree  | sed '"'"'s![^/]*$!!'"'"''
ZCSOTOAKAA/proc/device-tree/ocp/interconnect@48000000/segment@0/target-module@2a000/i2c@0/pmic@4b/
ZCSOTOAKAA 0
root@arm:~# echo 'JMLU''ZGOCEK'
JMLUZGOCEK
root@arm:~# MARKER='TVNM''OTUCYO' run 'test -f /proc/device-tree/ocp/interconnectt\@48000000/segment\@0/target-module\@2a000/i2c\@0/pmic\@4b/regulators/LDO1/regullator-always-on ;echo $?'
TVNMOTUCYO1
TVNMOTUCYO 0
root@arm:~# echo 'QMLG''BENSPB'
QMLGBENSPB
root@arm:~# MARKER='GZFS''BJUQOF' run 'echo 0 > /sys/kernel/mva_test/regulators/bbuck7_en'
GZFSBJUQOFGZFSBJUQOF 0
root@arm:~# echo 'VAUM''VQHFJK'
VAUMVQHFJK
root@arm:~# MARKER='HNJQ''WHWOQA' run 'i2cget -y -f 1 0x4b 0x18'
HNJQWHWOQA0xa2
HNJQWHWOQA 0
root@arm:~# echo 'TQXA''QNTMNM'
TQXAQNTMNM
root@arm:~# MARKER='UJMM''ATXPHM' run 'grep -r -l rohm,bd71847 /proc/device-tree  | sed '"'"'s![^/]*$!!'"'"''
UJMMATXPHM/proc/device-tree/ocp/interconnect@48000000/segment@0/target-module@2a000/i2c@0/pmic@4b/
UJMMATXPHM 0
root@arm:~# echo 'FXNY''CUJPFT'
FXNYCUJPFT
root@arm:~# MARKER='UPSA''BWKNHS' run 'test -f /proc/device-tree/ocp/interconnectt\@48000000/segment\@0/target-module\@2a000/i2c\@0/pmic\@4b/regulators/LDO2/rohm,,no-regulator-enable-control ;echo $?'
UPSABWKNHS1
UPSABWKNHS 0
root@arm:~# echo 'TGPK''SZCJUV'
TGPKSZCJUV
root@arm:~# MARKER='HHJN''TVGXMA' run 'echo 1 > /sys/kernel/mva_test/regulators/bbuck8_en'
HHJNTVGXMAHHJNTVGXMA 0
root@arm:~# echo 'QCHE''FWCTCW'
QCHEFWCTCW
root@arm:~# MARKER='KVFT''MBPOHC' run 'i2cget -y -f 1 0x4b 0x19'
KVFTMBPOHC0xe0
KVFTMBPOHC 0
root@arm:~# echo 'YPWL''TNBXTV'
YPWLTNBXTV
root@arm:~# MARKER='TQWL''HYXSTF' run 'grep -r -l rohm,bd71847 /proc/device-tree  | sed '"'"'s![^/]*$!!'"'"''
TQWLHYXSTF/proc/device-tree/ocp/interconnect@48000000/segment@0/target-module@2a000/i2c@0/pmic@4b/
TQWLHYXSTF 0
root@arm:~# echo 'QVZA''VSSXHP'
QVZAVSSXHP
root@arm:~# MARKER='ZGUM''TQCVUF' run 'test -f /proc/device-tree/ocp/interconnectt\@48000000/segment\@0/target-module\@2a000/i2c\@0/pmic\@4b/regulators/LDO2/rohm,,no-regulator-enable-control ;echo $?'
ZGUMTQCVUF1
ZGUMTQCVUF 0
root@arm:~# echo 'MZUA''VVOSEQ'
MZUAVVOSEQ
root@arm:~# MARKER='QWYB''YXVOCL' run 'grep -r -l rohm,bd71847 /proc/device-tree  | sed '"'"'s![^/]*$!!'"'"''
QWYBYXVOCL/proc/device-tree/ocp/interconnect@48000000/segment@0/target-module@2a000/i2c@0/pmic@4b/
QWYBYXVOCL 0
root@arm:~# echo 'CXQQ''PLBEOQ'
CXQQPLBEOQ
root@arm:~# MARKER='MNKT''HVEMEA' run 'test -f /proc/device-tree/ocp/interconnectt\@48000000/segment\@0/target-module\@2a000/i2c\@0/pmic\@4b/regulators/LDO2/regullator-always-on ;echo $?'
MNKTHVEMEA1
MNKTHVEMEA 0
root@arm:~# echo 'YPLV''JKBAXM'
YPLVJKBAXM
root@arm:~# MARKER='SGOZ''CUZJCU' run 'echo 0 > /sys/kernel/mva_test/regulators/bbuck8_en'
SGOZCUZJCUSGOZCUZJCU 0
root@arm:~# echo 'YZCT''PVLLWO'
YZCTPVLLWO
root@arm:~# MARKER='CEWG''EKWPLX' run 'i2cget -y -f 1 0x4b 0x19'
CEWGEKWPLX0xa0
CEWGEKWPLX 0
root@arm:~# echo 'GHXK''PXXSMW'
GHXKPXXSMW
root@arm:~# MARKER='QUYE''WMBXPL' run 'grep -r -l rohm,bd71847 /proc/device-tree  | sed '"'"'s![^/]*$!!'"'"''
QUYEWMBXPL/proc/device-tree/ocp/interconnect@48000000/segment@0/target-module@2a000/i2c@0/pmic@4b/
QUYEWMBXPL 0
root@arm:~# echo 'SKQB''GNEZFW'
SKQBGNEZFW
root@arm:~# MARKER='UAWX''KVJHYF' run 'test -f /proc/device-tree/ocp/interconnectt\@48000000/segment\@0/target-module\@2a000/i2c\@0/pmic\@4b/regulators/LDO3/rohm,,no-regulator-enable-control ;echo $?'
UAWXKVJHYF1
UAWXKVJHYF 0
root@arm:~# echo 'MBWY''HEWEOX'
MBWYHEWEOX
root@arm:~# MARKER='AJGO''VVGVHT' run 'echo 1 > /sys/kernel/mva_test/regulators/bbuck9_en'
AJGOVVGVHTAJGOVVGVHT 0
root@arm:~# echo 'FMKQ''UCOCWP'
FMKQUCOCWP
root@arm:~# MARKER='XCWF''TCJFEZ' run 'i2cget -y -f 1 0x4b 0x1a'
XCWFTCJFEZ0xc0
XCWFTCJFEZ 0
root@arm:~# echo 'UQPX''UBEVBS'
UQPXUBEVBS
root@arm:~# MARKER='HEWO''WJTGBX' run 'grep -r -l rohm,bd71847 /proc/device-tree  | sed '"'"'s![^/]*$!!'"'"''
HEWOWJTGBX/proc/device-tree/ocp/interconnect@48000000/segment@0/target-module@2a000/i2c@0/pmic@4b/
HEWOWJTGBX 0
root@arm:~# echo 'HBEZ''HPQVWP'
HBEZHPQVWP
root@arm:~# MARKER='AZAL''LBKFVY' run 'test -f /proc/device-tree/ocp/interconnectt\@48000000/segment\@0/target-module\@2a000/i2c\@0/pmic\@4b/regulators/LDO3/rohm,,no-regulator-enable-control ;echo $?'
AZALLBKFVY1
AZALLBKFVY 0
root@arm:~# echo 'ZJLY''QMMZUZ'
ZJLYQMMZUZ
root@arm:~# MARKER='LTHB''TFLOQJ' run 'grep -r -l rohm,bd71847 /proc/device-tree  | sed '"'"'s![^/]*$!!'"'"''
LTHBTFLOQJ/proc/device-tree/ocp/interconnect@48000000/segment@0/target-module@2a000/i2c@0/pmic@4b/
LTHBTFLOQJ 0
root@arm:~# echo 'EMPK''FYSAUF'
EMPKFYSAUF
root@arm:~# MARKER='QQAW''QTJUSS' run 'test -f /proc/device-tree/ocp/interconnectt\@48000000/segment\@0/target-module\@2a000/i2c\@0/pmic\@4b/regulators/LDO3/regullator-always-on ;echo $?'
QQAWQTJUSS1
QQAWQTJUSS 0
root@arm:~# echo 'MOOX''MTGPXO'
MOOXMTGPXO
root@arm:~# MARKER='EPGU''MVLXOC' run 'echo 0 > /sys/kernel/mva_test/regulators/bbuck9_en'
EPGUMVLXOCEPGUMVLXOC 0
root@arm:~# echo 'GGGE''PVAGSV'
GGGEPVAGSV
root@arm:~# MARKER='QTPZ''UNQBNJ' run 'i2cget -y -f 1 0x4b 0x1a'
QTPZUNQBNJ0x80
QTPZUNQBNJ 0
root@arm:~# echo 'VUNL''SKKYVX'
VUNLSKKYVX
root@arm:~# MARKER='OPAK''HKTLZP' run 'grep -r -l rohm,bd71847 /proc/device-tree  | sed '"'"'s![^/]*$!!'"'"''
OPAKHKTLZP/proc/device-tree/ocp/interconnect@48000000/segment@0/target-module@2a000/i2c@0/pmic@4b/
OPAKHKTLZP 0
root@arm:~# echo 'FYMG''LMJTAJ'
FYMGLMJTAJ
root@arm:~# MARKER='JECW''WKJULQ' run 'test -f /proc/device-tree/ocp/interconnectt\@48000000/segment\@0/target-module\@2a000/i2c\@0/pmic\@4b/regulators/LDO4/rohm,,no-regulator-enable-control ;echo $?'
JECWWKJULQ1
JECWWKJULQ 0
root@arm:~# echo 'GLNP''USWWHC'
GLNPUSWWHC
root@arm:~# MARKER='HXCH''TNOOPY' run 'echo 1 > /sys/kernel/mva_test/regulators/bbuck10_en'
HXCHTNOOPYHXCHTNOOPY 0
root@arm:~# echo 'ZHQH''FXPKGJ'
ZHQHFXPKGJ
root@arm:~# MARKER='JUAH''BUKJPQ' run 'i2cget -y -f 1 0x4b 0x1b'
JUAHBUKJPQ0xc0
JUAHBUKJPQ 0
root@arm:~# echo 'ZSKQ''YYFBKA'
ZSKQYYFBKA
root@arm:~# MARKER='FSWA''SBHSUY' run 'grep -r -l rohm,bd71847 /proc/device-tree  | sed '"'"'s![^/]*$!!'"'"''
FSWASBHSUY/proc/device-tree/ocp/interconnect@48000000/segment@0/target-module@2a000/i2c@0/pmic@4b/
FSWASBHSUY 0
root@arm:~# echo 'SLKQ''JSFWEV'
SLKQJSFWEV
root@arm:~# MARKER='YKMY''YBQMOC' run 'test -f /proc/device-tree/ocp/interconnectt\@48000000/segment\@0/target-module\@2a000/i2c\@0/pmic\@4b/regulators/LDO4/rohm,,no-regulator-enable-control ;echo $?'
YKMYYBQMOC1
YKMYYBQMOC 0
root@arm:~# echo 'WSCE''AVAAYJ'
WSCEAVAAYJ
root@arm:~# MARKER='FPWW''JOPOLQ' run 'grep -r -l rohm,bd71847 /proc/device-tree  | sed '"'"'s![^/]*$!!'"'"''
FPWWJOPOLQ/proc/device-tree/ocp/interconnect@48000000/segment@0/target-module@2a000/i2c@0/pmic@4b/
FPWWJOPOLQ 0
root@arm:~# echo 'FWLH''EAYLYP'
FWLHEAYLYP
root@arm:~# MARKER='WPZT''AKYMMS' run 'test -f /proc/device-tree/ocp/interconnectt\@48000000/segment\@0/target-module\@2a000/i2c\@0/pmic\@4b/regulators/LDO4/regullator-always-on ;echo $?'
WPZTAKYMMS1
WPZTAKYMMS 0
root@arm:~# echo 'SXSV''JCAVFK'
SXSVJCAVFK
root@arm:~# MARKER='UEFF''YEAONC' run 'echo 0 > /sys/kernel/mva_test/regulators/bbuck10_en'
UEFFYEAONCUEFFYEAONC 0
root@arm:~# echo 'JPUS''OCLCNT'
JPUSOCLCNT
root@arm:~# MARKER='LGSS''VMFTCE' run 'i2cget -y -f 1 0x4b 0x1b'
LGSSVMFTCE0x80
LGSSVMFTCE 0
root@arm:~# echo 'PFMQ''TLQSSE'
PFMQTLQSSE
root@arm:~# MARKER='TUXS''FOWBCT' run 'grep -r -l rohm,bd71847 /proc/device-tree  | sed '"'"'s![^/]*$!!'"'"''
TUXSFOWBCT/proc/device-tree/ocp/interconnect@48000000/segment@0/target-module@2a000/i2c@0/pmic@4b/
TUXSFOWBCT 0
root@arm:~# echo 'XFLP''YHEHUZ'
XFLPYHEHUZ
root@arm:~# MARKER='BLQY''JFLMHM' run 'test -f /proc/device-tree/ocp/interconnectt\@48000000/segment\@0/target-module\@2a000/i2c\@0/pmic\@4b/regulators/LDO5/rohm,,no-regulator-enable-control ;echo $?'
BLQYJFLMHM0
BLQYJFLMHM 0
root@arm:~# echo 'YYQN''ZLNWXP'
YYQNZLNWXP
root@arm:~# MARKER='LESZ''CFLFQQ' run 'grep -r -l rohm,bd71847 /proc/device-tree  | sed '"'"'s![^/]*$!!'"'"''
LESZCFLFQQ/proc/device-tree/ocp/interconnect@48000000/segment@0/target-module@2a000/i2c@0/pmic@4b/
LESZCFLFQQ 0
root@arm:~# echo 'MVES''LSHUWN'
MVESLSHUWN
root@arm:~# MARKER='QCAT''MKXQSO' run 'test -f /proc/device-tree/ocp/interconnectt\@48000000/segment\@0/target-module\@2a000/i2c\@0/pmic\@4b/regulators/LDO5/rohm,,no-regulator-enable-control ;echo $?'
QCATMKXQSO0
QCATMKXQSO 0
root@arm:~# echo 'XQQW''YJSTAW'
XQQWYJSTAW
root@arm:~# MARKER='CJYS''FQLGBY' run 'grep -r -l rohm,bd71847 /proc/device-tree  | sed '"'"'s![^/]*$!!'"'"''
CJYSFQLGBY/proc/device-tree/ocp/interconnect@48000000/segment@0/target-module@2a000/i2c@0/pmic@4b/
CJYSFQLGBY 0
root@arm:~# echo 'HZGW''ZOUFBE'
HZGWZOUFBE
root@arm:~# MARKER='SLCV''USUCLL' run 'test -f /proc/device-tree/ocp/interconnectt\@48000000/segment\@0/target-module\@2a000/i2c\@0/pmic\@4b/regulators/LDO6/rohm ,no-regulator-enable-control ;echo $?'
SLCVUSUCLL1
SLCVUSUCLL 0
root@arm:~# echo 'ETLK''VBTEXB'
ETLKVBTEXB
root@arm:~# MARKER='TNYE''TUBEEY' run 'echo 1 > /sys/kernel/mva_test/regulators/bbuck12_en'
TNYETUBEEYTNYETUBEEY 0
root@arm:~# echo 'JPEP''HOGANZ'
JPEPHOGANZ
root@arm:~# MARKER='GJZZ''CQNEJH' run 'i2cget -y -f 1 0x4b 0x1d'
GJZZCQNEJH0xc3
GJZZCQNEJH 0
root@arm:~# echo 'QYHO''NQQLBF'
QYHONQQLBF
root@arm:~# MARKER='VBLZ''CEXXLC' run 'grep -r -l rohm,bd71847 /proc/device-tree  | sed '"'"'s![^/]*$!!'"'"''
VBLZCEXXLC/proc/device-tree/ocp/interconnect@48000000/segment@0/target-module@2a000/i2c@0/pmic@4b/
VBLZCEXXLC 0
root@arm:~# echo 'POVE''KKSGVX'
POVEKKSGVX
root@arm:~# MARKER='KBJY''PLWAGY' run 'test -f /proc/device-tree/ocp/interconnectt\@48000000/segment\@0/target-module\@2a000/i2c\@0/pmic\@4b/regulators/LDO6/rohm,,no-regulator-enable-control ;echo $?'
KBJYPLWAGY1
KBJYPLWAGY 0
root@arm:~# echo 'CHOA''JOSPPT'
CHOAJOSPPT
root@arm:~# MARKER='WPEQ''OZKAWP' run 'grep -r -l rohm,bd71847 /proc/device-tree  | sed '"'"'s![^/]*$!!'"'"''
WPEQOZKAWP/proc/device-tree/ocp/interconnect@48000000/segment@0/target-module@2a000/i2c@0/pmic@4b/
WPEQOZKAWP 0
root@arm:~# echo 'SJOE''CNAWYV'
SJOECNAWYV
root@arm:~# MARKER='CWYJ''QKLQVM' run 'test -f /proc/device-tree/ocp/interconnectt\@48000000/segment\@0/target-module\@2a000/i2c\@0/pmic\@4b/regulators/LDO6/regullator-always-on ;echo $?'
CWYJQKLQVM1
CWYJQKLQVM 0
root@arm:~# echo 'CXOP''JPNHOQ'
CXOPJPNHOQ
root@arm:~# MARKER='QZPB''WFOVXE' run 'echo 0 > /sys/kernel/mva_test/regulators/bbuck12_en'
QZPBWFOVXEQZPBWFOVXE 0
root@arm:~# echo 'GXOX''TYXKBO'
GXOXTYXKBO
root@arm:~# MARKER='WLNM''MHFKEX' run 'i2cget -y -f 1 0x4b 0x1d'
WLNMMHFKEX0x83
WLNMMHFKEX 0
root@arm:~# Labgrid Console Logfile for main
Logfile started at 2025-10-29 18:13:26.250103
=== Log starts here ===

root@arm:~# run() { echo -n "$MARKER"; sh -c "$@"; echo "$MARKER $?"; }
root@arm:~# echo 'HZWP''HUFLXB'
HZWPHUFLXB
root@arm:~# MARKER='BSFA''PZJETS' run 'grep -r -l rohm,bd71847 /proc/device-tree  | sed '"'"'s![^/]*$!!'"'"''
BSFAPZJETS/proc/device-tree/ocp/interconnect@48000000/segment@0/target-module@2a000/i2c@0/pmic@4b/
BSFAPZJETS 0
root@arm:~# echo 'XOOY''GMZCKT'
XOOYGMZCKT
root@arm:~# MARKER='XCHT''EQUMCV' run 'test -f /proc/device-tree/ocp/interconnectt\@48000000/segment\@0/target-module\@2a000/i2c\@0/pmic\@4b/regulators/BUCK1/rohmm,no-regulator-enable-control ;echo $?'
XCHTEQUMCV1
XCHTEQUMCV 0
root@arm:~# echo 'SUZV''YVYLAV'
SUZVYVYLAV
root@arm:~# MARKER='SUOG''TMBGYF' run 'i2cget -y -f 1 0x4b 0x5'
SUOGTMBGYF0x02
SUOGTMBGYF 0
root@arm:~# echo 'POYT''NUFUEF'
POYTNUFUEF
root@arm:~# MARKER='UFKG''OKPFOZ' run 'echo 700000 700000 > /sys/kernel/mva_test//regulators/buck1_set'
UFKGOKPFOZUFKGOKPFOZ 0
root@arm:~# echo 'CPLV''JHAVQK'
CPLVJHAVQK
root@arm:~# MARKER='VKNX''CPCMWE' run 'i2cget -y -f 1 0x4b 0xd'
VKNXCPCMWE0x00
VKNXCPCMWE 0
root@arm:~# echo 'XYSA''OYBBZH'
XYSAOYBBZH
root@arm:~# MARKER='ZZZW''YLVQUS' run 'echo 710000 710000 > /sys/kernel/mva_test//regulators/buck1_set'
ZZZWYLVQUSZZZWYLVQUS 0
root@arm:~# echo 'FPME''XTTXFU'
FPMEXTTXFU
root@arm:~# MARKER='CUSE''FGHFQG' run 'i2cget -y -f 1 0x4b 0xd'
CUSEFGHFQG0x01
CUSEFGHFQG 0
root@arm:~# echo 'HXKB''EVFUAY'
HXKBEVFUAY
root@arm:~# MARKER='AFJH''QALVTZ' run 'echo 720000 720000 > /sys/kernel/mva_test//regulators/buck1_set'
AFJHQALVTZAFJHQALVTZ 0
root@arm:~# echo 'QFMA''GXZLMV'
QFMAGXZLMV
root@arm:~# MARKER='AMST''BWKJEB' run 'i2cget -y -f 1 0x4b 0xd'
AMSTBWKJEB0x02
AMSTBWKJEB 0
root@arm:~# echo 'VTNQ''CVCXGA'
VTNQCVCXGA
root@arm:~# MARKER='UEZS''HYATYN' run 'echo 730000 730000 > /sys/kernel/mva_test//regulators/buck1_set'
UEZSHYATYNUEZSHYATYN 0
root@arm:~# echo 'AACA''ZOUZNT'
AACAZOUZNT
root@arm:~# MARKER='QVMK''AYLUWV' run 'i2cget -y -f 1 0x4b 0xd'
QVMKAYLUWV0x03
QVMKAYLUWV 0
root@arm:~# echo 'EUSL''SMOVGV'
EUSLSMOVGV
root@arm:~# MARKER='BOJZ''QHCEFB' run 'echo 740000 740000 > /sys/kernel/mva_test//regulators/buck1_set'
BOJZQHCEFBBOJZQHCEFB 0
root@arm:~# echo 'YUFS''HTOFEQ'
YUFSHTOFEQ
root@arm:~# MARKER='ZQXP''FHFHYW' run 'i2cget -y -f 1 0x4b 0xd'
ZQXPFHFHYW0x04
ZQXPFHFHYW 0
root@arm:~# echo 'MKVY''JKWZAQ'
MKVYJKWZAQ
root@arm:~# MARKER='FGEX''TTAETJ' run 'echo 750000 750000 > /sys/kernel/mva_test//regulators/buck1_set'
FGEXTTAETJFGEXTTAETJ 0
root@arm:~# echo 'QPSM''FKMVZU'
QPSMFKMVZU
root@arm:~# MARKER='JMKC''WJLVJH' run 'i2cget -y -f 1 0x4b 0xd'
JMKCWJLVJH0x05
JMKCWJLVJH 0
root@arm:~# echo 'NJOS''JXJQLX'
NJOSJXJQLX
root@arm:~# MARKER='VHGN''BSOFFH' run 'echo 760000 760000 > /sys/kernel/mva_test//regulators/buck1_set'
VHGNBSOFFHVHGNBSOFFH 0
root@arm:~# echo 'EMLP''KYXSUQ'
EMLPKYXSUQ
root@arm:~# MARKER='FHHV''MTXMUW' run 'i2cget -y -f 1 0x4b 0xd'
FHHVMTXMUW0x06
FHHVMTXMUW 0
root@arm:~# echo 'PFGS''GWHLCM'
PFGSGWHLCM
root@arm:~# MARKER='QGOG''TBBMMZ' run 'echo 770000 770000 > /sys/kernel/mva_test//regulators/buck1_set'
QGOGTBBMMZQGOGTBBMMZ 0
root@arm:~# echo 'SAVY''VUHBFB'
SAVYVUHBFB
root@arm:~# MARKER='JMBK''UPFAPT' run 'i2cget -y -f 1 0x4b 0xd'
JMBKUPFAPT0x07
JMBKUPFAPT 0
root@arm:~# echo 'NUZM''ZMQLYO'
NUZMZMQLYO
root@arm:~# MARKER='GUJE''ZHSAQH' run 'echo 780000 780000 > /sys/kernel/mva_test//regulators/buck1_set'
GUJEZHSAQHGUJEZHSAQH 0
root@arm:~# echo 'PGAY''PZLFYZ'
PGAYPZLFYZ
root@arm:~# MARKER='QOKP''AAKHJH' run 'i2cget -y -f 1 0x4b 0xd'
QOKPAAKHJH0x08
QOKPAAKHJH 0
root@arm:~# echo 'NGGO''KFVECK'
NGGOKFVECK
root@arm:~# MARKER='VMPJ''UACJMQ' run 'echo 790000 790000 > /sys/kernel/mva_test//regulators/buck1_set'
VMPJUACJMQVMPJUACJMQ 0
root@arm:~# echo 'MWCM''OAYHTQ'
MWCMOAYHTQ
root@arm:~# MARKER='BLVS''HPEBMK' run 'i2cget -y -f 1 0x4b 0xd'
BLVSHPEBMK0x09
BLVSHPEBMK 0
root@arm:~# echo 'EJXA''EOYXBT'
EJXAEOYXBT
root@arm:~# MARKER='CFUM''UEUUTK' run 'echo 800000 800000 > /sys/kernel/mva_test//regulators/buck1_set'
CFUMUEUUTKCFUMUEUUTK 0
root@arm:~# echo 'QYVE''MTJVAF'
QYVEMTJVAF
root@arm:~# MARKER='ABFW''HEMMTL' run 'i2cget -y -f 1 0x4b 0xd'
ABFWHEMMTL0x0a
ABFWHEMMTL 0
root@arm:~# echo 'JPLX''SGANCX'
JPLXSGANCX
root@arm:~# MARKER='QFXT''EQZFFO' run 'echo 810000 810000 > /sys/kernel/mva_test//regulators/buck1_set'
QFXTEQZFFOQFXTEQZFFO 0
root@arm:~# echo 'PAZN''ZQUBFE'
PAZNZQUBFE
root@arm:~# MARKER='MHZX''SSSVZX' run 'i2cget -y -f 1 0x4b 0xd'
MHZXSSSVZX0x0b
MHZXSSSVZX 0
root@arm:~# echo 'YEKQ''NLYPQU'
YEKQNLYPQU
root@arm:~# MARKER='OZFT''OMKQLZ' run 'echo 820000 820000 > /sys/kernel/mva_test//regulators/buck1_set'
OZFTOMKQLZOZFTOMKQLZ 0
root@arm:~# echo 'LWNT''OZOAKM'
LWNTOZOAKM
root@arm:~# MARKER='JLXG''UJBNHF' run 'i2cget -y -f 1 0x4b 0xd'
JLXGUJBNHF0x0c
JLXGUJBNHF 0
root@arm:~# echo 'CAMZ''UCHGAX'
CAMZUCHGAX
root@arm:~# MARKER='EPEK''VNLTHT' run 'echo 830000 830000 > /sys/kernel/mva_test//regulators/buck1_set'
EPEKVNLTHTEPEKVNLTHT 0
root@arm:~# echo 'HZKH''VZPVKU'
HZKHVZPVKU
root@arm:~# MARKER='LNSG''NJPFQU' run 'i2cget -y -f 1 0x4b 0xd'
LNSGNJPFQU0x0d
LNSGNJPFQU 0
root@arm:~# echo 'FLXP''CBOZTH'
FLXPCBOZTH
root@arm:~# MARKER='ALNP''TNMBLO' run 'echo 840000 840000 > /sys/kernel/mva_test//regulators/buck1_set'
ALNPTNMBLOALNPTNMBLO 0
root@arm:~# echo 'FCPP''QTLTAW'
FCPPQTLTAW
root@arm:~# MARKER='HPLO''OWGPUE' run 'i2cget -y -f 1 0x4b 0xd'
HPLOOWGPUE0x0e
HPLOOWGPUE 0
root@arm:~# echo 'JLUB''FXGMZW'
JLUBFXGMZW
root@arm:~# MARKER='YKKZ''SWTEZU' run 'echo 850000 850000 > /sys/kernel/mva_test//regulators/buck1_set'
YKKZSWTEZUYKKZSWTEZU 0
root@arm:~# echo 'TQYY''MHAZNE'
TQYYMHAZNE
root@arm:~# MARKER='MANZ''XFSYTG' run 'i2cget -y -f 1 0x4b 0xd'
MANZXFSYTG0x0f
MANZXFSYTG 0
root@arm:~# echo 'QHYE''XCLTPC'
QHYEXCLTPC
root@arm:~# MARKER='EGXT''OSVGZB' run 'echo 860000 860000 > /sys/kernel/mva_test//regulators/buck1_set'
EGXTOSVGZBEGXTOSVGZB 0
root@arm:~# echo 'BFTK''WAJWYC'
BFTKWAJWYC
root@arm:~# MARKER='AELB''MGUXCL' run 'i2cget -y -f 1 0x4b 0xd'
AELBMGUXCL0x10
AELBMGUXCL 0
root@arm:~# echo 'AMMA''SOYQGO'
AMMASOYQGO
root@arm:~# MARKER='JPUO''JZGTJX' run 'echo 870000 870000 > /sys/kernel/mva_test//regulators/buck1_set'
JPUOJZGTJXJPUOJZGTJX 0
root@arm:~# echo 'SXKQ''CQQMUJ'
SXKQCQQMUJ
root@arm:~# MARKER='GOXC''MBLLCZ' run 'i2cget -y -f 1 0x4b 0xd'
GOXCMBLLCZ0x11
GOXCMBLLCZ 0
root@arm:~# echo 'CTGQ''FFAGTQ'
CTGQFFAGTQ
root@arm:~# MARKER='QAHK''NHSBSH' run 'echo 880000 880000 > /sys/kernel/mva_test//regulators/buck1_set'
QAHKNHSBSHQAHKNHSBSH 0
root@arm:~# echo 'HHHT''UXSXXF'
HHHTUXSXXF
root@arm:~# MARKER='XEEV''NHQXPA' run 'i2cget -y -f 1 0x4b 0xd'
XEEVNHQXPA0x12
XEEVNHQXPA 0
root@arm:~# echo 'ZMST''WTSFYK'
ZMSTWTSFYK
root@arm:~# MARKER='YQZM''JGOFFW' run 'echo 890000 890000 > /sys/kernel/mva_test//regulators/buck1_set'
YQZMJGOFFWYQZMJGOFFW 0
root@arm:~# echo 'PJUF''SXUGVA'
PJUFSXUGVA
root@arm:~# MARKER='JPPX''NFFLVW' run 'i2cget -y -f 1 0x4b 0xd'
JPPXNFFLVW0x13
JPPXNFFLVW 0
root@arm:~# echo 'OPLO''BGOMOS'
OPLOBGOMOS
root@arm:~# MARKER='HZEM''JPUNXA' run 'echo 900000 900000 > /sys/kernel/mva_test//regulators/buck1_set'
HZEMJPUNXAHZEMJPUNXA 0
root@arm:~# echo 'GUVJ''ENXTQJ'
GUVJENXTQJ
root@arm:~# MARKER='ZAZU''LOTXFO' run 'i2cget -y -f 1 0x4b 0xd'
ZAZULOTXFO0x14
ZAZULOTXFO 0
root@arm:~# echo 'LUJO''GSPCFO'
LUJOGSPCFO
root@arm:~# MARKER='HQHX''YYKMOX' run 'echo 910000 910000 > /sys/kernel/mva_test//regulators/buck1_set'
HQHXYYKMOXHQHXYYKMOX 0
root@arm:~# echo 'PBUH''TQUQGO'
PBUHTQUQGO
root@arm:~# MARKER='EGSF''UKTYQA' run 'i2cget -y -f 1 0x4b 0xd'
EGSFUKTYQA0x15
EGSFUKTYQA 0
root@arm:~# echo 'XYZZ''GKJETV'
XYZZGKJETV
root@arm:~# MARKER='JMHV''MWBTJX' run 'echo 920000 920000 > /sys/kernel/mva_test//regulators/buck1_set'
JMHVMWBTJXJMHVMWBTJX 0
root@arm:~# echo 'WAWO''PTKVUK'
WAWOPTKVUK
root@arm:~# MARKER='SCOX''JBYVVG' run 'i2cget -y -f 1 0x4b 0xd'
SCOXJBYVVG0x16
SCOXJBYVVG 0
root@arm:~# echo 'QJXH''VCMKYN'
QJXHVCMKYN
root@arm:~# MARKER='QUFQ''XKJLHV' run 'echo 930000 930000 > /sys/kernel/mva_test//regulators/buck1_set'
QUFQXKJLHVQUFQXKJLHV 0
root@arm:~# echo 'AMKV''SQLYXJ'
AMKVSQLYXJ
root@arm:~# MARKER='OQPL''GHKNHM' run 'i2cget -y -f 1 0x4b 0xd'
OQPLGHKNHM0x17
OQPLGHKNHM 0
root@arm:~# echo 'YFZL''MCGOUK'
YFZLMCGOUK
root@arm:~# MARKER='WBNJ''ZYQEJC' run 'echo 940000 940000 > /sys/kernel/mva_test//regulators/buck1_set'
WBNJZYQEJCWBNJZYQEJC 0
root@arm:~# echo 'HYTY''UPSXQH'
HYTYUPSXQH
root@arm:~# MARKER='PZJK''WTTAAZ' run 'i2cget -y -f 1 0x4b 0xd'
PZJKWTTAAZ0x18
PZJKWTTAAZ 0
root@arm:~# echo 'OVVM''MPKPOW'
OVVMMPKPOW
root@arm:~# MARKER='ZKVT''FQEQOP' run 'echo 950000 950000 > /sys/kernel/mva_test//regulators/buck1_set'
ZKVTFQEQOPZKVTFQEQOP 0
root@arm:~# echo 'VWXU''VAACFM'
VWXUVAACFM
root@arm:~# MARKER='WPMW''TNXECF' run 'i2cget -y -f 1 0x4b 0xd'
WPMWTNXECF0x19
WPMWTNXECF 0
root@arm:~# echo 'LHFH''GNXHMW'
LHFHGNXHMW
root@arm:~# MARKER='YKVN''VGWEZE' run 'echo 960000 960000 > /sys/kernel/mva_test//regulators/buck1_set'
YKVNVGWEZEYKVNVGWEZE 0
root@arm:~# echo 'QLXV''EGQNPO'
QLXVEGQNPO
root@arm:~# MARKER='UMTY''CJYOLX' run 'i2cget -y -f 1 0x4b 0xd'
UMTYCJYOLX0x1a
UMTYCJYOLX 0
root@arm:~# echo 'SSNW''SUZNXZ'
SSNWSUZNXZ
root@arm:~# MARKER='SSKG''OHKEMP' run 'echo 970000 970000 > /sys/kernel/mva_test//regulators/buck1_set'
SSKGOHKEMPSSKGOHKEMP 0
root@arm:~# echo 'UFYE''PSQJBG'
UFYEPSQJBG
root@arm:~# MARKER='PNZX''FNXBGC' run 'i2cget -y -f 1 0x4b 0xd'
PNZXFNXBGC0x1b
PNZXFNXBGC 0
root@arm:~# echo 'NJKB''AMJXXK'
NJKBAMJXXK
root@arm:~# MARKER='MYJY''UJBFPU' run 'echo 980000 980000 > /sys/kernel/mva_test//regulators/buck1_set'
MYJYUJBFPUMYJYUJBFPU 0
root@arm:~# echo 'UHZT''SFWVKT'
UHZTSFWVKT
root@arm:~# MARKER='XMXT''QFAJZT' run 'i2cget -y -f 1 0x4b 0xd'
XMXTQFAJZT0x1c
XMXTQFAJZT 0
root@arm:~# echo 'AGLY''YBMUSS'
AGLYYBMUSS
root@arm:~# MARKER='HOWW''BWPPHS' run 'echo 990000 990000 > /sys/kernel/mva_test//regulators/buck1_set'
HOWWBWPPHSHOWWBWPPHS 0
root@arm:~# echo 'PHHM''LJBUYE'
PHHMLJBUYE
root@arm:~# MARKER='SXTQ''KQLCLH' run 'i2cget -y -f 1 0x4b 0xd'
SXTQKQLCLH0x1d
SXTQKQLCLH 0
root@arm:~# echo 'OXJF''GOFOPP'
OXJFGOFOPP
root@arm:~# MARKER='NQWQ''NYXEKE' run 'echo 1000000 1000000 > /sys/kernel/mva_tesst/regulators/buck1_set'
NQWQNYXEKENQWQNYXEKE 0
root@arm:~# echo 'LOPJ''PWQFNU'
LOPJPWQFNU
root@arm:~# MARKER='SQFW''APVEFJ' run 'i2cget -y -f 1 0x4b 0xd'
SQFWAPVEFJ0x1e
SQFWAPVEFJ 0
root@arm:~# echo 'WFZW''OQVFCC'
WFZWOQVFCC
root@arm:~# MARKER='VVZV''GFNVCQ' run 'echo 1010000 1010000 > /sys/kernel/mva_tesst/regulators/buck1_set'
VVZVGFNVCQVVZVGFNVCQ 0
root@arm:~# echo 'OKOU''SMXAFM'
OKOUSMXAFM
root@arm:~# MARKER='VYFA''QKFSZQ' run 'i2cget -y -f 1 0x4b 0xd'
VYFAQKFSZQ0x1f
VYFAQKFSZQ 0
root@arm:~# echo 'ASNY''HKCQTF'
ASNYHKCQTF
root@arm:~# MARKER='CQMN''GUBEPF' run 'echo 1020000 1020000 > /sys/kernel/mva_tesst/regulators/buck1_set'
CQMNGUBEPFCQMNGUBEPF 0
root@arm:~# echo 'FOKZ''MTKAPG'
FOKZMTKAPG
root@arm:~# MARKER='WLMJ''YZTZME' run 'i2cget -y -f 1 0x4b 0xd'
WLMJYZTZME0x20
WLMJYZTZME 0
root@arm:~# echo 'JSYP''LSHWQB'
JSYPLSHWQB
root@arm:~# MARKER='BOQK''BZCOZP' run 'echo 1030000 1030000 > /sys/kernel/mva_tesst/regulators/buck1_set'
BOQKBZCOZPBOQKBZCOZP 0
root@arm:~# echo 'SYHG''COOHWE'
SYHGCOOHWE
root@arm:~# MARKER='PTWP''JFBETO' run 'i2cget -y -f 1 0x4b 0xd'
PTWPJFBETO0x21
PTWPJFBETO 0
root@arm:~# echo 'UQSW''LQLOZC'
UQSWLQLOZC
root@arm:~# MARKER='YLYN''GXFASZ' run 'echo 1040000 1040000 > /sys/kernel/mva_tesst/regulators/buck1_set'
YLYNGXFASZYLYNGXFASZ 0
root@arm:~# echo 'MKLJ''NQVHBP'
MKLJNQVHBP
root@arm:~# MARKER='OJYG''MHUQYM' run 'i2cget -y -f 1 0x4b 0xd'
OJYGMHUQYM0x22
OJYGMHUQYM 0
root@arm:~# echo 'VYZO''OUJUFM'
VYZOOUJUFM
root@arm:~# MARKER='VGGV''NWYMGU' run 'echo 1050000 1050000 > /sys/kernel/mva_tesst/regulators/buck1_set'
VGGVNWYMGUVGGVNWYMGU 0
root@arm:~# echo 'LLFW''LLLSEB'
LLFWLLLSEB
root@arm:~# MARKER='SHBS''JFBCZQ' run 'i2cget -y -f 1 0x4b 0xd'
SHBSJFBCZQ0x23
SHBSJFBCZQ 0
root@arm:~# echo 'PTZM''HMPCCU'
PTZMHMPCCU
root@arm:~# MARKER='TXJK''EOFPQH' run 'echo 1060000 1060000 > /sys/kernel/mva_tesst/regulators/buck1_set'
TXJKEOFPQHTXJKEOFPQH 0
root@arm:~# echo 'WOHO''VWNAAK'
WOHOVWNAAK
root@arm:~# MARKER='VTNG''TSHNYM' run 'i2cget -y -f 1 0x4b 0xd'
VTNGTSHNYM0x24
VTNGTSHNYM 0
root@arm:~# echo 'ALEP''BJMTGM'
ALEPBJMTGM
root@arm:~# MARKER='EWVL''TVXQZS' run 'echo 1070000 1070000 > /sys/kernel/mva_tesst/regulators/buck1_set'
EWVLTVXQZSEWVLTVXQZS 0
root@arm:~# echo 'BZAE''NZBENM'
BZAENZBENM
root@arm:~# MARKER='LTFS''WSTTZJ' run 'i2cget -y -f 1 0x4b 0xd'
LTFSWSTTZJ0x25
LTFSWSTTZJ 0
root@arm:~# echo 'QTKJ''QXZLKH'
QTKJQXZLKH
root@arm:~# MARKER='QCFE''BZZQXS' run 'echo 1080000 1080000 > /sys/kernel/mva_tesst/regulators/buck1_set'
QCFEBZZQXSQCFEBZZQXS 0
root@arm:~# echo 'BVYZ''UKXHUA'
BVYZUKXHUA
root@arm:~# MARKER='WJLO''KMWJLZ' run 'i2cget -y -f 1 0x4b 0xd'
WJLOKMWJLZ0x26
WJLOKMWJLZ 0
root@arm:~# echo 'LGWX''ENVNQZ'
LGWXENVNQZ
root@arm:~# MARKER='UAQQ''TXKKQG' run 'echo 1090000 1090000 > /sys/kernel/mva_tesst/regulators/buck1_set'
UAQQTXKKQGUAQQTXKKQG 0
root@arm:~# echo 'GWYL''HJOAZN'
GWYLHJOAZN
root@arm:~# MARKER='SCEW''JQPCLA' run 'i2cget -y -f 1 0x4b 0xd'
SCEWJQPCLA0x27
SCEWJQPCLA 0
root@arm:~# echo 'NXEX''JFAYHE'
NXEXJFAYHE
root@arm:~# MARKER='UFLF''VHNGBM' run 'echo 1100000 1100000 > /sys/kernel/mva_tesst/regulators/buck1_set'
UFLFVHNGBMUFLFVHNGBM 0
root@arm:~# echo 'ASEO''SOGHZU'
ASEOSOGHZU
root@arm:~# MARKER='LFXV''TYMNHX' run 'i2cget -y -f 1 0x4b 0xd'
LFXVTYMNHX0x28
LFXVTYMNHX 0
root@arm:~# echo 'GHOP''YSTKTC'
GHOPYSTKTC
root@arm:~# MARKER='GKOS''POGUQE' run 'echo 1110000 1110000 > /sys/kernel/mva_tesst/regulators/buck1_set'
GKOSPOGUQEGKOSPOGUQE 0
root@arm:~# echo 'WGVV''ECUHYB'
WGVVECUHYB
root@arm:~# MARKER='AKKG''KVVOTB' run 'i2cget -y -f 1 0x4b 0xd'
AKKGKVVOTB0x29
AKKGKVVOTB 0
root@arm:~# echo 'AYSF''FBMGNK'
AYSFFBMGNK
root@arm:~# MARKER='FXKK''VCTALA' run 'echo 1120000 1120000 > /sys/kernel/mva_tesst/regulators/buck1_set'
FXKKVCTALAFXKKVCTALA 0
root@arm:~# echo 'OCXM''PCSJPN'
OCXMPCSJPN
root@arm:~# MARKER='KPMQ''ZZTTGN' run 'i2cget -y -f 1 0x4b 0xd'
KPMQZZTTGN0x2a
KPMQZZTTGN 0
root@arm:~# echo 'CLHE''WAONKZ'
CLHEWAONKZ
root@arm:~# MARKER='VLEK''GSPZCB' run 'echo 1130000 1130000 > /sys/kernel/mva_tesst/regulators/buck1_set'
VLEKGSPZCBVLEKGSPZCB 0
root@arm:~# echo 'SNFX''XHFVZA'
SNFXXHFVZA
root@arm:~# MARKER='VTGW''YGBPCV' run 'i2cget -y -f 1 0x4b 0xd'
VTGWYGBPCV0x2b
VTGWYGBPCV 0
root@arm:~# echo 'OSUE''ZMXHYC'
OSUEZMXHYC
root@arm:~# MARKER='EXCE''WKUNAT' run 'echo 1140000 1140000 > /sys/kernel/mva_tesst/regulators/buck1_set'
EXCEWKUNATEXCEWKUNAT 0
root@arm:~# echo 'VYPF''WJPLBA'
VYPFWJPLBA
root@arm:~# MARKER='WMGE''QAOFKT' run 'i2cget -y -f 1 0x4b 0xd'
WMGEQAOFKT0x2c
WMGEQAOFKT 0
root@arm:~# echo 'SZYY''PGQJHJ'
SZYYPGQJHJ
root@arm:~# MARKER='BCEB''SSPYXM' run 'echo 1150000 1150000 > /sys/kernel/mva_tesst/regulators/buck1_set'
BCEBSSPYXMBCEBSSPYXM 0
root@arm:~# echo 'STGC''NLGQGX'
STGCNLGQGX
root@arm:~# MARKER='UJJQ''WYXBJA' run 'i2cget -y -f 1 0x4b 0xd'
UJJQWYXBJA0x2d
UJJQWYXBJA 0
root@arm:~# echo 'ASTG''SLYFJH'
ASTGSLYFJH
root@arm:~# MARKER='YOFF''XBMTGQ' run 'echo 1160000 1160000 > /sys/kernel/mva_tesst/regulators/buck1_set'
YOFFXBMTGQYOFFXBMTGQ 0
root@arm:~# echo 'UWES''HCFFXZ'
UWESHCFFXZ
root@arm:~# MARKER='OPTW''PKBPTA' run 'i2cget -y -f 1 0x4b 0xd'
OPTWPKBPTA0x2e
OPTWPKBPTA 0
root@arm:~# echo 'YUYZ''UFNWTJ'
YUYZUFNWTJ
root@arm:~# MARKER='ELJQ''VOZLVO' run 'echo 1170000 1170000 > /sys/kernel/mva_tesst/regulators/buck1_set'
ELJQVOZLVOELJQVOZLVO 0
root@arm:~# echo 'PZTJ''TOXXBL'
PZTJTOXXBL
root@arm:~# MARKER='USGA''ZYYUCT' run 'i2cget -y -f 1 0x4b 0xd'
USGAZYYUCT0x2f
USGAZYYUCT 0
root@arm:~# echo 'FKNH''HCLPXB'
FKNHHCLPXB
root@arm:~# MARKER='BKWY''LNBULW' run 'echo 1180000 1180000 > /sys/kernel/mva_tesst/regulators/buck1_set'
BKWYLNBULWBKWYLNBULW 0
root@arm:~# echo 'KSLM''BGXBJH'
KSLMBGXBJH
root@arm:~# MARKER='QBNL''STEKOG' run 'i2cget -y -f 1 0x4b 0xd'
QBNLSTEKOG0x30
QBNLSTEKOG 0
root@arm:~# echo 'CFGT''SSKGXQ'
CFGTSSKGXQ
root@arm:~# MARKER='BHUY''JSTPYC' run 'echo 1190000 1190000 > /sys/kernel/mva_tesst/regulators/buck1_set'
BHUYJSTPYCBHUYJSTPYC 0
root@arm:~# echo 'WSCQ''JTMKAB'
WSCQJTMKAB
root@arm:~# MARKER='MXVH''TNYNHX' run 'i2cget -y -f 1 0x4b 0xd'
MXVHTNYNHX0x31
MXVHTNYNHX 0
root@arm:~# echo 'MQFG''LBOHQJ'
MQFGLBOHQJ
root@arm:~# MARKER='UOZO''GKWZZQ' run 'echo 1200000 1200000 > /sys/kernel/mva_tesst/regulators/buck1_set'
UOZOGKWZZQUOZOGKWZZQ 0
root@arm:~# echo 'HWXC''MYTXEL'
HWXCMYTXEL
root@arm:~# MARKER='YTQS''YOEXPL' run 'i2cget -y -f 1 0x4b 0xd'
YTQSYOEXPL0x32
YTQSYOEXPL 0
root@arm:~# echo 'TXYX''KAUKSM'
TXYXKAUKSM
root@arm:~# MARKER='JFBM''KEHGMC' run 'echo 1210000 1210000 > /sys/kernel/mva_tesst/regulators/buck1_set'
JFBMKEHGMCJFBMKEHGMC 0
root@arm:~# echo 'KJFE''JVBYFN'
KJFEJVBYFN
root@arm:~# MARKER='TAXL''BEZZKF' run 'i2cget -y -f 1 0x4b 0xd'
TAXLBEZZKF0x33
TAXLBEZZKF 0
root@arm:~# echo 'FLEQ''ZGQCTX'
FLEQZGQCTX
root@arm:~# MARKER='XETO''EOOFKC' run 'echo 1220000 1220000 > /sys/kernel/mva_tesst/regulators/buck1_set'
XETOEOOFKCXETOEOOFKC 0
root@arm:~# echo 'YHJF''LZHKYP'
YHJFLZHKYP
root@arm:~# MARKER='AVAX''LYYEPM' run 'i2cget -y -f 1 0x4b 0xd'
AVAXLYYEPM0x34
AVAXLYYEPM 0
root@arm:~# echo 'XEOM''VGTYOF'
XEOMVGTYOF
root@arm:~# MARKER='LUKX''SQZNUO' run 'echo 1230000 1230000 > /sys/kernel/mva_tesst/regulators/buck1_set'
LUKXSQZNUOLUKXSQZNUO 0
root@arm:~# echo 'KWGQ''XNCVQJ'
KWGQXNCVQJ
root@arm:~# MARKER='UNVB''EHSFUW' run 'i2cget -y -f 1 0x4b 0xd'
UNVBEHSFUW0x35
UNVBEHSFUW 0
root@arm:~# echo 'SGBY''TEXGEO'
SGBYTEXGEO
root@arm:~# MARKER='OEUS''MZSYBH' run 'echo 1240000 1240000 > /sys/kernel/mva_tesst/regulators/buck1_set'
OEUSMZSYBHOEUSMZSYBH 0
root@arm:~# echo 'TSVO''KFTLFY'
TSVOKFTLFY
root@arm:~# MARKER='KVQG''UTMBAC' run 'i2cget -y -f 1 0x4b 0xd'
KVQGUTMBAC0x36
KVQGUTMBAC 0
root@arm:~# echo 'WBAN''PMUAAX'
WBANPMUAAX
root@arm:~# MARKER='GXNE''ZQFCVT' run 'echo 1250000 1250000 > /sys/kernel/mva_tesst/regulators/buck1_set'
GXNEZQFCVTGXNEZQFCVT 0
root@arm:~# echo 'LNCM''ESNCHZ'
LNCMESNCHZ
root@arm:~# MARKER='QGVA''AKLAKK' run 'i2cget -y -f 1 0x4b 0xd'
QGVAAKLAKK0x37
QGVAAKLAKK 0
root@arm:~# echo 'QULE''NTNOEL'
QULENTNOEL
root@arm:~# MARKER='CGMO''QMHPEX' run 'echo 1260000 1260000 > /sys/kernel/mva_tesst/regulators/buck1_set'
CGMOQMHPEXCGMOQMHPEX 0
root@arm:~# echo 'QZXC''QNYXQU'
QZXCQNYXQU
root@arm:~# MARKER='LKAY''HKNKAH' run 'i2cget -y -f 1 0x4b 0xd'
LKAYHKNKAH0x38
LKAYHKNKAH 0
root@arm:~# echo 'XCMG''VVUHHN'
XCMGVVUHHN
root@arm:~# MARKER='UGXK''FCSHAH' run 'echo 1270000 1270000 > /sys/kernel/mva_tesst/regulators/buck1_set'
UGXKFCSHAHUGXKFCSHAH 0
root@arm:~# echo 'AAYY''SUXHTU'
AAYYSUXHTU
root@arm:~# MARKER='CPJX''TBZYWQ' run 'i2cget -y -f 1 0x4b 0xd'
CPJXTBZYWQ0x39
CPJXTBZYWQ 0
root@arm:~# echo 'ZLTL''SFXLQX'
ZLTLSFXLQX
root@arm:~# MARKER='GKXC''TNJGAP' run 'echo 1280000 1280000 > /sys/kernel/mva_tesst/regulators/buck1_set'
GKXCTNJGAPGKXCTNJGAP 0
root@arm:~# echo 'CMYK''ETKUEF'
CMYKETKUEF
root@arm:~# MARKER='AVJS''YUUAKK' run 'i2cget -y -f 1 0x4b 0xd'
AVJSYUUAKK0x3a
AVJSYUUAKK 0
root@arm:~# echo 'EYFH''TCUPPW'
EYFHTCUPPW
root@arm:~# MARKER='GETZ''VVMYUL' run 'echo 1290000 1290000 > /sys/kernel/mva_tesst/regulators/buck1_set'
GETZVVMYULGETZVVMYUL 0
root@arm:~# echo 'JUSS''ZULXON'
JUSSZULXON
root@arm:~# MARKER='VGXC''PPXSEU' run 'i2cget -y -f 1 0x4b 0xd'
VGXCPPXSEU0x3b
VGXCPPXSEU 0
root@arm:~# echo 'VMCZ''SPBAUO'
VMCZSPBAUO
root@arm:~# MARKER='BAZY''XSOTBF' run 'echo 1300000 1300000 > /sys/kernel/mva_tesst/regulators/buck1_set'
BAZYXSOTBFBAZYXSOTBF 0
root@arm:~# echo 'ZXYW''SJAJTU'
ZXYWSJAJTU
root@arm:~# MARKER='AGPU''OOEJNV' run 'i2cget -y -f 1 0x4b 0xd'
AGPUOOEJNV0x3c
AGPUOOEJNV 0
root@arm:~# echo 'WPFZ''OWZSXB'
WPFZOWZSXB
root@arm:~# MARKER='UKHP''NGJPPW' run 'grep -r -l rohm,bd71847 /proc/device-tree  | sed '"'"'s![^/]*$!!'"'"''
UKHPNGJPPW/proc/device-tree/ocp/interconnect@48000000/segment@0/target-module@2a000/i2c@0/pmic@4b/
UKHPNGJPPW 0
root@arm:~# echo 'EXCH''TOXKAL'
EXCHTOXKAL
root@arm:~# MARKER='UJTK''YCJEQJ' run 'test -f /proc/device-tree/ocp/interconnectt\@48000000/segment\@0/target-module\@2a000/i2c\@0/pmic\@4b/regulators/BUCK2/rohmm,no-regulator-enable-control ;echo $?'
UJTKYCJEQJ1
UJTKYCJEQJ 0
root@arm:~# echo 'NBJH''YUCBZK'
NBJHYUCBZK
root@arm:~# MARKER='UCVN''QCTKFH' run 'i2cget -y -f 1 0x4b 0x6'
UCVNQCTKFH0x43
UCVNQCTKFH 0
root@arm:~# echo 'SOEH''TQFVZV'
SOEHTQFVZV
root@arm:~# MARKER='PMSO''UGFHCO' run 'echo 700000 700000 > /sys/kernel/mva_test//regulators/buck2_set'
PMSOUGFHCOPMSOUGFHCO 0
root@arm:~# echo 'ZANC''AOXVGQ'
ZANCAOXVGQ
root@arm:~# MARKER='EOGT''VBUAFT' run 'i2cget -y -f 1 0x4b 0x10'
EOGTVBUAFT0x00
EOGTVBUAFT 0
root@arm:~# echo 'NHOJ''OBVPXB'
NHOJOBVPXB
root@arm:~# MARKER='AFSJ''EHNPUW' run 'echo 710000 710000 > /sys/kernel/mva_test//regulators/buck2_set'
AFSJEHNPUWAFSJEHNPUW 0
root@arm:~# echo 'HBHN''WJEFLS'
HBHNWJEFLS
root@arm:~# MARKER='LYOB''GKSJMK' run 'i2cget -y -f 1 0x4b 0x10'
LYOBGKSJMK0x01
LYOBGKSJMK 0
root@arm:~# echo 'HBZH''ZFFNQN'
HBZHZFFNQN
root@arm:~# MARKER='CUZO''BVNNVZ' run 'echo 720000 720000 > /sys/kernel/mva_test//regulators/buck2_set'
CUZOBVNNVZCUZOBVNNVZ 0
root@arm:~# echo 'YXLT''NYSNGY'
YXLTNYSNGY
root@arm:~# MARKER='XNVE''ZAUEPJ' run 'i2cget -y -f 1 0x4b 0x10'
XNVEZAUEPJ0x02
XNVEZAUEPJ 0
root@arm:~# echo 'FGPN''ATXSEV'
FGPNATXSEV
root@arm:~# MARKER='GTFJ''CVMNSE' run 'echo 730000 730000 > /sys/kernel/mva_test//regulators/buck2_set'
GTFJCVMNSEGTFJCVMNSE 0
root@arm:~# echo 'AUYT''XBZWLT'
AUYTXBZWLT
root@arm:~# MARKER='HGJN''VHCVFY' run 'i2cget -y -f 1 0x4b 0x10'
HGJNVHCVFY0x03
HGJNVHCVFY 0
root@arm:~# echo 'UXPG''TWXZEN'
UXPGTWXZEN
root@arm:~# MARKER='AJWN''FAFFZG' run 'echo 740000 740000 > /sys/kernel/mva_test//regulators/buck2_set'
AJWNFAFFZGAJWNFAFFZG 0
root@arm:~# echo 'XXNA''ZMQFQA'
XXNAZMQFQA
root@arm:~# MARKER='FEQY''OHVUMF' run 'i2cget -y -f 1 0x4b 0x10'
FEQYOHVUMF0x04
FEQYOHVUMF 0
root@arm:~# echo 'GZBT''MJECLY'
GZBTMJECLY
root@arm:~# MARKER='YFAF''BWAJLM' run 'echo 750000 750000 > /sys/kernel/mva_test//regulators/buck2_set'
YFAFBWAJLMYFAFBWAJLM 0
root@arm:~# echo 'VMXT''OAYPHP'
VMXTOAYPHP
root@arm:~# MARKER='JJNF''HJUHQL' run 'i2cget -y -f 1 0x4b 0x10'
JJNFHJUHQL0x05
JJNFHJUHQL 0
root@arm:~# echo 'NUXL''KUXYPY'
NUXLKUXYPY
root@arm:~# MARKER='ZXHP''CQZFHZ' run 'echo 760000 760000 > /sys/kernel/mva_test//regulators/buck2_set'
ZXHPCQZFHZZXHPCQZFHZ 0
root@arm:~# echo 'JOBL''CZWGQB'
JOBLCZWGQB
root@arm:~# MARKER='OQOC''AZHLCO' run 'i2cget -y -f 1 0x4b 0x10'
OQOCAZHLCO0x06
OQOCAZHLCO 0
root@arm:~# echo 'LUBO''NVWXYP'
LUBONVWXYP
root@arm:~# MARKER='MXXY''ESBBOC' run 'echo 770000 770000 > /sys/kernel/mva_test//regulators/buck2_set'
MXXYESBBOCMXXYESBBOC 0
root@arm:~# echo 'FPQV''VMYHAP'
FPQVVMYHAP
root@arm:~# MARKER='NWYY''UWCAVV' run 'i2cget -y -f 1 0x4b 0x10'
NWYYUWCAVV0x07
NWYYUWCAVV 0
root@arm:~# echo 'FPOL''CKJAWH'
FPOLCKJAWH
root@arm:~# MARKER='XSLB''QYYSGT' run 'echo 780000 780000 > /sys/kernel/mva_test//regulators/buck2_set'
XSLBQYYSGTXSLBQYYSGT 0
root@arm:~# echo 'WLOG''PCXSHZ'
WLOGPCXSHZ
root@arm:~# MARKER='FEJO''KVOLHP' run 'i2cget -y -f 1 0x4b 0x10'
FEJOKVOLHP0x08
FEJOKVOLHP 0
root@arm:~# echo 'JJBJ''LYWNVQ'
JJBJLYWNVQ
root@arm:~# MARKER='VBMA''LCOCAO' run 'echo 790000 790000 > /sys/kernel/mva_test//regulators/buck2_set'
VBMALCOCAOVBMALCOCAO 0
root@arm:~# echo 'SXAZ''CKEANG'
SXAZCKEANG
root@arm:~# MARKER='QSNH''FXXHOL' run 'i2cget -y -f 1 0x4b 0x10'
QSNHFXXHOL0x09
QSNHFXXHOL 0
root@arm:~# echo 'MQYT''GXGOLU'
MQYTGXGOLU
root@arm:~# MARKER='NYOL''VEOALE' run 'echo 800000 800000 > /sys/kernel/mva_test//regulators/buck2_set'
NYOLVEOALENYOLVEOALE 0
root@arm:~# echo 'KPYY''MHXYGK'
KPYYMHXYGK
root@arm:~# MARKER='HECT''BKJWGN' run 'i2cget -y -f 1 0x4b 0x10'
HECTBKJWGN0x0a
HECTBKJWGN 0
root@arm:~# echo 'TZKO''MWQXJZ'
TZKOMWQXJZ
root@arm:~# MARKER='QXFV''KWPGAQ' run 'echo 810000 810000 > /sys/kernel/mva_test//regulators/buck2_set'
QXFVKWPGAQQXFVKWPGAQ 0
root@arm:~# echo 'ZSHN''MMFSLO'
ZSHNMMFSLO
root@arm:~# MARKER='EOAL''MACNZP' run 'i2cget -y -f 1 0x4b 0x10'
EOALMACNZP0x0b
EOALMACNZP 0
root@arm:~# echo 'JHKU''CYYEKB'
JHKUCYYEKB
root@arm:~# MARKER='XTCT''SVAEYU' run 'echo 820000 820000 > /sys/kernel/mva_test//regulators/buck2_set'
XTCTSVAEYUXTCTSVAEYU 0
root@arm:~# echo 'BHNM''QCEKLQ'
BHNMQCEKLQ
root@arm:~# MARKER='GGKX''PUOGFA' run 'i2cget -y -f 1 0x4b 0x10'
GGKXPUOGFA0x0c
GGKXPUOGFA 0
root@arm:~# echo 'KFZW''GMJWSX'
KFZWGMJWSX
root@arm:~# MARKER='GWAV''QYTHUX' run 'echo 830000 830000 > /sys/kernel/mva_test//regulators/buck2_set'
GWAVQYTHUXGWAVQYTHUX 0
root@arm:~# echo 'MMCS''LBGHAP'
MMCSLBGHAP
root@arm:~# MARKER='NNOX''XMYWKB' run 'i2cget -y -f 1 0x4b 0x10'
NNOXXMYWKB0x0d
NNOXXMYWKB 0
root@arm:~# echo 'YLHU''FCVQUB'
YLHUFCVQUB
root@arm:~# MARKER='NUSL''NKVNXN' run 'echo 840000 840000 > /sys/kernel/mva_test//regulators/buck2_set'
NUSLNKVNXNNUSLNKVNXN 0
root@arm:~# echo 'OZLG''QVBBUA'
OZLGQVBBUA
root@arm:~# MARKER='WXAC''FGYZLW' run 'i2cget -y -f 1 0x4b 0x10'
WXACFGYZLW0x0e
WXACFGYZLW 0
root@arm:~# echo 'TGWQ''NUCBWO'
TGWQNUCBWO
root@arm:~# MARKER='YHWJ''FUOTZL' run 'echo 850000 850000 > /sys/kernel/mva_test//regulators/buck2_set'
YHWJFUOTZLYHWJFUOTZL 0
root@arm:~# echo 'HPFS''OQKKBS'
HPFSOQKKBS
root@arm:~# MARKER='FJWQ''FMAOWP' run 'i2cget -y -f 1 0x4b 0x10'
FJWQFMAOWP0x0f
FJWQFMAOWP 0
root@arm:~# echo 'TWMH''ZPLUVZ'
TWMHZPLUVZ
root@arm:~# MARKER='PJSH''XUHYYB' run 'echo 860000 860000 > /sys/kernel/mva_test//regulators/buck2_set'
PJSHXUHYYBPJSHXUHYYB 0
root@arm:~# echo 'OEPE''HBBOBH'
OEPEHBBOBH
root@arm:~# MARKER='YYBS''CMPTTW' run 'i2cget -y -f 1 0x4b 0x10'
YYBSCMPTTW0x10
YYBSCMPTTW 0
root@arm:~# echo 'MENO''ZFFFLY'
MENOZFFFLY
root@arm:~# MARKER='HWET''UBQYUB' run 'echo 870000 870000 > /sys/kernel/mva_test//regulators/buck2_set'
HWETUBQYUBHWETUBQYUB 0
root@arm:~# echo 'HZXA''KKZHZY'
HZXAKKZHZY
root@arm:~# MARKER='SVHN''BQKGUX' run 'i2cget -y -f 1 0x4b 0x10'
SVHNBQKGUX0x11
SVHNBQKGUX 0
root@arm:~# echo 'JBYL''BQJZMV'
JBYLBQJZMV
root@arm:~# MARKER='FFOW''QUACWX' run 'echo 880000 880000 > /sys/kernel/mva_test//regulators/buck2_set'
FFOWQUACWXFFOWQUACWX 0
root@arm:~# echo 'FEHB''HWYLXU'
FEHBHWYLXU
root@arm:~# MARKER='JCCV''LYBFPM' run 'i2cget -y -f 1 0x4b 0x10'
JCCVLYBFPM0x12
JCCVLYBFPM 0
root@arm:~# echo 'XPGP''XOQOCE'
XPGPXOQOCE
root@arm:~# MARKER='QAYQ''NNQBZA' run 'echo 890000 890000 > /sys/kernel/mva_test//regulators/buck2_set'
QAYQNNQBZAQAYQNNQBZA 0
root@arm:~# echo 'LOHW''HSJUKH'
LOHWHSJUKH
root@arm:~# MARKER='ZHSZ''XUWGEJ' run 'i2cget -y -f 1 0x4b 0x10'
ZHSZXUWGEJ0x13
ZHSZXUWGEJ 0
root@arm:~# echo 'ZBXC''EQHHHP'
ZBXCEQHHHP
root@arm:~# MARKER='VGLJ''CYQCPQ' run 'echo 900000 900000 > /sys/kernel/mva_test//regulators/buck2_set'
VGLJCYQCPQVGLJCYQCPQ 0
root@arm:~# echo 'TFLN''SLNPME'
TFLNSLNPME
root@arm:~# MARKER='SWMC''UTMSEQ' run 'i2cget -y -f 1 0x4b 0x10'
SWMCUTMSEQ0x14
SWMCUTMSEQ 0
root@arm:~# echo 'OSOX''AEYGJA'
OSOXAEYGJA
root@arm:~# MARKER='VMES''PSQYBC' run 'echo 910000 910000 > /sys/kernel/mva_test//regulators/buck2_set'
VMESPSQYBCVMESPSQYBC 0
root@arm:~# echo 'XULN''EKJUWU'
XULNEKJUWU
root@arm:~# MARKER='LATQ''QHVKQH' run 'i2cget -y -f 1 0x4b 0x10'
LATQQHVKQH0x15
LATQQHVKQH 0
root@arm:~# echo 'ZJPP''FCMBZS'
ZJPPFCMBZS
root@arm:~# MARKER='LYZZ''VPKGKO' run 'echo 920000 920000 > /sys/kernel/mva_test//regulators/buck2_set'
LYZZVPKGKOLYZZVPKGKO 0
root@arm:~# echo 'OXVO''QNTFMA'
OXVOQNTFMA
root@arm:~# MARKER='EEFG''AXMWNM' run 'i2cget -y -f 1 0x4b 0x10'
EEFGAXMWNM0x16
EEFGAXMWNM 0
root@arm:~# echo 'FGYT''ZCMCZY'
FGYTZCMCZY
root@arm:~# MARKER='PHOZ''LGPHJY' run 'echo 930000 930000 > /sys/kernel/mva_test//regulators/buck2_set'
PHOZLGPHJYPHOZLGPHJY 0
root@arm:~# echo 'YZLQ''FBOAJY'
YZLQFBOAJY
root@arm:~# MARKER='QNML''CXPHTT' run 'i2cget -y -f 1 0x4b 0x10'
QNMLCXPHTT0x17
QNMLCXPHTT 0
root@arm:~# echo 'YPHF''WTMTTJ'
YPHFWTMTTJ
root@arm:~# MARKER='LNBQ''OGKMVZ' run 'echo 940000 940000 > /sys/kernel/mva_test//regulators/buck2_set'
LNBQOGKMVZLNBQOGKMVZ 0
root@arm:~# echo 'YBWM''SUXCCW'
YBWMSUXCCW
root@arm:~# MARKER='HPHL''OPSOHE' run 'i2cget -y -f 1 0x4b 0x10'
HPHLOPSOHE0x18
HPHLOPSOHE 0
root@arm:~# echo 'UVSO''XQAKEV'
UVSOXQAKEV
root@arm:~# MARKER='FSOS''JMOBBB' run 'echo 950000 950000 > /sys/kernel/mva_test//regulators/buck2_set'
FSOSJMOBBBFSOSJMOBBB 0
root@arm:~# echo 'UKPB''WBFJNB'
UKPBWBFJNB
root@arm:~# MARKER='FVVW''EVLLZT' run 'i2cget -y -f 1 0x4b 0x10'
FVVWEVLLZT0x19
FVVWEVLLZT 0
root@arm:~# echo 'YXLJ''BSYVNT'
YXLJBSYVNT
root@arm:~# MARKER='LSGF''TJPKJS' run 'echo 960000 960000 > /sys/kernel/mva_test//regulators/buck2_set'
LSGFTJPKJSLSGFTJPKJS 0
root@arm:~# echo 'TKAP''VPPLPG'
TKAPVPPLPG
root@arm:~# MARKER='XWQY''FCTPHZ' run 'i2cget -y -f 1 0x4b 0x10'
XWQYFCTPHZ0x1a
XWQYFCTPHZ 0
root@arm:~# echo 'KWPH''QFJJSX'
KWPHQFJJSX
root@arm:~# MARKER='QGOC''ZVFXAE' run 'echo 970000 970000 > /sys/kernel/mva_test//regulators/buck2_set'
QGOCZVFXAEQGOCZVFXAE 0
root@arm:~# echo 'YUHM''TQAEML'
YUHMTQAEML
root@arm:~# MARKER='QHBF''CNMGJQ' run 'i2cget -y -f 1 0x4b 0x10'
QHBFCNMGJQ0x1b
QHBFCNMGJQ 0
root@arm:~# echo 'BWFK''YOKHPO'
BWFKYOKHPO
root@arm:~# MARKER='OMOT''SKXBMG' run 'echo 980000 980000 > /sys/kernel/mva_test//regulators/buck2_set'
OMOTSKXBMGOMOTSKXBMG 0
root@arm:~# echo 'BTYG''OOFLSJ'
BTYGOOFLSJ
root@arm:~# MARKER='HMUK''SHFGKU' run 'i2cget -y -f 1 0x4b 0x10'
HMUKSHFGKU0x1c
HMUKSHFGKU 0
root@arm:~# echo 'SJOK''MHZLXY'
SJOKMHZLXY
root@arm:~# MARKER='EEJV''GJVJVQ' run 'echo 990000 990000 > /sys/kernel/mva_test//regulators/buck2_set'
EEJVGJVJVQEEJVGJVJVQ 0
root@arm:~# echo 'CNKZ''OMTKTC'
CNKZOMTKTC
root@arm:~# MARKER='AKGS''AKBOGW' run 'i2cget -y -f 1 0x4b 0x10'
AKGSAKBOGW0x1d
AKGSAKBOGW 0
root@arm:~# echo 'HTNA''CLSMGM'
HTNACLSMGM
root@arm:~# MARKER='TPWW''CWHFUN' run 'echo 1000000 1000000 > /sys/kernel/mva_tesst/regulators/buck2_set'
TPWWCWHFUNTPWWCWHFUN 0
root@arm:~# echo 'ATJG''SVOCFW'
ATJGSVOCFW
root@arm:~# MARKER='QAXA''EQKNLO' run 'i2cget -y -f 1 0x4b 0x10'
QAXAEQKNLO0x1e
QAXAEQKNLO 0
root@arm:~# echo 'LZTE''FLOMUJ'
LZTEFLOMUJ
root@arm:~# MARKER='HFBF''HBJPQB' run 'echo 1010000 1010000 > /sys/kernel/mva_tesst/regulators/buck2_set'
HFBFHBJPQBHFBFHBJPQB 0
root@arm:~# echo 'EHBL''AAJPSO'
EHBLAAJPSO
root@arm:~# MARKER='KEWK''MAUQEL' run 'i2cget -y -f 1 0x4b 0x10'
KEWKMAUQEL0x1f
KEWKMAUQEL 0
root@arm:~# echo 'SLFO''JKNFJQ'
SLFOJKNFJQ
root@arm:~# MARKER='MHXN''ZYNHBL' run 'echo 1020000 1020000 > /sys/kernel/mva_tesst/regulators/buck2_set'
MHXNZYNHBLMHXNZYNHBL 0
root@arm:~# echo 'UCBE''PXTQQM'
UCBEPXTQQM
root@arm:~# MARKER='JHAF''SKABJF' run 'i2cget -y -f 1 0x4b 0x10'
JHAFSKABJF0x20
JHAFSKABJF 0
root@arm:~# echo 'ESTQ''FZUUTT'
ESTQFZUUTT
root@arm:~# MARKER='AKCE''TJYYVT' run 'echo 1030000 1030000 > /sys/kernel/mva_tesst/regulators/buck2_set'
AKCETJYYVTAKCETJYYVT 0
root@arm:~# echo 'HSNX''CXBHBH'
HSNXCXBHBH
root@arm:~# MARKER='KUKM''BYMSJV' run 'i2cget -y -f 1 0x4b 0x10'
KUKMBYMSJV0x21
KUKMBYMSJV 0
root@arm:~# echo 'TAYT''YKQBEU'
TAYTYKQBEU
root@arm:~# MARKER='MLSX''ZXFXTO' run 'echo 1040000 1040000 > /sys/kernel/mva_tesst/regulators/buck2_set'
MLSXZXFXTOMLSXZXFXTO 0
root@arm:~# echo 'GJOM''QZNHUH'
GJOMQZNHUH
root@arm:~# MARKER='JKAW''TPSPTG' run 'i2cget -y -f 1 0x4b 0x10'
JKAWTPSPTG0x22
JKAWTPSPTG 0
root@arm:~# echo 'HCUG''KNTXGP'
HCUGKNTXGP
root@arm:~# MARKER='TGUQ''MMKMTW' run 'echo 1050000 1050000 > /sys/kernel/mva_tesst/regulators/buck2_set'
TGUQMMKMTWTGUQMMKMTW 0
root@arm:~# echo 'TZPC''OJCFFW'
TZPCOJCFFW
root@arm:~# MARKER='YPKA''NMAUJM' run 'i2cget -y -f 1 0x4b 0x10'
YPKANMAUJM0x23
YPKANMAUJM 0
root@arm:~# echo 'PEOP''VFEQMV'
PEOPVFEQMV
root@arm:~# MARKER='KGWW''CZKLYH' run 'echo 1060000 1060000 > /sys/kernel/mva_tesst/regulators/buck2_set'
KGWWCZKLYHKGWWCZKLYH 0
root@arm:~# echo 'VWMH''XCVQVL'
VWMHXCVQVL
root@arm:~# MARKER='PPAP''TZJSEF' run 'i2cget -y -f 1 0x4b 0x10'
PPAPTZJSEF0x24
PPAPTZJSEF 0
root@arm:~# echo 'LJKY''JCPUAY'
LJKYJCPUAY
root@arm:~# MARKER='JWTV''YUYBXO' run 'echo 1070000 1070000 > /sys/kernel/mva_tesst/regulators/buck2_set'
JWTVYUYBXOJWTVYUYBXO 0
root@arm:~# echo 'XSPG''WGBFLX'
XSPGWGBFLX
root@arm:~# MARKER='KJNQ''NMWGAK' run 'i2cget -y -f 1 0x4b 0x10'
KJNQNMWGAK0x25
KJNQNMWGAK 0
root@arm:~# echo 'ULTZ''LVZAHJ'
ULTZLVZAHJ
root@arm:~# MARKER='XQCF''QXQTJW' run 'echo 1080000 1080000 > /sys/kernel/mva_tesst/regulators/buck2_set'
XQCFQXQTJWXQCFQXQTJW 0
root@arm:~# echo 'QHSW''HQVCAS'
QHSWHQVCAS
root@arm:~# MARKER='OGUV''PCCTUS' run 'i2cget -y -f 1 0x4b 0x10'
OGUVPCCTUS0x26
OGUVPCCTUS 0
root@arm:~# echo 'JMSZ''MXTAAP'
JMSZMXTAAP
root@arm:~# MARKER='XBHT''AJWGTV' run 'echo 1090000 1090000 > /sys/kernel/mva_tesst/regulators/buck2_set'
XBHTAJWGTVXBHTAJWGTV 0
root@arm:~# echo 'BSMP''KLUOHT'
BSMPKLUOHT
root@arm:~# MARKER='HJBX''GXVXMP' run 'i2cget -y -f 1 0x4b 0x10'
HJBXGXVXMP0x27
HJBXGXVXMP 0
root@arm:~# echo 'VVXU''QVGZUH'
VVXUQVGZUH
root@arm:~# MARKER='LOGK''GXSEPK' run 'echo 1100000 1100000 > /sys/kernel/mva_tesst/regulators/buck2_set'
LOGKGXSEPKLOGKGXSEPK 0
root@arm:~# echo 'KSLL''XOSWVE'
KSLLXOSWVE
root@arm:~# MARKER='KESM''TAPQGH' run 'i2cget -y -f 1 0x4b 0x10'
KESMTAPQGH0x28
KESMTAPQGH 0
root@arm:~# echo 'LOLY''ZYJWFH'
LOLYZYJWFH
root@arm:~# MARKER='CGYP''NQVXAA' run 'echo 1110000 1110000 > /sys/kernel/mva_tesst/regulators/buck2_set'
CGYPNQVXAACGYPNQVXAA 0
root@arm:~# echo 'NMOV''EPYPPH'
NMOVEPYPPH
root@arm:~# MARKER='NYMB''FZAPEM' run 'i2cget -y -f 1 0x4b 0x10'
NYMBFZAPEM0x29
NYMBFZAPEM 0
root@arm:~# echo 'MOFY''QONBSA'
MOFYQONBSA
root@arm:~# MARKER='XBNH''OKYPHY' run 'echo 1120000 1120000 > /sys/kernel/mva_tesst/regulators/buck2_set'
XBNHOKYPHYXBNHOKYPHY 0
root@arm:~# echo 'CWNM''AEMKVN'
CWNMAEMKVN
root@arm:~# MARKER='KKCX''WMAQSH' run 'i2cget -y -f 1 0x4b 0x10'
KKCXWMAQSH0x2a
KKCXWMAQSH 0
root@arm:~# echo 'YPLY''LLJJFB'
YPLYLLJJFB
root@arm:~# MARKER='KBOV''CEUCFZ' run 'echo 1130000 1130000 > /sys/kernel/mva_tesst/regulators/buck2_set'
KBOVCEUCFZKBOVCEUCFZ 0
root@arm:~# echo 'CQMC''SKHXJO'
CQMCSKHXJO
root@arm:~# MARKER='EXFP''KAXCSO' run 'i2cget -y -f 1 0x4b 0x10'
EXFPKAXCSO0x2b
EXFPKAXCSO 0
root@arm:~# echo 'BGFJ''EEUVOX'
BGFJEEUVOX
root@arm:~# MARKER='OKMN''KMQHTK' run 'echo 1140000 1140000 > /sys/kernel/mva_tesst/regulators/buck2_set'
OKMNKMQHTKOKMNKMQHTK 0
root@arm:~# echo 'ZEHL''NGMUWO'
ZEHLNGMUWO
root@arm:~# MARKER='BZWV''OJKKNP' run 'i2cget -y -f 1 0x4b 0x10'
BZWVOJKKNP0x2c
BZWVOJKKNP 0
root@arm:~# echo 'ZJFJ''NKWELT'
ZJFJNKWELT
root@arm:~# MARKER='UMVU''VOLPBK' run 'echo 1150000 1150000 > /sys/kernel/mva_tesst/regulators/buck2_set'
UMVUVOLPBKUMVUVOLPBK 0
root@arm:~# echo 'EBTZ''YUASUV'
EBTZYUASUV
root@arm:~# MARKER='UVJC''JBFHLN' run 'i2cget -y -f 1 0x4b 0x10'
UVJCJBFHLN0x2d
UVJCJBFHLN 0
root@arm:~# echo 'FZNK''WQAMYS'
FZNKWQAMYS
root@arm:~# MARKER='OVFS''GCBSLQ' run 'echo 1160000 1160000 > /sys/kernel/mva_tesst/regulators/buck2_set'
OVFSGCBSLQOVFSGCBSLQ 0
root@arm:~# echo 'MBJY''PVBLOK'
MBJYPVBLOK
root@arm:~# MARKER='YLVX''QANWOB' run 'i2cget -y -f 1 0x4b 0x10'
YLVXQANWOB0x2e
YLVXQANWOB 0
root@arm:~# echo 'YAAT''NXXKBZ'
YAATNXXKBZ
root@arm:~# MARKER='QVSJ''YCNQSL' run 'echo 1170000 1170000 > /sys/kernel/mva_tesst/regulators/buck2_set'
QVSJYCNQSLQVSJYCNQSL 0
root@arm:~# echo 'AKHT''EFMHSA'
AKHTEFMHSA
root@arm:~# MARKER='LEZX''VTJPMT' run 'i2cget -y -f 1 0x4b 0x10'
LEZXVTJPMT0x2f
LEZXVTJPMT 0
root@arm:~# echo 'ZXCQ''JOBUGK'
ZXCQJOBUGK
root@arm:~# MARKER='WLEE''OWNHHN' run 'echo 1180000 1180000 > /sys/kernel/mva_tesst/regulators/buck2_set'
WLEEOWNHHNWLEEOWNHHN 0
root@arm:~# echo 'PLHX''CFPWYW'
PLHXCFPWYW
root@arm:~# MARKER='MBNQ''TGLBEA' run 'i2cget -y -f 1 0x4b 0x10'
MBNQTGLBEA0x30
MBNQTGLBEA 0
root@arm:~# echo 'GQSM''OCESCO'
GQSMOCESCO
root@arm:~# MARKER='TCJG''EKHQQL' run 'echo 1190000 1190000 > /sys/kernel/mva_tesst/regulators/buck2_set'
TCJGEKHQQLTCJGEKHQQL 0
root@arm:~# echo 'LCEZ''JMBBEP'
LCEZJMBBEP
root@arm:~# MARKER='YBNT''GLHMZP' run 'i2cget -y -f 1 0x4b 0x10'
YBNTGLHMZP0x31
YBNTGLHMZP 0
root@arm:~# echo 'OUFZ''EHENJJ'
OUFZEHENJJ
root@arm:~# MARKER='XZFF''LZXXUQ' run 'echo 1200000 1200000 > /sys/kernel/mva_tesst/regulators/buck2_set'
XZFFLZXXUQXZFFLZXXUQ 0
root@arm:~# echo 'STNB''CQMZNJ'
STNBCQMZNJ
root@arm:~# MARKER='BYFF''NLSWUT' run 'i2cget -y -f 1 0x4b 0x10'
BYFFNLSWUT0x32
BYFFNLSWUT 0
root@arm:~# echo 'BTST''ZNZWAK'
BTSTZNZWAK
root@arm:~# MARKER='HZCY''QNBKEN' run 'echo 1210000 1210000 > /sys/kernel/mva_tesst/regulators/buck2_set'
HZCYQNBKENHZCYQNBKEN 0
root@arm:~# echo 'ONEC''ETEMWJ'
ONECETEMWJ
root@arm:~# MARKER='XYHW''PYYXGG' run 'i2cget -y -f 1 0x4b 0x10'
XYHWPYYXGG0x33
XYHWPYYXGG 0
root@arm:~# echo 'VHSQ''EHJHHH'
VHSQEHJHHH
root@arm:~# MARKER='NGVP''VECKGE' run 'echo 1220000 1220000 > /sys/kernel/mva_tesst/regulators/buck2_set'
NGVPVECKGENGVPVECKGE 0
root@arm:~# echo 'KXUC''VJHNXL'
KXUCVJHNXL
root@arm:~# MARKER='LSWA''EUQMNT' run 'i2cget -y -f 1 0x4b 0x10'
LSWAEUQMNT0x34
LSWAEUQMNT 0
root@arm:~# echo 'ESJL''CKYKHS'
ESJLCKYKHS
root@arm:~# MARKER='JHGP''AUZVOW' run 'echo 1230000 1230000 > /sys/kernel/mva_tesst/regulators/buck2_set'
JHGPAUZVOWJHGPAUZVOW 0
root@arm:~# echo 'SGNF''PPBHWE'
SGNFPPBHWE
root@arm:~# MARKER='MMMC''QKZBCM' run 'i2cget -y -f 1 0x4b 0x10'
MMMCQKZBCM0x35
MMMCQKZBCM 0
root@arm:~# echo 'QSXY''ZCPWYT'
QSXYZCPWYT
root@arm:~# MARKER='TVXZ''VXLLBV' run 'echo 1240000 1240000 > /sys/kernel/mva_tesst/regulators/buck2_set'
TVXZVXLLBVTVXZVXLLBV 0
root@arm:~# echo 'AKST''GBFXPA'
AKSTGBFXPA
root@arm:~# MARKER='FKXA''YTNMNZ' run 'i2cget -y -f 1 0x4b 0x10'
FKXAYTNMNZ0x36
FKXAYTNMNZ 0
root@arm:~# echo 'WQVN''XKSCEP'
WQVNXKSCEP
root@arm:~# MARKER='JNJS''WETSCY' run 'echo 1250000 1250000 > /sys/kernel/mva_tesst/regulators/buck2_set'
JNJSWETSCYJNJSWETSCY 0
root@arm:~# echo 'HOTA''LGOPXH'
HOTALGOPXH
root@arm:~# MARKER='GXCV''QAUKNT' run 'i2cget -y -f 1 0x4b 0x10'
GXCVQAUKNT0x37
GXCVQAUKNT 0
root@arm:~# echo 'YBPS''SKACGZ'
YBPSSKACGZ
root@arm:~# MARKER='UWYX''NLHHQK' run 'echo 1260000 1260000 > /sys/kernel/mva_tesst/regulators/buck2_set'
UWYXNLHHQKUWYXNLHHQK 0
root@arm:~# echo 'FQLH''TKSPPT'
FQLHTKSPPT
root@arm:~# MARKER='ZHAU''SQGWXX' run 'i2cget -y -f 1 0x4b 0x10'
ZHAUSQGWXX0x38
ZHAUSQGWXX 0
root@arm:~# echo 'ZKCB''HWSPBL'
ZKCBHWSPBL
root@arm:~# MARKER='KTNC''LMZEUH' run 'echo 1270000 1270000 > /sys/kernel/mva_tesst/regulators/buck2_set'
KTNCLMZEUHKTNCLMZEUH 0
root@arm:~# echo 'XUXG''WUAVBE'
XUXGWUAVBE
root@arm:~# MARKER='KGST''JZCYGJ' run 'i2cget -y -f 1 0x4b 0x10'
KGSTJZCYGJ0x39
KGSTJZCYGJ 0
root@arm:~# echo 'WPYX''PJBHKX'
WPYXPJBHKX
root@arm:~# MARKER='PNQP''PLPEVV' run 'echo 1280000 1280000 > /sys/kernel/mva_tesst/regulators/buck2_set'
PNQPPLPEVVPNQPPLPEVV 0
root@arm:~# echo 'AKUM''OVACAC'
AKUMOVACAC
root@arm:~# MARKER='YHFA''MEVAHF' run 'i2cget -y -f 1 0x4b 0x10'
YHFAMEVAHF0x3a
YHFAMEVAHF 0
root@arm:~# echo 'QWJK''VTANQE'
QWJKVTANQE
root@arm:~# MARKER='TVTP''UASXYK' run 'echo 1290000 1290000 > /sys/kernel/mva_tesst/regulators/buck2_set'
TVTPUASXYKTVTPUASXYK 0
root@arm:~# echo 'GKAG''YCMXUO'
GKAGYCMXUO
root@arm:~# MARKER='TEHE''UJOTFZ' run 'i2cget -y -f 1 0x4b 0x10'
TEHEUJOTFZ0x3b
TEHEUJOTFZ 0
root@arm:~# echo 'HJWY''OFHOEK'
HJWYOFHOEK
root@arm:~# MARKER='FOYH''FQMNFH' run 'echo 1300000 1300000 > /sys/kernel/mva_tesst/regulators/buck2_set'
FOYHFQMNFHFOYHFQMNFH 0
root@arm:~# echo 'CCQJ''HJJNZB'
CCQJHJJNZB
root@arm:~# MARKER='QAMJ''QXYEAL' run 'i2cget -y -f 1 0x4b 0x10'
QAMJQXYEAL0x3c
QAMJQXYEAL 0
root@arm:~# echo 'CSNJ''TJFVLM'
CSNJTJFVLM
root@arm:~# MARKER='LOBW''LQYZCC' run 'grep -r -l rohm,bd71847 /proc/device-tree  | sed '"'"'s![^/]*$!!'"'"''
LOBWLQYZCC/proc/device-tree/ocp/interconnect@48000000/segment@0/target-module@2a000/i2c@0/pmic@4b/
LOBWLQYZCC 0
root@arm:~# echo 'FFXF''CPLJMS'
FFXFCPLJMS
root@arm:~# MARKER='CSOA''JWFGBF' run 'test -f /proc/device-tree/ocp/interconnectt\@48000000/segment\@0/target-module\@2a000/i2c\@0/pmic\@4b/regulators/BUCK3/rohmm,no-regulator-enable-control ;echo $?'
CSOAJWFGBF0
CSOAJWFGBF 0
root@arm:~# echo 'LXEB''AGJFEA'
LXEBAGJFEA
root@arm:~# MARKER='HBMY''LYMYFU' run 'echo 700000 700000 > /sys/kernel/mva_test//regulators/buck3_set'
HBMYLYMYFUHBMYLYMYFU 0
root@arm:~# echo 'VFZZ''VLGCVQ'
VFZZVLGCVQ
root@arm:~# MARKER='JPEP''UEVAPN' run 'i2cget -y -f 1 0x4b 0x14'
JPEPUEVAPN0x00
JPEPUEVAPN 0
root@arm:~# echo 'VGHY''JSTKAK'
VGHYJSTKAK
root@arm:~# MARKER='YLSX''FFZGVK' run 'echo 800000 800000 > /sys/kernel/mva_test//regulators/buck3_set'
YLSXFFZGVKYLSXFFZGVK 0
root@arm:~# echo 'QXVB''SPPOCX'
QXVBSPPOCX
root@arm:~# MARKER='EHCN''SBKSZE' run 'i2cget -y -f 1 0x4b 0x14'
EHCNSBKSZE0x01
EHCNSBKSZE 0
root@arm:~# echo 'CSEE''TCJUUF'
CSEETCJUUF
root@arm:~# MARKER='CJAG''MXHCTM' run 'echo 900000 900000 > /sys/kernel/mva_test//regulators/buck3_set'
CJAGMXHCTMCJAGMXHCTM 0
root@arm:~# echo 'AFGW''UHSQKY'
AFGWUHSQKY
root@arm:~# MARKER='VQBF''XWMPJX' run 'i2cget -y -f 1 0x4b 0x14'
VQBFXWMPJX0x02
VQBFXWMPJX 0
root@arm:~# echo 'OZBT''AHYCEG'
OZBTAHYCEG
root@arm:~# MARKER='VHXQ''ZEXVSB' run 'echo 1000000 1000000 > /sys/kernel/mva_tesst/regulators/buck3_set'
VHXQZEXVSBVHXQZEXVSB 0
root@arm:~# echo 'BPHF''ZAFNXE'
BPHFZAFNXE
root@arm:~# MARKER='FXGU''EFJZYC' run 'i2cget -y -f 1 0x4b 0x14'
FXGUEFJZYC0x03
FXGUEFJZYC 0
root@arm:~# echo 'NPTY''SMLJMS'
NPTYSMLJMS
root@arm:~# MARKER='EOTO''QKETUQ' run 'echo 1050000 1050000 > /sys/kernel/mva_tesst/regulators/buck3_set'
EOTOQKETUQEOTOQKETUQ 0
root@arm:~# echo 'FJWH''VGCXXM'
FJWHVGCXXM
root@arm:~# MARKER='QWBG''JKXNOO' run 'i2cget -y -f 1 0x4b 0x14'
QWBGJKXNOO0x04
QWBGJKXNOO 0
root@arm:~# echo 'AGVP''BPAYHB'
AGVPBPAYHB
root@arm:~# MARKER='AGWH''FHMFLA' run 'echo 1100000 1100000 > /sys/kernel/mva_tesst/regulators/buck3_set'
AGWHFHMFLAAGWHFHMFLA 0
root@arm:~# echo 'XVAM''VZJUQX'
XVAMVZJUQX
root@arm:~# MARKER='ETGL''AJPKQF' run 'i2cget -y -f 1 0x4b 0x14'
ETGLAJPKQF0x05
ETGLAJPKQF 0
root@arm:~# echo 'AQQQ''TKOZHE'
AQQQTKOZHE
root@arm:~# MARKER='SGGC''OEHVJF' run 'echo 1200000 1200000 > /sys/kernel/mva_tesst/regulators/buck3_set'
SGGCOEHVJFSGGCOEHVJF 0
root@arm:~# echo 'KABT''LMSTAO'
KABTLMSTAO
root@arm:~# MARKER='WXTS''JLSVUT' run 'i2cget -y -f 1 0x4b 0x14'
WXTSJLSVUT0x06
WXTSJLSVUT 0
root@arm:~# echo 'EQJS''NFHLPP'
EQJSNFHLPP
root@arm:~# MARKER='PFZO''EYBTXJ' run 'echo 1350000 1350000 > /sys/kernel/mva_tesst/regulators/buck3_set'
PFZOEYBTXJPFZOEYBTXJ 0
root@arm:~# echo 'OFYC''KYGKSV'
OFYCKYGKSV
root@arm:~# MARKER='XJOU''MNAMLG' run 'i2cget -y -f 1 0x4b 0x14'
XJOUMNAMLG0x07
XJOUMNAMLG 0
root@arm:~# echo 'EFGH''XHCWTG'
EFGHXHCWTG
root@arm:~# MARKER='QZEP''ZNKMKF' run 'echo 550000 550000 > /sys/kernel/mva_test//regulators/buck3_set'
QZEPZNKMKFQZEPZNKMKF 0
root@arm:~# echo 'EJJJ''CMYOGM'
EJJJCMYOGM
root@arm:~# MARKER='ZEEX''SETWPE' run 'i2cget -y -f 1 0x4b 0x14'
ZEEXSETWPE0x40
ZEEXSETWPE 0
root@arm:~# echo 'QBBW''JEWHPZ'
QBBWJEWHPZ
root@arm:~# MARKER='UMWG''LXTUSQ' run 'echo 600000 600000 > /sys/kernel/mva_test//regulators/buck3_set'
UMWGLXTUSQUMWGLXTUSQ 0
root@arm:~# echo 'YQBE''NZSSBM'
YQBENZSSBM
root@arm:~# MARKER='TJFU''VKHWPE' run 'i2cget -y -f 1 0x4b 0x14'
TJFUVKHWPE0x41
TJFUVKHWPE 0
root@arm:~# echo 'ZAAK''YKWNUY'
ZAAKYKWNUY
root@arm:~# MARKER='VFFF''QAGEYY' run 'echo 650000 650000 > /sys/kernel/mva_test//regulators/buck3_set'
VFFFQAGEYYVFFFQAGEYY 0
root@arm:~# echo 'KVEU''PJOLZY'
KVEUPJOLZY
root@arm:~# MARKER='TUVW''BNNBWK' run 'i2cget -y -f 1 0x4b 0x14'
TUVWBNNBWK0x42
TUVWBNNBWK 0
root@arm:~# echo 'XYGY''JJNLHY'
XYGYJJNLHY
root@arm:~# MARKER='JWWZ''AUTJEH' run 'echo 700000 700000 > /sys/kernel/mva_test//regulators/buck3_set'
JWWZAUTJEHJWWZAUTJEH 0
root@arm:~# echo 'GCPS''GWTAOF'
GCPSGWTAOF
root@arm:~# MARKER='PZPY''LGHYLM' run 'i2cget -y -f 1 0x4b 0x14'
PZPYLGHYLM0x00
PZPYLGHYLM 0
root@arm:~# echo 'EQLJ''FCTUYO'
EQLJFCTUYO
root@arm:~# MARKER='UVNM''STJFWA' run 'echo 750000 750000 > /sys/kernel/mva_test//regulators/buck3_set'
UVNMSTJFWAUVNMSTJFWA 0
root@arm:~# echo 'AKAV''JLJKNS'
AKAVJLJKNS
root@arm:~# MARKER='ZCKF''XKHHHF' run 'i2cget -y -f 1 0x4b 0x14'
ZCKFXKHHHF0x44
ZCKFXKHHHF 0
root@arm:~# echo 'BCES''XLMZWE'
BCESXLMZWE
root@arm:~# MARKER='OUMG''YXOVEB' run 'echo 800000 800000 > /sys/kernel/mva_test//regulators/buck3_set'
OUMGYXOVEBOUMGYXOVEB 0
root@arm:~# echo 'LNOO''FMYLUK'
LNOOFMYLUK
root@arm:~# MARKER='BCPF''EGUUKG' run 'i2cget -y -f 1 0x4b 0x14'
BCPFEGUUKG0x01
BCPFEGUUKG 0
root@arm:~# echo 'VEAX''JOFWQF'
VEAXJOFWQF
root@arm:~# MARKER='OUJJ''LHXJFH' run 'echo 850000 850000 > /sys/kernel/mva_test//regulators/buck3_set'
OUJJLHXJFHOUJJLHXJFH 0
root@arm:~# echo 'GPSW''XCYYZB'
GPSWXCYYZB
root@arm:~# MARKER='FNOW''TCCKCX' run 'i2cget -y -f 1 0x4b 0x14'
FNOWTCCKCX0x46
FNOWTCCKCX 0
root@arm:~# echo 'KUPF''EZEUNW'
KUPFEZEUNW
root@arm:~# MARKER='QKGU''SSBGLN' run 'echo 900000 900000 > /sys/kernel/mva_test//regulators/buck3_set'
QKGUSSBGLNQKGUSSBGLN 0
root@arm:~# echo 'CGEO''SVYBOC'
CGEOSVYBOC
root@arm:~# MARKER='YTZN''MZVVSN' run 'i2cget -y -f 1 0x4b 0x14'
YTZNMZVVSN0x02
YTZNMZVVSN 0
root@arm:~# echo 'XWNU''TNTPKY'
XWNUTNTPKY
root@arm:~# MARKER='ZWBA''SEPXZK' run 'echo 675000 675000 > /sys/kernel/mva_test//regulators/buck3_set'
ZWBASEPXZKZWBASEPXZK 0
root@arm:~# echo 'SCFE''JZGUZM'
SCFEJZGUZM
root@arm:~# MARKER='ZALB''WMPAEH' run 'i2cget -y -f 1 0x4b 0x14'
ZALBWMPAEH0x80
ZALBWMPAEH 0
root@arm:~# echo 'PFNE''HLHOYM'
PFNEHLHOYM
root@arm:~# MARKER='TPTX''ZBABFN' run 'echo 775000 775000 > /sys/kernel/mva_test//regulators/buck3_set'
TPTXZBABFNTPTXZBABFN 0
root@arm:~# echo 'NOLM''SUBTMH'
NOLMSUBTMH
root@arm:~# MARKER='VUOE''BKFEHN' run 'i2cget -y -f 1 0x4b 0x14'
VUOEBKFEHN0x81
VUOEBKFEHN 0
root@arm:~# echo 'ZOWO''ONFWBL'
ZOWOONFWBL
root@arm:~# MARKER='AJKW''HCGYBW' run 'echo 875000 875000 > /sys/kernel/mva_test//regulators/buck3_set'
AJKWHCGYBWAJKWHCGYBW 0
root@arm:~# echo 'JVAL''WWQMUT'
JVALWWQMUT
root@arm:~# MARKER='UHAG''QECSKN' run 'i2cget -y -f 1 0x4b 0x14'
UHAGQECSKN0x82
UHAGQECSKN 0
root@arm:~# echo 'GYYW''XJAATK'
GYYWXJAATK
root@arm:~# MARKER='UJQG''BAGCBK' run 'echo 975000 975000 > /sys/kernel/mva_test//regulators/buck3_set'
UJQGBAGCBKUJQGBAGCBK 0
root@arm:~# echo 'CZLC''SSQQSV'
CZLCSSQQSV
root@arm:~# MARKER='ZYGP''WHECSG' run 'i2cget -y -f 1 0x4b 0x14'
ZYGPWHECSG0x83
ZYGPWHECSG 0
root@arm:~# echo 'TQLO''EZHUYB'
TQLOEZHUYB
root@arm:~# MARKER='QFYW''GAXBPQ' run 'echo 1025000 1025000 > /sys/kernel/mva_tesst/regulators/buck3_set'
QFYWGAXBPQQFYWGAXBPQ 0
root@arm:~# echo 'VQEJ''PZYVLJ'
VQEJPZYVLJ
root@arm:~# MARKER='FPFQ''ZJEWWV' run 'i2cget -y -f 1 0x4b 0x14'
FPFQZJEWWV0x84
FPFQZJEWWV 0
root@arm:~# echo 'JMCJ''FCWUOV'
JMCJFCWUOV
root@arm:~# MARKER='NBUZ''JLWGCG' run 'echo 1075000 1075000 > /sys/kernel/mva_tesst/regulators/buck3_set'
NBUZJLWGCGNBUZJLWGCG 0
root@arm:~# echo 'FAAC''FHSXKL'
FAACFHSXKL
root@arm:~# MARKER='FJAG''XNAENY' run 'i2cget -y -f 1 0x4b 0x14'
FJAGXNAENY0x85
FJAGXNAENY 0
root@arm:~# echo 'EBXB''ZYOCCT'
EBXBZYOCCT
root@arm:~# MARKER='EFJS''ZFELLO' run 'echo 1175000 1175000 > /sys/kernel/mva_tesst/regulators/buck3_set'
EFJSZFELLOEFJSZFELLO 0
root@arm:~# echo 'FHAJ''HXSFBC'
FHAJHXSFBC
root@arm:~# MARKER='UOFF''PTSGNY' run 'i2cget -y -f 1 0x4b 0x14'
UOFFPTSGNY0x86
UOFFPTSGNY 0
root@arm:~# echo 'TQNE''XLUJUU'
TQNEXLUJUU
root@arm:~# MARKER='FYXT''CTFKHN' run 'echo 1325000 1325000 > /sys/kernel/mva_tesst/regulators/buck3_set'
FYXTCTFKHNFYXTCTFKHN 0
root@arm:~# echo 'VMUM''ZMCVKB'
VMUMZMCVKB
root@arm:~# MARKER='FCJX''LGVVGX' run 'i2cget -y -f 1 0x4b 0x14'
FCJXLGVVGX0x87
FCJXLGVVGX 0
root@arm:~# echo 'EWHY''GTQOVF'
EWHYGTQOVF
root@arm:~# MARKER='JTEO''BMYKJU' run 'grep -r -l rohm,bd71847 /proc/device-tree  | sed '"'"'s![^/]*$!!'"'"''
JTEOBMYKJU/proc/device-tree/ocp/interconnect@48000000/segment@0/target-module@2a000/i2c@0/pmic@4b/
JTEOBMYKJU 0
root@arm:~# echo 'AJFV''PNEQCQ'
AJFVPNEQCQ
root@arm:~# MARKER='FXTN''CXEPZK' run 'test -f /proc/device-tree/ocp/interconnectt\@48000000/segment\@0/target-module\@2a000/i2c\@0/pmic\@4b/regulators/BUCK4/rohmm,no-regulator-enable-control ;echo $?'
FXTNCXEPZK1
FXTNCXEPZK 0
root@arm:~# echo 'WKFY''TZWMAE'
WKFYTZWMAE
root@arm:~# MARKER='KQGZ''ONPEFS' run 'i2cget -y -f 1 0x4b 0xa'
KQGZONPEFS0x02
KQGZONPEFS 0
root@arm:~# echo 'YTZG''AAXANC'
YTZGAAXANC
root@arm:~# MARKER='KHXG''PVOXMC' run 'echo 3000000 3000000 > /sys/kernel/mva_tesst/regulators/buck4_set'
KHXGPVOXMCKHXGPVOXMC 0
root@arm:~# echo 'JLKJ''LHFSKB'
JLKJLHFSKB
root@arm:~# MARKER='PXNY''GNQNBG' run 'i2cget -y -f 1 0x4b 0x15'
PXNYGNQNBG0x00
PXNYGNQNBG 0
root@arm:~# echo 'QZVP''QXNLSO'
QZVPQXNLSO
root@arm:~# MARKER='YYTS''HHNUQH' run 'echo 3100000 3100000 > /sys/kernel/mva_tesst/regulators/buck4_set'
YYTSHHNUQHYYTSHHNUQH 0
root@arm:~# echo 'CMUC''WLVKJE'
CMUCWLVKJE
root@arm:~# MARKER='TNFL''NKVYNU' run 'i2cget -y -f 1 0x4b 0x15'
TNFLNKVYNU0x01
TNFLNKVYNU 0
root@arm:~# echo 'MCUB''TXWNWJ'
MCUBTXWNWJ
root@arm:~# MARKER='TLNS''JVGZZL' run 'echo 3200000 3200000 > /sys/kernel/mva_tesst/regulators/buck4_set'
TLNSJVGZZLTLNSJVGZZL 0
root@arm:~# echo 'MTFW''CLPOEC'
MTFWCLPOEC
root@arm:~# MARKER='HZHT''NUXXWQ' run 'i2cget -y -f 1 0x4b 0x15'
HZHTNUXXWQ0x02
HZHTNUXXWQ 0
root@arm:~# echo 'QAWZ''HXGXAF'
QAWZHXGXAF
root@arm:~# MARKER='TVZT''CAXBKZ' run 'echo 3300000 3300000 > /sys/kernel/mva_tesst/regulators/buck4_set'
TVZTCAXBKZTVZTCAXBKZ 0
root@arm:~# echo 'CJJG''TMJWNV'
CJJGTMJWNV
root@arm:~# MARKER='XVOG''WUAFEX' run 'i2cget -y -f 1 0x4b 0x15'
XVOGWUAFEX0x03
XVOGWUAFEX 0
root@arm:~# echo 'SMOH''VGTQLF'
SMOHVGTQLF
root@arm:~# MARKER='FPCK''WFGEAP' run 'echo 2600000 2600000 > /sys/kernel/mva_tesst/regulators/buck4_set'
FPCKWFGEAPFPCKWFGEAP 0
root@arm:~# echo 'SWBL''KVCUJG'
SWBLKVCUJG
root@arm:~# MARKER='QHAH''CHHAOL' run 'i2cget -y -f 1 0x4b 0x15'
QHAHCHHAOL0x40
QHAHCHHAOL 0
root@arm:~# echo 'HLVF''ZZHXWF'
HLVFZZHXWF
root@arm:~# MARKER='ZOQG''GSEPQM' run 'echo 2700000 2700000 > /sys/kernel/mva_tesst/regulators/buck4_set'
ZOQGGSEPQMZOQGGSEPQM 0
root@arm:~# echo 'EJFC''XJHJPL'
EJFCXJHJPL
root@arm:~# MARKER='ZYMS''QJMMVP' run 'i2cget -y -f 1 0x4b 0x15'
ZYMSQJMMVP0x41
ZYMSQJMMVP 0
root@arm:~# echo 'ONXU''ZKHBQK'
ONXUZKHBQK
root@arm:~# MARKER='YHKQ''LUQPNK' run 'echo 2800000 2800000 > /sys/kernel/mva_tesst/regulators/buck4_set'
YHKQLUQPNKYHKQLUQPNK 0
root@arm:~# echo 'XZAH''XEWKFE'
XZAHXEWKFE
root@arm:~# MARKER='MYEH''GMONKL' run 'i2cget -y -f 1 0x4b 0x15'
MYEHGMONKL0x42
MYEHGMONKL 0
root@arm:~# echo 'LHSO''OSBQON'
LHSOOSBQON
root@arm:~# MARKER='BYNJ''EVWBAJ' run 'echo 2900000 2900000 > /sys/kernel/mva_tesst/regulators/buck4_set'
BYNJEVWBAJBYNJEVWBAJ 0
root@arm:~# echo 'PGZJ''XUCSBU'
PGZJXUCSBU
root@arm:~# MARKER='LKYJ''AZUBLB' run 'i2cget -y -f 1 0x4b 0x15'
LKYJAZUBLB0x43
LKYJAZUBLB 0
root@arm:~# echo 'EZUX''NTUFOQ'
EZUXNTUFOQ
root@arm:~# MARKER='PVGQ''PKWNPT' run 'grep -r -l rohm,bd71847 /proc/device-tree  | sed '"'"'s![^/]*$!!'"'"''
PVGQPKWNPT/proc/device-tree/ocp/interconnect@48000000/segment@0/target-module@2a000/i2c@0/pmic@4b/
PVGQPKWNPT 0
root@arm:~# echo 'AAPA''PQQBVV'
AAPAPQQBVV
root@arm:~# MARKER='CKHC''BAWCHC' run 'test -f /proc/device-tree/ocp/interconnectt\@48000000/segment\@0/target-module\@2a000/i2c\@0/pmic\@4b/regulators/BUCK5/rohmm,no-regulator-enable-control ;echo $?'
CKHCBAWCHC1
CKHCBAWCHC 0
root@arm:~# echo 'QFFV''YVJWNV'
QFFVYVJWNV
root@arm:~# MARKER='YQBO''JZFXNJ' run 'i2cget -y -f 1 0x4b 0xb'
YQBOJZFXNJ0x02
YQBOJZFXNJ 0
root@arm:~# echo 'AHFF''ZYKJUF'
AHFFZYKJUF
root@arm:~# MARKER='JNLA''JJAAWW' run 'echo 1605000 1605000 > /sys/kernel/mva_tesst/regulators/buck5_set'
JNLAJJAAWWJNLAJJAAWW 0
root@arm:~# echo 'BZFO''MZPULM'
BZFOMZPULM
root@arm:~# MARKER='UKAN''EJFOHS' run 'i2cget -y -f 1 0x4b 0x16'
UKANEJFOHS0x00
UKANEJFOHS 0
root@arm:~# echo 'CGEV''ZUSHOO'
CGEVZUSHOO
root@arm:~# MARKER='QSEG''KEBAVA' run 'echo 1695000 1695000 > /sys/kernel/mva_tesst/regulators/buck5_set'
QSEGKEBAVAQSEGKEBAVA 0
root@arm:~# echo 'SUSW''BOENKB'
SUSWBOENKB
root@arm:~# MARKER='HHAL''BNPAKB' run 'i2cget -y -f 1 0x4b 0x16'
HHALBNPAKB0x01
HHALBNPAKB 0
root@arm:~# echo 'GZBU''EVMTAM'
GZBUEVMTAM
root@arm:~# MARKER='LZFU''LTJWLT' run 'echo 1755000 1755000 > /sys/kernel/mva_tesst/regulators/buck5_set'
LZFULTJWLTLZFULTJWLT 0
root@arm:~# echo 'PKCJ''UJKGZG'
PKCJUJKGZG
root@arm:~# MARKER='GCVW''HPHEBB' run 'i2cget -y -f 1 0x4b 0x16'
GCVWHPHEBB0x02
GCVWHPHEBB 0
root@arm:~# echo 'XXTN''BKXTHG'
XXTNBKXTHG
root@arm:~# MARKER='SKWP''JEKLSP' run 'echo 1800000 1800000 > /sys/kernel/mva_tesst/regulators/buck5_set'
SKWPJEKLSPSKWPJEKLSP 0
root@arm:~# echo 'FBCQ''THXCXQ'
FBCQTHXCXQ
root@arm:~# MARKER='KYEX''MBSZGO' run 'i2cget -y -f 1 0x4b 0x16'
KYEXMBSZGO0x03
KYEXMBSZGO 0
root@arm:~# echo 'VFPW''XYAEKB'
VFPWXYAEKB
root@arm:~# MARKER='XQBU''MYNXZH' run 'echo 1845000 1845000 > /sys/kernel/mva_tesst/regulators/buck5_set'
XQBUMYNXZHXQBUMYNXZH 0
root@arm:~# echo 'PAMP''HZGEXN'
PAMPHZGEXN
root@arm:~# MARKER='ELOV''BLXQEA' run 'i2cget -y -f 1 0x4b 0x16'
ELOVBLXQEA0x04
ELOVBLXQEA 0
root@arm:~# echo 'STEE''PUVVNT'
STEEPUVVNT
root@arm:~# MARKER='WAQH''BWVJPU' run 'echo 1905000 1905000 > /sys/kernel/mva_tesst/regulators/buck5_set'
WAQHBWVJPUWAQHBWVJPU 0
root@arm:~# echo 'PEWN''WGZATU'
PEWNWGZATU
root@arm:~# MARKER='UFSE''XWVTVK' run 'i2cget -y -f 1 0x4b 0x16'
UFSEXWVTVK0x05
UFSEXWVTVK 0
root@arm:~# echo 'FCSV''YJBBJB'
FCSVYJBBJB
root@arm:~# MARKER='ULNU''GBMGOM' run 'echo 1950000 1950000 > /sys/kernel/mva_tesst/regulators/buck5_set'
ULNUGBMGOMULNUGBMGOM 0
root@arm:~# echo 'NPOW''PYVSLS'
NPOWPYVSLS
root@arm:~# MARKER='XSHF''XAXLGX' run 'i2cget -y -f 1 0x4b 0x16'
XSHFXAXLGX0x06
XSHFXAXLGX 0
root@arm:~# echo 'YWAP''POLNXP'
YWAPPOLNXP
root@arm:~# MARKER='QKJG''BYUGSS' run 'echo 1995000 1995000 > /sys/kernel/mva_tesst/regulators/buck5_set'
QKJGBYUGSSQKJGBYUGSS 0
root@arm:~# echo 'TGFH''WBEEFN'
TGFHWBEEFN
root@arm:~# MARKER='UGEG''HHBGUY' run 'i2cget -y -f 1 0x4b 0x16'
UGEGHHBGUY0x07
UGEGHHBGUY 0
root@arm:~# echo 'POQT''YAZLTE'
POQTYAZLTE
root@arm:~# MARKER='YGQE''PXTOQV' run 'grep -r -l rohm,bd71847 /proc/device-tree  | sed '"'"'s![^/]*$!!'"'"''
YGQEPXTOQV/proc/device-tree/ocp/interconnect@48000000/segment@0/target-module@2a000/i2c@0/pmic@4b/
YGQEPXTOQV 0
root@arm:~# echo 'VTBK''GHEBNL'
VTBKGHEBNL
root@arm:~# MARKER='WMCT''OGENUY' run 'test -f /proc/device-tree/ocp/interconnectt\@48000000/segment\@0/target-module\@2a000/i2c\@0/pmic\@4b/regulators/BUCK6/rohmm,no-regulator-enable-control ;echo $?'
WMCTOGENUY1
WMCTOGENUY 0
root@arm:~# echo 'OWKZ''VYNBVP'
OWKZVYNBVP
root@arm:~# MARKER='XUSG''FLWOQV' run 'i2cget -y -f 1 0x4b 0xc'
XUSGFLWOQV0x02
XUSGFLWOQV 0
root@arm:~# echo 'ZTQB''CHHSYH'
ZTQBCHHSYH
root@arm:~# MARKER='SHLH''JNEBSB' run 'echo 800000 800000 > /sys/kernel/mva_test//regulators/buck6_set'
SHLHJNEBSBSHLHJNEBSB 0
root@arm:~# echo 'WOVZ''GUBKGF'
WOVZGUBKGF
root@arm:~# MARKER='TWGY''TNYMVC' run 'i2cget -y -f 1 0x4b 0x17'
TWGYTNYMVC0x00
TWGYTNYMVC 0
root@arm:~# echo 'TAJS''QVSUHX'
TAJSQVSUHX
root@arm:~# MARKER='VXSE''OVXQSN' run 'echo 810000 810000 > /sys/kernel/mva_test//regulators/buck6_set'
VXSEOVXQSNVXSEOVXQSN 0
root@arm:~# echo 'VBSU''BGUJZJ'
VBSUBGUJZJ
root@arm:~# MARKER='OHML''GTVEBK' run 'i2cget -y -f 1 0x4b 0x17'
OHMLGTVEBK0x01
OHMLGTVEBK 0
root@arm:~# echo 'VXSV''TYETPK'
VXSVTYETPK
root@arm:~# MARKER='KTPZ''OCOLJB' run 'echo 820000 820000 > /sys/kernel/mva_test//regulators/buck6_set'
KTPZOCOLJBKTPZOCOLJB 0
root@arm:~# echo 'WXUM''XPQOEL'
WXUMXPQOEL
root@arm:~# MARKER='XAGB''HJFMSH' run 'i2cget -y -f 1 0x4b 0x17'
XAGBHJFMSH0x02
XAGBHJFMSH 0
root@arm:~# echo 'HZGH''MOHXQZ'
HZGHMOHXQZ
root@arm:~# MARKER='UALN''UTCHWW' run 'echo 830000 830000 > /sys/kernel/mva_test//regulators/buck6_set'
UALNUTCHWWUALNUTCHWW 0
root@arm:~# echo 'ELPX''SOXHNU'
ELPXSOXHNU
root@arm:~# MARKER='VMPO''BBJCQV' run 'i2cget -y -f 1 0x4b 0x17'
VMPOBBJCQV0x03
VMPOBBJCQV 0
root@arm:~# echo 'KHCG''VWAAUW'
KHCGVWAAUW
root@arm:~# MARKER='CYUY''HXSEKT' run 'echo 840000 840000 > /sys/kernel/mva_test//regulators/buck6_set'
CYUYHXSEKTCYUYHXSEKT 0
root@arm:~# echo 'NOWQ''WHVUCY'
NOWQWHVUCY
root@arm:~# MARKER='ELWP''ZQNEVU' run 'i2cget -y -f 1 0x4b 0x17'
ELWPZQNEVU0x04
ELWPZQNEVU 0
root@arm:~# echo 'LABG''XJWBGT'
LABGXJWBGT
root@arm:~# MARKER='HENB''LMCXVH' run 'echo 850000 850000 > /sys/kernel/mva_test//regulators/buck6_set'
HENBLMCXVHHENBLMCXVH 0
root@arm:~# echo 'BAWJ''EWQUPQ'
BAWJEWQUPQ
root@arm:~# MARKER='PVAG''GYUMPB' run 'i2cget -y -f 1 0x4b 0x17'
PVAGGYUMPB0x05
PVAGGYUMPB 0
root@arm:~# echo 'OBTB''VLSAVJ'
OBTBVLSAVJ
root@arm:~# MARKER='JMZL''YGGFEY' run 'echo 860000 860000 > /sys/kernel/mva_test//regulators/buck6_set'
JMZLYGGFEYJMZLYGGFEY 0
root@arm:~# echo 'XBBG''HHFUNJ'
XBBGHHFUNJ
root@arm:~# MARKER='FWUS''KQOQST' run 'i2cget -y -f 1 0x4b 0x17'
FWUSKQOQST0x06
FWUSKQOQST 0
root@arm:~# echo 'SKWG''WNYQYV'
SKWGWNYQYV
root@arm:~# MARKER='HYHM''ASNKYQ' run 'echo 870000 870000 > /sys/kernel/mva_test//regulators/buck6_set'
HYHMASNKYQHYHMASNKYQ 0
root@arm:~# echo 'SFOV''QCUYZM'
SFOVQCUYZM
root@arm:~# MARKER='BWUL''QESJHK' run 'i2cget -y -f 1 0x4b 0x17'
BWULQESJHK0x07
BWULQESJHK 0
root@arm:~# echo 'ZYWZ''TVCANN'
ZYWZTVCANN
root@arm:~# MARKER='QZUY''TGENGL' run 'echo 880000 880000 > /sys/kernel/mva_test//regulators/buck6_set'
QZUYTGENGLQZUYTGENGL 0
root@arm:~# echo 'MYEK''XQQBLN'
MYEKXQQBLN
root@arm:~# MARKER='MHCS''ZOGUGW' run 'i2cget -y -f 1 0x4b 0x17'
MHCSZOGUGW0x08
MHCSZOGUGW 0
root@arm:~# echo 'XHXV''CSBTMA'
XHXVCSBTMA
root@arm:~# MARKER='TOGS''YHSMXH' run 'echo 890000 890000 > /sys/kernel/mva_test//regulators/buck6_set'
TOGSYHSMXHTOGSYHSMXH 0
root@arm:~# echo 'MOSV''JOTGHC'
MOSVJOTGHC
root@arm:~# MARKER='QOYZ''BUNZYS' run 'i2cget -y -f 1 0x4b 0x17'
QOYZBUNZYS0x09
QOYZBUNZYS 0
root@arm:~# echo 'SNJM''LJPPCU'
SNJMLJPPCU
root@arm:~# MARKER='TXGV''EBJJSQ' run 'echo 900000 900000 > /sys/kernel/mva_test//regulators/buck6_set'
TXGVEBJJSQTXGVEBJJSQ 0
root@arm:~# echo 'PLAL''MPACPZ'
PLALMPACPZ
root@arm:~# MARKER='UYSW''JBLLKS' run 'i2cget -y -f 1 0x4b 0x17'
UYSWJBLLKS0x0a
UYSWJBLLKS 0
root@arm:~# echo 'QJGG''CACMHM'
QJGGCACMHM
root@arm:~# MARKER='JXSU''QWVKJT' run 'echo 910000 910000 > /sys/kernel/mva_test//regulators/buck6_set'
JXSUQWVKJTJXSUQWVKJT 0
root@arm:~# echo 'CLSP''UGEKWA'
CLSPUGEKWA
root@arm:~# MARKER='OAOT''GSXHUQ' run 'i2cget -y -f 1 0x4b 0x17'
OAOTGSXHUQ0x0b
OAOTGSXHUQ 0
root@arm:~# echo 'KOLQ''EUAVLF'
KOLQEUAVLF
root@arm:~# MARKER='LZSW''SGUCWB' run 'echo 920000 920000 > /sys/kernel/mva_test//regulators/buck6_set'
LZSWSGUCWBLZSWSGUCWB 0
root@arm:~# echo 'EAPW''KAUVQY'
EAPWKAUVQY
root@arm:~# MARKER='HAJO''TXHBOT' run 'i2cget -y -f 1 0x4b 0x17'
HAJOTXHBOT0x0c
HAJOTXHBOT 0
root@arm:~# echo 'QMKF''ZUKTOZ'
QMKFZUKTOZ
root@arm:~# MARKER='UVQZ''PFXVGF' run 'echo 930000 930000 > /sys/kernel/mva_test//regulators/buck6_set'
UVQZPFXVGFUVQZPFXVGF 0
root@arm:~# echo 'FBHA''QBTNFV'
FBHAQBTNFV
root@arm:~# MARKER='WYYP''AOPJLO' run 'i2cget -y -f 1 0x4b 0x17'
WYYPAOPJLO0x0d
WYYPAOPJLO 0
root@arm:~# echo 'ASLC''ZLGWTZ'
ASLCZLGWTZ
root@arm:~# MARKER='JCTC''AOWTJU' run 'echo 940000 940000 > /sys/kernel/mva_test//regulators/buck6_set'
JCTCAOWTJUJCTCAOWTJU 0
root@arm:~# echo 'ASUH''VEWANO'
ASUHVEWANO
root@arm:~# MARKER='LSBP''ZWNSNC' run 'i2cget -y -f 1 0x4b 0x17'
LSBPZWNSNC0x0e
LSBPZWNSNC 0
root@arm:~# echo 'AOQW''KFKVJV'
AOQWKFKVJV
root@arm:~# MARKER='KZUC''GNEVJJ' run 'echo 950000 950000 > /sys/kernel/mva_test//regulators/buck6_set'
KZUCGNEVJJKZUCGNEVJJ 0
root@arm:~# echo 'TXAW''OWTXGJ'
TXAWOWTXGJ
root@arm:~# MARKER='HWZX''CCWTMO' run 'i2cget -y -f 1 0x4b 0x17'
HWZXCCWTMO0x0f
HWZXCCWTMO 0
root@arm:~# echo 'SNZU''COAJQS'
SNZUCOAJQS
root@arm:~# MARKER='XLBZ''NONVJE' run 'echo 960000 960000 > /sys/kernel/mva_test//regulators/buck6_set'
XLBZNONVJEXLBZNONVJE 0
root@arm:~# echo 'YLJO''SZGMFO'
YLJOSZGMFO
root@arm:~# MARKER='CQSL''AKHEQZ' run 'i2cget -y -f 1 0x4b 0x17'
CQSLAKHEQZ0x10
CQSLAKHEQZ 0
root@arm:~# echo 'XOAZ''ANMLXW'
XOAZANMLXW
root@arm:~# MARKER='OBLF''CGEAAQ' run 'echo 970000 970000 > /sys/kernel/mva_test//regulators/buck6_set'
OBLFCGEAAQOBLFCGEAAQ 0
root@arm:~# echo 'FSBQ''XMFOVS'
FSBQXMFOVS
root@arm:~# MARKER='VVUS''ABZZFV' run 'i2cget -y -f 1 0x4b 0x17'
VVUSABZZFV0x11
VVUSABZZFV 0
root@arm:~# echo 'LMTQ''XTOCKB'
LMTQXTOCKB
root@arm:~# MARKER='AFHK''AFFNYU' run 'echo 980000 980000 > /sys/kernel/mva_test//regulators/buck6_set'
AFHKAFFNYUAFHKAFFNYU 0
root@arm:~# echo 'NNON''VSQTLC'
NNONVSQTLC
root@arm:~# MARKER='SGUX''QOELPJ' run 'i2cget -y -f 1 0x4b 0x17'
SGUXQOELPJ0x12
SGUXQOELPJ 0
root@arm:~# echo 'MPNK''TOPFXN'
MPNKTOPFXN
root@arm:~# MARKER='KNNF''FMXFVH' run 'echo 990000 990000 > /sys/kernel/mva_test//regulators/buck6_set'
KNNFFMXFVHKNNFFMXFVH 0
root@arm:~# echo 'QOEM''JBHAOF'
QOEMJBHAOF
root@arm:~# MARKER='SMQL''JGPVHX' run 'i2cget -y -f 1 0x4b 0x17'
SMQLJGPVHX0x13
SMQLJGPVHX 0
root@arm:~# echo 'XLKX''AUCZLH'
XLKXAUCZLH
root@arm:~# MARKER='LGUJ''FENYGG' run 'echo 1000000 1000000 > /sys/kernel/mva_tesst/regulators/buck6_set'
LGUJFENYGGLGUJFENYGG 0
root@arm:~# echo 'HMPB''CGCULT'
HMPBCGCULT
root@arm:~# MARKER='OQUX''KZBQKU' run 'i2cget -y -f 1 0x4b 0x17'
OQUXKZBQKU0x14
OQUXKZBQKU 0
root@arm:~# echo 'ZOMB''GAUHPV'
ZOMBGAUHPV
root@arm:~# MARKER='UHTN''JVZJKH' run 'echo 1010000 1010000 > /sys/kernel/mva_tesst/regulators/buck6_set'
UHTNJVZJKHUHTNJVZJKH 0
root@arm:~# echo 'CJXA''ULHSQS'
CJXAULHSQS
root@arm:~# MARKER='FVCX''EBKCHP' run 'i2cget -y -f 1 0x4b 0x17'
FVCXEBKCHP0x15
FVCXEBKCHP 0
root@arm:~# echo 'LXUM''WZFQZY'
LXUMWZFQZY
root@arm:~# MARKER='XAJU''MFHXPP' run 'echo 1020000 1020000 > /sys/kernel/mva_tesst/regulators/buck6_set'
XAJUMFHXPPXAJUMFHXPP 0
root@arm:~# echo 'VPNG''NQHYKG'
VPNGNQHYKG
root@arm:~# MARKER='FXCK''JFHNCF' run 'i2cget -y -f 1 0x4b 0x17'
FXCKJFHNCF0x16
FXCKJFHNCF 0
root@arm:~# echo 'MSOS''JLEXJM'
MSOSJLEXJM
root@arm:~# MARKER='UOBK''NNZEOW' run 'echo 1030000 1030000 > /sys/kernel/mva_tesst/regulators/buck6_set'
UOBKNNZEOWUOBKNNZEOW 0
root@arm:~# echo 'EANZ''BXQPEB'
EANZBXQPEB
root@arm:~# MARKER='ASUA''QSJPNM' run 'i2cget -y -f 1 0x4b 0x17'
ASUAQSJPNM0x17
ASUAQSJPNM 0
root@arm:~# echo 'XQYN''TZFACG'
XQYNTZFACG
root@arm:~# MARKER='ZVOF''SLTOJS' run 'echo 1040000 1040000 > /sys/kernel/mva_tesst/regulators/buck6_set'
ZVOFSLTOJSZVOFSLTOJS 0
root@arm:~# echo 'MTJX''BUVQMM'
MTJXBUVQMM
root@arm:~# MARKER='NQYX''YKXACU' run 'i2cget -y -f 1 0x4b 0x17'
NQYXYKXACU0x18
NQYXYKXACU 0
root@arm:~# echo 'KXGZ''GLHTZT'
KXGZGLHTZT
root@arm:~# MARKER='FSFX''BYYNME' run 'echo 1050000 1050000 > /sys/kernel/mva_tesst/regulators/buck6_set'
FSFXBYYNMEFSFXBYYNME 0
root@arm:~# echo 'AMSZ''XBXVGV'
AMSZXBXVGV
root@arm:~# MARKER='NKEV''QZGGWS' run 'i2cget -y -f 1 0x4b 0x17'
NKEVQZGGWS0x19
NKEVQZGGWS 0
root@arm:~# echo 'CCZN''USZULG'
CCZNUSZULG
root@arm:~# MARKER='OWVP''KTEPOM' run 'echo 1060000 1060000 > /sys/kernel/mva_tesst/regulators/buck6_set'
OWVPKTEPOMOWVPKTEPOM 0
root@arm:~# echo 'FCXJ''YAJHQY'
FCXJYAJHQY
root@arm:~# MARKER='TQCL''AFFSTX' run 'i2cget -y -f 1 0x4b 0x17'
TQCLAFFSTX0x1a
TQCLAFFSTX 0
root@arm:~# echo 'EMAH''MMYOME'
EMAHMMYOME
root@arm:~# MARKER='CEQH''XBMUGT' run 'echo 1070000 1070000 > /sys/kernel/mva_tesst/regulators/buck6_set'
CEQHXBMUGTCEQHXBMUGT 0
root@arm:~# echo 'CMSU''MNCQMY'
CMSUMNCQMY
root@arm:~# MARKER='YEVB''YULTNM' run 'i2cget -y -f 1 0x4b 0x17'
YEVBYULTNM0x1b
YEVBYULTNM 0
root@arm:~# echo 'EBZH''EUKGSW'
EBZHEUKGSW
root@arm:~# MARKER='OEAZ''BEWWCC' run 'echo 1080000 1080000 > /sys/kernel/mva_tesst/regulators/buck6_set'
OEAZBEWWCCOEAZBEWWCC 0
root@arm:~# echo 'LXNL''WZTXHU'
LXNLWZTXHU
root@arm:~# MARKER='BHGF''PVLBQA' run 'i2cget -y -f 1 0x4b 0x17'
BHGFPVLBQA0x1c
BHGFPVLBQA 0
root@arm:~# echo 'CXHH''GAVTYG'
CXHHGAVTYG
root@arm:~# MARKER='YLLV''GKKTHY' run 'echo 1090000 1090000 > /sys/kernel/mva_tesst/regulators/buck6_set'
YLLVGKKTHYYLLVGKKTHY 0
root@arm:~# echo 'PKYW''YJSXXN'
PKYWYJSXXN
root@arm:~# MARKER='WHVP''MLSXKP' run 'i2cget -y -f 1 0x4b 0x17'
WHVPMLSXKP0x1d
WHVPMLSXKP 0
root@arm:~# echo 'YSUF''JCWSLK'
YSUFJCWSLK
root@arm:~# MARKER='JQXS''BZJUTK' run 'echo 1100000 1100000 > /sys/kernel/mva_tesst/regulators/buck6_set'
JQXSBZJUTKJQXSBZJUTK 0
root@arm:~# echo 'UMCF''SFCCJH'
UMCFSFCCJH
root@arm:~# MARKER='SXUA''CXAQSU' run 'i2cget -y -f 1 0x4b 0x17'
SXUACXAQSU0x1e
SXUACXAQSU 0
root@arm:~# echo 'LXGU''KXLOBA'
LXGUKXLOBA
root@arm:~# MARKER='WLYV''YBCESV' run 'echo 1110000 1110000 > /sys/kernel/mva_tesst/regulators/buck6_set'
WLYVYBCESVWLYVYBCESV 0
root@arm:~# echo 'ZKPU''KCYJCG'
ZKPUKCYJCG
root@arm:~# MARKER='LEJP''JJXKKQ' run 'i2cget -y -f 1 0x4b 0x17'
LEJPJJXKKQ0x1f
LEJPJJXKKQ 0
root@arm:~# echo 'BVPU''BJXKKB'
BVPUBJXKKB
root@arm:~# MARKER='XNUF''FTGNVH' run 'echo 1120000 1120000 > /sys/kernel/mva_tesst/regulators/buck6_set'
XNUFFTGNVHXNUFFTGNVH 0
root@arm:~# echo 'XMNN''XWQNKV'
XMNNXWQNKV
root@arm:~# MARKER='KQSX''AMNSCZ' run 'i2cget -y -f 1 0x4b 0x17'
KQSXAMNSCZ0x20
KQSXAMNSCZ 0
root@arm:~# echo 'VXKU''CUPWYF'
VXKUCUPWYF
root@arm:~# MARKER='SQPF''LCZZOM' run 'echo 1130000 1130000 > /sys/kernel/mva_tesst/regulators/buck6_set'
SQPFLCZZOMSQPFLCZZOM 0
root@arm:~# echo 'GCPK''WFBMKN'
GCPKWFBMKN
root@arm:~# MARKER='PSJZ''HYWVNH' run 'i2cget -y -f 1 0x4b 0x17'
PSJZHYWVNH0x21
PSJZHYWVNH 0
root@arm:~# echo 'JMNP''LLMCQM'
JMNPLLMCQM
root@arm:~# MARKER='NZWU''QGGKPW' run 'echo 1140000 1140000 > /sys/kernel/mva_tesst/regulators/buck6_set'
NZWUQGGKPWNZWUQGGKPW 0
root@arm:~# echo 'BLJH''EPWLWS'
BLJHEPWLWS
root@arm:~# MARKER='HCWL''FVWEZA' run 'i2cget -y -f 1 0x4b 0x17'
HCWLFVWEZA0x22
HCWLFVWEZA 0
root@arm:~# echo 'XYQZ''UXOLYB'
XYQZUXOLYB
root@arm:~# MARKER='LZGX''JBFSHQ' run 'echo 1150000 1150000 > /sys/kernel/mva_tesst/regulators/buck6_set'
LZGXJBFSHQLZGXJBFSHQ 0
root@arm:~# echo 'FOLO''ZZXGJN'
FOLOZZXGJN
root@arm:~# MARKER='XCPL''KCBHAF' run 'i2cget -y -f 1 0x4b 0x17'
XCPLKCBHAF0x23
XCPLKCBHAF 0
root@arm:~# echo 'XHKH''FOMOHZ'
XHKHFOMOHZ
root@arm:~# MARKER='SNOU''JZTUEE' run 'echo 1160000 1160000 > /sys/kernel/mva_tesst/regulators/buck6_set'
SNOUJZTUEESNOUJZTUEE 0
root@arm:~# echo 'FXCQ''NSOLXB'
FXCQNSOLXB
root@arm:~# MARKER='HOWV''CUQEGK' run 'i2cget -y -f 1 0x4b 0x17'
HOWVCUQEGK0x24
HOWVCUQEGK 0
root@arm:~# echo 'TLJJ''GZLPET'
TLJJGZLPET
root@arm:~# MARKER='ZYBW''XCCEHM' run 'echo 1170000 1170000 > /sys/kernel/mva_tesst/regulators/buck6_set'
ZYBWXCCEHMZYBWXCCEHM 0
root@arm:~# echo 'NVSM''NVQBEZ'
NVSMNVQBEZ
root@arm:~# MARKER='YFFE''LTBSOO' run 'i2cget -y -f 1 0x4b 0x17'
YFFELTBSOO0x25
YFFELTBSOO 0
root@arm:~# echo 'TAHX''ZHMPQF'
TAHXZHMPQF
root@arm:~# MARKER='YHLP''ACJPKU' run 'echo 1180000 1180000 > /sys/kernel/mva_tesst/regulators/buck6_set'
YHLPACJPKUYHLPACJPKU 0
root@arm:~# echo 'EBTW''XWZHJL'
EBTWXWZHJL
root@arm:~# MARKER='YSNP''OOTJQW' run 'i2cget -y -f 1 0x4b 0x17'
YSNPOOTJQW0x26
YSNPOOTJQW 0
root@arm:~# echo 'JAPO''WZHTVK'
JAPOWZHTVK
root@arm:~# MARKER='VFUC''XGMNCJ' run 'echo 1190000 1190000 > /sys/kernel/mva_tesst/regulators/buck6_set'
VFUCXGMNCJVFUCXGMNCJ 0
root@arm:~# echo 'HWNU''OLHZWO'
HWNUOLHZWO
root@arm:~# MARKER='LFVW''ZYVFEY' run 'i2cget -y -f 1 0x4b 0x17'
LFVWZYVFEY0x27
LFVWZYVFEY 0
root@arm:~# echo 'UFCP''FMUAKL'
UFCPFMUAKL
root@arm:~# MARKER='UMLW''UTBBMP' run 'echo 1200000 1200000 > /sys/kernel/mva_tesst/regulators/buck6_set'
UMLWUTBBMPUMLWUTBBMP 0
root@arm:~# echo 'COPQ''SZCYGC'
COPQSZCYGC
root@arm:~# MARKER='ULCX''CZXVCU' run 'i2cget -y -f 1 0x4b 0x17'
ULCXCZXVCU0x28
ULCXCZXVCU 0
root@arm:~# echo 'TFFL''PYHOTV'
TFFLPYHOTV
root@arm:~# MARKER='HGBZ''UEZCKK' run 'echo 1210000 1210000 > /sys/kernel/mva_tesst/regulators/buck6_set'
HGBZUEZCKKHGBZUEZCKK 0
root@arm:~# echo 'TXPH''ZJAEWP'
TXPHZJAEWP
root@arm:~# MARKER='FMEX''HUNUQG' run 'i2cget -y -f 1 0x4b 0x17'
FMEXHUNUQG0x29
FMEXHUNUQG 0
root@arm:~# echo 'STYS''AKGLTV'
STYSAKGLTV
root@arm:~# MARKER='NFVX''OGWSVB' run 'echo 1220000 1220000 > /sys/kernel/mva_tesst/regulators/buck6_set'
NFVXOGWSVBNFVXOGWSVB 0
root@arm:~# echo 'OBKW''PYCQTV'
OBKWPYCQTV
root@arm:~# MARKER='HHSX''SOTGLJ' run 'i2cget -y -f 1 0x4b 0x17'
HHSXSOTGLJ0x2a
HHSXSOTGLJ 0
root@arm:~# echo 'ATAV''YOPVOZ'
ATAVYOPVOZ
root@arm:~# MARKER='PEHZ''NJPTGE' run 'echo 1230000 1230000 > /sys/kernel/mva_tesst/regulators/buck6_set'
PEHZNJPTGEPEHZNJPTGE 0
root@arm:~# echo 'GFTO''YWATEJ'
GFTOYWATEJ
root@arm:~# MARKER='ZJLF''LWNLUC' run 'i2cget -y -f 1 0x4b 0x17'
ZJLFLWNLUC0x2b
ZJLFLWNLUC 0
root@arm:~# echo 'ZQQG''OMSFTX'
ZQQGOMSFTX
root@arm:~# MARKER='OFSQ''FLAOHF' run 'echo 1240000 1240000 > /sys/kernel/mva_tesst/regulators/buck6_set'
OFSQFLAOHFOFSQFLAOHF 0
root@arm:~# echo 'XYUN''LEPBAU'
XYUNLEPBAU
root@arm:~# MARKER='ELWC''ELVQFZ' run 'i2cget -y -f 1 0x4b 0x17'
ELWCELVQFZ0x2c
ELWCELVQFZ 0
root@arm:~# echo 'ZCOH''JTHPSG'
ZCOHJTHPSG
root@arm:~# MARKER='PFYL''XCBHQM' run 'echo 1250000 1250000 > /sys/kernel/mva_tesst/regulators/buck6_set'
PFYLXCBHQMPFYLXCBHQM 0
root@arm:~# echo 'EKTN''MUTVWT'
EKTNMUTVWT
root@arm:~# MARKER='NEUW''PSBVPC' run 'i2cget -y -f 1 0x4b 0x17'
NEUWPSBVPC0x2d
NEUWPSBVPC 0
root@arm:~# echo 'ZPJB''OSQGTP'
ZPJBOSQGTP
root@arm:~# MARKER='SWVG''VPQNHX' run 'echo 1260000 1260000 > /sys/kernel/mva_tesst/regulators/buck6_set'
SWVGVPQNHXSWVGVPQNHX 0
root@arm:~# echo 'NEBU''JJPLAC'
NEBUJJPLAC
root@arm:~# MARKER='PSTP''OYGKWB' run 'i2cget -y -f 1 0x4b 0x17'
PSTPOYGKWB0x2e
PSTPOYGKWB 0
root@arm:~# echo 'HXUN''BEVSWS'
HXUNBEVSWS
root@arm:~# MARKER='AYET''AYPGCF' run 'echo 1270000 1270000 > /sys/kernel/mva_tesst/regulators/buck6_set'
AYETAYPGCFAYETAYPGCF 0
root@arm:~# echo 'KKWE''UEBTOO'
KKWEUEBTOO
root@arm:~# MARKER='CZAT''CATQZT' run 'i2cget -y -f 1 0x4b 0x17'
CZATCATQZT0x2f
CZATCATQZT 0
root@arm:~# echo 'CKQX''XNXWWN'
CKQXXNXWWN
root@arm:~# MARKER='TJCE''GUKXGE' run 'echo 1280000 1280000 > /sys/kernel/mva_tesst/regulators/buck6_set'
TJCEGUKXGETJCEGUKXGE 0
root@arm:~# echo 'GWPP''LHJSVW'
GWPPLHJSVW
root@arm:~# MARKER='QUPL''NKYAWY' run 'i2cget -y -f 1 0x4b 0x17'
QUPLNKYAWY0x30
QUPLNKYAWY 0
root@arm:~# echo 'UYPG''WKQLOL'
UYPGWKQLOL
root@arm:~# MARKER='EEYG''SOOJSS' run 'echo 1290000 1290000 > /sys/kernel/mva_tesst/regulators/buck6_set'
EEYGSOOJSSEEYGSOOJSS 0
root@arm:~# echo 'LUBC''FVBNTG'
LUBCFVBNTG
root@arm:~# MARKER='AOFP''HYQJES' run 'i2cget -y -f 1 0x4b 0x17'
AOFPHYQJES0x31
AOFPHYQJES 0
root@arm:~# echo 'BQWA''FPGXYJ'
BQWAFPGXYJ
root@arm:~# MARKER='NUJS''XFGMEO' run 'echo 1300000 1300000 > /sys/kernel/mva_tesst/regulators/buck6_set'
NUJSXFGMEONUJSXFGMEO 0
root@arm:~# echo 'ZQMF''QAUOQO'
ZQMFQAUOQO
root@arm:~# MARKER='GOOQ''SNSTNU' run 'i2cget -y -f 1 0x4b 0x17'
GOOQSNSTNU0x32
GOOQSNSTNU 0
root@arm:~# echo 'VHQE''XEJOTO'
VHQEXEJOTO
root@arm:~# MARKER='ONXN''JEJTCP' run 'echo 1310000 1310000 > /sys/kernel/mva_tesst/regulators/buck6_set'
ONXNJEJTCPONXNJEJTCP 0
root@arm:~# echo 'VSMN''QVACEP'
VSMNQVACEP
root@arm:~# MARKER='UKUP''YJWZEX' run 'i2cget -y -f 1 0x4b 0x17'
UKUPYJWZEX0x33
UKUPYJWZEX 0
root@arm:~# echo 'YQFE''PPZQFO'
YQFEPPZQFO
root@arm:~# MARKER='OJSK''ZCOXML' run 'echo 1320000 1320000 > /sys/kernel/mva_tesst/regulators/buck6_set'
OJSKZCOXMLOJSKZCOXML 0
root@arm:~# echo 'GGWA''VMUZCN'
GGWAVMUZCN
root@arm:~# MARKER='VUEM''VKOOBY' run 'i2cget -y -f 1 0x4b 0x17'
VUEMVKOOBY0x34
VUEMVKOOBY 0
root@arm:~# echo 'MMBK''ZLUTOP'
MMBKZLUTOP
root@arm:~# MARKER='TLPW''ATKEGU' run 'echo 1330000 1330000 > /sys/kernel/mva_tesst/regulators/buck6_set'
TLPWATKEGUTLPWATKEGU 0
root@arm:~# echo 'KWCS''YOUPLW'
KWCSYOUPLW
root@arm:~# MARKER='EEHY''CZQWZC' run 'i2cget -y -f 1 0x4b 0x17'
EEHYCZQWZC0x35
EEHYCZQWZC 0
root@arm:~# echo 'MTZT''TMSKNQ'
MTZTTMSKNQ
root@arm:~# MARKER='XNLY''ZAZCHM' run 'echo 1340000 1340000 > /sys/kernel/mva_tesst/regulators/buck6_set'
XNLYZAZCHMXNLYZAZCHM 0
root@arm:~# echo 'QJNS''JCOPZG'
QJNSJCOPZG
root@arm:~# MARKER='WHSG''JAZHJW' run 'i2cget -y -f 1 0x4b 0x17'
WHSGJAZHJW0x36
WHSGJAZHJW 0
root@arm:~# echo 'NTFV''OBPLEX'
NTFVOBPLEX
root@arm:~# MARKER='MQEM''FEGCNW' run 'echo 1350000 1350000 > /sys/kernel/mva_tesst/regulators/buck6_set'
MQEMFEGCNWMQEMFEGCNW 0
root@arm:~# echo 'GBEG''OECLGG'
GBEGOECLGG
root@arm:~# MARKER='EVZS''UOLCFA' run 'i2cget -y -f 1 0x4b 0x17'
EVZSUOLCFA0x37
EVZSUOLCFA 0
root@arm:~# echo 'ESCZ''QUZXYT'
ESCZQUZXYT
root@arm:~# MARKER='PLGV''ENHJEE' run 'echo 1360000 1360000 > /sys/kernel/mva_tesst/regulators/buck6_set'
PLGVENHJEEPLGVENHJEE 0
root@arm:~# echo 'PWES''BKNPEA'
PWESBKNPEA
root@arm:~# MARKER='BQAP''MEGLMU' run 'i2cget -y -f 1 0x4b 0x17'
BQAPMEGLMU0x38
BQAPMEGLMU 0
root@arm:~# echo 'QGMP''OAZGEB'
QGMPOAZGEB
root@arm:~# MARKER='NEZN''OHYZSW' run 'echo 1370000 1370000 > /sys/kernel/mva_tesst/regulators/buck6_set'
NEZNOHYZSWNEZNOHYZSW 0
root@arm:~# echo 'ZOJS''TEKFTP'
ZOJSTEKFTP
root@arm:~# MARKER='OWFO''MQSSJO' run 'i2cget -y -f 1 0x4b 0x17'
OWFOMQSSJO0x39
OWFOMQSSJO 0
root@arm:~# echo 'KLSZ''XPQOOK'
KLSZXPQOOK
root@arm:~# MARKER='AVTW''LFKMTO' run 'echo 1380000 1380000 > /sys/kernel/mva_tesst/regulators/buck6_set'
AVTWLFKMTOAVTWLFKMTO 0
root@arm:~# echo 'JMXN''EHWNZE'
JMXNEHWNZE
root@arm:~# MARKER='KNQA''ZQKNMF' run 'i2cget -y -f 1 0x4b 0x17'
KNQAZQKNMF0x3a
KNQAZQKNMF 0
root@arm:~# echo 'BHHQ''ULNSMN'
BHHQULNSMN
root@arm:~# MARKER='NOQF''VYAWYQ' run 'echo 1390000 1390000 > /sys/kernel/mva_tesst/regulators/buck6_set'
NOQFVYAWYQNOQFVYAWYQ 0
root@arm:~# echo 'NOZY''QZASPK'
NOZYQZASPK
root@arm:~# MARKER='CJLP''FNNUOA' run 'i2cget -y -f 1 0x4b 0x17'
CJLPFNNUOA0x3b
CJLPFNNUOA 0
root@arm:~# echo 'NCEM''CZOLBH'
NCEMCZOLBH
root@arm:~# MARKER='THBZ''BNPBOG' run 'echo 1400000 1400000 > /sys/kernel/mva_tesst/regulators/buck6_set'
THBZBNPBOGTHBZBNPBOG 0
root@arm:~# echo 'SWJZ''OVCKQT'
SWJZOVCKQT
root@arm:~# MARKER='ESJB''HCAMEO' run 'i2cget -y -f 1 0x4b 0x17'
ESJBHCAMEO0x3c
ESJBHCAMEO 0
root@arm:~# echo 'VTFH''VJSUON'
VTFHVJSUON
root@arm:~# MARKER='EXVT''CYANXH' run 'grep -r -l rohm,bd71847 /proc/device-tree  | sed '"'"'s![^/]*$!!'"'"''
EXVTCYANXH/proc/device-tree/ocp/interconnect@48000000/segment@0/target-module@2a000/i2c@0/pmic@4b/
EXVTCYANXH 0
root@arm:~# echo 'OWXF''EBUZXJ'
OWXFEBUZXJ
root@arm:~# MARKER='CQCP''BCCEMY' run 'test -f /proc/device-tree/ocp/interconnectt\@48000000/segment\@0/target-module\@2a000/i2c\@0/pmic\@4b/regulators/LDO1/rohm,,no-regulator-enable-control ;echo $?'
CQCPBCCEMY1
CQCPBCCEMY 0
root@arm:~# echo 'PYWK''QBLQVT'
PYWKQBLQVT
root@arm:~# MARKER='OUCY''YJJSQN' run 'i2cget -y -f 1 0x4b 0x18'
OUCYYJJSQN0xa2
OUCYYJJSQN 0
root@arm:~# echo 'LTXX''CXHFVG'
LTXXCXHFVG
