Labgrid Console Logfile for main
Logfile started at 2025-06-12 08:13:39.118642
=== Log starts here ===

root@arm:~# run() { echo -n "$MARKER"; sh -c "$@"; echo "$MARKER $?"; }
root@arm:~# echo 'ZYSZ''FCCOBC'
ZYSZFCCOBC
root@arm:~# MARKER='MUYY''MMYWVH' run 'grep -r -l rohm,bd71837 /proc/device-tree  | sed '"'"'s![^/]*$!!'"'"''
MUYYMMYWVH/proc/device-tree/ocp/interconnect@48000000/segment@100000/target-module@9c000/i2c@0/pmic@4b/
MUYYMMYWVH 0
root@arm:~# echo 'GJYT''ULAVWL'
GJYTULAVWL
root@arm:~# MARKER='CJTW''HYOUXK' run 'test -f /proc/device-tree/ocp/interconnectt\@48000000/segment\@100000/target-module\@9c000/i2c\@0/pmic\@4b/regulators/BUCK11/rohm,no-regulator-enable-control ;echo $?'
CJTWHYOUXK1
CJTWHYOUXK 0
root@arm:~# echo 'VBJT''SBEEGY'
VBJTSBEEGY
root@arm:~# MARKER='ENYT''ZKNZFJ' run 'echo 1 > /sys/kernel/mva_test/regulators/bbuck1_en'
ENYTZKNZFJENYTZKNZFJ 0
root@arm:~# echo 'AJOZ''FMALJQ'
AJOZFMALJQ
root@arm:~# MARKER='CQXW''YEFOXG' run 'i2cget -y -f 2 0x4b 0x5'
CQXWYEFOXG0x03
CQXWYEFOXG 0
root@arm:~# echo 'EMPU''LCKYAW'
EMPULCKYAW
root@arm:~# MARKER='YEQA''BWHNNE' run 'grep -r -l rohm,bd71837 /proc/device-tree  | sed '"'"'s![^/]*$!!'"'"''
YEQABWHNNE/proc/device-tree/ocp/interconnect@48000000/segment@100000/target-module@9c000/i2c@0/pmic@4b/
YEQABWHNNE 0
root@arm:~# echo 'MSFY''JFYMTK'
MSFYJFYMTK
root@arm:~# MARKER='ZYKT''AXEMWW' run 'test -f /proc/device-tree/ocp/interconnectt\@48000000/segment\@100000/target-module\@9c000/i2c\@0/pmic\@4b/regulators/BUCK11/rohm,no-regulator-enable-control ;echo $?'
ZYKTAXEMWW1
ZYKTAXEMWW 0
root@arm:~# echo 'TJFC''VPKBYF'
TJFCVPKBYF
root@arm:~# MARKER='OTKJ''COVAFW' run 'grep -r -l rohm,bd71837 /proc/device-tree  | sed '"'"'s![^/]*$!!'"'"''
OTKJCOVAFW/proc/device-tree/ocp/interconnect@48000000/segment@100000/target-module@9c000/i2c@0/pmic@4b/
OTKJCOVAFW 0
root@arm:~# echo 'PQSG''PQBMTG'
PQSGPQBMTG
root@arm:~# MARKER='CJYP''NFTPXP' run 'test -f /proc/device-tree/ocp/interconnectt\@48000000/segment\@100000/target-module\@9c000/i2c\@0/pmic\@4b/regulators/BUCK11/regulator-always-on ;echo $?'
CJYPNFTPXP1
CJYPNFTPXP 0
root@arm:~# echo 'XPOU''EXVUUS'
XPOUEXVUUS
root@arm:~# MARKER='CFVW''OGSSNC' run 'echo 0 > /sys/kernel/mva_test/regulators/bbuck1_en'
CFVWOGSSNCCFVWOGSSNC 0
root@arm:~# echo 'TKAC''AHOQJE'
TKACAHOQJE
root@arm:~# MARKER='QASQ''VJHKHZ' run 'i2cget -y -f 2 0x4b 0x5'
QASQVJHKHZ0x02
QASQVJHKHZ 0
root@arm:~# echo 'OQBL''LYGMHM'
OQBLLYGMHM
root@arm:~# MARKER='LAGE''ZEBSFM' run 'grep -r -l rohm,bd71837 /proc/device-tree  | sed '"'"'s![^/]*$!!'"'"''
LAGEZEBSFM/proc/device-tree/ocp/interconnect@48000000/segment@100000/target-module@9c000/i2c@0/pmic@4b/
LAGEZEBSFM 0
root@arm:~# echo 'LLNM''OQLSVY'
LLNMOQLSVY
root@arm:~# MARKER='XNUJ''JKXOMN' run 'test -f /proc/device-tree/ocp/interconnectt\@48000000/segment\@100000/target-module\@9c000/i2c\@0/pmic\@4b/regulators/BUCK22/rohm,no-regulator-enable-control ;echo $?'
XNUJJKXOMN1
XNUJJKXOMN 0
root@arm:~# echo 'NFOK''LYAOTX'
NFOKLYAOTX
root@arm:~# MARKER='KEGA''AJSNFX' run 'echo 1 > /sys/kernel/mva_test/regulators/bbuck2_en'
KEGAAJSNFXKEGAAJSNFX 0
root@arm:~# echo 'JEJY''CVTCLW'
JEJYCVTCLW
root@arm:~# MARKER='FJGM''BTYZHQ' run 'i2cget -y -f 2 0x4b 0x6'
FJGMBTYZHQ0x43
FJGMBTYZHQ 0
root@arm:~# echo 'HMUC''VSPWYE'
HMUCVSPWYE
root@arm:~# MARKER='EELS''TVTZMG' run 'grep -r -l rohm,bd71837 /proc/device-tree  | sed '"'"'s![^/]*$!!'"'"''
EELSTVTZMG/proc/device-tree/ocp/interconnect@48000000/segment@100000/target-module@9c000/i2c@0/pmic@4b/
EELSTVTZMG 0
root@arm:~# echo 'SMUU''BJXMHB'
SMUUBJXMHB
root@arm:~# MARKER='YJOC''KKTHWK' run 'test -f /proc/device-tree/ocp/interconnectt\@48000000/segment\@100000/target-module\@9c000/i2c\@0/pmic\@4b/regulators/BUCK22/rohm,no-regulator-enable-control ;echo $?'
YJOCKKTHWK1
YJOCKKTHWK 0
root@arm:~# echo 'ZWZA''XQLGGE'
ZWZAXQLGGE
root@arm:~# MARKER='FQLF''NFVXGP' run 'grep -r -l rohm,bd71837 /proc/device-tree  | sed '"'"'s![^/]*$!!'"'"''
FQLFNFVXGP/proc/device-tree/ocp/interconnect@48000000/segment@100000/target-module@9c000/i2c@0/pmic@4b/
FQLFNFVXGP 0
root@arm:~# echo 'ZGPG''WWANLP'
ZGPGWWANLP
root@arm:~# MARKER='NJWA''BKQWTQ' run 'test -f /proc/device-tree/ocp/interconnectt\@48000000/segment\@100000/target-module\@9c000/i2c\@0/pmic\@4b/regulators/BUCK22/regulator-always-on ;echo $?'
NJWABKQWTQ0
NJWABKQWTQ 0
root@arm:~# echo 'TVQQ''TEZLHH'
TVQQTEZLHH
root@arm:~# MARKER='TNEO''AZEJOQ' run 'grep -r -l rohm,bd71837 /proc/device-tree  | sed '"'"'s![^/]*$!!'"'"''
TNEOAZEJOQ/proc/device-tree/ocp/interconnect@48000000/segment@100000/target-module@9c000/i2c@0/pmic@4b/
TNEOAZEJOQ 0
root@arm:~# echo 'AMXH''KCKZQS'
AMXHKCKZQS
root@arm:~# MARKER='YGSW''KLCKOX' run 'test -f /proc/device-tree/ocp/interconnectt\@48000000/segment\@100000/target-module\@9c000/i2c\@0/pmic\@4b/regulators/BUCK33/rohm,no-regulator-enable-control ;echo $?'
YGSWKLCKOX0
YGSWKLCKOX 0
root@arm:~# echo 'ZHVF''WQPTPY'
ZHVFWQPTPY
root@arm:~# MARKER='VCOP''LNSJMA' run 'grep -r -l rohm,bd71837 /proc/device-tree  | sed '"'"'s![^/]*$!!'"'"''
VCOPLNSJMA/proc/device-tree/ocp/interconnect@48000000/segment@100000/target-module@9c000/i2c@0/pmic@4b/
VCOPLNSJMA 0
root@arm:~# echo 'WPAO''KQWVHE'
WPAOKQWVHE
root@arm:~# MARKER='TSXV''VGBTHQ' run 'test -f /proc/device-tree/ocp/interconnectt\@48000000/segment\@100000/target-module\@9c000/i2c\@0/pmic\@4b/regulators/BUCK33/rohm,no-regulator-enable-control ;echo $?'
TSXVVGBTHQ0
TSXVVGBTHQ 0
root@arm:~# echo 'PKAZ''JTSNFQ'
PKAZJTSNFQ
root@arm:~# MARKER='XJAX''VAYYAB' run 'grep -r -l rohm,bd71837 /proc/device-tree  | sed '"'"'s![^/]*$!!'"'"''
XJAXVAYYAB/proc/device-tree/ocp/interconnect@48000000/segment@100000/target-module@9c000/i2c@0/pmic@4b/
XJAXVAYYAB 0
root@arm:~# echo 'EUEM''CGZWFC'
EUEMCGZWFC
root@arm:~# MARKER='VXGF''AEHVXE' run 'test -f /proc/device-tree/ocp/interconnectt\@48000000/segment\@100000/target-module\@9c000/i2c\@0/pmic\@4b/regulators/BUCK44/rohm,no-regulator-enable-control ;echo $?'
VXGFAEHVXE1
VXGFAEHVXE 0
root@arm:~# echo 'AEWH''XKWJCT'
AEWHXKWJCT
root@arm:~# MARKER='CSWH''YOKZXO' run 'echo 1 > /sys/kernel/mva_test/regulators/bbuck4_en'
CSWHYOKZXOCSWHYOKZXO 0
root@arm:~# echo 'QBHK''QVBQAU'
QBHKQVBQAU
root@arm:~# MARKER='FFZG''TGXHEQ' run 'i2cget -y -f 2 0x4b 0x8'
FFZGTGXHEQ0xc7
FFZGTGXHEQ 0
root@arm:~# echo 'TQBT''UXLWMX'
TQBTUXLWMX
root@arm:~# MARKER='BZPY''BMXCSZ' run 'grep -r -l rohm,bd71837 /proc/device-tree  | sed '"'"'s![^/]*$!!'"'"''
BZPYBMXCSZ/proc/device-tree/ocp/interconnect@48000000/segment@100000/target-module@9c000/i2c@0/pmic@4b/
BZPYBMXCSZ 0
root@arm:~# echo 'KMLC''NMMOJK'
KMLCNMMOJK
root@arm:~# MARKER='JVYS''VNFXJX' run 'test -f /proc/device-tree/ocp/interconnectt\@48000000/segment\@100000/target-module\@9c000/i2c\@0/pmic\@4b/regulators/BUCK44/rohm,no-regulator-enable-control ;echo $?'
JVYSVNFXJX1
JVYSVNFXJX 0
root@arm:~# echo 'TYOM''MEFLKN'
TYOMMEFLKN
root@arm:~# MARKER='GBPH''YCEPHL' run 'grep -r -l rohm,bd71837 /proc/device-tree  | sed '"'"'s![^/]*$!!'"'"''
GBPHYCEPHL/proc/device-tree/ocp/interconnect@48000000/segment@100000/target-module@9c000/i2c@0/pmic@4b/
GBPHYCEPHL 0
root@arm:~# echo 'GQZN''JWTMBS'
GQZNJWTMBS
root@arm:~# MARKER='NPAU''HQZPTF' run 'test -f /proc/device-tree/ocp/interconnectt\@48000000/segment\@100000/target-module\@9c000/i2c\@0/pmic\@4b/regulators/BUCK44/regulator-always-on ;echo $?'
NPAUHQZPTF1
NPAUHQZPTF 0
root@arm:~# echo 'QSEX''XCVVNE'
QSEXXCVVNE
root@arm:~# MARKER='NHOB''PCQCNZ' run 'echo 0 > /sys/kernel/mva_test/regulators/bbuck4_en'
NHOBPCQCNZNHOBPCQCNZ 0
root@arm:~# echo 'FCPF''BUUGZG'
FCPFBUUGZG
root@arm:~# MARKER='XSBW''QULUCH' run 'i2cget -y -f 2 0x4b 0x8'
XSBWQULUCH0xc6
XSBWQULUCH 0
root@arm:~# echo 'MFOJ''FGHSVF'
MFOJFGHSVF
root@arm:~# MARKER='SAMJ''TVVGXV' run 'grep -r -l rohm,bd71837 /proc/device-tree  | sed '"'"'s![^/]*$!!'"'"''
SAMJTVVGXV/proc/device-tree/ocp/interconnect@48000000/segment@100000/target-module@9c000/i2c@0/pmic@4b/
SAMJTVVGXV 0
root@arm:~# echo 'LSQU''EFXEYN'
LSQUEFXEYN
root@arm:~# MARKER='NXAG''QLCYTG' run 'test -f /proc/device-tree/ocp/interconnectt\@48000000/segment\@100000/target-module\@9c000/i2c\@0/pmic\@4b/regulators/BUCK55/rohm,no-regulator-enable-control ;echo $?'
NXAGQLCYTG1
NXAGQLCYTG 0
root@arm:~# echo 'WCJW''YCXGYS'
WCJWYCXGYS
root@arm:~# MARKER='ANKK''HVGPVQ' run 'echo 1 > /sys/kernel/mva_test/regulators/bbuck5_en'
ANKKHVGPVQANKKHVGPVQ 0
root@arm:~# echo 'MTVH''MXPSSO'
MTVHMXPSSO
root@arm:~# MARKER='JPFJ''FYJLMU' run 'i2cget -y -f 2 0x4b 0x9'
JPFJFYJLMU0x03
JPFJFYJLMU 0
root@arm:~# echo 'LOXC''OJLKKA'
LOXCOJLKKA
root@arm:~# MARKER='CHUF''KGLPHT' run 'grep -r -l rohm,bd71837 /proc/device-tree  | sed '"'"'s![^/]*$!!'"'"''
CHUFKGLPHT/proc/device-tree/ocp/interconnect@48000000/segment@100000/target-module@9c000/i2c@0/pmic@4b/
CHUFKGLPHT 0
root@arm:~# echo 'MXPF''KSPGPH'
MXPFKSPGPH
root@arm:~# MARKER='GXLZ''PUQAAP' run 'test -f /proc/device-tree/ocp/interconnectt\@48000000/segment\@100000/target-module\@9c000/i2c\@0/pmic\@4b/regulators/BUCK55/rohm,no-regulator-enable-control ;echo $?'
GXLZPUQAAP1
GXLZPUQAAP 0
root@arm:~# echo 'LGYJ''NXYECF'
LGYJNXYECF
root@arm:~# MARKER='NMXO''AJTXGQ' run 'grep -r -l rohm,bd71837 /proc/device-tree  | sed '"'"'s![^/]*$!!'"'"''
NMXOAJTXGQ/proc/device-tree/ocp/interconnect@48000000/segment@100000/target-module@9c000/i2c@0/pmic@4b/
NMXOAJTXGQ 0
root@arm:~# echo 'NJGO''KMFXXW'
NJGOKMFXXW
root@arm:~# MARKER='CETY''AQPFZV' run 'test -f /proc/device-tree/ocp/interconnectt\@48000000/segment\@100000/target-module\@9c000/i2c\@0/pmic\@4b/regulators/BUCK55/regulator-always-on ;echo $?'
CETYAQPFZV1
CETYAQPFZV 0
root@arm:~# echo 'PTHU''XEWNFY'
PTHUXEWNFY
root@arm:~# MARKER='ZOYU''VTVOQN' run 'echo 0 > /sys/kernel/mva_test/regulators/bbuck5_en'
ZOYUVTVOQNZOYUVTVOQN 0
root@arm:~# echo 'AUQO''QUHLFF'
AUQOQUHLFF
root@arm:~# MARKER='WKGM''YJWUOO' run 'i2cget -y -f 2 0x4b 0x9'
WKGMYJWUOO0x02
WKGMYJWUOO 0
root@arm:~# echo 'YLTW''XEQVEB'
YLTWXEQVEB
root@arm:~# MARKER='CSJW''OEGPYO' run 'grep -r -l rohm,bd71837 /proc/device-tree  | sed '"'"'s![^/]*$!!'"'"''
CSJWOEGPYO/proc/device-tree/ocp/interconnect@48000000/segment@100000/target-module@9c000/i2c@0/pmic@4b/
CSJWOEGPYO 0
root@arm:~# echo 'ELGG''BXBQZW'
ELGGBXBQZW
root@arm:~# MARKER='BSYC''STZOFU' run 'test -f /proc/device-tree/ocp/interconnectt\@48000000/segment\@100000/target-module\@9c000/i2c\@0/pmic\@4b/regulators/BUCK66/rohm,no-regulator-enable-control ;echo $?'
BSYCSTZOFU1
BSYCSTZOFU 0
root@arm:~# echo 'QASE''QMTHTK'
QASEQMTHTK
root@arm:~# MARKER='MUTN''UXVAVT' run 'echo 1 > /sys/kernel/mva_test/regulators/bbuck6_en'
MUTNUXVAVTMUTNUXVAVT 0
root@arm:~# echo 'VHMV''XLCQQV'
VHMVXLCQQV
root@arm:~# MARKER='LQKM''UHNUYE' run 'i2cget -y -f 2 0x4b 0xa'
LQKMUHNUYE0x03
LQKMUHNUYE 0
root@arm:~# echo 'LTZL''UEQMMY'
LTZLUEQMMY
root@arm:~# MARKER='KHTK''ZCSAML' run 'grep -r -l rohm,bd71837 /proc/device-tree  | sed '"'"'s![^/]*$!!'"'"''
KHTKZCSAML/proc/device-tree/ocp/interconnect@48000000/segment@100000/target-module@9c000/i2c@0/pmic@4b/
KHTKZCSAML 0
root@arm:~# echo 'TUUV''BXLUZF'
TUUVBXLUZF
root@arm:~# MARKER='WPLY''GHWYNW' run 'test -f /proc/device-tree/ocp/interconnectt\@48000000/segment\@100000/target-module\@9c000/i2c\@0/pmic\@4b/regulators/BUCK66/rohm,no-regulator-enable-control ;echo $?'
WPLYGHWYNW1
WPLYGHWYNW 0
root@arm:~# echo 'NQHQ''MSZFZB'
NQHQMSZFZB
root@arm:~# MARKER='YQBO''TWBASM' run 'grep -r -l rohm,bd71837 /proc/device-tree  | sed '"'"'s![^/]*$!!'"'"''
YQBOTWBASM/proc/device-tree/ocp/interconnect@48000000/segment@100000/target-module@9c000/i2c@0/pmic@4b/
YQBOTWBASM 0
root@arm:~# echo 'CSAY''OOJEMJ'
CSAYOOJEMJ
root@arm:~# MARKER='QWJC''NFJAPA' run 'test -f /proc/device-tree/ocp/interconnectt\@48000000/segment\@100000/target-module\@9c000/i2c\@0/pmic\@4b/regulators/BUCK66/regulator-always-on ;echo $?'
QWJCNFJAPA1
QWJCNFJAPA 0
root@arm:~# echo 'LGJQ''HCKTZH'
LGJQHCKTZH
root@arm:~# MARKER='HTMC''XZOGGH' run 'echo 0 > /sys/kernel/mva_test/regulators/bbuck6_en'
HTMCXZOGGHHTMCXZOGGH 0
root@arm:~# echo 'TEWS''PVVLBT'
TEWSPVVLBT
root@arm:~# MARKER='LNVO''YCHJPX' run 'i2cget -y -f 2 0x4b 0xa'
LNVOYCHJPX0x02
LNVOYCHJPX 0
root@arm:~# echo 'EZKP''ECHSWW'
EZKPECHSWW
root@arm:~# MARKER='QUPQ''HTEKBW' run 'grep -r -l rohm,bd71837 /proc/device-tree  | sed '"'"'s![^/]*$!!'"'"''
QUPQHTEKBW/proc/device-tree/ocp/interconnect@48000000/segment@100000/target-module@9c000/i2c@0/pmic@4b/
QUPQHTEKBW 0
root@arm:~# echo 'PPWY''TOJTHA'
PPWYTOJTHA
root@arm:~# MARKER='GQJS''UYJNLN' run 'test -f /proc/device-tree/ocp/interconnectt\@48000000/segment\@100000/target-module\@9c000/i2c\@0/pmic\@4b/regulators/BUCK77/rohm,no-regulator-enable-control ;echo $?'
GQJSUYJNLN1
GQJSUYJNLN 0
root@arm:~# echo 'WSHL''TQJNKS'
WSHLTQJNKS
root@arm:~# MARKER='GKFP''EFOSTJ' run 'echo 1 > /sys/kernel/mva_test/regulators/bbuck7_en'
GKFPEFOSTJGKFPEFOSTJ 0
root@arm:~# echo 'PZNX''FUYGTZ'
PZNXFUYGTZ
root@arm:~# MARKER='FOBE''VLBKKJ' run 'i2cget -y -f 2 0x4b 0xb'
FOBEVLBKKJ0x03
FOBEVLBKKJ 0
root@arm:~# echo 'QCKU''AESKFE'
QCKUAESKFE
root@arm:~# MARKER='YWCH''GBZGWT' run 'grep -r -l rohm,bd71837 /proc/device-tree  | sed '"'"'s![^/]*$!!'"'"''
YWCHGBZGWT/proc/device-tree/ocp/interconnect@48000000/segment@100000/target-module@9c000/i2c@0/pmic@4b/
YWCHGBZGWT 0
root@arm:~# echo 'WBJX''EOQCVJ'
WBJXEOQCVJ
root@arm:~# MARKER='HWBN''ZXHCEN' run 'test -f /proc/device-tree/ocp/interconnectt\@48000000/segment\@100000/target-module\@9c000/i2c\@0/pmic\@4b/regulators/BUCK77/rohm,no-regulator-enable-control ;echo $?'
HWBNZXHCEN1
HWBNZXHCEN 0
root@arm:~# echo 'KYES''STLMKN'
KYESSTLMKN
root@arm:~# MARKER='VQBT''FYPYEZ' run 'grep -r -l rohm,bd71837 /proc/device-tree  | sed '"'"'s![^/]*$!!'"'"''
VQBTFYPYEZ/proc/device-tree/ocp/interconnect@48000000/segment@100000/target-module@9c000/i2c@0/pmic@4b/
VQBTFYPYEZ 0
root@arm:~# echo 'LGHB''NHKKXH'
LGHBNHKKXH
root@arm:~# MARKER='AFVS''MJASXY' run 'test -f /proc/device-tree/ocp/interconnectt\@48000000/segment\@100000/target-module\@9c000/i2c\@0/pmic\@4b/regulators/BUCK77/regulator-always-on ;echo $?'
AFVSMJASXY1
AFVSMJASXY 0
root@arm:~# echo 'CKBN''SMXBLW'
CKBNSMXBLW
root@arm:~# MARKER='ABAP''WGNOCY' run 'echo 0 > /sys/kernel/mva_test/regulators/bbuck7_en'
ABAPWGNOCYABAPWGNOCY 0
root@arm:~# echo 'KYBL''ZHNFPB'
KYBLZHNFPB
root@arm:~# MARKER='CJKQ''VAJZLQ' run 'i2cget -y -f 2 0x4b 0xb'
CJKQVAJZLQ0x02
CJKQVAJZLQ 0
root@arm:~# echo 'NUEC''YCHCMQ'
NUECYCHCMQ
root@arm:~# MARKER='NTFS''HNMSUS' run 'grep -r -l rohm,bd71837 /proc/device-tree  | sed '"'"'s![^/]*$!!'"'"''
NTFSHNMSUS/proc/device-tree/ocp/interconnect@48000000/segment@100000/target-module@9c000/i2c@0/pmic@4b/
NTFSHNMSUS 0
root@arm:~# echo 'ZCKB''TPUZEU'
ZCKBTPUZEU
root@arm:~# MARKER='XXBQ''SSAFWQ' run 'test -f /proc/device-tree/ocp/interconnectt\@48000000/segment\@100000/target-module\@9c000/i2c\@0/pmic\@4b/regulators/BUCK88/rohm,no-regulator-enable-control ;echo $?'
XXBQSSAFWQ1
XXBQSSAFWQ 0
root@arm:~# echo 'JKMG''HXFCTX'
JKMGHXFCTX
root@arm:~# MARKER='KPXA''OOSSMW' run 'echo 1 > /sys/kernel/mva_test/regulators/bbuck8_en'
KPXAOOSSMWKPXAOOSSMW 0
root@arm:~# echo 'HNVP''KSKPTO'
HNVPKSKPTO
root@arm:~# MARKER='KUKF''WTOYFC' run 'i2cget -y -f 2 0x4b 0xc'
KUKFWTOYFC0x03
KUKFWTOYFC 0
root@arm:~# echo 'AUTY''EGNUEB'
AUTYEGNUEB
root@arm:~# MARKER='UGZA''LLNZLS' run 'grep -r -l rohm,bd71837 /proc/device-tree  | sed '"'"'s![^/]*$!!'"'"''
UGZALLNZLS/proc/device-tree/ocp/interconnect@48000000/segment@100000/target-module@9c000/i2c@0/pmic@4b/
UGZALLNZLS 0
root@arm:~# echo 'EMVF''MKFGLX'
EMVFMKFGLX
root@arm:~# MARKER='WCXC''XMMHUY' run 'test -f /proc/device-tree/ocp/interconnectt\@48000000/segment\@100000/target-module\@9c000/i2c\@0/pmic\@4b/regulators/BUCK88/rohm,no-regulator-enable-control ;echo $?'
WCXCXMMHUY1
WCXCXMMHUY 0
root@arm:~# echo 'TUSV''XLOXKK'
TUSVXLOXKK
root@arm:~# MARKER='TMYF''SHMPKS' run 'grep -r -l rohm,bd71837 /proc/device-tree  | sed '"'"'s![^/]*$!!'"'"''
TMYFSHMPKS/proc/device-tree/ocp/interconnect@48000000/segment@100000/target-module@9c000/i2c@0/pmic@4b/
TMYFSHMPKS 0
root@arm:~# echo 'CNAS''WKZXEG'
CNASWKZXEG
root@arm:~# MARKER='WSTX''PJVCYA' run 'test -f /proc/device-tree/ocp/interconnectt\@48000000/segment\@100000/target-module\@9c000/i2c\@0/pmic\@4b/regulators/BUCK88/regulator-always-on ;echo $?'
WSTXPJVCYA1
WSTXPJVCYA 0
root@arm:~# echo 'KCTA''ALNOCB'
KCTAALNOCB
root@arm:~# MARKER='FTUG''YCBWGE' run 'echo 0 > /sys/kernel/mva_test/regulators/bbuck8_en'
FTUGYCBWGEFTUGYCBWGE 0
root@arm:~# echo 'YVMU''VMQQMJ'
YVMUVMQQMJ
root@arm:~# MARKER='SEVH''TGVYCH' run 'i2cget -y -f 2 0x4b 0xc'
SEVHTGVYCH0x02
SEVHTGVYCH 0
root@arm:~# echo 'UEQX''VJOEUZ'
UEQXVJOEUZ
root@arm:~# MARKER='EYJZ''GZNFJC' run 'grep -r -l rohm,bd71837 /proc/device-tree  | sed '"'"'s![^/]*$!!'"'"''
EYJZGZNFJC/proc/device-tree/ocp/interconnect@48000000/segment@100000/target-module@9c000/i2c@0/pmic@4b/
EYJZGZNFJC 0
root@arm:~# echo 'KVAF''SVHEBB'
KVAFSVHEBB
root@arm:~# MARKER='AMMS''GKQCMB' run 'test -f /proc/device-tree/ocp/interconnectt\@48000000/segment\@100000/target-module\@9c000/i2c\@0/pmic\@4b/regulators/LDO1//rohm,no-regulator-enable-control ;echo $?'
AMMSGKQCMB1
AMMSGKQCMB 0
root@arm:~# echo 'XWZE''MTEBMQ'
XWZEMTEBMQ
root@arm:~# MARKER='HYMA''KJTQLN' run 'echo 1 > /sys/kernel/mva_test/regulators/bbuck9_en'
HYMAKJTQLNHYMAKJTQLN 0
root@arm:~# echo 'WTEP''ZQYNNZ'
WTEPZQYNNZ
root@arm:~# MARKER='OKAT''MBEWFT' run 'i2cget -y -f 2 0x4b 0x18'
OKATMBEWFT0xc3
OKATMBEWFT 0
root@arm:~# echo 'PYBU''WYTLFZ'
PYBUWYTLFZ
root@arm:~# MARKER='MYGK''ZHMHQO' run 'grep -r -l rohm,bd71837 /proc/device-tree  | sed '"'"'s![^/]*$!!'"'"''
MYGKZHMHQO/proc/device-tree/ocp/interconnect@48000000/segment@100000/target-module@9c000/i2c@0/pmic@4b/
MYGKZHMHQO 0
root@arm:~# echo 'ZABZ''ATJUQO'
ZABZATJUQO
root@arm:~# MARKER='WGMT''EZABMG' run 'test -f /proc/device-tree/ocp/interconnectt\@48000000/segment\@100000/target-module\@9c000/i2c\@0/pmic\@4b/regulators/LDO1//rohm,no-regulator-enable-control ;echo $?'
WGMTEZABMG1
WGMTEZABMG 0
root@arm:~# echo 'GVVM''AVTVBJ'
GVVMAVTVBJ
root@arm:~# MARKER='CGEE''EPYNPS' run 'grep -r -l rohm,bd71837 /proc/device-tree  | sed '"'"'s![^/]*$!!'"'"''
CGEEEPYNPS/proc/device-tree/ocp/interconnect@48000000/segment@100000/target-module@9c000/i2c@0/pmic@4b/
CGEEEPYNPS 0
root@arm:~# echo 'BQWQ''SXQYBX'
BQWQSXQYBX
root@arm:~# MARKER='BHXW''AVTLGX' run 'test -f /proc/device-tree/ocp/interconnectt\@48000000/segment\@100000/target-module\@9c000/i2c\@0/pmic\@4b/regulators/LDO1//regulator-always-on ;echo $?'
BHXWAVTLGX1
BHXWAVTLGX 0
root@arm:~# echo 'KUVS''YGAWOL'
KUVSYGAWOL
root@arm:~# MARKER='PJXO''YKCJTJ' run 'echo 0 > /sys/kernel/mva_test/regulators/bbuck9_en'
PJXOYKCJTJPJXOYKCJTJ 0
root@arm:~# echo 'LOQK''YLZWLT'
LOQKYLZWLT
root@arm:~# MARKER='CBLO''FYKQFE' run 'i2cget -y -f 2 0x4b 0x18'
CBLOFYKQFE0x83
CBLOFYKQFE 0
root@arm:~# echo 'BAYA''NTCUPY'
BAYANTCUPY
root@arm:~# MARKER='GKLJ''EQUFMT' run 'grep -r -l rohm,bd71837 /proc/device-tree  | sed '"'"'s![^/]*$!!'"'"''
GKLJEQUFMT/proc/device-tree/ocp/interconnect@48000000/segment@100000/target-module@9c000/i2c@0/pmic@4b/
GKLJEQUFMT 0
root@arm:~# echo 'SEXX''EBOGEU'
SEXXEBOGEU
root@arm:~# MARKER='CCKZ''VPMYOA' run 'test -f /proc/device-tree/ocp/interconnectt\@48000000/segment\@100000/target-module\@9c000/i2c\@0/pmic\@4b/regulators/LDO2//rohm,no-regulator-enable-control ;echo $?'
CCKZVPMYOA1
CCKZVPMYOA 0
root@arm:~# echo 'JZJE''BVOAVZ'
JZJEBVOAVZ
root@arm:~# MARKER='EZXW''VVQTMB' run 'echo 1 > /sys/kernel/mva_test/regulators/bbuck10_en'
EZXWVVQTMBEZXWVVQTMB 0
root@arm:~# echo 'AYZH''QFVXJZ'
AYZHQFVXJZ
root@arm:~# MARKER='EWAT''TLZKMN' run 'i2cget -y -f 2 0x4b 0x19'
EWATTLZKMN0xc0
EWATTLZKMN 0
root@arm:~# echo 'ZOPP''ECMLZK'
ZOPPECMLZK
root@arm:~# MARKER='YFUS''THSOUU' run 'grep -r -l rohm,bd71837 /proc/device-tree  | sed '"'"'s![^/]*$!!'"'"''
YFUSTHSOUU/proc/device-tree/ocp/interconnect@48000000/segment@100000/target-module@9c000/i2c@0/pmic@4b/
YFUSTHSOUU 0
root@arm:~# echo 'XOYX''WNYSMA'
XOYXWNYSMA
root@arm:~# MARKER='LAEF''AHBNLK' run 'test -f /proc/device-tree/ocp/interconnectt\@48000000/segment\@100000/target-module\@9c000/i2c\@0/pmic\@4b/regulators/LDO2//rohm,no-regulator-enable-control ;echo $?'
LAEFAHBNLK1
LAEFAHBNLK 0
root@arm:~# echo 'SNLA''KUKLUX'
SNLAKUKLUX
root@arm:~# MARKER='VKQB''GJYOZM' run 'grep -r -l rohm,bd71837 /proc/device-tree  | sed '"'"'s![^/]*$!!'"'"''
VKQBGJYOZM/proc/device-tree/ocp/interconnect@48000000/segment@100000/target-module@9c000/i2c@0/pmic@4b/
VKQBGJYOZM 0
root@arm:~# echo 'BCAM''NOBWBS'
BCAMNOBWBS
root@arm:~# MARKER='SEXA''TJQZVC' run 'test -f /proc/device-tree/ocp/interconnectt\@48000000/segment\@100000/target-module\@9c000/i2c\@0/pmic\@4b/regulators/LDO2//regulator-always-on ;echo $?'
SEXATJQZVC1
SEXATJQZVC 0
root@arm:~# echo 'CZYZ''GSZJYA'
CZYZGSZJYA
root@arm:~# MARKER='OHEC''CASUFV' run 'echo 0 > /sys/kernel/mva_test/regulators/bbuck10_en'
OHECCASUFVOHECCASUFV 0
root@arm:~# echo 'NSMM''ULGHAW'
NSMMULGHAW
root@arm:~# MARKER='ZVXF''FEAMAS' run 'i2cget -y -f 2 0x4b 0x19'
ZVXFFEAMAS0x80
ZVXFFEAMAS 0
root@arm:~# echo 'XWYT''LNVTPV'
XWYTLNVTPV
root@arm:~# MARKER='LZNN''ZOGFSU' run 'grep -r -l rohm,bd71837 /proc/device-tree  | sed '"'"'s![^/]*$!!'"'"''
LZNNZOGFSU/proc/device-tree/ocp/interconnect@48000000/segment@100000/target-module@9c000/i2c@0/pmic@4b/
LZNNZOGFSU 0
root@arm:~# echo 'HYKL''ZCVAWE'
HYKLZCVAWE
root@arm:~# MARKER='SGJB''LTPCMX' run 'test -f /proc/device-tree/ocp/interconnectt\@48000000/segment\@100000/target-module\@9c000/i2c\@0/pmic\@4b/regulators/LDO3//rohm,no-regulator-enable-control ;echo $?'
SGJBLTPCMX1
SGJBLTPCMX 0
root@arm:~# echo 'LONJ''GYGMVW'
LONJGYGMVW
root@arm:~# MARKER='JBLE''CWZBAA' run 'echo 1 > /sys/kernel/mva_test/regulators/bbuck11_en'
JBLECWZBAAJBLECWZBAA 0
root@arm:~# echo 'ZSUF''HQZMGC'
ZSUFHQZMGC
root@arm:~# MARKER='VYAM''LCCEJX' run 'i2cget -y -f 2 0x4b 0x1a'
VYAMLCCEJX0xc0
VYAMLCCEJX 0
root@arm:~# echo 'XTGU''SVJBLE'
XTGUSVJBLE
root@arm:~# MARKER='SUTS''OCSBLK' run 'grep -r -l rohm,bd71837 /proc/device-tree  | sed '"'"'s![^/]*$!!'"'"''
SUTSOCSBLK/proc/device-tree/ocp/interconnect@48000000/segment@100000/target-module@9c000/i2c@0/pmic@4b/
SUTSOCSBLK 0
root@arm:~# echo 'FZBN''CVSLLY'
FZBNCVSLLY
root@arm:~# MARKER='LTGY''UTPTSL' run 'test -f /proc/device-tree/ocp/interconnectt\@48000000/segment\@100000/target-module\@9c000/i2c\@0/pmic\@4b/regulators/LDO3//rohm,no-regulator-enable-control ;echo $?'
LTGYUTPTSL1
LTGYUTPTSL 0
root@arm:~# echo 'NXZG''OOQUVJ'
NXZGOOQUVJ
root@arm:~# MARKER='FJMK''ZTEBFT' run 'grep -r -l rohm,bd71837 /proc/device-tree  | sed '"'"'s![^/]*$!!'"'"''
FJMKZTEBFT/proc/device-tree/ocp/interconnect@48000000/segment@100000/target-module@9c000/i2c@0/pmic@4b/
FJMKZTEBFT 0
root@arm:~# echo 'AMMP''JGWPYS'
AMMPJGWPYS
root@arm:~# MARKER='BHPT''ULLVSK' run 'test -f /proc/device-tree/ocp/interconnectt\@48000000/segment\@100000/target-module\@9c000/i2c\@0/pmic\@4b/regulators/LDO3//regulator-always-on ;echo $?'
BHPTULLVSK1
BHPTULLVSK 0
root@arm:~# echo 'UBNQ''PONNLP'
UBNQPONNLP
root@arm:~# MARKER='EFME''BVHLFB' run 'echo 0 > /sys/kernel/mva_test/regulators/bbuck11_en'
EFMEBVHLFBEFMEBVHLFB 0
root@arm:~# echo 'MSUU''NNHVKT'
MSUUNNHVKT
root@arm:~# MARKER='LNUC''GAQGPH' run 'i2cget -y -f 2 0x4b 0x1a'
LNUCGAQGPH0x80
LNUCGAQGPH 0
root@arm:~# echo 'KFEY''NYHNNF'
KFEYNYHNNF
root@arm:~# MARKER='QTQA''YQUSVS' run 'grep -r -l rohm,bd71837 /proc/device-tree  | sed '"'"'s![^/]*$!!'"'"''
QTQAYQUSVS/proc/device-tree/ocp/interconnect@48000000/segment@100000/target-module@9c000/i2c@0/pmic@4b/
QTQAYQUSVS 0
root@arm:~# echo 'TMOL''LMULPH'
TMOLLMULPH
root@arm:~# MARKER='PNTE''FYUJZM' run 'test -f /proc/device-tree/ocp/interconnectt\@48000000/segment\@100000/target-module\@9c000/i2c\@0/pmic\@4b/regulators/LDO4//rohm,no-regulator-enable-control ;echo $?'
PNTEFYUJZM1
PNTEFYUJZM 0
root@arm:~# echo 'YQWJ''NYNJMB'
YQWJNYNJMB
root@arm:~# MARKER='JQWV''MKXPKE' run 'echo 1 > /sys/kernel/mva_test/regulators/bbuck12_en'
JQWVMKXPKEJQWVMKXPKE 0
root@arm:~# echo 'XYGN''HNXGKY'
XYGNHNXGKY
root@arm:~# MARKER='AJKJ''UGTMFS' run 'i2cget -y -f 2 0x4b 0x1b'
AJKJUGTMFS0xc0
AJKJUGTMFS 0
root@arm:~# echo 'TNMA''ZNYPYT'
TNMAZNYPYT
root@arm:~# MARKER='OQYP''QKXMPS' run 'grep -r -l rohm,bd71837 /proc/device-tree  | sed '"'"'s![^/]*$!!'"'"''
OQYPQKXMPS/proc/device-tree/ocp/interconnect@48000000/segment@100000/target-module@9c000/i2c@0/pmic@4b/
OQYPQKXMPS 0
root@arm:~# echo 'QEHQ''ECJPZW'
QEHQECJPZW
root@arm:~# MARKER='WUAH''AKLYEP' run 'test -f /proc/device-tree/ocp/interconnectt\@48000000/segment\@100000/target-module\@9c000/i2c\@0/pmic\@4b/regulators/LDO4//rohm,no-regulator-enable-control ;echo $?'
WUAHAKLYEP1
WUAHAKLYEP 0
root@arm:~# echo 'YXJK''OVVKPO'
YXJKOVVKPO
root@arm:~# MARKER='UGQC''YABZKG' run 'grep -r -l rohm,bd71837 /proc/device-tree  | sed '"'"'s![^/]*$!!'"'"''
UGQCYABZKG/proc/device-tree/ocp/interconnect@48000000/segment@100000/target-module@9c000/i2c@0/pmic@4b/
UGQCYABZKG 0
root@arm:~# echo 'AWLQ''BVPPQK'
AWLQBVPPQK
root@arm:~# MARKER='UXNH''UHHHQL' run 'test -f /proc/device-tree/ocp/interconnectt\@48000000/segment\@100000/target-module\@9c000/i2c\@0/pmic\@4b/regulators/LDO4//regulator-always-on ;echo $?'
UXNHUHHHQL1
UXNHUHHHQL 0
root@arm:~# echo 'XVHT''XVMZAG'
XVHTXVMZAG
root@arm:~# MARKER='PJYB''GHQBNB' run 'echo 0 > /sys/kernel/mva_test/regulators/bbuck12_en'
PJYBGHQBNBPJYBGHQBNB 0
root@arm:~# echo 'YYVA''HMNXLW'
YYVAHMNXLW
root@arm:~# MARKER='UCOC''YNYENW' run 'i2cget -y -f 2 0x4b 0x1b'
UCOCYNYENW0x80
UCOCYNYENW 0
root@arm:~# echo 'QHUW''JGCTQU'
QHUWJGCTQU
root@arm:~# MARKER='HTFT''BZJQBX' run 'grep -r -l rohm,bd71837 /proc/device-tree  | sed '"'"'s![^/]*$!!'"'"''
HTFTBZJQBX/proc/device-tree/ocp/interconnect@48000000/segment@100000/target-module@9c000/i2c@0/pmic@4b/
HTFTBZJQBX 0
root@arm:~# echo 'SUBA''CBLJFH'
SUBACBLJFH
root@arm:~# MARKER='HAWB''MPVZWA' run 'test -f /proc/device-tree/ocp/interconnectt\@48000000/segment\@100000/target-module\@9c000/i2c\@0/pmic\@4b/regulators/LDO5//rohm,no-regulator-enable-control ;echo $?'
HAWBMPVZWA0
HAWBMPVZWA 0
root@arm:~# echo 'AWUL''QPTTUT'
AWULQPTTUT
root@arm:~# MARKER='ZAXG''KKAJYJ' run 'grep -r -l rohm,bd71837 /proc/device-tree  | sed '"'"'s![^/]*$!!'"'"''
ZAXGKKAJYJ/proc/device-tree/ocp/interconnect@48000000/segment@100000/target-module@9c000/i2c@0/pmic@4b/
ZAXGKKAJYJ 0
root@arm:~# echo 'TJSE''GVAOOO'
TJSEGVAOOO
root@arm:~# MARKER='UEQA''MAFZGM' run 'test -f /proc/device-tree/ocp/interconnectt\@48000000/segment\@100000/target-module\@9c000/i2c\@0/pmic\@4b/regulators/LDO5//rohm,no-regulator-enable-control ;echo $?'
UEQAMAFZGM0
UEQAMAFZGM 0
root@arm:~# echo 'JYJL''WCASPZ'
JYJLWCASPZ
root@arm:~# MARKER='QJNK''VWUEMY' run 'grep -r -l rohm,bd71837 /proc/device-tree  | sed '"'"'s![^/]*$!!'"'"''
QJNKVWUEMY/proc/device-tree/ocp/interconnect@48000000/segment@100000/target-module@9c000/i2c@0/pmic@4b/
QJNKVWUEMY 0
root@arm:~# echo 'UFKO''THPBJU'
UFKOTHPBJU
root@arm:~# MARKER='WNGG''HPTZPH' run 'test -f /proc/device-tree/ocp/interconnectt\@48000000/segment\@100000/target-module\@9c000/i2c\@0/pmic\@4b/regulators/LDO6 /rohm,no-regulator-enable-control ;echo $?'
WNGGHPTZPH1
WNGGHPTZPH 0
root@arm:~# echo 'BFSG''PCMYJU'
BFSGPCMYJU
root@arm:~# MARKER='BWOO''MMEWMX' run 'echo 1 > /sys/kernel/mva_test/regulators/bbuck14_en'
BWOOMMEWMXBWOOMMEWMX 0
root@arm:~# echo 'FTPF''NQPEGQ'
FTPFNQPEGQ
root@arm:~# MARKER='YWLG''JMQBPC' run 'i2cget -y -f 2 0x4b 0x1d'
YWLGJMQBPC0xc0
YWLGJMQBPC 0
root@arm:~# echo 'UEWG''NGESTP'
UEWGNGESTP
root@arm:~# MARKER='OJKY''WXXFFS' run 'grep -r -l rohm,bd71837 /proc/device-tree  | sed '"'"'s![^/]*$!!'"'"''
OJKYWXXFFS/proc/device-tree/ocp/interconnect@48000000/segment@100000/target-module@9c000/i2c@0/pmic@4b/
OJKYWXXFFS 0
root@arm:~# echo 'ONBW''HUEMVH'
ONBWHUEMVH
root@arm:~# MARKER='XPUN''ACLEQW' run 'test -f /proc/device-tree/ocp/interconnectt\@48000000/segment\@100000/target-module\@9c000/i2c\@0/pmic\@4b/regulators/LDO6//rohm,no-regulator-enable-control ;echo $?'
XPUNACLEQW1
XPUNACLEQW 0
root@arm:~# echo 'UXOL''TJTWYK'
UXOLTJTWYK
root@arm:~# MARKER='SWTS''QKZPVB' run 'grep -r -l rohm,bd71837 /proc/device-tree  | sed '"'"'s![^/]*$!!'"'"''
SWTSQKZPVB/proc/device-tree/ocp/interconnect@48000000/segment@100000/target-module@9c000/i2c@0/pmic@4b/
SWTSQKZPVB 0
root@arm:~# echo 'QOMW''MWXAUN'
QOMWMWXAUN
root@arm:~# MARKER='SGCY''CVFLNN' run 'test -f /proc/device-tree/ocp/interconnectt\@48000000/segment\@100000/target-module\@9c000/i2c\@0/pmic\@4b/regulators/LDO6//regulator-always-on ;echo $?'
SGCYCVFLNN1
SGCYCVFLNN 0
root@arm:~# echo 'CAVO''WQTLSJ'
CAVOWQTLSJ
root@arm:~# MARKER='XEGB''GALJPJ' run 'echo 0 > /sys/kernel/mva_test/regulators/bbuck14_en'
XEGBGALJPJXEGBGALJPJ 0
root@arm:~# echo 'BXLU''WOBEKN'
BXLUWOBEKN
root@arm:~# MARKER='MOEH''SPOHMW' run 'i2cget -y -f 2 0x4b 0x1d'
MOEHSPOHMW0x80
MOEHSPOHMW 0
root@arm:~# echo 'WXPQ''HHHJWX'
WXPQHHHJWX
root@arm:~# MARKER='JAHY''HFCTUJ' run 'grep -r -l rohm,bd71837 /proc/device-tree  | sed '"'"'s![^/]*$!!'"'"''
JAHYHFCTUJ/proc/device-tree/ocp/interconnect@48000000/segment@100000/target-module@9c000/i2c@0/pmic@4b/
JAHYHFCTUJ 0
root@arm:~# echo 'LLJY''BLPKLQ'
LLJYBLPKLQ
root@arm:~# MARKER='PGSP''CSNPEF' run 'test -f /proc/device-tree/ocp/interconnectt\@48000000/segment\@100000/target-module\@9c000/i2c\@0/pmic\@4b/regulators/LDO7//rohm,no-regulator-enable-control ;echo $?'
PGSPCSNPEF1
PGSPCSNPEF 0
root@arm:~# echo 'ABXS''YOEKGM'
ABXSYOEKGM
root@arm:~# MARKER='EWCZ''NBWJGM' run 'echo 1 > /sys/kernel/mva_test/regulators/bbuck15_en'
EWCZNBWJGMEWCZNBWJGM 0
root@arm:~# echo 'XTTO''HKTAHB'
XTTOHKTAHB
root@arm:~# MARKER='VKXC''KNEYCF' run 'i2cget -y -f 2 0x4b 0x1e'
VKXCKNEYCF0xcf
VKXCKNEYCF 0
root@arm:~# echo 'LXZU''KWGLEL'
LXZUKWGLEL
root@arm:~# MARKER='OAXV''OZXQCF' run 'grep -r -l rohm,bd71837 /proc/device-tree  | sed '"'"'s![^/]*$!!'"'"''
OAXVOZXQCF/proc/device-tree/ocp/interconnect@48000000/segment@100000/target-module@9c000/i2c@0/pmic@4b/
OAXVOZXQCF 0
root@arm:~# echo 'MAJN''EOCHLM'
MAJNEOCHLM
root@arm:~# MARKER='EKEF''NTOYNK' run 'test -f /proc/device-tree/ocp/interconnectt\@48000000/segment\@100000/target-module\@9c000/i2c\@0/pmic\@4b/regulators/LDO7//rohm,no-regulator-enable-control ;echo $?'
EKEFNTOYNK1
EKEFNTOYNK 0
root@arm:~# echo 'PSYG''VWCHSP'
PSYGVWCHSP
root@arm:~# MARKER='ZHNH''PNWHWJ' run 'grep -r -l rohm,bd71837 /proc/device-tree  | sed '"'"'s![^/]*$!!'"'"''
ZHNHPNWHWJ/proc/device-tree/ocp/interconnect@48000000/segment@100000/target-module@9c000/i2c@0/pmic@4b/
ZHNHPNWHWJ 0
root@arm:~# echo 'WBOC''NNTLHS'
WBOCNNTLHS
root@arm:~# MARKER='TWSK''KLLAKP' run 'test -f /proc/device-tree/ocp/interconnectt\@48000000/segment\@100000/target-module\@9c000/i2c\@0/pmic\@4b/regulators/LDO7//regulator-always-on ;echo $?'
TWSKKLLAKP1
TWSKKLLAKP 0
root@arm:~# echo 'PBZF''VTQKFF'
PBZFVTQKFF
root@arm:~# MARKER='WHOP''GVWYVL' run 'echo 0 > /sys/kernel/mva_test/regulators/bbuck15_en'
WHOPGVWYVLWHOPGVWYVL 0
root@arm:~# echo 'YOKH''YKBXPW'
YOKHYKBXPW
root@arm:~# MARKER='ELXV''OLCYLZ' run 'i2cget -y -f 2 0x4b 0x1e'
ELXVOLCYLZ0x8f
ELXVOLCYLZ 0
root@arm:~# Labgrid Console Logfile for main
Logfile started at 2025-06-12 08:14:14.102281
=== Log starts here ===

root@arm:~# run() { echo -n "$MARKER"; sh -c "$@"; echo "$MARKER $?"; }
root@arm:~# echo 'KPZQ''ELZCKA'
KPZQELZCKA
root@arm:~# MARKER='QWPP''KYVSPX' run 'grep -r -l rohm,bd71837 /proc/device-tree  | sed '"'"'s![^/]*$!!'"'"''
QWPPKYVSPX/proc/device-tree/ocp/interconnect@48000000/segment@100000/target-module@9c000/i2c@0/pmic@4b/
QWPPKYVSPX 0
root@arm:~# echo 'GGJJ''JWBWLZ'
GGJJJWBWLZ
root@arm:~# MARKER='EBLS''AWOCYM' run 'test -f /proc/device-tree/ocp/interconnectt\@48000000/segment\@100000/target-module\@9c000/i2c\@0/pmic\@4b/regulators/BUCK11/rohm,no-regulator-enable-control ;echo $?'
EBLSAWOCYM1
EBLSAWOCYM 0
root@arm:~# echo 'BNFA''VOPVXP'
BNFAVOPVXP
root@arm:~# MARKER='XJEV''FUAKBF' run 'i2cget -y -f 2 0x4b 0x5'
XJEVFUAKBF0x02
XJEVFUAKBF 0
root@arm:~# echo 'OQFA''WPMCNH'
OQFAWPMCNH
root@arm:~# MARKER='ZUBE''JKFOXP' run 'echo 700000 700000 > /sys/kernel/mva_test//regulators/buck1_set'
ZUBEJKFOXPZUBEJKFOXP 0
root@arm:~# echo 'MLKZ''EACOUK'
MLKZEACOUK
root@arm:~# MARKER='ZWTQ''YSVVHS' run 'i2cget -y -f 2 0x4b 0xd'
ZWTQYSVVHS0x00
ZWTQYSVVHS 0
root@arm:~# echo 'XVHK''LFAWHF'
XVHKLFAWHF
root@arm:~# MARKER='WYNJ''MFJEFL' run 'echo 710000 710000 > /sys/kernel/mva_test//regulators/buck1_set'
WYNJMFJEFLWYNJMFJEFL 0
root@arm:~# echo 'SLYB''TLQTCW'
SLYBTLQTCW
root@arm:~# MARKER='CTCG''FXAKHB' run 'i2cget -y -f 2 0x4b 0xd'
CTCGFXAKHB0x01
CTCGFXAKHB 0
root@arm:~# echo 'YYJP''FVJWYW'
YYJPFVJWYW
root@arm:~# MARKER='HWAZ''YUYAJM' run 'echo 720000 720000 > /sys/kernel/mva_test//regulators/buck1_set'
HWAZYUYAJMHWAZYUYAJM 0
root@arm:~# echo 'KCZA''HGHCGE'
KCZAHGHCGE
root@arm:~# MARKER='UWBG''JQBZLB' run 'i2cget -y -f 2 0x4b 0xd'
UWBGJQBZLB0x02
UWBGJQBZLB 0
root@arm:~# echo 'LXPT''XLWTEG'
LXPTXLWTEG
root@arm:~# MARKER='BVNW''BLLVLH' run 'echo 730000 730000 > /sys/kernel/mva_test//regulators/buck1_set'
BVNWBLLVLHBVNWBLLVLH 0
root@arm:~# echo 'XACN''UGSSXW'
XACNUGSSXW
root@arm:~# MARKER='FSXY''UBVMSO' run 'i2cget -y -f 2 0x4b 0xd'
FSXYUBVMSO0x03
FSXYUBVMSO 0
root@arm:~# echo 'UCQX''YXTAKQ'
UCQXYXTAKQ
root@arm:~# MARKER='GUKQ''LQEWMO' run 'echo 740000 740000 > /sys/kernel/mva_test//regulators/buck1_set'
GUKQLQEWMOGUKQLQEWMO 0
root@arm:~# echo 'JQJV''GZCWUP'
JQJVGZCWUP
root@arm:~# MARKER='SNLH''AKPWKE' run 'i2cget -y -f 2 0x4b 0xd'
SNLHAKPWKE0x04
SNLHAKPWKE 0
root@arm:~# echo 'QBYG''OTFPQZ'
QBYGOTFPQZ
root@arm:~# MARKER='FMYV''KNOXCM' run 'echo 750000 750000 > /sys/kernel/mva_test//regulators/buck1_set'
FMYVKNOXCMFMYVKNOXCM 0
root@arm:~# echo 'WXTT''WGBCQH'
WXTTWGBCQH
root@arm:~# MARKER='BXNL''GXSJHE' run 'i2cget -y -f 2 0x4b 0xd'
BXNLGXSJHE0x05
BXNLGXSJHE 0
root@arm:~# echo 'AFOK''OOSPKN'
AFOKOOSPKN
root@arm:~# MARKER='FFVE''EONSYK' run 'echo 760000 760000 > /sys/kernel/mva_test//regulators/buck1_set'
FFVEEONSYKFFVEEONSYK 0
root@arm:~# echo 'FGXS''JOWJYO'
FGXSJOWJYO
root@arm:~# MARKER='FVLV''QZLSVE' run 'i2cget -y -f 2 0x4b 0xd'
FVLVQZLSVE0x06
FVLVQZLSVE 0
root@arm:~# echo 'HFZQ''FATPMY'
HFZQFATPMY
root@arm:~# MARKER='OPHW''TLQMET' run 'echo 770000 770000 > /sys/kernel/mva_test//regulators/buck1_set'
OPHWTLQMETOPHWTLQMET 0
root@arm:~# echo 'VTNM''NYMUOV'
VTNMNYMUOV
root@arm:~# MARKER='WGVL''JXOWXB' run 'i2cget -y -f 2 0x4b 0xd'
WGVLJXOWXB0x07
WGVLJXOWXB 0
root@arm:~# echo 'QPWX''QGQJEL'
QPWXQGQJEL
root@arm:~# MARKER='UVMZ''UMFMNW' run 'echo 780000 780000 > /sys/kernel/mva_test//regulators/buck1_set'
UVMZUMFMNWUVMZUMFMNW 0
root@arm:~# echo 'TEVS''XMEZML'
TEVSXMEZML
root@arm:~# MARKER='BQLS''KGFMSQ' run 'i2cget -y -f 2 0x4b 0xd'
BQLSKGFMSQ0x08
BQLSKGFMSQ 0
root@arm:~# echo 'TJEW''BPOAFG'
TJEWBPOAFG
root@arm:~# MARKER='PETC''BWESOF' run 'echo 790000 790000 > /sys/kernel/mva_test//regulators/buck1_set'
PETCBWESOFPETCBWESOF 0
root@arm:~# echo 'WATW''FFUCCF'
WATWFFUCCF
root@arm:~# MARKER='TMCA''OFQOSB' run 'i2cget -y -f 2 0x4b 0xd'
TMCAOFQOSB0x09
TMCAOFQOSB 0
root@arm:~# echo 'WNEN''BJOMCE'
WNENBJOMCE
root@arm:~# MARKER='VYSU''TBYFGF' run 'echo 800000 800000 > /sys/kernel/mva_test//regulators/buck1_set'
VYSUTBYFGFVYSUTBYFGF 0
root@arm:~# echo 'ZWFX''BMHMYL'
ZWFXBMHMYL
root@arm:~# MARKER='MACP''QBWANQ' run 'i2cget -y -f 2 0x4b 0xd'
MACPQBWANQ0x0a
MACPQBWANQ 0
root@arm:~# echo 'UQAQ''WNXHTJ'
UQAQWNXHTJ
root@arm:~# MARKER='TAJU''GWPBEA' run 'echo 810000 810000 > /sys/kernel/mva_test//regulators/buck1_set'
TAJUGWPBEATAJUGWPBEA 0
root@arm:~# echo 'TVAW''HUFMZV'
TVAWHUFMZV
root@arm:~# MARKER='GJWE''XHNKGV' run 'i2cget -y -f 2 0x4b 0xd'
GJWEXHNKGV0x0b
GJWEXHNKGV 0
root@arm:~# echo 'FMOE''XVHBZY'
FMOEXVHBZY
root@arm:~# MARKER='UPBM''HHSXTH' run 'echo 820000 820000 > /sys/kernel/mva_test//regulators/buck1_set'
UPBMHHSXTHUPBMHHSXTH 0
root@arm:~# echo 'FSQC''SWZJFO'
FSQCSWZJFO
root@arm:~# MARKER='QMTL''YWHYJP' run 'i2cget -y -f 2 0x4b 0xd'
QMTLYWHYJP0x0c
QMTLYWHYJP 0
root@arm:~# echo 'LCZP''JBYQZT'
LCZPJBYQZT
root@arm:~# MARKER='STHC''BXEHKG' run 'echo 830000 830000 > /sys/kernel/mva_test//regulators/buck1_set'
STHCBXEHKGSTHCBXEHKG 0
root@arm:~# echo 'MFSC''SMAUWW'
MFSCSMAUWW
root@arm:~# MARKER='PFXZ''VOKJFZ' run 'i2cget -y -f 2 0x4b 0xd'
PFXZVOKJFZ0x0d
PFXZVOKJFZ 0
root@arm:~# echo 'JVHZ''VEWBLW'
JVHZVEWBLW
root@arm:~# MARKER='AOLZ''SPMQNK' run 'echo 840000 840000 > /sys/kernel/mva_test//regulators/buck1_set'
AOLZSPMQNKAOLZSPMQNK 0
root@arm:~# echo 'LMYO''MZKLSO'
LMYOMZKLSO
root@arm:~# MARKER='BLBS''CQWCYJ' run 'i2cget -y -f 2 0x4b 0xd'
BLBSCQWCYJ0x0e
BLBSCQWCYJ 0
root@arm:~# echo 'SQJT''XBATVP'
SQJTXBATVP
root@arm:~# MARKER='BFQE''QEYBKX' run 'echo 850000 850000 > /sys/kernel/mva_test//regulators/buck1_set'
BFQEQEYBKXBFQEQEYBKX 0
root@arm:~# echo 'SVFK''OFABJK'
SVFKOFABJK
root@arm:~# MARKER='GMFG''QPHTMM' run 'i2cget -y -f 2 0x4b 0xd'
GMFGQPHTMM0x0f
GMFGQPHTMM 0
root@arm:~# echo 'KZVO''QUVOBZ'
KZVOQUVOBZ
root@arm:~# MARKER='LZKF''FXFKXP' run 'echo 860000 860000 > /sys/kernel/mva_test//regulators/buck1_set'
LZKFFXFKXPLZKFFXFKXP 0
root@arm:~# echo 'FYVB''BTPYFQ'
FYVBBTPYFQ
root@arm:~# MARKER='GQEH''XVGSJE' run 'i2cget -y -f 2 0x4b 0xd'
GQEHXVGSJE0x10
GQEHXVGSJE 0
root@arm:~# echo 'VGGX''ALUYXJ'
VGGXALUYXJ
root@arm:~# MARKER='YTWH''ATPZMU' run 'echo 870000 870000 > /sys/kernel/mva_test//regulators/buck1_set'
YTWHATPZMUYTWHATPZMU 0
root@arm:~# echo 'CZXU''TAAUAM'
CZXUTAAUAM
root@arm:~# MARKER='TTCG''PTTLSU' run 'i2cget -y -f 2 0x4b 0xd'
TTCGPTTLSU0x11
TTCGPTTLSU 0
root@arm:~# echo 'LCFL''TXNGLY'
LCFLTXNGLY
root@arm:~# MARKER='PQSN''OKSXOJ' run 'echo 880000 880000 > /sys/kernel/mva_test//regulators/buck1_set'
PQSNOKSXOJPQSNOKSXOJ 0
root@arm:~# echo 'FTBX''CLTGYJ'
FTBXCLTGYJ
root@arm:~# MARKER='PBWB''UEVAMK' run 'i2cget -y -f 2 0x4b 0xd'
PBWBUEVAMK0x12
PBWBUEVAMK 0
root@arm:~# echo 'WQWH''VFWULV'
WQWHVFWULV
root@arm:~# MARKER='WPGU''VSJETY' run 'echo 890000 890000 > /sys/kernel/mva_test//regulators/buck1_set'
WPGUVSJETYWPGUVSJETY 0
root@arm:~# echo 'WAEY''SKPNWJ'
WAEYSKPNWJ
root@arm:~# MARKER='SEGB''XOZWFT' run 'i2cget -y -f 2 0x4b 0xd'
SEGBXOZWFT0x13
SEGBXOZWFT 0
root@arm:~# echo 'QSJO''JOVJNK'
QSJOJOVJNK
root@arm:~# MARKER='ZLYZ''UHJXBH' run 'echo 900000 900000 > /sys/kernel/mva_test//regulators/buck1_set'
ZLYZUHJXBHZLYZUHJXBH 0
root@arm:~# echo 'VLCY''PZYQOW'
VLCYPZYQOW
root@arm:~# MARKER='BGNF''KWUMLB' run 'i2cget -y -f 2 0x4b 0xd'
BGNFKWUMLB0x14
BGNFKWUMLB 0
root@arm:~# echo 'CQMT''CTOSYZ'
CQMTCTOSYZ
root@arm:~# MARKER='KCCQ''OBVXTZ' run 'echo 910000 910000 > /sys/kernel/mva_test//regulators/buck1_set'
KCCQOBVXTZKCCQOBVXTZ 0
root@arm:~# echo 'UYVV''GANJVW'
UYVVGANJVW
root@arm:~# MARKER='WHZY''ZOGMQN' run 'i2cget -y -f 2 0x4b 0xd'
WHZYZOGMQN0x15
WHZYZOGMQN 0
root@arm:~# echo 'NAFJ''VCTFPK'
NAFJVCTFPK
root@arm:~# MARKER='TSAA''PKTLFU' run 'echo 920000 920000 > /sys/kernel/mva_test//regulators/buck1_set'
TSAAPKTLFUTSAAPKTLFU 0
root@arm:~# echo 'NTOT''QVAAWF'
NTOTQVAAWF
root@arm:~# MARKER='APEW''QSVGSW' run 'i2cget -y -f 2 0x4b 0xd'
APEWQSVGSW0x16
APEWQSVGSW 0
root@arm:~# echo 'GOJL''TXAMLL'
GOJLTXAMLL
root@arm:~# MARKER='AVPY''SPMTQH' run 'echo 930000 930000 > /sys/kernel/mva_test//regulators/buck1_set'
AVPYSPMTQHAVPYSPMTQH 0
root@arm:~# echo 'KHFE''ABZXZO'
KHFEABZXZO
root@arm:~# MARKER='UCTJ''HUGPBH' run 'i2cget -y -f 2 0x4b 0xd'
UCTJHUGPBH0x17
UCTJHUGPBH 0
root@arm:~# echo 'LOQK''YLVUOO'
LOQKYLVUOO
root@arm:~# MARKER='ZJWJ''VLWOCC' run 'echo 940000 940000 > /sys/kernel/mva_test//regulators/buck1_set'
ZJWJVLWOCCZJWJVLWOCC 0
root@arm:~# echo 'HETO''ZUYQKB'
HETOZUYQKB
root@arm:~# MARKER='FSNJ''NHAHPZ' run 'i2cget -y -f 2 0x4b 0xd'
FSNJNHAHPZ0x18
FSNJNHAHPZ 0
root@arm:~# echo 'QWPX''ZBBHZZ'
QWPXZBBHZZ
root@arm:~# MARKER='JKZX''OBVHFF' run 'echo 950000 950000 > /sys/kernel/mva_test//regulators/buck1_set'
JKZXOBVHFFJKZXOBVHFF 0
root@arm:~# echo 'EHXH''KKPVFW'
EHXHKKPVFW
root@arm:~# MARKER='QJYO''OZYOBC' run 'i2cget -y -f 2 0x4b 0xd'
QJYOOZYOBC0x19
QJYOOZYOBC 0
root@arm:~# echo 'MVVX''UYXSFU'
MVVXUYXSFU
root@arm:~# MARKER='QOXW''PBGXQP' run 'echo 960000 960000 > /sys/kernel/mva_test//regulators/buck1_set'
QOXWPBGXQPQOXWPBGXQP 0
root@arm:~# echo 'MNNQ''XUGVSC'
MNNQXUGVSC
root@arm:~# MARKER='NTSL''HXAJQY' run 'i2cget -y -f 2 0x4b 0xd'
NTSLHXAJQY0x1a
NTSLHXAJQY 0
root@arm:~# echo 'MATE''AGCMSN'
MATEAGCMSN
root@arm:~# MARKER='PWXO''QKYCVK' run 'echo 970000 970000 > /sys/kernel/mva_test//regulators/buck1_set'
PWXOQKYCVKPWXOQKYCVK 0
root@arm:~# echo 'FCKK''UQKSFP'
FCKKUQKSFP
root@arm:~# MARKER='HZMG''LVOYVA' run 'i2cget -y -f 2 0x4b 0xd'
HZMGLVOYVA0x1b
HZMGLVOYVA 0
root@arm:~# echo 'FQMV''AEQZJW'
FQMVAEQZJW
root@arm:~# MARKER='GEVN''OLLSUT' run 'echo 980000 980000 > /sys/kernel/mva_test//regulators/buck1_set'
GEVNOLLSUTGEVNOLLSUT 0
root@arm:~# echo 'HFUK''NAYWHP'
HFUKNAYWHP
root@arm:~# MARKER='YQJT''ZSCAVM' run 'i2cget -y -f 2 0x4b 0xd'
YQJTZSCAVM0x1c
YQJTZSCAVM 0
root@arm:~# echo 'ABZF''TLLJFA'
ABZFTLLJFA
root@arm:~# MARKER='SCYH''NTTZJF' run 'echo 990000 990000 > /sys/kernel/mva_test//regulators/buck1_set'
SCYHNTTZJFSCYHNTTZJF 0
root@arm:~# echo 'ZTHH''QQNJBP'
ZTHHQQNJBP
root@arm:~# MARKER='LLQY''NSXHJN' run 'i2cget -y -f 2 0x4b 0xd'
LLQYNSXHJN0x1d
LLQYNSXHJN 0
root@arm:~# echo 'SCET''TSGUHP'
SCETTSGUHP
root@arm:~# MARKER='UGXG''NGGYCO' run 'echo 1000000 1000000 > /sys/kernel/mva_tesst/regulators/buck1_set'
UGXGNGGYCOUGXGNGGYCO 0
root@arm:~# echo 'WEYT''WPKNZG'
WEYTWPKNZG
root@arm:~# MARKER='TPUV''MGMYCJ' run 'i2cget -y -f 2 0x4b 0xd'
TPUVMGMYCJ0x1e
TPUVMGMYCJ 0
root@arm:~# echo 'QEZW''GNOPXU'
QEZWGNOPXU
root@arm:~# MARKER='NNEL''VLCETA' run 'echo 1010000 1010000 > /sys/kernel/mva_tesst/regulators/buck1_set'
NNELVLCETANNELVLCETA 0
root@arm:~# echo 'OLXV''QBTAHV'
OLXVQBTAHV
root@arm:~# MARKER='LFWN''SOBGWU' run 'i2cget -y -f 2 0x4b 0xd'
LFWNSOBGWU0x1f
LFWNSOBGWU 0
root@arm:~# echo 'YBPW''COFSBC'
YBPWCOFSBC
root@arm:~# MARKER='NMVE''KYLONS' run 'echo 1020000 1020000 > /sys/kernel/mva_tesst/regulators/buck1_set'
NMVEKYLONSNMVEKYLONS 0
root@arm:~# echo 'JXHL''BUHLMA'
JXHLBUHLMA
root@arm:~# MARKER='LZUF''EFJOVL' run 'i2cget -y -f 2 0x4b 0xd'
LZUFEFJOVL0x20
LZUFEFJOVL 0
root@arm:~# echo 'OJXG''HZFWGT'
OJXGHZFWGT
root@arm:~# MARKER='KGQS''MFHTTL' run 'echo 1030000 1030000 > /sys/kernel/mva_tesst/regulators/buck1_set'
KGQSMFHTTLKGQSMFHTTL 0
root@arm:~# echo 'WPMC''YJLHEY'
WPMCYJLHEY
root@arm:~# MARKER='YKUW''WCUVTU' run 'i2cget -y -f 2 0x4b 0xd'
YKUWWCUVTU0x21
YKUWWCUVTU 0
root@arm:~# echo 'KHJF''PYFUEF'
KHJFPYFUEF
root@arm:~# MARKER='TLPQ''QZQEWW' run 'echo 1040000 1040000 > /sys/kernel/mva_tesst/regulators/buck1_set'
TLPQQZQEWWTLPQQZQEWW 0
root@arm:~# echo 'VHGP''HXLXTT'
VHGPHXLXTT
root@arm:~# MARKER='UYTB''ASJMSL' run 'i2cget -y -f 2 0x4b 0xd'
UYTBASJMSL0x22
UYTBASJMSL 0
root@arm:~# echo 'UHTV''LNFTJT'
UHTVLNFTJT
root@arm:~# MARKER='BOWX''TWJJNA' run 'echo 1050000 1050000 > /sys/kernel/mva_tesst/regulators/buck1_set'
BOWXTWJJNABOWXTWJJNA 0
root@arm:~# echo 'UHYH''HHYJOS'
UHYHHHYJOS
root@arm:~# MARKER='XSCU''EKGGXT' run 'i2cget -y -f 2 0x4b 0xd'
XSCUEKGGXT0x23
XSCUEKGGXT 0
root@arm:~# echo 'HGEW''PPEWXZ'
HGEWPPEWXZ
root@arm:~# MARKER='LBWT''OSXFEN' run 'echo 1060000 1060000 > /sys/kernel/mva_tesst/regulators/buck1_set'
LBWTOSXFENLBWTOSXFEN 0
root@arm:~# echo 'WAVG''MMCQZP'
WAVGMMCQZP
root@arm:~# MARKER='VOEL''THGTXK' run 'i2cget -y -f 2 0x4b 0xd'
VOELTHGTXK0x24
VOELTHGTXK 0
root@arm:~# echo 'CXEB''EEWYWC'
CXEBEEWYWC
root@arm:~# MARKER='BTNK''FLSFLN' run 'echo 1070000 1070000 > /sys/kernel/mva_tesst/regulators/buck1_set'
BTNKFLSFLNBTNKFLSFLN 0
root@arm:~# echo 'PKOV''MXGFNW'
PKOVMXGFNW
root@arm:~# MARKER='HGUK''YOGYPM' run 'i2cget -y -f 2 0x4b 0xd'
HGUKYOGYPM0x25
HGUKYOGYPM 0
root@arm:~# echo 'LUKH''KZQOUK'
LUKHKZQOUK
root@arm:~# MARKER='JWNB''VZGCPB' run 'echo 1080000 1080000 > /sys/kernel/mva_tesst/regulators/buck1_set'
JWNBVZGCPBJWNBVZGCPB 0
root@arm:~# echo 'QMNE''VANQXV'
QMNEVANQXV
root@arm:~# MARKER='WTCP''OXSHHU' run 'i2cget -y -f 2 0x4b 0xd'
WTCPOXSHHU0x26
WTCPOXSHHU 0
root@arm:~# echo 'APMV''NFLWES'
APMVNFLWES
root@arm:~# MARKER='YFYQ''ZPLCOV' run 'echo 1090000 1090000 > /sys/kernel/mva_tesst/regulators/buck1_set'
YFYQZPLCOVYFYQZPLCOV 0
root@arm:~# echo 'ZZHC''YBVPMM'
ZZHCYBVPMM
root@arm:~# MARKER='XXEL''ACQUTN' run 'i2cget -y -f 2 0x4b 0xd'
XXELACQUTN0x27
XXELACQUTN 0
root@arm:~# echo 'GHUN''AHAMNV'
GHUNAHAMNV
root@arm:~# MARKER='OFVA''GPMKZV' run 'echo 1100000 1100000 > /sys/kernel/mva_tesst/regulators/buck1_set'
OFVAGPMKZVOFVAGPMKZV 0
root@arm:~# echo 'BYKT''AEXGVG'
BYKTAEXGVG
root@arm:~# MARKER='FFPF''WMVQSX' run 'i2cget -y -f 2 0x4b 0xd'
FFPFWMVQSX0x28
FFPFWMVQSX 0
root@arm:~# echo 'YSAA''CKJZMV'
YSAACKJZMV
root@arm:~# MARKER='CBNA''VOLBUE' run 'echo 1110000 1110000 > /sys/kernel/mva_tesst/regulators/buck1_set'
CBNAVOLBUECBNAVOLBUE 0
root@arm:~# echo 'KLUV''EKLMCF'
KLUVEKLMCF
root@arm:~# MARKER='BXXB''LQHOFQ' run 'i2cget -y -f 2 0x4b 0xd'
BXXBLQHOFQ0x29
BXXBLQHOFQ 0
root@arm:~# echo 'XJWM''ZMUNHT'
XJWMZMUNHT
root@arm:~# MARKER='BUVF''YBWMPN' run 'echo 1120000 1120000 > /sys/kernel/mva_tesst/regulators/buck1_set'
BUVFYBWMPNBUVFYBWMPN 0
root@arm:~# echo 'CVVA''AQTANQ'
CVVAAQTANQ
root@arm:~# MARKER='OKYX''NFBQUA' run 'i2cget -y -f 2 0x4b 0xd'
OKYXNFBQUA0x2a
OKYXNFBQUA 0
root@arm:~# echo 'YYQF''XOBPTC'
YYQFXOBPTC
root@arm:~# MARKER='YSGN''BXQLWY' run 'echo 1130000 1130000 > /sys/kernel/mva_tesst/regulators/buck1_set'
YSGNBXQLWYYSGNBXQLWY 0
root@arm:~# echo 'MYJZ''YTJZUX'
MYJZYTJZUX
root@arm:~# MARKER='BAFM''OMSHBJ' run 'i2cget -y -f 2 0x4b 0xd'
BAFMOMSHBJ0x2b
BAFMOMSHBJ 0
root@arm:~# echo 'PJCZ''EBULOA'
PJCZEBULOA
root@arm:~# MARKER='AMVY''UKNZZZ' run 'echo 1140000 1140000 > /sys/kernel/mva_tesst/regulators/buck1_set'
AMVYUKNZZZAMVYUKNZZZ 0
root@arm:~# echo 'QXYJ''YZJBCQ'
QXYJYZJBCQ
root@arm:~# MARKER='JWFL''UFVQSB' run 'i2cget -y -f 2 0x4b 0xd'
JWFLUFVQSB0x2c
JWFLUFVQSB 0
root@arm:~# echo 'WAQM''TVTPOF'
WAQMTVTPOF
root@arm:~# MARKER='PXFV''GBPFAE' run 'echo 1150000 1150000 > /sys/kernel/mva_tesst/regulators/buck1_set'
PXFVGBPFAEPXFVGBPFAE 0
root@arm:~# echo 'GKVJ''YBALBG'
GKVJYBALBG
root@arm:~# MARKER='CBHL''KTLNTE' run 'i2cget -y -f 2 0x4b 0xd'
CBHLKTLNTE0x2d
CBHLKTLNTE 0
root@arm:~# echo 'XZBS''TKWNPB'
XZBSTKWNPB
root@arm:~# MARKER='MLGQ''GGETWW' run 'echo 1160000 1160000 > /sys/kernel/mva_tesst/regulators/buck1_set'
MLGQGGETWWMLGQGGETWW 0
root@arm:~# echo 'SAFG''FJBKGG'
SAFGFJBKGG
root@arm:~# MARKER='KMVY''WEXAWK' run 'i2cget -y -f 2 0x4b 0xd'
KMVYWEXAWK0x2e
KMVYWEXAWK 0
root@arm:~# echo 'MEXY''ZPHEYJ'
MEXYZPHEYJ
root@arm:~# MARKER='TOVH''FHSPAE' run 'echo 1170000 1170000 > /sys/kernel/mva_tesst/regulators/buck1_set'
TOVHFHSPAETOVHFHSPAE 0
root@arm:~# echo 'JQMJ''LBQAWJ'
JQMJLBQAWJ
root@arm:~# MARKER='WHBA''HJZAPW' run 'i2cget -y -f 2 0x4b 0xd'
WHBAHJZAPW0x2f
WHBAHJZAPW 0
root@arm:~# echo 'JQZN''PUKPXK'
JQZNPUKPXK
root@arm:~# MARKER='SZWZ''QBHLXZ' run 'echo 1180000 1180000 > /sys/kernel/mva_tesst/regulators/buck1_set'
SZWZQBHLXZSZWZQBHLXZ 0
root@arm:~# echo 'AOPB''NQXPNN'
AOPBNQXPNN
root@arm:~# MARKER='AVYB''KYGNHW' run 'i2cget -y -f 2 0x4b 0xd'
AVYBKYGNHW0x30
AVYBKYGNHW 0
root@arm:~# echo 'GEFE''PQXNZG'
GEFEPQXNZG
root@arm:~# MARKER='ECBQ''TOOZYE' run 'echo 1190000 1190000 > /sys/kernel/mva_tesst/regulators/buck1_set'
ECBQTOOZYEECBQTOOZYE 0
root@arm:~# echo 'BEXB''BNAHYO'
BEXBBNAHYO
root@arm:~# MARKER='LUNV''KKHVQT' run 'i2cget -y -f 2 0x4b 0xd'
LUNVKKHVQT0x31
LUNVKKHVQT 0
root@arm:~# echo 'OCHP''TBBKWU'
OCHPTBBKWU
root@arm:~# MARKER='KOCA''YOACWY' run 'echo 1200000 1200000 > /sys/kernel/mva_tesst/regulators/buck1_set'
KOCAYOACWYKOCAYOACWY 0
root@arm:~# echo 'CGYL''OYYEMK'
CGYLOYYEMK
root@arm:~# MARKER='XQLW''PHCCXN' run 'i2cget -y -f 2 0x4b 0xd'
XQLWPHCCXN0x32
XQLWPHCCXN 0
root@arm:~# echo 'AKWY''SBJQCU'
AKWYSBJQCU
root@arm:~# MARKER='JVQF''JXAYKZ' run 'echo 1210000 1210000 > /sys/kernel/mva_tesst/regulators/buck1_set'
JVQFJXAYKZJVQFJXAYKZ 0
root@arm:~# echo 'HGAH''YYKPSB'
HGAHYYKPSB
root@arm:~# MARKER='GTTN''YHKEHT' run 'i2cget -y -f 2 0x4b 0xd'
GTTNYHKEHT0x33
GTTNYHKEHT 0
root@arm:~# echo 'PXZF''HBVTTW'
PXZFHBVTTW
root@arm:~# MARKER='PKNB''ATWGBP' run 'echo 1220000 1220000 > /sys/kernel/mva_tesst/regulators/buck1_set'
PKNBATWGBPPKNBATWGBP 0
root@arm:~# echo 'EEBH''WJQOEM'
EEBHWJQOEM
root@arm:~# MARKER='FKVO''VVYNKH' run 'i2cget -y -f 2 0x4b 0xd'
FKVOVVYNKH0x34
FKVOVVYNKH 0
root@arm:~# echo 'JZYX''SVAVVC'
JZYXSVAVVC
root@arm:~# MARKER='BUSZ''TVKYSN' run 'echo 1230000 1230000 > /sys/kernel/mva_tesst/regulators/buck1_set'
BUSZTVKYSNBUSZTVKYSN 0
root@arm:~# echo 'KCZE''UZHTTK'
KCZEUZHTTK
root@arm:~# MARKER='GJHU''EEJCZF' run 'i2cget -y -f 2 0x4b 0xd'
GJHUEEJCZF0x35
GJHUEEJCZF 0
root@arm:~# echo 'CYMS''VSYWOB'
CYMSVSYWOB
root@arm:~# MARKER='BSJF''GOVFQW' run 'echo 1240000 1240000 > /sys/kernel/mva_tesst/regulators/buck1_set'
BSJFGOVFQWBSJFGOVFQW 0
root@arm:~# echo 'SAVO''TGNGQT'
SAVOTGNGQT
root@arm:~# MARKER='TPUU''FZUTXW' run 'i2cget -y -f 2 0x4b 0xd'
TPUUFZUTXW0x36
TPUUFZUTXW 0
root@arm:~# echo 'KHZG''LMMBKH'
KHZGLMMBKH
root@arm:~# MARKER='AXNF''XTUWEA' run 'echo 1250000 1250000 > /sys/kernel/mva_tesst/regulators/buck1_set'
AXNFXTUWEAAXNFXTUWEA 0
root@arm:~# echo 'QZQO''GOLTBG'
QZQOGOLTBG
root@arm:~# MARKER='BKUX''JONGYB' run 'i2cget -y -f 2 0x4b 0xd'
BKUXJONGYB0x37
BKUXJONGYB 0
root@arm:~# echo 'WEUZ''MGWQCM'
WEUZMGWQCM
root@arm:~# MARKER='ULLH''SGTAQB' run 'echo 1260000 1260000 > /sys/kernel/mva_tesst/regulators/buck1_set'
ULLHSGTAQBULLHSGTAQB 0
root@arm:~# echo 'CYCG''VMTJVH'
CYCGVMTJVH
root@arm:~# MARKER='APCG''NMFWUJ' run 'i2cget -y -f 2 0x4b 0xd'
APCGNMFWUJ0x38
APCGNMFWUJ 0
root@arm:~# echo 'USOO''MXOYKX'
USOOMXOYKX
root@arm:~# MARKER='UJVS''NFSNVS' run 'echo 1270000 1270000 > /sys/kernel/mva_tesst/regulators/buck1_set'
UJVSNFSNVSUJVSNFSNVS 0
root@arm:~# echo 'OXMU''YXWGSZ'
OXMUYXWGSZ
root@arm:~# MARKER='FZGF''JCYVYN' run 'i2cget -y -f 2 0x4b 0xd'
FZGFJCYVYN0x39
FZGFJCYVYN 0
root@arm:~# echo 'NNAL''ZUWQQL'
NNALZUWQQL
root@arm:~# MARKER='AOFX''SECPOS' run 'echo 1280000 1280000 > /sys/kernel/mva_tesst/regulators/buck1_set'
AOFXSECPOSAOFXSECPOS 0
root@arm:~# echo 'HWGO''OKVLXQ'
HWGOOKVLXQ
root@arm:~# MARKER='CVTW''NPPBZS' run 'i2cget -y -f 2 0x4b 0xd'
CVTWNPPBZS0x3a
CVTWNPPBZS 0
root@arm:~# echo 'TEAZ''LVYQPU'
TEAZLVYQPU
root@arm:~# MARKER='PEVU''ZVAWYZ' run 'echo 1290000 1290000 > /sys/kernel/mva_tesst/regulators/buck1_set'
PEVUZVAWYZPEVUZVAWYZ 0
root@arm:~# echo 'UGHF''ZUWCUM'
UGHFZUWCUM
root@arm:~# MARKER='MVJU''EUPOMO' run 'i2cget -y -f 2 0x4b 0xd'
MVJUEUPOMO0x3b
MVJUEUPOMO 0
root@arm:~# echo 'ZXZX''BBAXNY'
ZXZXBBAXNY
root@arm:~# MARKER='ELNK''OKBMVX' run 'echo 1300000 1300000 > /sys/kernel/mva_tesst/regulators/buck1_set'
ELNKOKBMVXELNKOKBMVX 0
root@arm:~# echo 'TOJZ''TSVCOY'
TOJZTSVCOY
root@arm:~# MARKER='JFJP''YAUWGB' run 'i2cget -y -f 2 0x4b 0xd'
JFJPYAUWGB0x3c
JFJPYAUWGB 0
root@arm:~# echo 'WXYX''NUHFTZ'
WXYXNUHFTZ
root@arm:~# MARKER='NJGV''MSTJJG' run 'grep -r -l rohm,bd71837 /proc/device-tree  | sed '"'"'s![^/]*$!!'"'"''
NJGVMSTJJG/proc/device-tree/ocp/interconnect@48000000/segment@100000/target-module@9c000/i2c@0/pmic@4b/
NJGVMSTJJG 0
root@arm:~# echo 'YKQL''HVLWXC'
YKQLHVLWXC
root@arm:~# MARKER='CHPA''MJTKUF' run 'test -f /proc/device-tree/ocp/interconnectt\@48000000/segment\@100000/target-module\@9c000/i2c\@0/pmic\@4b/regulators/BUCK22/rohm,no-regulator-enable-control ;echo $?'
CHPAMJTKUF1
CHPAMJTKUF 0
root@arm:~# echo 'BFVM''EANZSX'
BFVMEANZSX
root@arm:~# MARKER='EPSP''EPQSGO' run 'i2cget -y -f 2 0x4b 0x6'
EPSPEPQSGO0x43
EPSPEPQSGO 0
root@arm:~# echo 'SUCK''AOXNGX'
SUCKAOXNGX
root@arm:~# MARKER='WKXN''GPGOTC' run 'echo 700000 700000 > /sys/kernel/mva_test//regulators/buck2_set'
WKXNGPGOTCWKXNGPGOTC 0
root@arm:~# echo 'SCMH''NOYMKS'
SCMHNOYMKS
root@arm:~# MARKER='EETB''NMYVWO' run 'i2cget -y -f 2 0x4b 0x10'
EETBNMYVWO0x00
EETBNMYVWO 0
root@arm:~# echo 'XCWN''WYTOVH'
XCWNWYTOVH
root@arm:~# MARKER='AFNC''NEWAZW' run 'echo 710000 710000 > /sys/kernel/mva_test//regulators/buck2_set'
AFNCNEWAZWAFNCNEWAZW 0
root@arm:~# echo 'HVUA''XBWBLT'
HVUAXBWBLT
root@arm:~# MARKER='CTMS''TBMLZM' run 'i2cget -y -f 2 0x4b 0x10'
CTMSTBMLZM0x01
CTMSTBMLZM 0
root@arm:~# echo 'BOJE''UVYFPL'
BOJEUVYFPL
root@arm:~# MARKER='BYFB''LZOYQH' run 'echo 720000 720000 > /sys/kernel/mva_test//regulators/buck2_set'
BYFBLZOYQHBYFBLZOYQH 0
root@arm:~# echo 'XCQV''GYBLUU'
XCQVGYBLUU
root@arm:~# MARKER='UFLC''FXZZBA' run 'i2cget -y -f 2 0x4b 0x10'
UFLCFXZZBA0x02
UFLCFXZZBA 0
root@arm:~# echo 'NGLF''ZXUFVK'
NGLFZXUFVK
root@arm:~# MARKER='NQOF''CPVVQX' run 'echo 730000 730000 > /sys/kernel/mva_test//regulators/buck2_set'
NQOFCPVVQXNQOFCPVVQX 0
root@arm:~# echo 'PVEN''QMCCZJ'
PVENQMCCZJ
root@arm:~# MARKER='MYHU''MOZQTM' run 'i2cget -y -f 2 0x4b 0x10'
MYHUMOZQTM0x03
MYHUMOZQTM 0
root@arm:~# echo 'EKNE''PVBPJS'
EKNEPVBPJS
root@arm:~# MARKER='WXLB''OOZYAG' run 'echo 740000 740000 > /sys/kernel/mva_test//regulators/buck2_set'
WXLBOOZYAGWXLBOOZYAG 0
root@arm:~# echo 'FPOG''XXJOJH'
FPOGXXJOJH
root@arm:~# MARKER='JTLZ''KCMQGX' run 'i2cget -y -f 2 0x4b 0x10'
JTLZKCMQGX0x04
JTLZKCMQGX 0
root@arm:~# echo 'ELEV''HOKQEB'
ELEVHOKQEB
root@arm:~# MARKER='PFFV''HXEKNA' run 'echo 750000 750000 > /sys/kernel/mva_test//regulators/buck2_set'
PFFVHXEKNAPFFVHXEKNA 0
root@arm:~# echo 'NGBE''YKWSQK'
NGBEYKWSQK
root@arm:~# MARKER='CTXK''VUNXNM' run 'i2cget -y -f 2 0x4b 0x10'
CTXKVUNXNM0x05
CTXKVUNXNM 0
root@arm:~# echo 'QXJW''HUEZMH'
QXJWHUEZMH
root@arm:~# MARKER='BXGO''JTVLZW' run 'echo 760000 760000 > /sys/kernel/mva_test//regulators/buck2_set'
BXGOJTVLZWBXGOJTVLZW 0
root@arm:~# echo 'WZWY''CZTBQT'
WZWYCZTBQT
root@arm:~# MARKER='SPGK''PSXPWE' run 'i2cget -y -f 2 0x4b 0x10'
SPGKPSXPWE0x06
SPGKPSXPWE 0
root@arm:~# echo 'KMFN''EKJKHY'
KMFNEKJKHY
root@arm:~# MARKER='PJAC''JFHPYO' run 'echo 770000 770000 > /sys/kernel/mva_test//regulators/buck2_set'
PJACJFHPYOPJACJFHPYO 0
root@arm:~# echo 'OJKB''NCQBBB'
OJKBNCQBBB
root@arm:~# MARKER='BSBH''WEBEJA' run 'i2cget -y -f 2 0x4b 0x10'
BSBHWEBEJA0x07
BSBHWEBEJA 0
root@arm:~# echo 'PGOZ''NWHFNF'
PGOZNWHFNF
root@arm:~# MARKER='PVPX''PZQVTJ' run 'echo 780000 780000 > /sys/kernel/mva_test//regulators/buck2_set'
PVPXPZQVTJPVPXPZQVTJ 0
root@arm:~# echo 'UFEZ''EBULZK'
UFEZEBULZK
root@arm:~# MARKER='SHTA''TFZAMP' run 'i2cget -y -f 2 0x4b 0x10'
SHTATFZAMP0x08
SHTATFZAMP 0
root@arm:~# echo 'YQET''BZFOZX'
YQETBZFOZX
root@arm:~# MARKER='VHBF''BMHGAA' run 'echo 790000 790000 > /sys/kernel/mva_test//regulators/buck2_set'
VHBFBMHGAAVHBFBMHGAA 0
root@arm:~# echo 'ENHF''MKWVHM'
ENHFMKWVHM
root@arm:~# MARKER='CLWF''PNWTSH' run 'i2cget -y -f 2 0x4b 0x10'
CLWFPNWTSH0x09
CLWFPNWTSH 0
root@arm:~# echo 'BEJJ''CFQVGK'
BEJJCFQVGK
root@arm:~# MARKER='VWCO''SJWZWF' run 'echo 800000 800000 > /sys/kernel/mva_test//regulators/buck2_set'
VWCOSJWZWFVWCOSJWZWF 0
root@arm:~# echo 'YCNZ''GVZXGY'
YCNZGVZXGY
root@arm:~# MARKER='NZET''XZNZWZ' run 'i2cget -y -f 2 0x4b 0x10'
NZETXZNZWZ0x0a
NZETXZNZWZ 0
root@arm:~# echo 'JYLL''FYJCXY'
JYLLFYJCXY
root@arm:~# MARKER='SCMS''VSZUZV' run 'echo 810000 810000 > /sys/kernel/mva_test//regulators/buck2_set'
SCMSVSZUZVSCMSVSZUZV 0
root@arm:~# echo 'AJAW''FGBHQG'
AJAWFGBHQG
root@arm:~# MARKER='CKSJ''BPFSNU' run 'i2cget -y -f 2 0x4b 0x10'
CKSJBPFSNU0x0b
CKSJBPFSNU 0
root@arm:~# echo 'PGPF''CPGJFE'
PGPFCPGJFE
root@arm:~# MARKER='MSLV''ZCELVK' run 'echo 820000 820000 > /sys/kernel/mva_test//regulators/buck2_set'
MSLVZCELVKMSLVZCELVK 0
root@arm:~# echo 'VPXA''VSQNSN'
VPXAVSQNSN
root@arm:~# MARKER='TVBG''ZHGHKU' run 'i2cget -y -f 2 0x4b 0x10'
TVBGZHGHKU0x0c
TVBGZHGHKU 0
root@arm:~# echo 'CZLJ''LMYFUL'
CZLJLMYFUL
root@arm:~# MARKER='ZCEO''NQFVFE' run 'echo 830000 830000 > /sys/kernel/mva_test//regulators/buck2_set'
ZCEONQFVFEZCEONQFVFE 0
root@arm:~# echo 'QBVJ''NKHCNT'
QBVJNKHCNT
root@arm:~# MARKER='WBYJ''WJJUMH' run 'i2cget -y -f 2 0x4b 0x10'
WBYJWJJUMH0x0d
WBYJWJJUMH 0
root@arm:~# echo 'HWMB''WGPJLK'
HWMBWGPJLK
root@arm:~# MARKER='JQAO''CJXGCS' run 'echo 840000 840000 > /sys/kernel/mva_test//regulators/buck2_set'
JQAOCJXGCSJQAOCJXGCS 0
root@arm:~# echo 'FOYG''TWPGQL'
FOYGTWPGQL
root@arm:~# MARKER='FMZO''OQYJAC' run 'i2cget -y -f 2 0x4b 0x10'
FMZOOQYJAC0x0e
FMZOOQYJAC 0
root@arm:~# echo 'NMMS''OSBGZG'
NMMSOSBGZG
root@arm:~# MARKER='JLXX''FKEPGT' run 'echo 850000 850000 > /sys/kernel/mva_test//regulators/buck2_set'
JLXXFKEPGTJLXXFKEPGT 0
root@arm:~# echo 'UFYQ''MAAJLZ'
UFYQMAAJLZ
root@arm:~# MARKER='QMGF''FJNGXJ' run 'i2cget -y -f 2 0x4b 0x10'
QMGFFJNGXJ0x0f
QMGFFJNGXJ 0
root@arm:~# echo 'JUOE''WAYTHJ'
JUOEWAYTHJ
root@arm:~# MARKER='JMCF''JXPELS' run 'echo 860000 860000 > /sys/kernel/mva_test//regulators/buck2_set'
JMCFJXPELSJMCFJXPELS 0
root@arm:~# echo 'XLMZ''KFMKSM'
XLMZKFMKSM
root@arm:~# MARKER='EWSV''XQYJHM' run 'i2cget -y -f 2 0x4b 0x10'
EWSVXQYJHM0x10
EWSVXQYJHM 0
root@arm:~# echo 'UTEE''CPOPVG'
UTEECPOPVG
root@arm:~# MARKER='LTTU''XOLWZN' run 'echo 870000 870000 > /sys/kernel/mva_test//regulators/buck2_set'
LTTUXOLWZNLTTUXOLWZN 0
root@arm:~# echo 'GETT''XXLNTJ'
GETTXXLNTJ
root@arm:~# MARKER='JJWX''WHJPZC' run 'i2cget -y -f 2 0x4b 0x10'
JJWXWHJPZC0x11
JJWXWHJPZC 0
root@arm:~# echo 'MVQZ''TUKXXW'
MVQZTUKXXW
root@arm:~# MARKER='AVQE''FJAMGY' run 'echo 880000 880000 > /sys/kernel/mva_test//regulators/buck2_set'
AVQEFJAMGYAVQEFJAMGY 0
root@arm:~# echo 'NCJE''OHFKNJ'
NCJEOHFKNJ
root@arm:~# MARKER='ZYEH''MOBXAV' run 'i2cget -y -f 2 0x4b 0x10'
ZYEHMOBXAV0x12
ZYEHMOBXAV 0
root@arm:~# echo 'AZQM''WFZQQC'
AZQMWFZQQC
root@arm:~# MARKER='LYGN''LCMXUQ' run 'echo 890000 890000 > /sys/kernel/mva_test//regulators/buck2_set'
LYGNLCMXUQLYGNLCMXUQ 0
root@arm:~# echo 'BFKN''ZOGLST'
BFKNZOGLST
root@arm:~# MARKER='XPKK''WLNMVX' run 'i2cget -y -f 2 0x4b 0x10'
XPKKWLNMVX0x13
XPKKWLNMVX 0
root@arm:~# echo 'TPEF''YBVZLU'
TPEFYBVZLU
root@arm:~# MARKER='HNHP''XJXVOU' run 'echo 900000 900000 > /sys/kernel/mva_test//regulators/buck2_set'
HNHPXJXVOUHNHPXJXVOU 0
root@arm:~# echo 'ALJG''NASZXB'
ALJGNASZXB
root@arm:~# MARKER='HOGV''CJSVAX' run 'i2cget -y -f 2 0x4b 0x10'
HOGVCJSVAX0x14
HOGVCJSVAX 0
root@arm:~# echo 'XJKC''HTLHJU'
XJKCHTLHJU
root@arm:~# MARKER='LVQV''NZBGQJ' run 'echo 910000 910000 > /sys/kernel/mva_test//regulators/buck2_set'
LVQVNZBGQJLVQVNZBGQJ 0
root@arm:~# echo 'KPXJ''SOQPTB'
KPXJSOQPTB
root@arm:~# MARKER='PTVB''EPMWZM' run 'i2cget -y -f 2 0x4b 0x10'
PTVBEPMWZM0x15
PTVBEPMWZM 0
root@arm:~# echo 'HKBO''ANUNBC'
HKBOANUNBC
root@arm:~# MARKER='VYKO''HZEQNU' run 'echo 920000 920000 > /sys/kernel/mva_test//regulators/buck2_set'
VYKOHZEQNUVYKOHZEQNU 0
root@arm:~# echo 'YOZU''HKPKNE'
YOZUHKPKNE
root@arm:~# MARKER='XFMP''ZAEAEY' run 'i2cget -y -f 2 0x4b 0x10'
XFMPZAEAEY0x16
XFMPZAEAEY 0
root@arm:~# echo 'KEKW''NQPCQA'
KEKWNQPCQA
root@arm:~# MARKER='HZQQ''JNHUKG' run 'echo 930000 930000 > /sys/kernel/mva_test//regulators/buck2_set'
HZQQJNHUKGHZQQJNHUKG 0
root@arm:~# echo 'ZGBJ''OPSFPJ'
ZGBJOPSFPJ
root@arm:~# MARKER='FZHC''SVEWPL' run 'i2cget -y -f 2 0x4b 0x10'
FZHCSVEWPL0x17
FZHCSVEWPL 0
root@arm:~# echo 'JUST''JSOAKS'
JUSTJSOAKS
root@arm:~# MARKER='ZQPA''CZFMPJ' run 'echo 940000 940000 > /sys/kernel/mva_test//regulators/buck2_set'
ZQPACZFMPJZQPACZFMPJ 0
root@arm:~# echo 'JESA''JNMBEB'
JESAJNMBEB
root@arm:~# MARKER='TBBB''HCQGNN' run 'i2cget -y -f 2 0x4b 0x10'
TBBBHCQGNN0x18
TBBBHCQGNN 0
root@arm:~# echo 'LNPN''UTWNVG'
LNPNUTWNVG
root@arm:~# MARKER='JTUA''YGQSTO' run 'echo 950000 950000 > /sys/kernel/mva_test//regulators/buck2_set'
JTUAYGQSTOJTUAYGQSTO 0
root@arm:~# echo 'KBNS''SFFGTP'
KBNSSFFGTP
root@arm:~# MARKER='PAWL''AKCAUY' run 'i2cget -y -f 2 0x4b 0x10'
PAWLAKCAUY0x19
PAWLAKCAUY 0
root@arm:~# echo 'ZSLY''QVXPGX'
ZSLYQVXPGX
root@arm:~# MARKER='VWAL''SLOFYG' run 'echo 960000 960000 > /sys/kernel/mva_test//regulators/buck2_set'
VWALSLOFYGVWALSLOFYG 0
root@arm:~# echo 'QBNU''NFCKBQ'
QBNUNFCKBQ
root@arm:~# MARKER='EWLK''KMSFQY' run 'i2cget -y -f 2 0x4b 0x10'
EWLKKMSFQY0x1a
EWLKKMSFQY 0
root@arm:~# echo 'FMGQ''QPWTJP'
FMGQQPWTJP
root@arm:~# MARKER='JCNY''ZCXHHU' run 'echo 970000 970000 > /sys/kernel/mva_test//regulators/buck2_set'
JCNYZCXHHUJCNYZCXHHU 0
root@arm:~# echo 'COKP''ZECPQX'
COKPZECPQX
root@arm:~# MARKER='ZSFM''JSWUUW' run 'i2cget -y -f 2 0x4b 0x10'
ZSFMJSWUUW0x1b
ZSFMJSWUUW 0
root@arm:~# echo 'VSMQ''EPJCGK'
VSMQEPJCGK
root@arm:~# MARKER='SNNY''WXULHP' run 'echo 980000 980000 > /sys/kernel/mva_test//regulators/buck2_set'
SNNYWXULHPSNNYWXULHP 0
root@arm:~# echo 'YPGO''AJXQFB'
YPGOAJXQFB
root@arm:~# MARKER='FPPL''WPFOLW' run 'i2cget -y -f 2 0x4b 0x10'
FPPLWPFOLW0x1c
FPPLWPFOLW 0
root@arm:~# echo 'AJLZ''TEJXBW'
AJLZTEJXBW
root@arm:~# MARKER='NHOG''FWHMAO' run 'echo 990000 990000 > /sys/kernel/mva_test//regulators/buck2_set'
NHOGFWHMAONHOGFWHMAO 0
root@arm:~# echo 'WFYH''CONUVU'
WFYHCONUVU
root@arm:~# MARKER='NSEY''AJWMNY' run 'i2cget -y -f 2 0x4b 0x10'
NSEYAJWMNY0x1d
NSEYAJWMNY 0
root@arm:~# echo 'VXQM''VKNMLB'
VXQMVKNMLB
root@arm:~# MARKER='VKKJ''GVPCMX' run 'echo 1000000 1000000 > /sys/kernel/mva_tesst/regulators/buck2_set'
VKKJGVPCMXVKKJGVPCMX 0
root@arm:~# echo 'OUMJ''ZKSHAP'
OUMJZKSHAP
root@arm:~# MARKER='FWYK''HUCGYV' run 'i2cget -y -f 2 0x4b 0x10'
FWYKHUCGYV0x1e
FWYKHUCGYV 0
root@arm:~# echo 'BUGZ''WPUZEL'
BUGZWPUZEL
root@arm:~# MARKER='KAAS''CLONEM' run 'echo 1010000 1010000 > /sys/kernel/mva_tesst/regulators/buck2_set'
KAASCLONEMKAASCLONEM 0
root@arm:~# echo 'FYUP''HEPBFA'
FYUPHEPBFA
root@arm:~# MARKER='ZCNQ''NQXNJE' run 'i2cget -y -f 2 0x4b 0x10'
ZCNQNQXNJE0x1f
ZCNQNQXNJE 0
root@arm:~# echo 'OQPW''MPSWFE'
OQPWMPSWFE
root@arm:~# MARKER='HMSX''WZHUEM' run 'echo 1020000 1020000 > /sys/kernel/mva_tesst/regulators/buck2_set'
HMSXWZHUEMHMSXWZHUEM 0
root@arm:~# echo 'SQLZ''XNKWMJ'
SQLZXNKWMJ
root@arm:~# MARKER='HKFB''ZJBPMO' run 'i2cget -y -f 2 0x4b 0x10'
HKFBZJBPMO0x20
HKFBZJBPMO 0
root@arm:~# echo 'QNPY''MHQPHE'
QNPYMHQPHE
root@arm:~# MARKER='JMOW''XZLCMC' run 'echo 1030000 1030000 > /sys/kernel/mva_tesst/regulators/buck2_set'
JMOWXZLCMCJMOWXZLCMC 0
root@arm:~# echo 'JOYB''HJOTWQ'
JOYBHJOTWQ
root@arm:~# MARKER='KVXU''LZAFTK' run 'i2cget -y -f 2 0x4b 0x10'
KVXULZAFTK0x21
KVXULZAFTK 0
root@arm:~# echo 'JENJ''FPFGXT'
JENJFPFGXT
root@arm:~# MARKER='NEVA''SBTQLJ' run 'echo 1040000 1040000 > /sys/kernel/mva_tesst/regulators/buck2_set'
NEVASBTQLJNEVASBTQLJ 0
root@arm:~# echo 'OWLH''AAUANS'
OWLHAAUANS
root@arm:~# MARKER='WNLX''CJTWAL' run 'i2cget -y -f 2 0x4b 0x10'
WNLXCJTWAL0x22
WNLXCJTWAL 0
root@arm:~# echo 'WLJU''OTHJSB'
WLJUOTHJSB
root@arm:~# MARKER='EXNQ''MVZPHQ' run 'echo 1050000 1050000 > /sys/kernel/mva_tesst/regulators/buck2_set'
EXNQMVZPHQEXNQMVZPHQ 0
root@arm:~# echo 'MGOJ''SQGVBE'
MGOJSQGVBE
root@arm:~# MARKER='TXHV''POJPOV' run 'i2cget -y -f 2 0x4b 0x10'
TXHVPOJPOV0x23
TXHVPOJPOV 0
root@arm:~# echo 'KPEN''SOXJCK'
KPENSOXJCK
root@arm:~# MARKER='MGPW''JNWECH' run 'echo 1060000 1060000 > /sys/kernel/mva_tesst/regulators/buck2_set'
MGPWJNWECHMGPWJNWECH 0
root@arm:~# echo 'JFNZ''ZAVTEV'
JFNZZAVTEV
root@arm:~# MARKER='XNYW''MBABSW' run 'i2cget -y -f 2 0x4b 0x10'
XNYWMBABSW0x24
XNYWMBABSW 0
root@arm:~# echo 'FPXV''QGWFKH'
FPXVQGWFKH
root@arm:~# MARKER='SPPS''UMVENE' run 'echo 1070000 1070000 > /sys/kernel/mva_tesst/regulators/buck2_set'
SPPSUMVENESPPSUMVENE 0
root@arm:~# echo 'QKPN''NHMCLL'
QKPNNHMCLL
root@arm:~# MARKER='UZJQ''JZOOHQ' run 'i2cget -y -f 2 0x4b 0x10'
UZJQJZOOHQ0x25
UZJQJZOOHQ 0
root@arm:~# echo 'MVHC''UQTLSW'
MVHCUQTLSW
root@arm:~# MARKER='AVZW''NSOZVX' run 'echo 1080000 1080000 > /sys/kernel/mva_tesst/regulators/buck2_set'
AVZWNSOZVXAVZWNSOZVX 0
root@arm:~# echo 'SMLM''SBNXLX'
SMLMSBNXLX
root@arm:~# MARKER='BNCB''HHKMVH' run 'i2cget -y -f 2 0x4b 0x10'
BNCBHHKMVH0x26
BNCBHHKMVH 0
root@arm:~# echo 'FNNU''WPOMYT'
FNNUWPOMYT
root@arm:~# MARKER='VZNF''CSJPGQ' run 'echo 1090000 1090000 > /sys/kernel/mva_tesst/regulators/buck2_set'
VZNFCSJPGQVZNFCSJPGQ 0
root@arm:~# echo 'OUEJ''SGVAFY'
OUEJSGVAFY
root@arm:~# MARKER='QFEU''WMKTAQ' run 'i2cget -y -f 2 0x4b 0x10'
QFEUWMKTAQ0x27
QFEUWMKTAQ 0
root@arm:~# echo 'SELK''CSPWSW'
SELKCSPWSW
root@arm:~# MARKER='CBWT''SFMWJT' run 'echo 1100000 1100000 > /sys/kernel/mva_tesst/regulators/buck2_set'
CBWTSFMWJTCBWTSFMWJT 0
root@arm:~# echo 'PHMC''VYPPKU'
PHMCVYPPKU
root@arm:~# MARKER='YLYE''PNMHGF' run 'i2cget -y -f 2 0x4b 0x10'
YLYEPNMHGF0x28
YLYEPNMHGF 0
root@arm:~# echo 'VTCY''WULBUV'
VTCYWULBUV
root@arm:~# MARKER='OOAB''ZYUVPH' run 'echo 1110000 1110000 > /sys/kernel/mva_tesst/regulators/buck2_set'
OOABZYUVPHOOABZYUVPH 0
root@arm:~# echo 'JOJK''NPNVHH'
JOJKNPNVHH
root@arm:~# MARKER='TOBE''XTMVXK' run 'i2cget -y -f 2 0x4b 0x10'
TOBEXTMVXK0x29
TOBEXTMVXK 0
root@arm:~# echo 'YTJM''WHWBOE'
YTJMWHWBOE
root@arm:~# MARKER='YWWQ''JZHYON' run 'echo 1120000 1120000 > /sys/kernel/mva_tesst/regulators/buck2_set'
YWWQJZHYONYWWQJZHYON 0
root@arm:~# echo 'FLJH''LVQJGV'
FLJHLVQJGV
root@arm:~# MARKER='ZVCE''LWUBGZ' run 'i2cget -y -f 2 0x4b 0x10'
ZVCELWUBGZ0x2a
ZVCELWUBGZ 0
root@arm:~# echo 'POBT''MPNVGX'
POBTMPNVGX
root@arm:~# MARKER='XMFT''MZKFHM' run 'echo 1130000 1130000 > /sys/kernel/mva_tesst/regulators/buck2_set'
XMFTMZKFHMXMFTMZKFHM 0
root@arm:~# echo 'UCFN''XBNYPZ'
UCFNXBNYPZ
root@arm:~# MARKER='ZLXP''AXAXBU' run 'i2cget -y -f 2 0x4b 0x10'
ZLXPAXAXBU0x2b
ZLXPAXAXBU 0
root@arm:~# echo 'FMTL''CUZTFU'
FMTLCUZTFU
root@arm:~# MARKER='XLPH''MQFXKJ' run 'echo 1140000 1140000 > /sys/kernel/mva_tesst/regulators/buck2_set'
XLPHMQFXKJXLPHMQFXKJ 0
root@arm:~# echo 'NHCK''ZQSYPX'
NHCKZQSYPX
root@arm:~# MARKER='WXTJ''HMOAOO' run 'i2cget -y -f 2 0x4b 0x10'
WXTJHMOAOO0x2c
WXTJHMOAOO 0
root@arm:~# echo 'VEOT''KFFSBV'
VEOTKFFSBV
root@arm:~# MARKER='LKJG''LHCCLO' run 'echo 1150000 1150000 > /sys/kernel/mva_tesst/regulators/buck2_set'
LKJGLHCCLOLKJGLHCCLO 0
root@arm:~# echo 'YQWG''ZEPYXO'
YQWGZEPYXO
root@arm:~# MARKER='NQSA''KHHYOU' run 'i2cget -y -f 2 0x4b 0x10'
NQSAKHHYOU0x2d
NQSAKHHYOU 0
root@arm:~# echo 'TLLE''VYYPAG'
TLLEVYYPAG
root@arm:~# MARKER='GJVP''KCMWHZ' run 'echo 1160000 1160000 > /sys/kernel/mva_tesst/regulators/buck2_set'
GJVPKCMWHZGJVPKCMWHZ 0
root@arm:~# echo 'CVLY''HUGUXE'
CVLYHUGUXE
root@arm:~# MARKER='MCOX''BXZSWB' run 'i2cget -y -f 2 0x4b 0x10'
MCOXBXZSWB0x2e
MCOXBXZSWB 0
root@arm:~# echo 'HEZJ''YKMBKK'
HEZJYKMBKK
root@arm:~# MARKER='PFJT''MNLOEU' run 'echo 1170000 1170000 > /sys/kernel/mva_tesst/regulators/buck2_set'
PFJTMNLOEUPFJTMNLOEU 0
root@arm:~# echo 'FUAZ''GCYLMQ'
FUAZGCYLMQ
root@arm:~# MARKER='NXSQ''TTPMEO' run 'i2cget -y -f 2 0x4b 0x10'
NXSQTTPMEO0x2f
NXSQTTPMEO 0
root@arm:~# echo 'AMFH''FTWKKX'
AMFHFTWKKX
root@arm:~# MARKER='MMBA''ZZKSZG' run 'echo 1180000 1180000 > /sys/kernel/mva_tesst/regulators/buck2_set'
MMBAZZKSZGMMBAZZKSZG 0
root@arm:~# echo 'MQPM''WZLMTY'
MQPMWZLMTY
root@arm:~# MARKER='UEUH''PFANZC' run 'i2cget -y -f 2 0x4b 0x10'
UEUHPFANZC0x30
UEUHPFANZC 0
root@arm:~# echo 'JEPB''FTMUYU'
JEPBFTMUYU
root@arm:~# MARKER='JXBO''SNKWUN' run 'echo 1190000 1190000 > /sys/kernel/mva_tesst/regulators/buck2_set'
JXBOSNKWUNJXBOSNKWUN 0
root@arm:~# echo 'JEGA''SKCOCX'
JEGASKCOCX
root@arm:~# MARKER='GVJL''XNKTFQ' run 'i2cget -y -f 2 0x4b 0x10'
GVJLXNKTFQ0x31
GVJLXNKTFQ 0
root@arm:~# echo 'OLJN''PFNMES'
OLJNPFNMES
root@arm:~# MARKER='HKTN''SMWANS' run 'echo 1200000 1200000 > /sys/kernel/mva_tesst/regulators/buck2_set'
HKTNSMWANSHKTNSMWANS 0
root@arm:~# echo 'QKJL''NAAHYK'
QKJLNAAHYK
root@arm:~# MARKER='FLNP''UNEEGC' run 'i2cget -y -f 2 0x4b 0x10'
FLNPUNEEGC0x32
FLNPUNEEGC 0
root@arm:~# echo 'LJGG''AZEJEB'
LJGGAZEJEB
root@arm:~# MARKER='NQNB''XOMWVH' run 'echo 1210000 1210000 > /sys/kernel/mva_tesst/regulators/buck2_set'
NQNBXOMWVHNQNBXOMWVH 0
root@arm:~# echo 'BSYS''WNYYKN'
BSYSWNYYKN
root@arm:~# MARKER='MBOJ''PTOCOO' run 'i2cget -y -f 2 0x4b 0x10'
MBOJPTOCOO0x33
MBOJPTOCOO 0
root@arm:~# echo 'AYGV''ZFHJKT'
AYGVZFHJKT
root@arm:~# MARKER='FFKP''ZTZYGC' run 'echo 1220000 1220000 > /sys/kernel/mva_tesst/regulators/buck2_set'
FFKPZTZYGCFFKPZTZYGC 0
root@arm:~# echo 'QXYK''KFGVNC'
QXYKKFGVNC
root@arm:~# MARKER='UWFH''AOBUGY' run 'i2cget -y -f 2 0x4b 0x10'
UWFHAOBUGY0x34
UWFHAOBUGY 0
root@arm:~# echo 'JFOP''XMEXZG'
JFOPXMEXZG
root@arm:~# MARKER='WXAQ''WPJAQW' run 'echo 1230000 1230000 > /sys/kernel/mva_tesst/regulators/buck2_set'
WXAQWPJAQWWXAQWPJAQW 0
root@arm:~# echo 'KJTP''GKASEB'
KJTPGKASEB
root@arm:~# MARKER='FAKF''XGVKJZ' run 'i2cget -y -f 2 0x4b 0x10'
FAKFXGVKJZ0x35
FAKFXGVKJZ 0
root@arm:~# echo 'OCJH''SOCGMJ'
OCJHSOCGMJ
root@arm:~# MARKER='QPHX''KKJVXG' run 'echo 1240000 1240000 > /sys/kernel/mva_tesst/regulators/buck2_set'
QPHXKKJVXGQPHXKKJVXG 0
root@arm:~# echo 'MZQU''NLONEX'
MZQUNLONEX
root@arm:~# MARKER='MQWY''LBWGQG' run 'i2cget -y -f 2 0x4b 0x10'
MQWYLBWGQG0x36
MQWYLBWGQG 0
root@arm:~# echo 'TQLB''JVSGYK'
TQLBJVSGYK
root@arm:~# MARKER='BAWV''TFXSQA' run 'echo 1250000 1250000 > /sys/kernel/mva_tesst/regulators/buck2_set'
BAWVTFXSQABAWVTFXSQA 0
root@arm:~# echo 'YQUP''HSGPNA'
YQUPHSGPNA
root@arm:~# MARKER='VCKE''XHEUTM' run 'i2cget -y -f 2 0x4b 0x10'
VCKEXHEUTM0x37
VCKEXHEUTM 0
root@arm:~# echo 'JLVQ''SUEZFK'
JLVQSUEZFK
root@arm:~# MARKER='BLGB''WNNOPC' run 'echo 1260000 1260000 > /sys/kernel/mva_tesst/regulators/buck2_set'
BLGBWNNOPCBLGBWNNOPC 0
root@arm:~# echo 'CFNW''GQJHEQ'
CFNWGQJHEQ
root@arm:~# MARKER='UVFO''EZUQGT' run 'i2cget -y -f 2 0x4b 0x10'
UVFOEZUQGT0x38
UVFOEZUQGT 0
root@arm:~# echo 'KVGX''LQCMXB'
KVGXLQCMXB
root@arm:~# MARKER='JMTE''WHFQPH' run 'echo 1270000 1270000 > /sys/kernel/mva_tesst/regulators/buck2_set'
JMTEWHFQPHJMTEWHFQPH 0
root@arm:~# echo 'QUYL''ESTWNS'
QUYLESTWNS
root@arm:~# MARKER='KQOX''TVJNOS' run 'i2cget -y -f 2 0x4b 0x10'
KQOXTVJNOS0x39
KQOXTVJNOS 0
root@arm:~# echo 'FCLV''FUTGOX'
FCLVFUTGOX
root@arm:~# MARKER='ZGOK''BGJZVX' run 'echo 1280000 1280000 > /sys/kernel/mva_tesst/regulators/buck2_set'
ZGOKBGJZVXZGOKBGJZVX 0
root@arm:~# echo 'CXFU''CNXHJM'
CXFUCNXHJM
root@arm:~# MARKER='SGPG''MWCAAV' run 'i2cget -y -f 2 0x4b 0x10'
SGPGMWCAAV0x3a
SGPGMWCAAV 0
root@arm:~# echo 'VPUO''NWPLKN'
VPUONWPLKN
root@arm:~# MARKER='MQAP''ULAQWY' run 'echo 1290000 1290000 > /sys/kernel/mva_tesst/regulators/buck2_set'
MQAPULAQWYMQAPULAQWY 0
root@arm:~# echo 'GGXN''LKMATZ'
GGXNLKMATZ
root@arm:~# MARKER='YWVZ''KOASCC' run 'i2cget -y -f 2 0x4b 0x10'
YWVZKOASCC0x3b
YWVZKOASCC 0
root@arm:~# echo 'BMPA''QUVUKX'
BMPAQUVUKX
root@arm:~# MARKER='FQXE''CVQHTW' run 'echo 1300000 1300000 > /sys/kernel/mva_tesst/regulators/buck2_set'
FQXECVQHTWFQXECVQHTW 0
root@arm:~# echo 'WFWJ''AAKQHO'
WFWJAAKQHO
root@arm:~# MARKER='BHHC''LYENEE' run 'i2cget -y -f 2 0x4b 0x10'
BHHCLYENEE0x3c
BHHCLYENEE 0
root@arm:~# echo 'OJPP''YFYWPQ'
OJPPYFYWPQ
root@arm:~# MARKER='WWYQ''LFGTEL' run 'grep -r -l rohm,bd71837 /proc/device-tree  | sed '"'"'s![^/]*$!!'"'"''
WWYQLFGTEL/proc/device-tree/ocp/interconnect@48000000/segment@100000/target-module@9c000/i2c@0/pmic@4b/
WWYQLFGTEL 0
root@arm:~# echo 'EMAO''FXTOLW'
EMAOFXTOLW
root@arm:~# MARKER='XSSV''HWJBKA' run 'test -f /proc/device-tree/ocp/interconnectt\@48000000/segment\@100000/target-module\@9c000/i2c\@0/pmic\@4b/regulators/BUCK33/rohm,no-regulator-enable-control ;echo $?'
XSSVHWJBKA0
XSSVHWJBKA 0
root@arm:~# echo 'ZGKE''SMYYTA'
ZGKESMYYTA
root@arm:~# MARKER='MHZV''LXVTNT' run 'echo 700000 700000 > /sys/kernel/mva_test//regulators/buck3_set'
MHZVLXVTNTMHZVLXVTNT 0
root@arm:~# echo 'FGET''GBQUJK'
FGETGBQUJK
root@arm:~# MARKER='YLWH''EAHTTF' run 'i2cget -y -f 2 0x4b 0x12'
YLWHEAHTTF0x00
YLWHEAHTTF 0
root@arm:~# echo 'SJAX''JNHVLP'
SJAXJNHVLP
root@arm:~# MARKER='EFEA''EQUALT' run 'echo 710000 710000 > /sys/kernel/mva_test//regulators/buck3_set'
EFEAEQUALTEFEAEQUALT 0
root@arm:~# echo 'MPWL''PJLACV'
MPWLPJLACV
root@arm:~# MARKER='WAVB''JPXJNJ' run 'i2cget -y -f 2 0x4b 0x12'
WAVBJPXJNJ0x01
WAVBJPXJNJ 0
root@arm:~# echo 'OFAB''LFZNVV'
OFABLFZNVV
root@arm:~# MARKER='JZFX''LQLUXW' run 'echo 720000 720000 > /sys/kernel/mva_test//regulators/buck3_set'
JZFXLQLUXWJZFXLQLUXW 0
root@arm:~# echo 'WJHA''HOUFJM'
WJHAHOUFJM
root@arm:~# MARKER='FPTM''MNGPYL' run 'i2cget -y -f 2 0x4b 0x12'
FPTMMNGPYL0x02
FPTMMNGPYL 0
root@arm:~# echo 'XBMZ''TZHPJB'
XBMZTZHPJB
root@arm:~# MARKER='NTXF''QSTUEA' run 'echo 730000 730000 > /sys/kernel/mva_test//regulators/buck3_set'
NTXFQSTUEANTXFQSTUEA 0
root@arm:~# echo 'KQWO''JNHPPB'
KQWOJNHPPB
root@arm:~# MARKER='AKAV''TGKNGL' run 'i2cget -y -f 2 0x4b 0x12'
AKAVTGKNGL0x03
AKAVTGKNGL 0
root@arm:~# echo 'TLFP''UESUFL'
TLFPUESUFL
root@arm:~# MARKER='YGVO''PZHSFS' run 'echo 740000 740000 > /sys/kernel/mva_test//regulators/buck3_set'
YGVOPZHSFSYGVOPZHSFS 0
root@arm:~# echo 'PJEW''XGYWZP'
PJEWXGYWZP
root@arm:~# MARKER='SZUK''TSNCQT' run 'i2cget -y -f 2 0x4b 0x12'
SZUKTSNCQT0x04
SZUKTSNCQT 0
root@arm:~# echo 'XAEE''FKUHPH'
XAEEFKUHPH
root@arm:~# MARKER='EWQY''YKSWKW' run 'echo 750000 750000 > /sys/kernel/mva_test//regulators/buck3_set'
EWQYYKSWKWEWQYYKSWKW 0
root@arm:~# echo 'SLTF''XTYHCU'
SLTFXTYHCU
root@arm:~# MARKER='NVHW''UQYZJS' run 'i2cget -y -f 2 0x4b 0x12'
NVHWUQYZJS0x05
NVHWUQYZJS 0
root@arm:~# echo 'PTON''YOEGSU'
PTONYOEGSU
root@arm:~# MARKER='SZFW''ASFZNA' run 'echo 760000 760000 > /sys/kernel/mva_test//regulators/buck3_set'
SZFWASFZNASZFWASFZNA 0
root@arm:~# echo 'TKMG''PFONBM'
TKMGPFONBM
root@arm:~# MARKER='HFHL''GTHSBJ' run 'i2cget -y -f 2 0x4b 0x12'
HFHLGTHSBJ0x06
HFHLGTHSBJ 0
root@arm:~# echo 'CPMF''JSEQKF'
CPMFJSEQKF
root@arm:~# MARKER='TUFP''AAHTHL' run 'echo 770000 770000 > /sys/kernel/mva_test//regulators/buck3_set'
TUFPAAHTHLTUFPAAHTHL 0
root@arm:~# echo 'PGNS''NQVOGO'
PGNSNQVOGO
root@arm:~# MARKER='TXTY''JJOONN' run 'i2cget -y -f 2 0x4b 0x12'
TXTYJJOONN0x07
TXTYJJOONN 0
root@arm:~# echo 'GJKO''PXUZQH'
GJKOPXUZQH
root@arm:~# MARKER='UPHA''UFWGFX' run 'echo 780000 780000 > /sys/kernel/mva_test//regulators/buck3_set'
UPHAUFWGFXUPHAUFWGFX 0
root@arm:~# echo 'CAOY''JCHGZT'
CAOYJCHGZT
root@arm:~# MARKER='HMPB''LQAHPQ' run 'i2cget -y -f 2 0x4b 0x12'
HMPBLQAHPQ0x08
HMPBLQAHPQ 0
root@arm:~# echo 'KMYE''CACKOW'
KMYECACKOW
root@arm:~# MARKER='ENZX''GQHFTB' run 'echo 790000 790000 > /sys/kernel/mva_test//regulators/buck3_set'
ENZXGQHFTBENZXGQHFTB 0
root@arm:~# echo 'OAYE''KOUQBX'
OAYEKOUQBX
root@arm:~# MARKER='SEUG''BTNMZJ' run 'i2cget -y -f 2 0x4b 0x12'
SEUGBTNMZJ0x09
SEUGBTNMZJ 0
root@arm:~# echo 'TAUH''GHYKGW'
TAUHGHYKGW
root@arm:~# MARKER='GAQK''MABNFY' run 'echo 800000 800000 > /sys/kernel/mva_test//regulators/buck3_set'
GAQKMABNFYGAQKMABNFY 0
root@arm:~# echo 'SPCV''YKTEYZ'
SPCVYKTEYZ
root@arm:~# MARKER='APOT''LNVGZQ' run 'i2cget -y -f 2 0x4b 0x12'
APOTLNVGZQ0x0a
APOTLNVGZQ 0
root@arm:~# echo 'UZSF''CGBNEM'
UZSFCGBNEM
root@arm:~# MARKER='XHOW''ECMYPT' run 'echo 810000 810000 > /sys/kernel/mva_test//regulators/buck3_set'
XHOWECMYPTXHOWECMYPT 0
root@arm:~# echo 'SKLY''PAUGGT'
SKLYPAUGGT
root@arm:~# MARKER='BLBW''GCXJKS' run 'i2cget -y -f 2 0x4b 0x12'
BLBWGCXJKS0x0b
BLBWGCXJKS 0
root@arm:~# echo 'BWOX''SEATFA'
BWOXSEATFA
root@arm:~# MARKER='KQSN''VZVBUZ' run 'echo 820000 820000 > /sys/kernel/mva_test//regulators/buck3_set'
KQSNVZVBUZKQSNVZVBUZ 0
root@arm:~# echo 'YHLN''XKGLVH'
YHLNXKGLVH
root@arm:~# MARKER='CTLF''KZMZKW' run 'i2cget -y -f 2 0x4b 0x12'
CTLFKZMZKW0x0c
CTLFKZMZKW 0
root@arm:~# echo 'FTKN''JFMSHT'
FTKNJFMSHT
root@arm:~# MARKER='APXG''PHSHYV' run 'echo 830000 830000 > /sys/kernel/mva_test//regulators/buck3_set'
APXGPHSHYVAPXGPHSHYV 0
root@arm:~# echo 'EGAZ''NCZFYT'
EGAZNCZFYT
root@arm:~# MARKER='SMGX''NWOOTX' run 'i2cget -y -f 2 0x4b 0x12'
SMGXNWOOTX0x0d
SMGXNWOOTX 0
root@arm:~# echo 'LBWC''TVFYHU'
LBWCTVFYHU
root@arm:~# MARKER='TVZZ''XZYPCQ' run 'echo 840000 840000 > /sys/kernel/mva_test//regulators/buck3_set'
TVZZXZYPCQTVZZXZYPCQ 0
root@arm:~# echo 'ACJJ''ZCLAFO'
ACJJZCLAFO
root@arm:~# MARKER='EWZN''JNGPLQ' run 'i2cget -y -f 2 0x4b 0x12'
EWZNJNGPLQ0x0e
EWZNJNGPLQ 0
root@arm:~# echo 'MFAW''CYOUNG'
MFAWCYOUNG
root@arm:~# MARKER='SHPE''ESKGUP' run 'echo 850000 850000 > /sys/kernel/mva_test//regulators/buck3_set'
SHPEESKGUPSHPEESKGUP 0
root@arm:~# echo 'CWGN''THGYCQ'
CWGNTHGYCQ
root@arm:~# MARKER='GKAG''USFEQQ' run 'i2cget -y -f 2 0x4b 0x12'
GKAGUSFEQQ0x0f
GKAGUSFEQQ 0
root@arm:~# echo 'YQKJ''FFWYZQ'
YQKJFFWYZQ
root@arm:~# MARKER='QVOH''NQWQUW' run 'echo 860000 860000 > /sys/kernel/mva_test//regulators/buck3_set'
QVOHNQWQUWQVOHNQWQUW 0
root@arm:~# echo 'XNJM''JNWJTE'
XNJMJNWJTE
root@arm:~# MARKER='OCWQ''ZLZVYZ' run 'i2cget -y -f 2 0x4b 0x12'
OCWQZLZVYZ0x10
OCWQZLZVYZ 0
root@arm:~# echo 'BJOS''OJAOOM'
BJOSOJAOOM
root@arm:~# MARKER='VWJW''ESULNK' run 'echo 870000 870000 > /sys/kernel/mva_test//regulators/buck3_set'
VWJWESULNKVWJWESULNK 0
root@arm:~# echo 'YNCK''HFCCBC'
YNCKHFCCBC
root@arm:~# MARKER='BHKM''VSLCFT' run 'i2cget -y -f 2 0x4b 0x12'
BHKMVSLCFT0x11
BHKMVSLCFT 0
root@arm:~# echo 'WJTS''QTWNOL'
WJTSQTWNOL
root@arm:~# MARKER='BUHB''VATSTY' run 'echo 880000 880000 > /sys/kernel/mva_test//regulators/buck3_set'
BUHBVATSTYBUHBVATSTY 0
root@arm:~# echo 'JSQF''UXLSMS'
JSQFUXLSMS
root@arm:~# MARKER='STYE''WOHUZJ' run 'i2cget -y -f 2 0x4b 0x12'
STYEWOHUZJ0x12
STYEWOHUZJ 0
root@arm:~# echo 'TNHE''MBJQWQ'
TNHEMBJQWQ
root@arm:~# MARKER='GPWX''BNWXBZ' run 'echo 890000 890000 > /sys/kernel/mva_test//regulators/buck3_set'
GPWXBNWXBZGPWXBNWXBZ 0
root@arm:~# echo 'ELPW''JNUHAV'
ELPWJNUHAV
root@arm:~# MARKER='FYVA''JGUXUH' run 'i2cget -y -f 2 0x4b 0x12'
FYVAJGUXUH0x13
FYVAJGUXUH 0
root@arm:~# echo 'WNEJ''JNLKHX'
WNEJJNLKHX
root@arm:~# MARKER='JXKB''PXSXBB' run 'echo 900000 900000 > /sys/kernel/mva_test//regulators/buck3_set'
JXKBPXSXBBJXKBPXSXBB 0
root@arm:~# echo 'YBSZ''FBWFXT'
YBSZFBWFXT
root@arm:~# MARKER='OUAL''BHZLYE' run 'i2cget -y -f 2 0x4b 0x12'
OUALBHZLYE0x14
OUALBHZLYE 0
root@arm:~# echo 'LCSV''EGUYLJ'
LCSVEGUYLJ
root@arm:~# MARKER='KAVB''BZXMAS' run 'echo 910000 910000 > /sys/kernel/mva_test//regulators/buck3_set'
KAVBBZXMASKAVBBZXMAS 0
root@arm:~# echo 'ABWL''CJYYJB'
ABWLCJYYJB
root@arm:~# MARKER='SXJS''LHLPYJ' run 'i2cget -y -f 2 0x4b 0x12'
SXJSLHLPYJ0x15
SXJSLHLPYJ 0
root@arm:~# echo 'FJSS''CVTSOH'
FJSSCVTSOH
root@arm:~# MARKER='TCEJ''CBXOYT' run 'echo 920000 920000 > /sys/kernel/mva_test//regulators/buck3_set'
TCEJCBXOYTTCEJCBXOYT 0
root@arm:~# echo 'LZUN''KJTCCS'
LZUNKJTCCS
root@arm:~# MARKER='WFGG''LSJLLT' run 'i2cget -y -f 2 0x4b 0x12'
WFGGLSJLLT0x16
WFGGLSJLLT 0
root@arm:~# echo 'SQVP''PAMKXY'
SQVPPAMKXY
root@arm:~# MARKER='UJSE''SPNJUQ' run 'echo 930000 930000 > /sys/kernel/mva_test//regulators/buck3_set'
UJSESPNJUQUJSESPNJUQ 0
root@arm:~# echo 'YPXK''UNACKQ'
YPXKUNACKQ
root@arm:~# MARKER='WCSK''HABBCW' run 'i2cget -y -f 2 0x4b 0x12'
WCSKHABBCW0x17
WCSKHABBCW 0
root@arm:~# echo 'PHCA''ZHAQNM'
PHCAZHAQNM
root@arm:~# MARKER='UMYG''TQNLSG' run 'echo 940000 940000 > /sys/kernel/mva_test//regulators/buck3_set'
UMYGTQNLSGUMYGTQNLSG 0
root@arm:~# echo 'MTHH''EWTAGW'
MTHHEWTAGW
root@arm:~# MARKER='PETB''FTWGTM' run 'i2cget -y -f 2 0x4b 0x12'
PETBFTWGTM0x18
PETBFTWGTM 0
root@arm:~# echo 'CBUU''MXJBAA'
CBUUMXJBAA
root@arm:~# MARKER='BYKO''EMJZHN' run 'echo 950000 950000 > /sys/kernel/mva_test//regulators/buck3_set'
BYKOEMJZHNBYKOEMJZHN 0
root@arm:~# echo 'SKNG''ZUEESB'
SKNGZUEESB
root@arm:~# MARKER='JBSB''WFTQUN' run 'i2cget -y -f 2 0x4b 0x12'
JBSBWFTQUN0x19
JBSBWFTQUN 0
root@arm:~# echo 'NPAY''BNXPVY'
NPAYBNXPVY
root@arm:~# MARKER='HTSP''NAEMEU' run 'echo 960000 960000 > /sys/kernel/mva_test//regulators/buck3_set'
HTSPNAEMEUHTSPNAEMEU 0
root@arm:~# echo 'AGBT''KQJTMJ'
AGBTKQJTMJ
root@arm:~# MARKER='AWPP''LNQPJJ' run 'i2cget -y -f 2 0x4b 0x12'
AWPPLNQPJJ0x1a
AWPPLNQPJJ 0
root@arm:~# echo 'ZSZH''KKHKGL'
ZSZHKKHKGL
root@arm:~# MARKER='XWKM''YOLBWJ' run 'echo 970000 970000 > /sys/kernel/mva_test//regulators/buck3_set'
XWKMYOLBWJXWKMYOLBWJ 0
root@arm:~# echo 'NGQN''PHYCGM'
NGQNPHYCGM
root@arm:~# MARKER='CYKA''AJLKBC' run 'i2cget -y -f 2 0x4b 0x12'
CYKAAJLKBC0x1b
CYKAAJLKBC 0
root@arm:~# echo 'XAUB''XNJQCH'
XAUBXNJQCH
root@arm:~# MARKER='LVEA''LGEBSC' run 'echo 980000 980000 > /sys/kernel/mva_test//regulators/buck3_set'
LVEALGEBSCLVEALGEBSC 0
root@arm:~# echo 'MZUQ''TGBOWM'
MZUQTGBOWM
root@arm:~# MARKER='TXWF''NNEYHQ' run 'i2cget -y -f 2 0x4b 0x12'
TXWFNNEYHQ0x1c
TXWFNNEYHQ 0
root@arm:~# echo 'FELC''JGZWJV'
FELCJGZWJV
root@arm:~# MARKER='USJG''QYPELK' run 'echo 990000 990000 > /sys/kernel/mva_test//regulators/buck3_set'
USJGQYPELKUSJGQYPELK 0
root@arm:~# echo 'ZQHJ''GPWLBL'
ZQHJGPWLBL
root@arm:~# MARKER='JHLQ''ZABAFX' run 'i2cget -y -f 2 0x4b 0x12'
JHLQZABAFX0x1d
JHLQZABAFX 0
root@arm:~# echo 'CTVX''UMQPSK'
CTVXUMQPSK
root@arm:~# MARKER='QYHG''EAJSLV' run 'echo 1000000 1000000 > /sys/kernel/mva_tesst/regulators/buck3_set'
QYHGEAJSLVQYHGEAJSLV 0
root@arm:~# echo 'TTKF''FSQLWU'
TTKFFSQLWU
root@arm:~# MARKER='MLUC''UQBKJN' run 'i2cget -y -f 2 0x4b 0x12'
MLUCUQBKJN0x1e
MLUCUQBKJN 0
root@arm:~# echo 'CYLT''BLPNMW'
CYLTBLPNMW
root@arm:~# MARKER='HOGT''LSSJKE' run 'echo 1010000 1010000 > /sys/kernel/mva_tesst/regulators/buck3_set'
HOGTLSSJKEHOGTLSSJKE 0
root@arm:~# echo 'VFJB''XMNZBX'
VFJBXMNZBX
root@arm:~# MARKER='ESJF''BATAOQ' run 'i2cget -y -f 2 0x4b 0x12'
ESJFBATAOQ0x1f
ESJFBATAOQ 0
root@arm:~# echo 'HAML''ECHPKX'
HAMLECHPKX
root@arm:~# MARKER='XBNX''AGVCVM' run 'echo 1020000 1020000 > /sys/kernel/mva_tesst/regulators/buck3_set'
XBNXAGVCVMXBNXAGVCVM 0
root@arm:~# echo 'VOMO''SBSHOJ'
VOMOSBSHOJ
root@arm:~# MARKER='AHQF''MECWTJ' run 'i2cget -y -f 2 0x4b 0x12'
AHQFMECWTJ0x20
AHQFMECWTJ 0
root@arm:~# echo 'YCLP''ALWQGV'
YCLPALWQGV
root@arm:~# MARKER='MPCG''WFTEHT' run 'echo 1030000 1030000 > /sys/kernel/mva_tesst/regulators/buck3_set'
MPCGWFTEHTMPCGWFTEHT 0
root@arm:~# echo 'AGBH''EYGKSG'
AGBHEYGKSG
root@arm:~# MARKER='BCWG''TAEAYG' run 'i2cget -y -f 2 0x4b 0x12'
BCWGTAEAYG0x21
BCWGTAEAYG 0
root@arm:~# echo 'AYHH''QAFCYO'
AYHHQAFCYO
root@arm:~# MARKER='UXZV''XNBMNO' run 'echo 1040000 1040000 > /sys/kernel/mva_tesst/regulators/buck3_set'
UXZVXNBMNOUXZVXNBMNO 0
root@arm:~# echo 'SJNU''QSHQWT'
SJNUQSHQWT
root@arm:~# MARKER='XPOY''PBCOGN' run 'i2cget -y -f 2 0x4b 0x12'
XPOYPBCOGN0x22
XPOYPBCOGN 0
root@arm:~# echo 'KCOM''WTVEQH'
KCOMWTVEQH
root@arm:~# MARKER='GMJG''YFHPFH' run 'echo 1050000 1050000 > /sys/kernel/mva_tesst/regulators/buck3_set'
GMJGYFHPFHGMJGYFHPFH 0
root@arm:~# echo 'CUPF''PKOZHZ'
CUPFPKOZHZ
root@arm:~# MARKER='AUVU''OGPHBS' run 'i2cget -y -f 2 0x4b 0x12'
AUVUOGPHBS0x23
AUVUOGPHBS 0
root@arm:~# echo 'TMSL''LTJOPJ'
TMSLLTJOPJ
root@arm:~# MARKER='PWBG''LVPMAH' run 'echo 1060000 1060000 > /sys/kernel/mva_tesst/regulators/buck3_set'
PWBGLVPMAHPWBGLVPMAH 0
root@arm:~# echo 'EXNX''VCAMUV'
EXNXVCAMUV
root@arm:~# MARKER='JAXN''JGLGWV' run 'i2cget -y -f 2 0x4b 0x12'
JAXNJGLGWV0x24
JAXNJGLGWV 0
root@arm:~# echo 'FWLM''YFPFUX'
FWLMYFPFUX
root@arm:~# MARKER='WUSN''UNGCUW' run 'echo 1070000 1070000 > /sys/kernel/mva_tesst/regulators/buck3_set'
WUSNUNGCUWWUSNUNGCUW 0
root@arm:~# echo 'BWLC''XXBCPF'
BWLCXXBCPF
root@arm:~# MARKER='BPFL''VUUATG' run 'i2cget -y -f 2 0x4b 0x12'
BPFLVUUATG0x25
BPFLVUUATG 0
root@arm:~# echo 'OHJO''ACSUFB'
OHJOACSUFB
root@arm:~# MARKER='KXBT''OTKJEV' run 'echo 1080000 1080000 > /sys/kernel/mva_tesst/regulators/buck3_set'
KXBTOTKJEVKXBTOTKJEV 0
root@arm:~# echo 'FXEQ''PPUEBT'
FXEQPPUEBT
root@arm:~# MARKER='PUUL''QQXXYX' run 'i2cget -y -f 2 0x4b 0x12'
PUULQQXXYX0x26
PUULQQXXYX 0
root@arm:~# echo 'PVXM''APEQOH'
PVXMAPEQOH
root@arm:~# MARKER='JTNK''KUUUPE' run 'echo 1090000 1090000 > /sys/kernel/mva_tesst/regulators/buck3_set'
JTNKKUUUPEJTNKKUUUPE 0
root@arm:~# echo 'YWUA''LBQNLO'
YWUALBQNLO
root@arm:~# MARKER='TCWP''UHQZXO' run 'i2cget -y -f 2 0x4b 0x12'
TCWPUHQZXO0x27
TCWPUHQZXO 0
root@arm:~# echo 'JSGJ''UJQGTH'
JSGJUJQGTH
root@arm:~# MARKER='XOVH''AKOXUZ' run 'echo 1100000 1100000 > /sys/kernel/mva_tesst/regulators/buck3_set'
XOVHAKOXUZXOVHAKOXUZ 0
root@arm:~# echo 'KVAX''KXQJCV'
KVAXKXQJCV
root@arm:~# MARKER='XVKW''QKLTOH' run 'i2cget -y -f 2 0x4b 0x12'
XVKWQKLTOH0x28
XVKWQKLTOH 0
root@arm:~# echo 'PVBX''MLGSGB'
PVBXMLGSGB
root@arm:~# MARKER='LHHV''TXLLWB' run 'echo 1110000 1110000 > /sys/kernel/mva_tesst/regulators/buck3_set'
LHHVTXLLWBLHHVTXLLWB 0
root@arm:~# echo 'KWTN''NEZFTZ'
KWTNNEZFTZ
root@arm:~# MARKER='GZMZ''MTLYOU' run 'i2cget -y -f 2 0x4b 0x12'
GZMZMTLYOU0x29
GZMZMTLYOU 0
root@arm:~# echo 'FFTE''AYAAVL'
FFTEAYAAVL
root@arm:~# MARKER='EZZF''FCBHSP' run 'echo 1120000 1120000 > /sys/kernel/mva_tesst/regulators/buck3_set'
EZZFFCBHSPEZZFFCBHSP 0
root@arm:~# echo 'TCTY''QGCOFX'
TCTYQGCOFX
root@arm:~# MARKER='EGSC''VSGOYO' run 'i2cget -y -f 2 0x4b 0x12'
EGSCVSGOYO0x2a
EGSCVSGOYO 0
root@arm:~# echo 'HHOS''YLGJBW'
HHOSYLGJBW
root@arm:~# MARKER='QJKY''FLVPSY' run 'echo 1130000 1130000 > /sys/kernel/mva_tesst/regulators/buck3_set'
QJKYFLVPSYQJKYFLVPSY 0
root@arm:~# echo 'KMWE''MVAPTM'
KMWEMVAPTM
root@arm:~# MARKER='SJMF''VPOVYU' run 'i2cget -y -f 2 0x4b 0x12'
SJMFVPOVYU0x2b
SJMFVPOVYU 0
root@arm:~# echo 'HQVN''CKGHOX'
HQVNCKGHOX
root@arm:~# MARKER='WNFE''FPCFQJ' run 'echo 1140000 1140000 > /sys/kernel/mva_tesst/regulators/buck3_set'
WNFEFPCFQJWNFEFPCFQJ 0
root@arm:~# echo 'ULUG''ZHMYZO'
ULUGZHMYZO
root@arm:~# MARKER='LBKK''JHCMZP' run 'i2cget -y -f 2 0x4b 0x12'
LBKKJHCMZP0x2c
LBKKJHCMZP 0
root@arm:~# echo 'YPXL''AYUWPM'
YPXLAYUWPM
root@arm:~# MARKER='NPPL''FXKZBJ' run 'echo 1150000 1150000 > /sys/kernel/mva_tesst/regulators/buck3_set'
NPPLFXKZBJNPPLFXKZBJ 0
root@arm:~# echo 'ZTQX''BPLLFY'
ZTQXBPLLFY
root@arm:~# MARKER='LLHH''ZCSZJJ' run 'i2cget -y -f 2 0x4b 0x12'
LLHHZCSZJJ0x2d
LLHHZCSZJJ 0
root@arm:~# echo 'JNKU''CSTMYY'
JNKUCSTMYY
root@arm:~# MARKER='UPQO''HTSGOZ' run 'echo 1160000 1160000 > /sys/kernel/mva_tesst/regulators/buck3_set'
UPQOHTSGOZUPQOHTSGOZ 0
root@arm:~# echo 'FLGE''CBVVNF'
FLGECBVVNF
root@arm:~# MARKER='WOVG''QYGZHS' run 'i2cget -y -f 2 0x4b 0x12'
WOVGQYGZHS0x2e
WOVGQYGZHS 0
root@arm:~# echo 'HACZ''BVWESK'
HACZBVWESK
root@arm:~# MARKER='NCUB''FAWVKT' run 'echo 1170000 1170000 > /sys/kernel/mva_tesst/regulators/buck3_set'
NCUBFAWVKTNCUBFAWVKT 0
root@arm:~# echo 'YOZQ''CGMLOU'
YOZQCGMLOU
root@arm:~# MARKER='OXVK''ZTZNNM' run 'i2cget -y -f 2 0x4b 0x12'
OXVKZTZNNM0x2f
OXVKZTZNNM 0
root@arm:~# echo 'ALJF''MNGWGX'
ALJFMNGWGX
root@arm:~# MARKER='NEXS''WVNYKE' run 'echo 1180000 1180000 > /sys/kernel/mva_tesst/regulators/buck3_set'
NEXSWVNYKENEXSWVNYKE 0
root@arm:~# echo 'FPWE''GMBBLK'
FPWEGMBBLK
root@arm:~# MARKER='QHTM''QONEPH' run 'i2cget -y -f 2 0x4b 0x12'
QHTMQONEPH0x30
QHTMQONEPH 0
root@arm:~# echo 'OEWG''NGZVKH'
OEWGNGZVKH
root@arm:~# MARKER='PUJG''SQZGTX' run 'echo 1190000 1190000 > /sys/kernel/mva_tesst/regulators/buck3_set'
PUJGSQZGTXPUJGSQZGTX 0
root@arm:~# echo 'FEQQ''KLXSTV'
FEQQKLXSTV
root@arm:~# MARKER='TAMY''QMMWNK' run 'i2cget -y -f 2 0x4b 0x12'
TAMYQMMWNK0x31
TAMYQMMWNK 0
root@arm:~# echo 'AUYB''AOYXJS'
AUYBAOYXJS
root@arm:~# MARKER='FHUH''AJEXSH' run 'echo 1200000 1200000 > /sys/kernel/mva_tesst/regulators/buck3_set'
FHUHAJEXSHFHUHAJEXSH 0
root@arm:~# echo 'MFGH''FMCFTB'
MFGHFMCFTB
root@arm:~# MARKER='QUBF''GCHCTL' run 'i2cget -y -f 2 0x4b 0x12'
QUBFGCHCTL0x32
QUBFGCHCTL 0
root@arm:~# echo 'SNSO''ZGGZPC'
SNSOZGGZPC
root@arm:~# MARKER='LUEY''TGKMTL' run 'echo 1210000 1210000 > /sys/kernel/mva_tesst/regulators/buck3_set'
LUEYTGKMTLLUEYTGKMTL 0
root@arm:~# echo 'NKVP''BXFPVK'
NKVPBXFPVK
root@arm:~# MARKER='HSPX''FWPXQH' run 'i2cget -y -f 2 0x4b 0x12'
HSPXFWPXQH0x33
HSPXFWPXQH 0
root@arm:~# echo 'MKTS''WQUFXP'
MKTSWQUFXP
root@arm:~# MARKER='MWGX''CZQUNS' run 'echo 1220000 1220000 > /sys/kernel/mva_tesst/regulators/buck3_set'
MWGXCZQUNSMWGXCZQUNS 0
root@arm:~# echo 'MEFF''YFAVYK'
MEFFYFAVYK
root@arm:~# MARKER='GSTF''AMPXUU' run 'i2cget -y -f 2 0x4b 0x12'
GSTFAMPXUU0x34
GSTFAMPXUU 0
root@arm:~# echo 'PYUK''SFSPMM'
PYUKSFSPMM
root@arm:~# MARKER='UZOY''APNGBX' run 'echo 1230000 1230000 > /sys/kernel/mva_tesst/regulators/buck3_set'
UZOYAPNGBXUZOYAPNGBX 0
root@arm:~# echo 'MOCT''BOXZAM'
MOCTBOXZAM
root@arm:~# MARKER='GPMG''OVNHBB' run 'i2cget -y -f 2 0x4b 0x12'
GPMGOVNHBB0x35
GPMGOVNHBB 0
root@arm:~# echo 'JENA''VUMAZE'
JENAVUMAZE
root@arm:~# MARKER='FVAH''QLZCHZ' run 'echo 1240000 1240000 > /sys/kernel/mva_tesst/regulators/buck3_set'
FVAHQLZCHZFVAHQLZCHZ 0
root@arm:~# echo 'CZJE''JXKHAN'
CZJEJXKHAN
root@arm:~# MARKER='PEKB''OENOKV' run 'i2cget -y -f 2 0x4b 0x12'
PEKBOENOKV0x36
PEKBOENOKV 0
root@arm:~# echo 'CEHC''SOPYAJ'
CEHCSOPYAJ
root@arm:~# MARKER='NKGU''GMOGEE' run 'echo 1250000 1250000 > /sys/kernel/mva_tesst/regulators/buck3_set'
NKGUGMOGEENKGUGMOGEE 0
root@arm:~# echo 'BAXS''FYCHAZ'
BAXSFYCHAZ
root@arm:~# MARKER='GKWS''STZPUK' run 'i2cget -y -f 2 0x4b 0x12'
GKWSSTZPUK0x37
GKWSSTZPUK 0
root@arm:~# echo 'LPTT''BVSHJX'
LPTTBVSHJX
root@arm:~# MARKER='OHOH''YAUJJW' run 'echo 1260000 1260000 > /sys/kernel/mva_tesst/regulators/buck3_set'
OHOHYAUJJWOHOHYAUJJW 0
root@arm:~# echo 'MJGQ''QOAJUB'
MJGQQOAJUB
root@arm:~# MARKER='VJMJ''NJFPCH' run 'i2cget -y -f 2 0x4b 0x12'
VJMJNJFPCH0x38
VJMJNJFPCH 0
root@arm:~# echo 'HPEL''LBTWVP'
HPELLBTWVP
root@arm:~# MARKER='BJBG''PQWBUQ' run 'echo 1270000 1270000 > /sys/kernel/mva_tesst/regulators/buck3_set'
BJBGPQWBUQBJBGPQWBUQ 0
root@arm:~# echo 'PJYK''CEWQXK'
PJYKCEWQXK
root@arm:~# MARKER='FXBC''BSPLCU' run 'i2cget -y -f 2 0x4b 0x12'
FXBCBSPLCU0x39
FXBCBSPLCU 0
root@arm:~# echo 'UETO''GEWVQS'
UETOGEWVQS
root@arm:~# MARKER='WTCP''EEASBG' run 'echo 1280000 1280000 > /sys/kernel/mva_tesst/regulators/buck3_set'
WTCPEEASBGWTCPEEASBG 0
root@arm:~# echo 'ZCXU''ZPHBXV'
ZCXUZPHBXV
root@arm:~# MARKER='TAVV''AULWVF' run 'i2cget -y -f 2 0x4b 0x12'
TAVVAULWVF0x3a
TAVVAULWVF 0
root@arm:~# echo 'TQCG''JWNWMU'
TQCGJWNWMU
root@arm:~# MARKER='JSQN''MHWSTJ' run 'echo 1290000 1290000 > /sys/kernel/mva_tesst/regulators/buck3_set'
JSQNMHWSTJJSQNMHWSTJ 0
root@arm:~# echo 'HHHB''WZPOCF'
HHHBWZPOCF
root@arm:~# MARKER='GNTW''LNEJSP' run 'i2cget -y -f 2 0x4b 0x12'
GNTWLNEJSP0x3b
GNTWLNEJSP 0
root@arm:~# echo 'QNGA''OUEXAU'
QNGAOUEXAU
root@arm:~# MARKER='GBZE''EEFPFJ' run 'echo 1300000 1300000 > /sys/kernel/mva_tesst/regulators/buck3_set'
GBZEEEFPFJGBZEEEFPFJ 0
root@arm:~# echo 'BUEM''YLPQFQ'
BUEMYLPQFQ
root@arm:~# MARKER='WEHT''HPLAVS' run 'i2cget -y -f 2 0x4b 0x12'
WEHTHPLAVS0x3c
WEHTHPLAVS 0
root@arm:~# echo 'PBWP''CXVOZT'
PBWPCXVOZT
root@arm:~# MARKER='GQKG''MNWMMT' run 'grep -r -l rohm,bd71837 /proc/device-tree  | sed '"'"'s![^/]*$!!'"'"''
GQKGMNWMMT/proc/device-tree/ocp/interconnect@48000000/segment@100000/target-module@9c000/i2c@0/pmic@4b/
GQKGMNWMMT 0
root@arm:~# echo 'KCSQ''GXXVNE'
KCSQGXXVNE
root@arm:~# MARKER='LBOM''KYTGZF' run 'test -f /proc/device-tree/ocp/interconnectt\@48000000/segment\@100000/target-module\@9c000/i2c\@0/pmic\@4b/regulators/BUCK44/rohm,no-regulator-enable-control ;echo $?'
LBOMKYTGZF1
LBOMKYTGZF 0
root@arm:~# echo 'XKVU''XCEKMY'
XKVUXCEKMY
root@arm:~# MARKER='SXHN''GUMJZO' run 'i2cget -y -f 2 0x4b 0x8'
SXHNGUMJZO0xc6
SXHNGUMJZO 0
root@arm:~# echo 'PCCA''EQEGAM'
PCCAEQEGAM
root@arm:~# MARKER='ZBSP''LASQGZ' run 'echo 700000 700000 > /sys/kernel/mva_test//regulators/buck4_set'
ZBSPLASQGZZBSPLASQGZ 0
root@arm:~# echo 'BNWQ''CEPWPJ'
BNWQCEPWPJ
root@arm:~# MARKER='YSCS''EWNJAL' run 'i2cget -y -f 2 0x4b 0x13'
YSCSEWNJAL0x00
YSCSEWNJAL 0
root@arm:~# echo 'VKHS''THPEFA'
VKHSTHPEFA
root@arm:~# MARKER='XHHU''WFEJBO' run 'echo 710000 710000 > /sys/kernel/mva_test//regulators/buck4_set'
XHHUWFEJBOXHHUWFEJBO 0
root@arm:~# echo 'TTVQ''GHYKOE'
TTVQGHYKOE
root@arm:~# MARKER='CFVJ''WXGZEH' run 'i2cget -y -f 2 0x4b 0x13'
CFVJWXGZEH0x01
CFVJWXGZEH 0
root@arm:~# echo 'GVHQ''XCUHVN'
GVHQXCUHVN
root@arm:~# MARKER='QAWL''TKGPQZ' run 'echo 720000 720000 > /sys/kernel/mva_test//regulators/buck4_set'
QAWLTKGPQZQAWLTKGPQZ 0
root@arm:~# echo 'ZJZE''XBUPET'
ZJZEXBUPET
root@arm:~# MARKER='XGEL''CUJJAW' run 'i2cget -y -f 2 0x4b 0x13'
XGELCUJJAW0x02
XGELCUJJAW 0
root@arm:~# echo 'KZAH''LWEHHP'
KZAHLWEHHP
root@arm:~# MARKER='ELUM''NKSJQW' run 'echo 730000 730000 > /sys/kernel/mva_test//regulators/buck4_set'
ELUMNKSJQWELUMNKSJQW 0
root@arm:~# echo 'LWKL''HJHNWG'
LWKLHJHNWG
root@arm:~# MARKER='GFYX''OXXVAW' run 'i2cget -y -f 2 0x4b 0x13'
GFYXOXXVAW0x03
GFYXOXXVAW 0
root@arm:~# echo 'GFPU''XJUBNV'
GFPUXJUBNV
root@arm:~# MARKER='VJTH''FEQUQB' run 'echo 740000 740000 > /sys/kernel/mva_test//regulators/buck4_set'
VJTHFEQUQBVJTHFEQUQB 0
root@arm:~# echo 'PMAX''UUJMJA'
PMAXUUJMJA
root@arm:~# MARKER='CKHY''MPYVKG' run 'i2cget -y -f 2 0x4b 0x13'
CKHYMPYVKG0x04
CKHYMPYVKG 0
root@arm:~# echo 'TFLA''MSGVFK'
TFLAMSGVFK
root@arm:~# MARKER='ACPG''TWZQWX' run 'echo 750000 750000 > /sys/kernel/mva_test//regulators/buck4_set'
ACPGTWZQWXACPGTWZQWX 0
root@arm:~# echo 'SBYU''NEOBOP'
SBYUNEOBOP
root@arm:~# MARKER='OLFV''GXFZYZ' run 'i2cget -y -f 2 0x4b 0x13'
OLFVGXFZYZ0x05
OLFVGXFZYZ 0
root@arm:~# echo 'SSUL''QKHFVK'
SSULQKHFVK
root@arm:~# MARKER='CVGH''BSWEZE' run 'echo 760000 760000 > /sys/kernel/mva_test//regulators/buck4_set'
CVGHBSWEZECVGHBSWEZE 0
root@arm:~# echo 'QMZM''VQSEKZ'
QMZMVQSEKZ
root@arm:~# MARKER='BSEN''PKLYGK' run 'i2cget -y -f 2 0x4b 0x13'
BSENPKLYGK0x06
BSENPKLYGK 0
root@arm:~# echo 'NBEV''PNBNCU'
NBEVPNBNCU
root@arm:~# MARKER='ZGNK''FMTFJT' run 'echo 770000 770000 > /sys/kernel/mva_test//regulators/buck4_set'
ZGNKFMTFJTZGNKFMTFJT 0
root@arm:~# echo 'UXYT''COXLOC'
UXYTCOXLOC
root@arm:~# MARKER='MUXF''SOPCBE' run 'i2cget -y -f 2 0x4b 0x13'
MUXFSOPCBE0x07
MUXFSOPCBE 0
root@arm:~# echo 'ZLPY''JKWKFX'
ZLPYJKWKFX
root@arm:~# MARKER='HKYG''UCWCBU' run 'echo 780000 780000 > /sys/kernel/mva_test//regulators/buck4_set'
HKYGUCWCBUHKYGUCWCBU 0
root@arm:~# echo 'YYTL''LFNOCX'
YYTLLFNOCX
root@arm:~# MARKER='JHHK''HGHLCY' run 'i2cget -y -f 2 0x4b 0x13'
JHHKHGHLCY0x08
JHHKHGHLCY 0
root@arm:~# echo 'QGFQ''ZBVTTL'
QGFQZBVTTL
root@arm:~# MARKER='LCXM''MJZWMQ' run 'echo 790000 790000 > /sys/kernel/mva_test//regulators/buck4_set'
LCXMMJZWMQLCXMMJZWMQ 0
root@arm:~# echo 'KQVW''WJHSBT'
KQVWWJHSBT
root@arm:~# MARKER='GUFP''EPPQSL' run 'i2cget -y -f 2 0x4b 0x13'
GUFPEPPQSL0x09
GUFPEPPQSL 0
root@arm:~# echo 'JETZ''YKZUBG'
JETZYKZUBG
root@arm:~# MARKER='SCKJ''LOFFFU' run 'echo 800000 800000 > /sys/kernel/mva_test//regulators/buck4_set'
SCKJLOFFFUSCKJLOFFFU 0
root@arm:~# echo 'ULPF''WMPCBY'
ULPFWMPCBY
root@arm:~# MARKER='TFKS''SXXCCE' run 'i2cget -y -f 2 0x4b 0x13'
TFKSSXXCCE0x0a
TFKSSXXCCE 0
root@arm:~# echo 'YNTO''UNKNZW'
YNTOUNKNZW
root@arm:~# MARKER='MPLM''CGCLST' run 'echo 810000 810000 > /sys/kernel/mva_test//regulators/buck4_set'
MPLMCGCLSTMPLMCGCLST 0
root@arm:~# echo 'OOUY''EBZWGJ'
OOUYEBZWGJ
root@arm:~# MARKER='TJQK''MNJCLB' run 'i2cget -y -f 2 0x4b 0x13'
TJQKMNJCLB0x0b
TJQKMNJCLB 0
root@arm:~# echo 'BAQE''MMLBBY'
BAQEMMLBBY
root@arm:~# MARKER='SLAQ''QMVKCC' run 'echo 820000 820000 > /sys/kernel/mva_test//regulators/buck4_set'
SLAQQMVKCCSLAQQMVKCC 0
root@arm:~# echo 'WEVH''BQBHEK'
WEVHBQBHEK
root@arm:~# MARKER='AWVY''YGLEZQ' run 'i2cget -y -f 2 0x4b 0x13'
AWVYYGLEZQ0x0c
AWVYYGLEZQ 0
root@arm:~# echo 'BHOJ''MQFVYZ'
BHOJMQFVYZ
root@arm:~# MARKER='NNXF''CLUEWN' run 'echo 830000 830000 > /sys/kernel/mva_test//regulators/buck4_set'
NNXFCLUEWNNNXFCLUEWN 0
root@arm:~# echo 'LBQY''NWLNZZ'
LBQYNWLNZZ
root@arm:~# MARKER='XAZQ''XKVWEM' run 'i2cget -y -f 2 0x4b 0x13'
XAZQXKVWEM0x0d
XAZQXKVWEM 0
root@arm:~# echo 'GMMQ''UZYHCC'
GMMQUZYHCC
root@arm:~# MARKER='UCNG''HBCMES' run 'echo 840000 840000 > /sys/kernel/mva_test//regulators/buck4_set'
UCNGHBCMESUCNGHBCMES 0
root@arm:~# echo 'BLEK''GVQMSO'
BLEKGVQMSO
root@arm:~# MARKER='QKTK''MAFMFE' run 'i2cget -y -f 2 0x4b 0x13'
QKTKMAFMFE0x0e
QKTKMAFMFE 0
root@arm:~# echo 'HVSS''KPPMNX'
HVSSKPPMNX
root@arm:~# MARKER='QKYM''TEUUMN' run 'echo 850000 850000 > /sys/kernel/mva_test//regulators/buck4_set'
QKYMTEUUMNQKYMTEUUMN 0
root@arm:~# echo 'VPAC''ABACPF'
VPACABACPF
root@arm:~# MARKER='ULBJ''YZQQUL' run 'i2cget -y -f 2 0x4b 0x13'
ULBJYZQQUL0x0f
ULBJYZQQUL 0
root@arm:~# echo 'TQVV''TAWWPH'
TQVVTAWWPH
root@arm:~# MARKER='NJCQ''QQUWNT' run 'echo 860000 860000 > /sys/kernel/mva_test//regulators/buck4_set'
NJCQQQUWNTNJCQQQUWNT 0
root@arm:~# echo 'KTKA''QEKVBP'
KTKAQEKVBP
root@arm:~# MARKER='QXCC''LFKCVJ' run 'i2cget -y -f 2 0x4b 0x13'
QXCCLFKCVJ0x10
QXCCLFKCVJ 0
root@arm:~# echo 'NWUS''CKHSQF'
NWUSCKHSQF
root@arm:~# MARKER='ALFL''SWSKTM' run 'echo 870000 870000 > /sys/kernel/mva_test//regulators/buck4_set'
ALFLSWSKTMALFLSWSKTM 0
root@arm:~# echo 'CVGL''LWTNLS'
CVGLLWTNLS
root@arm:~# MARKER='QMHB''GCOLOX' run 'i2cget -y -f 2 0x4b 0x13'
QMHBGCOLOX0x11
QMHBGCOLOX 0
root@arm:~# echo 'UCZQ''VBJAMW'
UCZQVBJAMW
root@arm:~# MARKER='LQPJ''ULHKSM' run 'echo 880000 880000 > /sys/kernel/mva_test//regulators/buck4_set'
LQPJULHKSMLQPJULHKSM 0
root@arm:~# echo 'ZQSO''CXEUNP'
ZQSOCXEUNP
root@arm:~# MARKER='FMZE''HLCQCQ' run 'i2cget -y -f 2 0x4b 0x13'
FMZEHLCQCQ0x12
FMZEHLCQCQ 0
root@arm:~# echo 'GEEU''MAXZHQ'
GEEUMAXZHQ
root@arm:~# MARKER='BTUQ''PKJEGZ' run 'echo 890000 890000 > /sys/kernel/mva_test//regulators/buck4_set'
BTUQPKJEGZBTUQPKJEGZ 0
root@arm:~# echo 'VLOF''VKWEGW'
VLOFVKWEGW
root@arm:~# MARKER='WTHO''HXHENC' run 'i2cget -y -f 2 0x4b 0x13'
WTHOHXHENC0x13
WTHOHXHENC 0
root@arm:~# echo 'XLOM''KGVFLO'
XLOMKGVFLO
root@arm:~# MARKER='FVON''SFZZJJ' run 'echo 900000 900000 > /sys/kernel/mva_test//regulators/buck4_set'
FVONSFZZJJFVONSFZZJJ 0
root@arm:~# echo 'CVNN''MJQMEO'
CVNNMJQMEO
root@arm:~# MARKER='XKVQ''EWGEKZ' run 'i2cget -y -f 2 0x4b 0x13'
XKVQEWGEKZ0x14
XKVQEWGEKZ 0
root@arm:~# echo 'YWSW''EONEPS'
YWSWEONEPS
root@arm:~# MARKER='QXOK''BLQKAO' run 'echo 910000 910000 > /sys/kernel/mva_test//regulators/buck4_set'
QXOKBLQKAOQXOKBLQKAO 0
root@arm:~# echo 'CSGU''PTUUWA'
CSGUPTUUWA
root@arm:~# MARKER='JSNF''VLQBFZ' run 'i2cget -y -f 2 0x4b 0x13'
JSNFVLQBFZ0x15
JSNFVLQBFZ 0
root@arm:~# echo 'CJWX''AWAAWH'
CJWXAWAAWH
root@arm:~# MARKER='WUGM''XFSZXB' run 'echo 920000 920000 > /sys/kernel/mva_test//regulators/buck4_set'
WUGMXFSZXBWUGMXFSZXB 0
root@arm:~# echo 'JTVS''UKXXEW'
JTVSUKXXEW
root@arm:~# MARKER='MWQL''BSPZSM' run 'i2cget -y -f 2 0x4b 0x13'
MWQLBSPZSM0x16
MWQLBSPZSM 0
root@arm:~# echo 'BLXE''HCZQNT'
BLXEHCZQNT
root@arm:~# MARKER='PUNE''ZWTVLG' run 'echo 930000 930000 > /sys/kernel/mva_test//regulators/buck4_set'
PUNEZWTVLGPUNEZWTVLG 0
root@arm:~# echo 'ANAM''ZTSUQT'
ANAMZTSUQT
root@arm:~# MARKER='ZQAB''CGKVAS' run 'i2cget -y -f 2 0x4b 0x13'
ZQABCGKVAS0x17
ZQABCGKVAS 0
root@arm:~# echo 'QZFW''LUJSNQ'
QZFWLUJSNQ
