Labgrid Console Logfile for main
Logfile started at 2026-08-25 06:05:29.714781
=== Log starts here ===

root@arm:~# run() { echo -n "$MARKER"; sh -c "$@"; echo "$MARKER $?"; }
root@arm:~# echo 'LJHG''VWZAVN'
LJHGVWZAVN
root@arm:~# MARKER='XCQU''PFLAHG' run 'grep -r -l rohm,bd96805 /proc/device-tree  | sed '"'"'s![^/]*$!!'"'"''
XCQUPFLAHG/proc/device-tree/ocp/interconnect@48000000/segment@100000/target-module@9c000/i2c@0/pmic@60/
XCQUPFLAHG 0
root@arm:~# echo 'TKHU''KBJXUZ'
TKHUKBJXUZ
root@arm:~# MARKER='TGZJ''ONUFTO' run 'test -f /proc/device-tree/ocp/interconnectt\@48000000/segment\@100000/target-module\@9c000/i2c\@0/pmic\@60/regulators/buck11/rohm,no-regulator-enable-control ;echo $?'
TGZJONUFTO1
TGZJONUFTO 0
root@arm:~# echo 'BJAV''NSGMLF'
BJAVNSGMLF
root@arm:~# MARKER='GUJP''KWSTQQ' run 'i2cget -y -f 2 0x60 0xb'
GUJPKWSTQQ0x00
GUJPKWSTQQ 0
root@arm:~# echo 'LOSP''WANBTX'
LOSPWANBTX
root@arm:~# MARKER='WUVA''MVNNEQ' run 'grep -r -l rohm,bd96805 /proc/device-tree  | sed '"'"'s![^/]*$!!'"'"''
WUVAMVNNEQ/proc/device-tree/ocp/interconnect@48000000/segment@100000/target-module@9c000/i2c@0/pmic@60/
WUVAMVNNEQ 0
root@arm:~# echo 'KKNE''GJVAGU'
KKNEGJVAGU
root@arm:~# MARKER='BJUM''EJHZNS' run 'test -f /proc/device-tree/ocp/interconnectt\@48000000/segment\@100000/target-module\@9c000/i2c\@0/pmic\@60/regulators/buck22/rohm,no-regulator-enable-control ;echo $?'
BJUMEJHZNS1
BJUMEJHZNS 0
root@arm:~# echo 'VQHJ''AJNQMC'
VQHJAJNQMC
root@arm:~# MARKER='NYCZ''TPPSLE' run 'i2cget -y -f 2 0x60 0xb'
NYCZTPPSLE0x00
NYCZTPPSLE 0
root@arm:~# echo 'WSLL''XHUZJG'
WSLLXHUZJG
root@arm:~# MARKER='BLQB''WTMZLP' run 'grep -r -l rohm,bd96805 /proc/device-tree  | sed '"'"'s![^/]*$!!'"'"''
BLQBWTMZLP/proc/device-tree/ocp/interconnect@48000000/segment@100000/target-module@9c000/i2c@0/pmic@60/
BLQBWTMZLP 0
root@arm:~# echo 'QKKJ''GBCPXU'
QKKJGBCPXU
root@arm:~# MARKER='LKXT''UQNYNA' run 'test -f /proc/device-tree/ocp/interconnectt\@48000000/segment\@100000/target-module\@9c000/i2c\@0/pmic\@60/regulators/buck33/rohm,no-regulator-enable-control ;echo $?'
LKXTUQNYNA1
LKXTUQNYNA 0
root@arm:~# echo 'NHVG''FYQBFB'
NHVGFYQBFB
root@arm:~# MARKER='QQMA''AXCOBS' run 'i2cget -y -f 2 0x60 0xb'
QQMAAXCOBS0x00
QQMAAXCOBS 0
root@arm:~# echo 'HJMB''NYMNXJ'
HJMBNYMNXJ
root@arm:~# MARKER='JFCE''AMVEXM' run 'grep -r -l rohm,bd96805 /proc/device-tree  | sed '"'"'s![^/]*$!!'"'"''
JFCEAMVEXM/proc/device-tree/ocp/interconnect@48000000/segment@100000/target-module@9c000/i2c@0/pmic@60/
JFCEAMVEXM 0
root@arm:~# echo 'LBHG''OLVEEB'
LBHGOLVEEB
root@arm:~# MARKER='UGZS''FAEHXF' run 'test -f /proc/device-tree/ocp/interconnectt\@48000000/segment\@100000/target-module\@9c000/i2c\@0/pmic\@60/regulators/buck44/rohm,no-regulator-enable-control ;echo $?'
UGZSFAEHXF1
UGZSFAEHXF 0
root@arm:~# echo 'PMVX''HZFTWG'
PMVXHZFTWG
root@arm:~# MARKER='HXBQ''JFVCJP' run 'i2cget -y -f 2 0x60 0xb'
HXBQJFVCJP0x00
HXBQJFVCJP 0
root@arm:~# echo 'HPJZ''PZJMUA'
HPJZPZJMUA
root@arm:~# MARKER='XGLT''OUKCNF' run 'grep -r -l rohm,bd96805 /proc/device-tree  | sed '"'"'s![^/]*$!!'"'"''
XGLTOUKCNF/proc/device-tree/ocp/interconnect@48000000/segment@100000/target-module@9c000/i2c@0/pmic@60/
XGLTOUKCNF 0
root@arm:~# echo 'ESZT''BWFNHY'
ESZTBWFNHY
root@arm:~# MARKER='EOZO''CTPTFA' run 'test -f /proc/device-tree/ocp/interconnectt\@48000000/segment\@100000/target-module\@9c000/i2c\@0/pmic\@60/regulators/ldo5//rohm,no-regulator-enable-control ;echo $?'
EOZOCTPTFA1
EOZOCTPTFA 0
root@arm:~# echo 'ZLAG''PJQOQK'
ZLAGPJQOQK
root@arm:~# MARKER='WPNV''VGJKKM' run 'i2cget -y -f 2 0x60 0xb'
WPNVVGJKKM0x00
WPNVVGJKKM 0
root@arm:~# echo 'AKEE''JZWTUO'
AKEEJZWTUO
root@arm:~# MARKER='EGVN''LEKZFT' run 'grep -r -l rohm,bd96805 /proc/device-tree  | sed '"'"'s![^/]*$!!'"'"''
EGVNLEKZFT/proc/device-tree/ocp/interconnect@48000000/segment@100000/target-module@9c000/i2c@0/pmic@60/
EGVNLEKZFT 0
root@arm:~# echo 'GJNK''EUXOOF'
GJNKEUXOOF
root@arm:~# MARKER='AVQA''GFGNWB' run 'test -f /proc/device-tree/ocp/interconnectt\@48000000/segment\@100000/target-module\@9c000/i2c\@0/pmic\@60/regulators/ldo6//rohm,no-regulator-enable-control ;echo $?'
AVQAGFGNWB1
AVQAGFGNWB 0
root@arm:~# echo 'SCHJ''CQTFEJ'
SCHJCQTFEJ
root@arm:~# MARKER='LVUQ''GUKMXE' run 'i2cget -y -f 2 0x60 0xb'
LVUQGUKMXE0x00
LVUQGUKMXE 0
root@arm:~# echo 'SGBN''CHLKBB'
SGBNCHLKBB
root@arm:~# MARKER='SXTY''OFQEGF' run 'grep -r -l rohm,bd96805 /proc/device-tree  | sed '"'"'s![^/]*$!!'"'"''
SXTYOFQEGF/proc/device-tree/ocp/interconnect@48000000/segment@100000/target-module@9c000/i2c@0/pmic@60/
SXTYOFQEGF 0
root@arm:~# echo 'PQPY''NWPELM'
PQPYNWPELM
root@arm:~# MARKER='QXMC''EGMPJK' run 'test -f /proc/device-tree/ocp/interconnectt\@48000000/segment\@100000/target-module\@9c000/i2c\@0/pmic\@60/regulators/ldo7//rohm,no-regulator-enable-control ;echo $?'
QXMCEGMPJK1
QXMCEGMPJK 0
root@arm:~# echo 'POUG''HBENCW'
POUGHBENCW
root@arm:~# MARKER='NVOC''KEBPHM' run 'i2cget -y -f 2 0x60 0xb'
NVOCKEBPHM0x00
NVOCKEBPHM 0
root@arm:~# Labgrid Console Logfile for main
Logfile started at 2026-08-25 06:05:37.284487
=== Log starts here ===

root@arm:~# run() { echo -n "$MARKER"; sh -c "$@"; echo "$MARKER $?"; }
root@arm:~# echo 'KUUB''VMFKYE'
KUUBVMFKYE
root@arm:~# MARKER='TMKG''XLHGOU' run 'cat /sys/kernel/mva_test/regulators/buck1__set'
TMKGXLHGOU1800000
TMKGXLHGOU 0
root@arm:~# echo 'OUNC''UBWQCL'
OUNCUBWQCL
root@arm:~# MARKER='MMPW''MOLPJS' run 'i2cget -y -f 2 0x60 0x21'
MMPWMOLPJS0xce
MMPWMOLPJS 0
root@arm:~# echo 'AHYV''GZLQMN'
AHYVGZLQMN
root@arm:~# MARKER='MQVB''ZHZPML' run 'cat /sys/kernel/mva_test/regulators/buck2__set'
MQVBZHZPML1100000
MQVBZHZPML 0
root@arm:~# echo 'GKXJ''QJTXMN'
GKXJQJTXMN
root@arm:~# MARKER='HTPZ''PWSKAM' run 'i2cget -y -f 2 0x60 0x22'
HTPZPWSKAM0x78
HTPZPWSKAM 0
root@arm:~# echo 'YKPT''NAVNEP'
YKPTNAVNEP
root@arm:~# MARKER='KVLF''AAHVHM' run 'cat /sys/kernel/mva_test/regulators/buck3__set'
KVLFAAHVHM850000
KVLFAAHVHM 0
root@arm:~# echo 'UVEB''MLQGVP'
UVEBMLQGVP
root@arm:~# MARKER='JVQX''SFAVQV' run 'i2cget -y -f 2 0x60 0x23'
JVQXSFAVQV0x46
JVQXSFAVQV 0
root@arm:~# echo 'QHWB''XWMEZQ'
QHWBXWMEZQ
root@arm:~# MARKER='QLWB''XWKEKN' run 'cat /sys/kernel/mva_test/regulators/buck4__set'
QLWBXWKEKN850000
QLWBXWKEKN 0
root@arm:~# echo 'ASNX''CJHZHO'
ASNXCJHZHO
root@arm:~# MARKER='FCTU''NWBNNK' run 'i2cget -y -f 2 0x60 0x24'
FCTUNWBNNK0x46
FCTUNWBNNK 0
root@arm:~# echo 'STNG''HHSPVK'
STNGHHSPVK
root@arm:~# MARKER='MATV''FCGSPQ' run 'cat /sys/kernel/mva_test/regulators/buck5__set'
MATVFCGSPQ900000
MATVFCGSPQ 0
root@arm:~# echo 'ALAJ''PMWCXE'
ALAJPMWCXE
root@arm:~# MARKER='NXSA''JYCZTF' run 'i2cget -y -f 2 0x60 0x25'
NXSAJYCZTF0x18
NXSAJYCZTF 0
root@arm:~# echo 'YBQS''YNZZBZ'
YBQSYNZZBZ
root@arm:~# MARKER='TUZO''CBJBQP' run 'cat /sys/kernel/mva_test/regulators/buck6__set'
TUZOCBJBQP1200000
TUZOCBJBQP 0
root@arm:~# echo 'UMTJ''NTKWVS'
UMTJNTKWVS
root@arm:~# MARKER='NLEL''AYYLNY' run 'i2cget -y -f 2 0x60 0x26'
NLELAYYLNY0x24
NLELAYYLNY 0
root@arm:~# echo 'NMMS''FJOYTA'
NMMSFJOYTA
root@arm:~# MARKER='THPX''UBVSYB' run 'cat /sys/kernel/mva_test/regulators/buck7__set'
THPXUBVSYB3300000
THPXUBVSYB 0
root@arm:~# echo 'FFWS''MHSHAN'
FFWSMHSHAN
root@arm:~# MARKER='JOVO''NPXAFE' run 'i2cget -y -f 2 0x60 0x27'
JOVONPXAFE0x78
JOVONPXAFE 0
root@arm:~# Labgrid Console Logfile for main
Logfile started at 2026-08-25 06:05:42.673066
=== Log starts here ===

root@arm:~# run() { echo -n "$MARKER"; sh -c "$@"; echo "$MARKER $?"; }
root@arm:~# echo 'BWEC''ANYQSK'
BWECANYQSK
root@arm:~# MARKER='JUJN''PHMBSH' run 'i2cget -y -f 2 0x60 0x21'
JUJNPHMBSH0xce
JUJNPHMBSH 0
root@arm:~# echo 'EOVX''YEJVGS'
EOVXYEJVGS
root@arm:~# MARKER='ESOC''SNJLUV' run 'echo 1800000 1800000 > /sys/kernel/mva_tesst/regulators/buck1_set'
ESOCSNJLUVESOCSNJLUV 0
root@arm:~# echo 'NZLJ''XFMUYY'
NZLJXFMUYY
root@arm:~# MARKER='HVGB''YXMTLE' run 'i2cget -f -y 2 0x60 0x28'
HVGBYXMTLE0x00
HVGBYXMTLE 0
root@arm:~# echo 'JUTX''LOZNOW'
JUTXLOZNOW
root@arm:~# MARKER='ZZXC''FJXTMS' run 'i2cget -y -f 2 0x60 0x21'
ZZXCFJXTMS0xce
ZZXCFJXTMS 0
root@arm:~# echo 'FVWT''TSHEKQ'
FVWTTSHEKQ
root@arm:~# MARKER='BXAB''OAFNVO' run 'i2cget -y -f 2 0x60 0x21'
BXABOAFNVO0xce
BXABOAFNVO 0
root@arm:~# echo 'QNGX''PZFFNS'
QNGXPZFFNS
root@arm:~# MARKER='LFYY''PLSOXO' run 'echo 1810000 1810000 > /sys/kernel/mva_tesst/regulators/buck1_set'
LFYYPLSOXOLFYYPLSOXO 0
root@arm:~# echo 'WXGC''KSCBSX'
WXGCKSCBSX
root@arm:~# MARKER='POHU''HPSBGX' run 'i2cget -f -y 2 0x60 0x28'
POHUHPSBGX0x01
POHUHPSBGX 0
root@arm:~# echo 'TWHQ''FZFTAH'
TWHQFZFTAH
root@arm:~# MARKER='WLUX''QZLPBK' run 'i2cget -y -f 2 0x60 0x21'
WLUXQZLPBK0xce
WLUXQZLPBK 0
root@arm:~# echo 'LOXW''PZABEK'
LOXWPZABEK
root@arm:~# MARKER='BLNB''CAOEFF' run 'i2cget -y -f 2 0x60 0x21'
BLNBCAOEFF0xce
BLNBCAOEFF 0
root@arm:~# echo 'BHUE''MGGXWS'
BHUEMGGXWS
root@arm:~# MARKER='SGGV''WXNOLH' run 'echo 1820000 1820000 > /sys/kernel/mva_tesst/regulators/buck1_set'
SGGVWXNOLHSGGVWXNOLH 0
root@arm:~# echo 'THNG''NJTPNU'
THNGNJTPNU
root@arm:~# MARKER='TWUN''BKEQPL' run 'i2cget -f -y 2 0x60 0x28'
TWUNBKEQPL0x02
TWUNBKEQPL 0
root@arm:~# echo 'NFEU''EOTQEM'
NFEUEOTQEM
root@arm:~# MARKER='LFYN''AESVYL' run 'i2cget -y -f 2 0x60 0x21'
LFYNAESVYL0xce
LFYNAESVYL 0
root@arm:~# echo 'BBUW''ZENZYU'
BBUWZENZYU
root@arm:~# MARKER='FFVP''XOQEUV' run 'i2cget -y -f 2 0x60 0x21'
FFVPXOQEUV0xce
FFVPXOQEUV 0
root@arm:~# echo 'AXAH''BBQLYC'
AXAHBBQLYC
root@arm:~# MARKER='OEWF''KHYOCQ' run 'echo 1830000 1830000 > /sys/kernel/mva_tesst/regulators/buck1_set'
OEWFKHYOCQOEWFKHYOCQ 0
root@arm:~# echo 'SOSM''GFAQPL'
SOSMGFAQPL
root@arm:~# MARKER='UXYJ''YTMBTK' run 'i2cget -f -y 2 0x60 0x28'
UXYJYTMBTK0x03
UXYJYTMBTK 0
root@arm:~# echo 'XNUA''JFSHYZ'
XNUAJFSHYZ
root@arm:~# MARKER='XYVP''CYJECN' run 'i2cget -y -f 2 0x60 0x21'
XYVPCYJECN0xce
XYVPCYJECN 0
root@arm:~# echo 'ZAJA''YZLMEM'
ZAJAYZLMEM
root@arm:~# MARKER='ZJGP''CCUVSU' run 'i2cget -y -f 2 0x60 0x21'
ZJGPCCUVSU0xce
ZJGPCCUVSU 0
root@arm:~# echo 'KPZA''WQLZVW'
KPZAWQLZVW
root@arm:~# MARKER='YFZU''JGGEFF' run 'echo 1840000 1840000 > /sys/kernel/mva_tesst/regulators/buck1_set'
YFZUJGGEFFYFZUJGGEFF 0
root@arm:~# echo 'ZWTC''VPBJNF'
ZWTCVPBJNF
root@arm:~# MARKER='XOJV''NLMFXM' run 'i2cget -f -y 2 0x60 0x28'
XOJVNLMFXM0x04
XOJVNLMFXM 0
root@arm:~# echo 'WJEM''HYPTNB'
WJEMHYPTNB
root@arm:~# MARKER='UFCY''NLCLEO' run 'i2cget -y -f 2 0x60 0x21'
UFCYNLCLEO0xce
UFCYNLCLEO 0
root@arm:~# echo 'BWEG''MLCWFF'
BWEGMLCWFF
root@arm:~# MARKER='QBKT''JMHHTQ' run 'i2cget -y -f 2 0x60 0x21'
QBKTJMHHTQ0xce
QBKTJMHHTQ 0
root@arm:~# echo 'MKTA''FSFFVX'
MKTAFSFFVX
root@arm:~# MARKER='BLLJ''ZFUUHM' run 'echo 1850000 1850000 > /sys/kernel/mva_tesst/regulators/buck1_set'
BLLJZFUUHMBLLJZFUUHM 0
root@arm:~# echo 'OHWB''PEFUYZ'
OHWBPEFUYZ
root@arm:~# MARKER='SQNO''OLNNXE' run 'i2cget -f -y 2 0x60 0x28'
SQNOOLNNXE0x05
SQNOOLNNXE 0
root@arm:~# echo 'OBTM''UFXHPK'
OBTMUFXHPK
root@arm:~# MARKER='SKWJ''MZHQXG' run 'i2cget -y -f 2 0x60 0x21'
SKWJMZHQXG0xce
SKWJMZHQXG 0
root@arm:~# echo 'VMQX''ZUQYHZ'
VMQXZUQYHZ
root@arm:~# MARKER='KPVZ''JQWHYF' run 'i2cget -y -f 2 0x60 0x21'
KPVZJQWHYF0xce
KPVZJQWHYF 0
root@arm:~# echo 'LMKT''PZVCNW'
LMKTPZVCNW
root@arm:~# MARKER='HYTB''BTGBWT' run 'echo 1860000 1860000 > /sys/kernel/mva_tesst/regulators/buck1_set'
HYTBBTGBWTHYTBBTGBWT 0
root@arm:~# echo 'WKHW''XCMVCP'
WKHWXCMVCP
root@arm:~# MARKER='YVCM''FKFBQB' run 'i2cget -f -y 2 0x60 0x28'
YVCMFKFBQB0x06
YVCMFKFBQB 0
root@arm:~# echo 'BTNE''HGSSLN'
BTNEHGSSLN
root@arm:~# MARKER='PPFX''ZJQNOJ' run 'i2cget -y -f 2 0x60 0x21'
PPFXZJQNOJ0xce
PPFXZJQNOJ 0
root@arm:~# echo 'KYBT''EYMQMM'
KYBTEYMQMM
root@arm:~# MARKER='XYMJ''NYJJBL' run 'i2cget -y -f 2 0x60 0x21'
XYMJNYJJBL0xce
XYMJNYJJBL 0
root@arm:~# echo 'OWQO''TYOGME'
OWQOTYOGME
root@arm:~# MARKER='GSCX''LCTEYN' run 'echo 1870000 1870000 > /sys/kernel/mva_tesst/regulators/buck1_set'
GSCXLCTEYNGSCXLCTEYN 0
root@arm:~# echo 'CXFC''CKWNCU'
CXFCCKWNCU
root@arm:~# MARKER='SXUO''HGUWCE' run 'i2cget -f -y 2 0x60 0x28'
SXUOHGUWCE0x07
SXUOHGUWCE 0
root@arm:~# echo 'QUVT''AJKOYO'
QUVTAJKOYO
root@arm:~# MARKER='GVHH''JWLQHW' run 'i2cget -y -f 2 0x60 0x21'
GVHHJWLQHW0xce
GVHHJWLQHW 0
root@arm:~# echo 'GCSA''LMAPWP'
GCSALMAPWP
root@arm:~# MARKER='WZSX''NOUYHY' run 'i2cget -y -f 2 0x60 0x21'
WZSXNOUYHY0xce
WZSXNOUYHY 0
root@arm:~# echo 'XYFT''NLNSFV'
XYFTNLNSFV
root@arm:~# MARKER='NSJK''SGKYWV' run 'echo 1880000 1880000 > /sys/kernel/mva_tesst/regulators/buck1_set'
NSJKSGKYWVNSJKSGKYWV 0
root@arm:~# echo 'YMGO''WMMBYT'
YMGOWMMBYT
root@arm:~# MARKER='MAHL''UGVKNW' run 'i2cget -f -y 2 0x60 0x28'
MAHLUGVKNW0x08
MAHLUGVKNW 0
root@arm:~# echo 'AZVV''PUHJOX'
AZVVPUHJOX
root@arm:~# MARKER='WHEF''BKXNMG' run 'i2cget -y -f 2 0x60 0x21'
WHEFBKXNMG0xce
WHEFBKXNMG 0
root@arm:~# echo 'KSTO''TSSHLM'
KSTOTSSHLM
root@arm:~# MARKER='WKQT''AZNMVN' run 'i2cget -y -f 2 0x60 0x21'
WKQTAZNMVN0xce
WKQTAZNMVN 0
root@arm:~# echo 'GJCS''COQBFF'
GJCSCOQBFF
root@arm:~# MARKER='ZGNZ''TFQBCW' run 'echo 1890000 1890000 > /sys/kernel/mva_tesst/regulators/buck1_set'
ZGNZTFQBCWZGNZTFQBCW 0
root@arm:~# echo 'QJCV''YYOZQJ'
QJCVYYOZQJ
root@arm:~# MARKER='LVLX''HWVMNZ' run 'i2cget -f -y 2 0x60 0x28'
LVLXHWVMNZ0x09
LVLXHWVMNZ 0
root@arm:~# echo 'UWOE''VCAKNZ'
UWOEVCAKNZ
root@arm:~# MARKER='YFYE''CTZGQL' run 'i2cget -y -f 2 0x60 0x21'
YFYECTZGQL0xce
YFYECTZGQL 0
root@arm:~# echo 'PEZX''LKPATE'
PEZXLKPATE
root@arm:~# MARKER='QQTA''HYOXPL' run 'i2cget -y -f 2 0x60 0x21'
QQTAHYOXPL0xce
QQTAHYOXPL 0
root@arm:~# echo 'HXTU''JHJPLL'
HXTUJHJPLL
root@arm:~# MARKER='JVXX''YMEKNE' run 'echo 1900000 1900000 > /sys/kernel/mva_tesst/regulators/buck1_set'
JVXXYMEKNEJVXXYMEKNE 0
root@arm:~# echo 'HCJP''WTFTSE'
HCJPWTFTSE
root@arm:~# MARKER='AXOM''FBNYKC' run 'i2cget -f -y 2 0x60 0x28'
AXOMFBNYKC0x0a
AXOMFBNYKC 0
root@arm:~# echo 'UEQZ''CWLMGJ'
UEQZCWLMGJ
root@arm:~# MARKER='OGZG''GZHKZJ' run 'i2cget -y -f 2 0x60 0x21'
OGZGGZHKZJ0xce
OGZGGZHKZJ 0
root@arm:~# echo 'OUQH''YAJZTQ'
OUQHYAJZTQ
root@arm:~# MARKER='XXWG''QAUNFN' run 'i2cget -y -f 2 0x60 0x21'
XXWGQAUNFN0xce
XXWGQAUNFN 0
root@arm:~# echo 'AOLU''CTMCAX'
AOLUCTMCAX
root@arm:~# MARKER='FAUT''PMBUZQ' run 'echo 1910000 1910000 > /sys/kernel/mva_tesst/regulators/buck1_set'
FAUTPMBUZQFAUTPMBUZQ 0
root@arm:~# echo 'YJGA''OFZHCL'
YJGAOFZHCL
root@arm:~# MARKER='UHHQ''ZFMFWM' run 'i2cget -f -y 2 0x60 0x28'
UHHQZFMFWM0x0b
UHHQZFMFWM 0
root@arm:~# echo 'WUCJ''STONPQ'
WUCJSTONPQ
root@arm:~# MARKER='OWZP''ELTVFN' run 'i2cget -y -f 2 0x60 0x21'
OWZPELTVFN0xce
OWZPELTVFN 0
root@arm:~# echo 'ATXX''VZVCQY'
ATXXVZVCQY
root@arm:~# MARKER='HJHT''JVEJZO' run 'i2cget -y -f 2 0x60 0x21'
HJHTJVEJZO0xce
HJHTJVEJZO 0
root@arm:~# echo 'LNQL''WYFATK'
LNQLWYFATK
root@arm:~# MARKER='KTGA''OECZKX' run 'echo 1920000 1920000 > /sys/kernel/mva_tesst/regulators/buck1_set'
KTGAOECZKXKTGAOECZKX 0
root@arm:~# echo 'GALL''BPCSQH'
GALLBPCSQH
root@arm:~# MARKER='BOHS''UMWXAO' run 'i2cget -f -y 2 0x60 0x28'
BOHSUMWXAO0x0c
BOHSUMWXAO 0
root@arm:~# echo 'YPJW''AOMSYG'
YPJWAOMSYG
root@arm:~# MARKER='HUBB''OBZYXE' run 'i2cget -y -f 2 0x60 0x21'
HUBBOBZYXE0xce
HUBBOBZYXE 0
root@arm:~# echo 'EFZO''CTWKXJ'
EFZOCTWKXJ
root@arm:~# MARKER='KULZ''GQJZTE' run 'i2cget -y -f 2 0x60 0x21'
KULZGQJZTE0xce
KULZGQJZTE 0
root@arm:~# echo 'QEAO''LASTTX'
QEAOLASTTX
root@arm:~# MARKER='NEMB''YCCYHC' run 'echo 1930000 1930000 > /sys/kernel/mva_tesst/regulators/buck1_set'
NEMBYCCYHCNEMBYCCYHC 0
root@arm:~# echo 'NQCS''BOEJJE'
NQCSBOEJJE
root@arm:~# MARKER='ZEVG''MGNXCC' run 'i2cget -f -y 2 0x60 0x28'
ZEVGMGNXCC0x0d
ZEVGMGNXCC 0
root@arm:~# echo 'ATCN''LUKBCK'
ATCNLUKBCK
root@arm:~# MARKER='YKVG''ZVQFSP' run 'i2cget -y -f 2 0x60 0x21'
YKVGZVQFSP0xce
YKVGZVQFSP 0
root@arm:~# echo 'NNZG''UJSTOV'
NNZGUJSTOV
root@arm:~# MARKER='FXMH''VBCVFX' run 'i2cget -y -f 2 0x60 0x21'
FXMHVBCVFX0xce
FXMHVBCVFX 0
root@arm:~# echo 'MMHS''QYKYEN'
MMHSQYKYEN
root@arm:~# MARKER='JOYA''EHAJEU' run 'echo 1940000 1940000 > /sys/kernel/mva_tesst/regulators/buck1_set'
JOYAEHAJEUJOYAEHAJEU 0
root@arm:~# echo 'OLAE''CTJXNJ'
OLAECTJXNJ
root@arm:~# MARKER='GGQL''PSYQAY' run 'i2cget -f -y 2 0x60 0x28'
GGQLPSYQAY0x0e
GGQLPSYQAY 0
root@arm:~# echo 'HPMQ''UWYQEC'
HPMQUWYQEC
root@arm:~# MARKER='GXLT''FPPUQX' run 'i2cget -y -f 2 0x60 0x21'
GXLTFPPUQX0xce
GXLTFPPUQX 0
root@arm:~# echo 'BYUQ''BXMWWO'
BYUQBXMWWO
root@arm:~# MARKER='VCFM''LLVOEP' run 'i2cget -y -f 2 0x60 0x21'
VCFMLLVOEP0xce
VCFMLLVOEP 0
root@arm:~# echo 'MBWH''BHNULT'
MBWHBHNULT
root@arm:~# MARKER='WUGB''HEHYEG' run 'echo 1950000 1950000 > /sys/kernel/mva_tesst/regulators/buck1_set'
WUGBHEHYEGWUGBHEHYEG 0
root@arm:~# echo 'HBKT''LUXZYE'
HBKTLUXZYE
root@arm:~# MARKER='YUNG''ULKFON' run 'i2cget -f -y 2 0x60 0x28'
YUNGULKFON0x0f
YUNGULKFON 0
root@arm:~# echo 'NFHP''GOESQG'
NFHPGOESQG
root@arm:~# MARKER='UABS''LHESSF' run 'i2cget -y -f 2 0x60 0x21'
UABSLHESSF0xce
UABSLHESSF 0
root@arm:~# echo 'TBCY''PBEAZK'
TBCYPBEAZK
root@arm:~# MARKER='HCLE''JJMVQG' run 'i2cget -y -f 2 0x60 0x21'
HCLEJJMVQG0xce
HCLEJJMVQG 0
root@arm:~# echo 'KOEZ''VSQJOH'
KOEZVSQJOH
root@arm:~# MARKER='JJFB''PTCMGC' run 'echo 1960000 1960000 > /sys/kernel/mva_tesst/regulators/buck1_set'
JJFBPTCMGCJJFBPTCMGC 0
root@arm:~# echo 'ZVWQ''KSAUGH'
ZVWQKSAUGH
root@arm:~# MARKER='VLOO''OCAJJM' run 'i2cget -f -y 2 0x60 0x28'
VLOOOCAJJM0x10
VLOOOCAJJM 0
root@arm:~# echo 'PGVG''KSVQPW'
PGVGKSVQPW
root@arm:~# MARKER='ZUEE''LHTWOS' run 'i2cget -y -f 2 0x60 0x21'
ZUEELHTWOS0xce
ZUEELHTWOS 0
root@arm:~# echo 'FKOU''FPFTBL'
FKOUFPFTBL
root@arm:~# MARKER='GYJY''XXQYAU' run 'i2cget -y -f 2 0x60 0x21'
GYJYXXQYAU0xce
GYJYXXQYAU 0
root@arm:~# echo 'AZGY''GNEHHH'
AZGYGNEHHH
root@arm:~# MARKER='ONWH''KSAFFV' run 'echo 1970000 1970000 > /sys/kernel/mva_tesst/regulators/buck1_set'
ONWHKSAFFVONWHKSAFFV 0
root@arm:~# echo 'QLKP''PMYQAJ'
QLKPPMYQAJ
root@arm:~# MARKER='LNXJ''CSHPXH' run 'i2cget -f -y 2 0x60 0x28'
LNXJCSHPXH0x11
LNXJCSHPXH 0
root@arm:~# echo 'NZVK''GFXPWK'
NZVKGFXPWK
root@arm:~# MARKER='UUEH''OZGSYJ' run 'i2cget -y -f 2 0x60 0x21'
UUEHOZGSYJ0xce
UUEHOZGSYJ 0
root@arm:~# echo 'SFKL''GFBKVX'
SFKLGFBKVX
root@arm:~# MARKER='MYBP''JHOPZU' run 'i2cget -y -f 2 0x60 0x21'
MYBPJHOPZU0xce
MYBPJHOPZU 0
root@arm:~# echo 'KYOW''XPAQZJ'
KYOWXPAQZJ
root@arm:~# MARKER='ONFS''ABGEUL' run 'echo 1980000 1980000 > /sys/kernel/mva_tesst/regulators/buck1_set'
ONFSABGEULONFSABGEUL 0
root@arm:~# echo 'XMVK''GNSVOA'
XMVKGNSVOA
root@arm:~# MARKER='KPOH''PVPMBY' run 'i2cget -f -y 2 0x60 0x28'
KPOHPVPMBY0x12
KPOHPVPMBY 0
root@arm:~# echo 'ACEL''ABUGSK'
ACELABUGSK
root@arm:~# MARKER='CPXT''ABAUKP' run 'i2cget -y -f 2 0x60 0x21'
CPXTABAUKP0xce
CPXTABAUKP 0
root@arm:~# echo 'GFOA''CGLTXV'
GFOACGLTXV
root@arm:~# MARKER='LXWW''NWPOWC' run 'i2cget -y -f 2 0x60 0x21'
LXWWNWPOWC0xce
LXWWNWPOWC 0
root@arm:~# echo 'AEMQ''JASEEX'
AEMQJASEEX
root@arm:~# MARKER='ASVW''XVGQNJ' run 'echo 1990000 1990000 > /sys/kernel/mva_tesst/regulators/buck1_set'
ASVWXVGQNJASVWXVGQNJ 0
root@arm:~# echo 'TTSN''BZCTVT'
TTSNBZCTVT
root@arm:~# MARKER='SCQM''GZJBKU' run 'i2cget -f -y 2 0x60 0x28'
SCQMGZJBKU0x13
SCQMGZJBKU 0
root@arm:~# echo 'OLVU''FFNTCV'
OLVUFFNTCV
root@arm:~# MARKER='KZYU''TPONBU' run 'i2cget -y -f 2 0x60 0x21'
KZYUTPONBU0xce
KZYUTPONBU 0
root@arm:~# echo 'TZUO''UHLSCH'
TZUOUHLSCH
root@arm:~# MARKER='PHLK''PNENPP' run 'i2cget -y -f 2 0x60 0x21'
PHLKPNENPP0xce
PHLKPNENPP 0
root@arm:~# echo 'QQWT''JZBMES'
QQWTJZBMES
root@arm:~# MARKER='CPNP''HATUPW' run 'echo 2000000 2000000 > /sys/kernel/mva_tesst/regulators/buck1_set'
CPNPHATUPWCPNPHATUPW 0
root@arm:~# echo 'XCKC''EFZOMP'
XCKCEFZOMP
root@arm:~# MARKER='JGWF''TKNJEL' run 'i2cget -f -y 2 0x60 0x28'
JGWFTKNJEL0x14
JGWFTKNJEL 0
root@arm:~# echo 'MBVF''PSOZCC'
MBVFPSOZCC
root@arm:~# MARKER='NKXG''KLENHF' run 'i2cget -y -f 2 0x60 0x21'
NKXGKLENHF0xce
NKXGKLENHF 0
root@arm:~# echo 'XAZT''JXOFME'
XAZTJXOFME
root@arm:~# MARKER='EXCL''HOWBQN' run 'i2cget -y -f 2 0x60 0x21'
EXCLHOWBQN0xce
EXCLHOWBQN 0
root@arm:~# echo 'YQAX''VLYUNH'
YQAXVLYUNH
root@arm:~# MARKER='XOPH''SPTNJU' run 'echo 2010000 2010000 > /sys/kernel/mva_tesst/regulators/buck1_set'
XOPHSPTNJUXOPHSPTNJU 0
root@arm:~# echo 'NYOP''HPKWMJ'
NYOPHPKWMJ
root@arm:~# MARKER='ZMYX''ZMQTFN' run 'i2cget -f -y 2 0x60 0x28'
ZMYXZMQTFN0x15
ZMYXZMQTFN 0
root@arm:~# echo 'OJNG''FXVOLV'
OJNGFXVOLV
root@arm:~# MARKER='XLBU''BBFVOF' run 'i2cget -y -f 2 0x60 0x21'
XLBUBBFVOF0xce
XLBUBBFVOF 0
root@arm:~# echo 'ZEOL''BSPTUZ'
ZEOLBSPTUZ
root@arm:~# MARKER='YTJJ''EAKGSE' run 'i2cget -y -f 2 0x60 0x21'
YTJJEAKGSE0xce
YTJJEAKGSE 0
root@arm:~# echo 'WMZM''SXECCQ'
WMZMSXECCQ
root@arm:~# MARKER='GBAO''PEYEHL' run 'echo 2020000 2020000 > /sys/kernel/mva_tesst/regulators/buck1_set'
GBAOPEYEHLGBAOPEYEHL 0
root@arm:~# echo 'QCEG''SCQYPK'
QCEGSCQYPK
root@arm:~# MARKER='JNFS''KJLZZH' run 'i2cget -f -y 2 0x60 0x28'
JNFSKJLZZH0x16
JNFSKJLZZH 0
root@arm:~# echo 'TQPM''AFMAYH'
TQPMAFMAYH
root@arm:~# MARKER='VVMW''GNKVLX' run 'i2cget -y -f 2 0x60 0x21'
VVMWGNKVLX0xce
VVMWGNKVLX 0
root@arm:~# echo 'BEXQ''QEJJAB'
BEXQQEJJAB
root@arm:~# MARKER='KXNH''ZJJFAU' run 'i2cget -y -f 2 0x60 0x21'
KXNHZJJFAU0xce
KXNHZJJFAU 0
root@arm:~# echo 'LWGW''GOOJQP'
LWGWGOOJQP
root@arm:~# MARKER='ZWXA''BEVCXH' run 'echo 2030000 2030000 > /sys/kernel/mva_tesst/regulators/buck1_set'
ZWXABEVCXHZWXABEVCXH 0
root@arm:~# echo 'HKWM''APSCZA'
HKWMAPSCZA
root@arm:~# MARKER='EWBX''XLKTFN' run 'i2cget -f -y 2 0x60 0x28'
EWBXXLKTFN0x17
EWBXXLKTFN 0
root@arm:~# echo 'QYBE''XVUSQH'
QYBEXVUSQH
root@arm:~# MARKER='QWVO''FCAHPV' run 'i2cget -y -f 2 0x60 0x21'
QWVOFCAHPV0xce
QWVOFCAHPV 0
root@arm:~# echo 'WXUC''LTNLBA'
WXUCLTNLBA
root@arm:~# MARKER='SAYY''VNHUEJ' run 'i2cget -y -f 2 0x60 0x21'
SAYYVNHUEJ0xce
SAYYVNHUEJ 0
root@arm:~# echo 'VLLU''XXZPXE'
VLLUXXZPXE
root@arm:~# MARKER='BATF''VNFGNE' run 'echo 2040000 2040000 > /sys/kernel/mva_tesst/regulators/buck1_set'
BATFVNFGNEBATFVNFGNE 0
root@arm:~# echo 'TWJX''SKGEFG'
TWJXSKGEFG
root@arm:~# MARKER='QKUL''BAXFWZ' run 'i2cget -f -y 2 0x60 0x28'
QKULBAXFWZ0x18
QKULBAXFWZ 0
root@arm:~# echo 'ANMQ''TCGOKB'
ANMQTCGOKB
root@arm:~# MARKER='FWPM''JKFCPF' run 'i2cget -y -f 2 0x60 0x21'
FWPMJKFCPF0xce
FWPMJKFCPF 0
root@arm:~# echo 'JFVQ''NGELCG'
JFVQNGELCG
root@arm:~# MARKER='VFSK''VOPCSV' run 'i2cget -y -f 2 0x60 0x21'
VFSKVOPCSV0xce
VFSKVOPCSV 0
root@arm:~# echo 'GEMC''TXTQWS'
GEMCTXTQWS
root@arm:~# MARKER='KMWF''TALHGF' run 'echo 2050000 2050000 > /sys/kernel/mva_tesst/regulators/buck1_set'
KMWFTALHGFKMWFTALHGF 0
root@arm:~# echo 'EHTO''BGJHYE'
EHTOBGJHYE
root@arm:~# MARKER='CETC''OQZJLO' run 'i2cget -f -y 2 0x60 0x28'
CETCOQZJLO0x19
CETCOQZJLO 0
root@arm:~# echo 'CAMS''UQSUHJ'
CAMSUQSUHJ
root@arm:~# MARKER='QTVA''GMFFVO' run 'i2cget -y -f 2 0x60 0x21'
QTVAGMFFVO0xce
QTVAGMFFVO 0
root@arm:~# echo 'PJBZ''UFUSEJ'
PJBZUFUSEJ
root@arm:~# MARKER='XFMO''NNEWSH' run 'i2cget -y -f 2 0x60 0x21'
XFMONNEWSH0xce
XFMONNEWSH 0
root@arm:~# echo 'XALW''AGTBHG'
XALWAGTBHG
root@arm:~# MARKER='GUVT''NTKGFQ' run 'echo 2060000 2060000 > /sys/kernel/mva_tesst/regulators/buck1_set'
GUVTNTKGFQGUVTNTKGFQ 0
root@arm:~# echo 'LCKL''NAVXLK'
LCKLNAVXLK
root@arm:~# MARKER='BVGY''PBOOVT' run 'i2cget -f -y 2 0x60 0x28'
BVGYPBOOVT0x1a
BVGYPBOOVT 0
root@arm:~# echo 'PZAE''KELFHX'
PZAEKELFHX
root@arm:~# MARKER='BYCE''BNJJMV' run 'i2cget -y -f 2 0x60 0x21'
BYCEBNJJMV0xce
BYCEBNJJMV 0
root@arm:~# echo 'QCTF''ZEVPWH'
QCTFZEVPWH
root@arm:~# MARKER='ZETW''JSWOMK' run 'i2cget -y -f 2 0x60 0x21'
ZETWJSWOMK0xce
ZETWJSWOMK 0
root@arm:~# echo 'VVTL''NMQBBY'
VVTLNMQBBY
root@arm:~# MARKER='BYVW''OUMEAS' run 'echo 2070000 2070000 > /sys/kernel/mva_tesst/regulators/buck1_set'
BYVWOUMEASBYVWOUMEAS 0
root@arm:~# echo 'ACNY''TUJYKU'
ACNYTUJYKU
root@arm:~# MARKER='ETYP''ZQHOBU' run 'i2cget -f -y 2 0x60 0x28'
ETYPZQHOBU0x1b
ETYPZQHOBU 0
root@arm:~# echo 'XFWJ''LVWJZG'
XFWJLVWJZG
root@arm:~# MARKER='EFSH''YWPQUT' run 'i2cget -y -f 2 0x60 0x21'
EFSHYWPQUT0xce
EFSHYWPQUT 0
root@arm:~# echo 'ZJFH''UQWNGY'
ZJFHUQWNGY
root@arm:~# MARKER='SKVE''WJVHJT' run 'i2cget -y -f 2 0x60 0x21'
SKVEWJVHJT0xce
SKVEWJVHJT 0
root@arm:~# echo 'KUJC''HWFEYJ'
KUJCHWFEYJ
root@arm:~# MARKER='VWJM''XYAEFH' run 'echo 2080000 2080000 > /sys/kernel/mva_tesst/regulators/buck1_set'
VWJMXYAEFHVWJMXYAEFH 0
root@arm:~# echo 'YVVS''MFEPSF'
YVVSMFEPSF
root@arm:~# MARKER='QZNN''BAEYPJ' run 'i2cget -f -y 2 0x60 0x28'
QZNNBAEYPJ0x1c
QZNNBAEYPJ 0
root@arm:~# echo 'QSMU''WVOSSH'
QSMUWVOSSH
root@arm:~# MARKER='YSVZ''SGAFKX' run 'i2cget -y -f 2 0x60 0x21'
YSVZSGAFKX0xce
YSVZSGAFKX 0
root@arm:~# echo 'WAKW''LQLXSM'
WAKWLQLXSM
root@arm:~# MARKER='KQMA''VTMEFN' run 'i2cget -y -f 2 0x60 0x21'
KQMAVTMEFN0xce
KQMAVTMEFN 0
root@arm:~# echo 'JPQG''NUZAEN'
JPQGNUZAEN
root@arm:~# MARKER='KVHW''BWELZK' run 'echo 2090000 2090000 > /sys/kernel/mva_tesst/regulators/buck1_set'
KVHWBWELZKKVHWBWELZK 0
root@arm:~# echo 'XVLA''VOQZWP'
XVLAVOQZWP
root@arm:~# MARKER='LVHJ''MWLLKA' run 'i2cget -f -y 2 0x60 0x28'
LVHJMWLLKA0x1d
LVHJMWLLKA 0
root@arm:~# echo 'UHAG''NNGAHY'
UHAGNNGAHY
root@arm:~# MARKER='QXTO''NCTUMG' run 'i2cget -y -f 2 0x60 0x21'
QXTONCTUMG0xce
QXTONCTUMG 0
root@arm:~# echo 'TUMC''KAWWVS'
TUMCKAWWVS
root@arm:~# MARKER='OZSF''PKBBPQ' run 'i2cget -y -f 2 0x60 0x21'
OZSFPKBBPQ0xce
OZSFPKBBPQ 0
root@arm:~# echo 'EXPM''OWUAVA'
EXPMOWUAVA
root@arm:~# MARKER='LOPP''MTHHTC' run 'echo 2100000 2100000 > /sys/kernel/mva_tesst/regulators/buck1_set'
LOPPMTHHTCLOPPMTHHTC 0
root@arm:~# echo 'PJFQ''XWMBFZ'
PJFQXWMBFZ
root@arm:~# MARKER='OMZN''TEGGLP' run 'i2cget -f -y 2 0x60 0x28'
OMZNTEGGLP0x1e
OMZNTEGGLP 0
root@arm:~# echo 'UELJ''OHBQBA'
UELJOHBQBA
root@arm:~# MARKER='ACFK''JGJXCP' run 'i2cget -y -f 2 0x60 0x21'
ACFKJGJXCP0xce
ACFKJGJXCP 0
root@arm:~# echo 'CMOY''JQHKTT'
CMOYJQHKTT
root@arm:~# MARKER='MUBF''CZSOPZ' run 'i2cget -y -f 2 0x60 0x21'
MUBFCZSOPZ0xce
MUBFCZSOPZ 0
root@arm:~# echo 'TWOJ''KJSLUT'
TWOJKJSLUT
root@arm:~# MARKER='ZMJU''LGXCMG' run 'echo 2110000 2110000 > /sys/kernel/mva_tesst/regulators/buck1_set'
ZMJULGXCMGZMJULGXCMG 0
root@arm:~# echo 'EXYL''JPHZPO'
EXYLJPHZPO
root@arm:~# MARKER='UWKE''BPZEBT' run 'i2cget -f -y 2 0x60 0x28'
UWKEBPZEBT0x1f
UWKEBPZEBT 0
root@arm:~# echo 'LOQO''NTPAQT'
LOQONTPAQT
root@arm:~# MARKER='BTSG''ZQABKP' run 'i2cget -y -f 2 0x60 0x21'
BTSGZQABKP0xce
BTSGZQABKP 0
root@arm:~# echo 'LSJB''KUCZFW'
LSJBKUCZFW
root@arm:~# MARKER='UEXH''JNAUUZ' run 'i2cget -y -f 2 0x60 0x21'
UEXHJNAUUZ0xce
UEXHJNAUUZ 0
root@arm:~# echo 'FYMY''KWTBTL'
FYMYKWTBTL
root@arm:~# MARKER='XQSY''MECQYP' run 'echo 1490000 1490000 > /sys/kernel/mva_tesst/regulators/buck1_set'
XQSYMECQYPXQSYMECQYP 0
root@arm:~# echo 'MZMT''JPNTFZ'
MZMTJPNTFZ
root@arm:~# MARKER='PCSL''CJAKJW' run 'i2cget -f -y 2 0x60 0x28'
PCSLCJAKJW0x20
PCSLCJAKJW 0
root@arm:~# echo 'YHUT''BBYFZL'
YHUTBBYFZL
root@arm:~# MARKER='JYFN''JPBKOX' run 'i2cget -y -f 2 0x60 0x21'
JYFNJPBKOX0xce
JYFNJPBKOX 0
root@arm:~# echo 'KFEZ''QBMHJE'
KFEZQBMHJE
root@arm:~# MARKER='KYZX''JWKKCN' run 'i2cget -y -f 2 0x60 0x21'
KYZXJWKKCN0xce
KYZXJWKKCN 0
root@arm:~# echo 'YZSO''NFPSPH'
YZSONFPSPH
root@arm:~# MARKER='PNXO''ELOCCQ' run 'echo 1500000 1500000 > /sys/kernel/mva_tesst/regulators/buck1_set'
PNXOELOCCQPNXOELOCCQ 0
root@arm:~# echo 'QCSZ''NLPPSH'
QCSZNLPPSH
root@arm:~# MARKER='WWTZ''BEHMKW' run 'i2cget -f -y 2 0x60 0x28'
WWTZBEHMKW0x21
WWTZBEHMKW 0
root@arm:~# echo 'USMB''CCAXHZ'
USMBCCAXHZ
root@arm:~# MARKER='QQAY''VFFBAK' run 'i2cget -y -f 2 0x60 0x21'
QQAYVFFBAK0xce
QQAYVFFBAK 0
root@arm:~# echo 'FZUH''ZSGFNJ'
FZUHZSGFNJ
root@arm:~# MARKER='SUCB''NAAOJO' run 'i2cget -y -f 2 0x60 0x21'
SUCBNAAOJO0xce
SUCBNAAOJO 0
root@arm:~# echo 'FZBE''MMNTOB'
FZBEMMNTOB
root@arm:~# MARKER='CUVP''WSWYKM' run 'echo 1510000 1510000 > /sys/kernel/mva_tesst/regulators/buck1_set'
CUVPWSWYKMCUVPWSWYKM 0
root@arm:~# echo 'EXBB''MLSJJP'
EXBBMLSJJP
root@arm:~# MARKER='MHJP''TJFVTN' run 'i2cget -f -y 2 0x60 0x28'
MHJPTJFVTN0x22
MHJPTJFVTN 0
root@arm:~# echo 'YSGC''SNNCZH'
YSGCSNNCZH
root@arm:~# MARKER='LZNU''BAVLQB' run 'i2cget -y -f 2 0x60 0x21'
LZNUBAVLQB0xce
LZNUBAVLQB 0
root@arm:~# echo 'XBCP''PPMJUB'
XBCPPPMJUB
root@arm:~# MARKER='YGFU''XSLUYC' run 'i2cget -y -f 2 0x60 0x21'
YGFUXSLUYC0xce
YGFUXSLUYC 0
root@arm:~# echo 'GLMB''UPATUH'
GLMBUPATUH
root@arm:~# MARKER='HSZQ''NYJSYL' run 'echo 1520000 1520000 > /sys/kernel/mva_tesst/regulators/buck1_set'
HSZQNYJSYLHSZQNYJSYL 0
root@arm:~# echo 'ZHGS''VOJNHW'
ZHGSVOJNHW
root@arm:~# MARKER='HWOL''FHCMXT' run 'i2cget -f -y 2 0x60 0x28'
HWOLFHCMXT0x23
HWOLFHCMXT 0
root@arm:~# echo 'TOAT''MAOTBC'
TOATMAOTBC
root@arm:~# MARKER='HPJJ''KPCVVJ' run 'i2cget -y -f 2 0x60 0x21'
HPJJKPCVVJ0xce
HPJJKPCVVJ 0
root@arm:~# echo 'WMJE''CFYGUW'
WMJECFYGUW
root@arm:~# MARKER='SJYF''KAJHGV' run 'i2cget -y -f 2 0x60 0x21'
SJYFKAJHGV0xce
SJYFKAJHGV 0
root@arm:~# echo 'YXJM''MBNQLS'
YXJMMBNQLS
root@arm:~# MARKER='MSQF''APMLPC' run 'echo 1530000 1530000 > /sys/kernel/mva_tesst/regulators/buck1_set'
MSQFAPMLPCMSQFAPMLPC 0
root@arm:~# echo 'ZLFL''AOCEBO'
ZLFLAOCEBO
root@arm:~# MARKER='YXWH''VOTPFJ' run 'i2cget -f -y 2 0x60 0x28'
YXWHVOTPFJ0x24
YXWHVOTPFJ 0
root@arm:~# echo 'TQUA''SYCPUU'
TQUASYCPUU
root@arm:~# MARKER='OAHS''BBOBQM' run 'i2cget -y -f 2 0x60 0x21'
OAHSBBOBQM0xce
OAHSBBOBQM 0
root@arm:~# echo 'ZCNE''OGLHMZ'
ZCNEOGLHMZ
root@arm:~# MARKER='FUYL''TGAHQP' run 'i2cget -y -f 2 0x60 0x21'
FUYLTGAHQP0xce
FUYLTGAHQP 0
root@arm:~# echo 'PTWY''XTUAJE'
PTWYXTUAJE
root@arm:~# MARKER='XCQE''JBMPOH' run 'echo 1540000 1540000 > /sys/kernel/mva_tesst/regulators/buck1_set'
XCQEJBMPOHXCQEJBMPOH 0
root@arm:~# echo 'JWPY''GPQMBU'
JWPYGPQMBU
root@arm:~# MARKER='FTXE''PCZQJW' run 'i2cget -f -y 2 0x60 0x28'
FTXEPCZQJW0x25
FTXEPCZQJW 0
root@arm:~# echo 'NNZS''JXZSBL'
NNZSJXZSBL
root@arm:~# MARKER='ZEVJ''UQUQAJ' run 'i2cget -y -f 2 0x60 0x21'
ZEVJUQUQAJ0xce
ZEVJUQUQAJ 0
root@arm:~# echo 'OMNW''GBUBHM'
OMNWGBUBHM
root@arm:~# MARKER='UGHF''QEJTZK' run 'i2cget -y -f 2 0x60 0x21'
UGHFQEJTZK0xce
UGHFQEJTZK 0
root@arm:~# echo 'NPZC''UGZCZZ'
NPZCUGZCZZ
root@arm:~# MARKER='LWVS''OBCCBO' run 'echo 1550000 1550000 > /sys/kernel/mva_tesst/regulators/buck1_set'
LWVSOBCCBOLWVSOBCCBO 0
root@arm:~# echo 'HSXW''NACTPO'
HSXWNACTPO
root@arm:~# MARKER='EKHM''MQHVEQ' run 'i2cget -f -y 2 0x60 0x28'
EKHMMQHVEQ0x26
EKHMMQHVEQ 0
root@arm:~# echo 'EYKN''BVFVBG'
EYKNBVFVBG
root@arm:~# MARKER='NHEB''BLXZPM' run 'i2cget -y -f 2 0x60 0x21'
NHEBBLXZPM0xce
NHEBBLXZPM 0
root@arm:~# echo 'BCPP''AFAOQV'
BCPPAFAOQV
root@arm:~# MARKER='QKOY''FCPVNW' run 'i2cget -y -f 2 0x60 0x21'
QKOYFCPVNW0xce
QKOYFCPVNW 0
root@arm:~# echo 'LHUK''JHNHMH'
LHUKJHNHMH
root@arm:~# MARKER='EWGQ''AQHMZJ' run 'echo 1560000 1560000 > /sys/kernel/mva_tesst/regulators/buck1_set'
EWGQAQHMZJEWGQAQHMZJ 0
root@arm:~# echo 'CMEX''TEGHME'
CMEXTEGHME
root@arm:~# MARKER='FSUS''YCKEXK' run 'i2cget -f -y 2 0x60 0x28'
FSUSYCKEXK0x27
FSUSYCKEXK 0
root@arm:~# echo 'VSYV''NAUZWH'
VSYVNAUZWH
root@arm:~# MARKER='HAES''WHEHQH' run 'i2cget -y -f 2 0x60 0x21'
HAESWHEHQH0xce
HAESWHEHQH 0
root@arm:~# echo 'GFNA''AUKWCO'
GFNAAUKWCO
root@arm:~# MARKER='UMSM''XVJPCN' run 'i2cget -y -f 2 0x60 0x21'
UMSMXVJPCN0xce
UMSMXVJPCN 0
root@arm:~# echo 'FLZH''OYBKKQ'
FLZHOYBKKQ
root@arm:~# MARKER='LQHK''TAXAUJ' run 'echo 1570000 1570000 > /sys/kernel/mva_tesst/regulators/buck1_set'
LQHKTAXAUJLQHKTAXAUJ 0
root@arm:~# echo 'FULP''NYLTBJ'
FULPNYLTBJ
root@arm:~# MARKER='NYHX''UJUNBM' run 'i2cget -f -y 2 0x60 0x28'
NYHXUJUNBM0x28
NYHXUJUNBM 0
root@arm:~# echo 'XHVP''ZNPGZO'
XHVPZNPGZO
root@arm:~# MARKER='UOGH''LOBZSU' run 'i2cget -y -f 2 0x60 0x21'
UOGHLOBZSU0xce
UOGHLOBZSU 0
root@arm:~# echo 'AMNG''LBHZZN'
AMNGLBHZZN
root@arm:~# MARKER='UCPO''SCTMSF' run 'i2cget -y -f 2 0x60 0x21'
UCPOSCTMSF0xce
UCPOSCTMSF 0
root@arm:~# echo 'BFFZ''PWMAJE'
BFFZPWMAJE
root@arm:~# MARKER='SHWT''XQKQYH' run 'echo 1580000 1580000 > /sys/kernel/mva_tesst/regulators/buck1_set'
SHWTXQKQYHSHWTXQKQYH 0
root@arm:~# echo 'VMFW''EMSHES'
VMFWEMSHES
root@arm:~# MARKER='TLHP''PQPGMX' run 'i2cget -f -y 2 0x60 0x28'
TLHPPQPGMX0x29
TLHPPQPGMX 0
root@arm:~# echo 'SCTM''HMZUGG'
SCTMHMZUGG
root@arm:~# MARKER='EAXJ''CEXJEF' run 'i2cget -y -f 2 0x60 0x21'
EAXJCEXJEF0xce
EAXJCEXJEF 0
root@arm:~# echo 'CUNF''TSPPHG'
CUNFTSPPHG
root@arm:~# MARKER='FGHP''JUBGBB' run 'i2cget -y -f 2 0x60 0x21'
FGHPJUBGBB0xce
FGHPJUBGBB 0
root@arm:~# echo 'AAEL''ZZYJUH'
AAELZZYJUH
root@arm:~# MARKER='TYNX''XGVZXM' run 'echo 1590000 1590000 > /sys/kernel/mva_tesst/regulators/buck1_set'
TYNXXGVZXMTYNXXGVZXM 0
root@arm:~# echo 'VPQZ''JWSPWP'
VPQZJWSPWP
root@arm:~# MARKER='GBQG''KQWGGH' run 'i2cget -f -y 2 0x60 0x28'
GBQGKQWGGH0x2a
GBQGKQWGGH 0
root@arm:~# echo 'PYKL''ZOHQOO'
PYKLZOHQOO
root@arm:~# MARKER='KHOP''KBBHQW' run 'i2cget -y -f 2 0x60 0x21'
KHOPKBBHQW0xce
KHOPKBBHQW 0
root@arm:~# echo 'JULX''YKWSYE'
JULXYKWSYE
root@arm:~# MARKER='BENZ''CNWKZJ' run 'i2cget -y -f 2 0x60 0x21'
BENZCNWKZJ0xce
BENZCNWKZJ 0
root@arm:~# echo 'BTSE''USCSZE'
BTSEUSCSZE
root@arm:~# MARKER='QMLM''OEJGYS' run 'echo 1600000 1600000 > /sys/kernel/mva_tesst/regulators/buck1_set'
QMLMOEJGYSQMLMOEJGYS 0
root@arm:~# echo 'EYNS''AWTJFU'
EYNSAWTJFU
root@arm:~# MARKER='CXUQ''FYFALT' run 'i2cget -f -y 2 0x60 0x28'
CXUQFYFALT0x2b
CXUQFYFALT 0
root@arm:~# echo 'FMSU''EHAYGS'
FMSUEHAYGS
root@arm:~# MARKER='ZMVK''XBMHVQ' run 'i2cget -y -f 2 0x60 0x21'
ZMVKXBMHVQ0xce
ZMVKXBMHVQ 0
root@arm:~# echo 'NJYX''GJBMFH'
NJYXGJBMFH
root@arm:~# MARKER='FTVB''BHYQNW' run 'i2cget -y -f 2 0x60 0x21'
FTVBBHYQNW0xce
FTVBBHYQNW 0
root@arm:~# echo 'HGFU''KUPXQU'
HGFUKUPXQU
root@arm:~# MARKER='SZOA''MXVNHM' run 'echo 1610000 1610000 > /sys/kernel/mva_tesst/regulators/buck1_set'
SZOAMXVNHMSZOAMXVNHM 0
root@arm:~# echo 'JCEV''WBWSCZ'
JCEVWBWSCZ
root@arm:~# MARKER='YYMC''ASFSFV' run 'i2cget -f -y 2 0x60 0x28'
YYMCASFSFV0x2c
YYMCASFSFV 0
root@arm:~# echo 'EPOT''KQBHQT'
EPOTKQBHQT
root@arm:~# MARKER='CNMB''BKPSOB' run 'i2cget -y -f 2 0x60 0x21'
CNMBBKPSOB0xce
CNMBBKPSOB 0
root@arm:~# echo 'CUWZ''MUWVSX'
CUWZMUWVSX
root@arm:~# MARKER='TCVX''CKXMHU' run 'i2cget -y -f 2 0x60 0x21'
TCVXCKXMHU0xce
TCVXCKXMHU 0
root@arm:~# echo 'VZLJ''XOYGJM'
VZLJXOYGJM
root@arm:~# MARKER='LOPM''PVHEWV' run 'echo 1620000 1620000 > /sys/kernel/mva_tesst/regulators/buck1_set'
LOPMPVHEWVLOPMPVHEWV 0
root@arm:~# echo 'ALJN''EHGKOF'
ALJNEHGKOF
root@arm:~# MARKER='TMGF''OYCGYS' run 'i2cget -f -y 2 0x60 0x28'
TMGFOYCGYS0x2d
TMGFOYCGYS 0
root@arm:~# echo 'QPWU''YBGWYY'
QPWUYBGWYY
root@arm:~# MARKER='HKJH''HKLAWS' run 'i2cget -y -f 2 0x60 0x21'
HKJHHKLAWS0xce
HKJHHKLAWS 0
root@arm:~# echo 'EYXA''AFBKHT'
EYXAAFBKHT
root@arm:~# MARKER='TWCC''HYUPCK' run 'i2cget -y -f 2 0x60 0x21'
TWCCHYUPCK0xce
TWCCHYUPCK 0
root@arm:~# echo 'WTYK''YJNGJX'
WTYKYJNGJX
root@arm:~# MARKER='XOOM''CKGQKW' run 'echo 1630000 1630000 > /sys/kernel/mva_tesst/regulators/buck1_set'
XOOMCKGQKWXOOMCKGQKW 0
root@arm:~# echo 'NXVS''JGLFYZ'
NXVSJGLFYZ
root@arm:~# MARKER='BQZO''VPTHKB' run 'i2cget -f -y 2 0x60 0x28'
BQZOVPTHKB0x2e
BQZOVPTHKB 0
root@arm:~# echo 'AMHC''WKMHXO'
AMHCWKMHXO
root@arm:~# MARKER='PAHL''SZBAJE' run 'i2cget -y -f 2 0x60 0x21'
PAHLSZBAJE0xce
PAHLSZBAJE 0
root@arm:~# echo 'EGEB''HEPMMT'
EGEBHEPMMT
root@arm:~# MARKER='ZAHT''SZCMAW' run 'i2cget -y -f 2 0x60 0x21'
ZAHTSZCMAW0xce
ZAHTSZCMAW 0
root@arm:~# echo 'HCOP''GQLNBN'
HCOPGQLNBN
root@arm:~# MARKER='QGBS''EHQWWA' run 'echo 1640000 1640000 > /sys/kernel/mva_tesst/regulators/buck1_set'
QGBSEHQWWAQGBSEHQWWA 0
root@arm:~# echo 'YYWS''EWMNTT'
YYWSEWMNTT
root@arm:~# MARKER='GJLC''OASGGF' run 'i2cget -f -y 2 0x60 0x28'
GJLCOASGGF0x2f
GJLCOASGGF 0
root@arm:~# echo 'CWUU''TNGJEX'
CWUUTNGJEX
root@arm:~# MARKER='PHUT''EGUUGB' run 'i2cget -y -f 2 0x60 0x21'
PHUTEGUUGB0xce
PHUTEGUUGB 0
root@arm:~# echo 'FVEW''QAOOLJ'
FVEWQAOOLJ
root@arm:~# MARKER='BYUY''YCOLJC' run 'i2cget -y -f 2 0x60 0x21'
BYUYYCOLJC0xce
BYUYYCOLJC 0
root@arm:~# echo 'TCYK''SZZAMP'
TCYKSZZAMP
root@arm:~# MARKER='ZWME''SMUCVA' run 'echo 1650000 1650000 > /sys/kernel/mva_tesst/regulators/buck1_set'
ZWMESMUCVAZWMESMUCVA 0
root@arm:~# echo 'XTZQ''FEVNBB'
XTZQFEVNBB
root@arm:~# MARKER='EZGV''QHOBYX' run 'i2cget -f -y 2 0x60 0x28'
EZGVQHOBYX0x30
EZGVQHOBYX 0
root@arm:~# echo 'GZXJ''XSBMJZ'
GZXJXSBMJZ
root@arm:~# MARKER='NYTJ''BPJWSJ' run 'i2cget -y -f 2 0x60 0x21'
NYTJBPJWSJ0xce
NYTJBPJWSJ 0
root@arm:~# echo 'PVGK''UQYYFS'
PVGKUQYYFS
root@arm:~# MARKER='WMTM''PTGLYN' run 'i2cget -y -f 2 0x60 0x21'
WMTMPTGLYN0xce
WMTMPTGLYN 0
root@arm:~# echo 'VNYE''BAVKWP'
VNYEBAVKWP
root@arm:~# MARKER='KUHH''SVUFOM' run 'echo 1660000 1660000 > /sys/kernel/mva_tesst/regulators/buck1_set'
KUHHSVUFOMKUHHSVUFOM 0
root@arm:~# echo 'PHVA''ZZSYMU'
PHVAZZSYMU
root@arm:~# MARKER='ZAZW''LEFZLX' run 'i2cget -f -y 2 0x60 0x28'
ZAZWLEFZLX0x31
ZAZWLEFZLX 0
root@arm:~# echo 'YWLL''PLSYOY'
YWLLPLSYOY
root@arm:~# MARKER='WKTJ''OBMXPZ' run 'i2cget -y -f 2 0x60 0x21'
WKTJOBMXPZ0xce
WKTJOBMXPZ 0
root@arm:~# echo 'ZCQK''NFEMAX'
ZCQKNFEMAX
root@arm:~# MARKER='XQSV''BOUKEL' run 'i2cget -y -f 2 0x60 0x21'
XQSVBOUKEL0xce
XQSVBOUKEL 0
root@arm:~# echo 'HLFU''XUFBAE'
HLFUXUFBAE
root@arm:~# MARKER='CTGT''CLUXHQ' run 'echo 1670000 1670000 > /sys/kernel/mva_tesst/regulators/buck1_set'
CTGTCLUXHQCTGTCLUXHQ 0
root@arm:~# echo 'YANE''UPCXEG'
YANEUPCXEG
root@arm:~# MARKER='CWNP''WLPTXQ' run 'i2cget -f -y 2 0x60 0x28'
CWNPWLPTXQ0x32
CWNPWLPTXQ 0
root@arm:~# echo 'PCSL''BVUUQL'
PCSLBVUUQL
root@arm:~# MARKER='UNNE''CWGYFN' run 'i2cget -y -f 2 0x60 0x21'
UNNECWGYFN0xce
UNNECWGYFN 0
root@arm:~# echo 'QYTH''ZWYHEJ'
QYTHZWYHEJ
root@arm:~# MARKER='CGFQ''NLTUPB' run 'i2cget -y -f 2 0x60 0x21'
CGFQNLTUPB0xce
CGFQNLTUPB 0
root@arm:~# echo 'GWZE''KGCPJE'
GWZEKGCPJE
root@arm:~# MARKER='JGCH''SUVGZV' run 'echo 1680000 1680000 > /sys/kernel/mva_tesst/regulators/buck1_set'
JGCHSUVGZVJGCHSUVGZV 0
root@arm:~# echo 'JAZM''QVGCET'
JAZMQVGCET
root@arm:~# MARKER='YMWE''LQETWO' run 'i2cget -f -y 2 0x60 0x28'
YMWELQETWO0x33
YMWELQETWO 0
root@arm:~# echo 'EJGF''BBEBCU'
EJGFBBEBCU
root@arm:~# MARKER='YPWE''XNOLJZ' run 'i2cget -y -f 2 0x60 0x21'
YPWEXNOLJZ0xce
YPWEXNOLJZ 0
root@arm:~# echo 'HQPC''JLFGVY'
HQPCJLFGVY
root@arm:~# MARKER='KLJO''CHQFVM' run 'i2cget -y -f 2 0x60 0x21'
KLJOCHQFVM0xce
KLJOCHQFVM 0
root@arm:~# echo 'NNLX''ZYKWMA'
NNLXZYKWMA
root@arm:~# MARKER='MJOZ''KWLZCL' run 'echo 1690000 1690000 > /sys/kernel/mva_tesst/regulators/buck1_set'
MJOZKWLZCLMJOZKWLZCL 0
root@arm:~# echo 'QWVJ''EVCSGB'
QWVJEVCSGB
root@arm:~# MARKER='XPVM''XPNNXH' run 'i2cget -f -y 2 0x60 0x28'
XPVMXPNNXH0x34
XPVMXPNNXH 0
root@arm:~# echo 'CGFP''XGOTKP'
CGFPXGOTKP
root@arm:~# MARKER='LWOH''GVNWCA' run 'i2cget -y -f 2 0x60 0x21'
LWOHGVNWCA0xce
LWOHGVNWCA 0
root@arm:~# echo 'LXZP''EAYSSL'
LXZPEAYSSL
root@arm:~# MARKER='YLYO''SYWJKP' run 'i2cget -y -f 2 0x60 0x21'
YLYOSYWJKP0xce
YLYOSYWJKP 0
root@arm:~# echo 'POCP''OGKSOK'
POCPOGKSOK
root@arm:~# MARKER='ZQUV''WPXKNC' run 'echo 1700000 1700000 > /sys/kernel/mva_tesst/regulators/buck1_set'
ZQUVWPXKNCZQUVWPXKNC 0
root@arm:~# echo 'UKHV''GNWXEK'
UKHVGNWXEK
root@arm:~# MARKER='VQNB''EHSCPM' run 'i2cget -f -y 2 0x60 0x28'
VQNBEHSCPM0x35
VQNBEHSCPM 0
root@arm:~# echo 'AJHJ''VKVVZY'
AJHJVKVVZY
root@arm:~# MARKER='BSWM''WAMVTZ' run 'i2cget -y -f 2 0x60 0x21'
BSWMWAMVTZ0xce
BSWMWAMVTZ 0
root@arm:~# echo 'XJLL''JLJKOQ'
XJLLJLJKOQ
root@arm:~# MARKER='MZAY''XEBBWN' run 'i2cget -y -f 2 0x60 0x21'
MZAYXEBBWN0xce
MZAYXEBBWN 0
root@arm:~# echo 'PBGZ''SPYYTC'
PBGZSPYYTC
root@arm:~# MARKER='EPUF''YHEXFF' run 'echo 1710000 1710000 > /sys/kernel/mva_tesst/regulators/buck1_set'
EPUFYHEXFFEPUFYHEXFF 0
root@arm:~# echo 'LCQQ''VLPNXW'
LCQQVLPNXW
root@arm:~# MARKER='UYJK''QJXCAO' run 'i2cget -f -y 2 0x60 0x28'
UYJKQJXCAO0x36
UYJKQJXCAO 0
root@arm:~# echo 'XMXB''PCOAOM'
XMXBPCOAOM
root@arm:~# MARKER='ELSZ''QKTONO' run 'i2cget -y -f 2 0x60 0x21'
ELSZQKTONO0xce
ELSZQKTONO 0
root@arm:~# echo 'QZFB''JSFXKE'
QZFBJSFXKE
root@arm:~# MARKER='MPBL''ZLPVOF' run 'i2cget -y -f 2 0x60 0x21'
MPBLZLPVOF0xce
MPBLZLPVOF 0
root@arm:~# echo 'SACT''BKUTNJ'
SACTBKUTNJ
root@arm:~# MARKER='VUKH''APCPHF' run 'echo 1720000 1720000 > /sys/kernel/mva_tesst/regulators/buck1_set'
VUKHAPCPHFVUKHAPCPHF 0
root@arm:~# echo 'LSGA''ZVPGTM'
LSGAZVPGTM
root@arm:~# MARKER='YOBE''OCXMJT' run 'i2cget -f -y 2 0x60 0x28'
YOBEOCXMJT0x37
YOBEOCXMJT 0
root@arm:~# echo 'ZUML''QOOXQK'
ZUMLQOOXQK
root@arm:~# MARKER='GBLJ''AZWSTL' run 'i2cget -y -f 2 0x60 0x21'
GBLJAZWSTL0xce
GBLJAZWSTL 0
root@arm:~# echo 'XOBS''VLPOFX'
XOBSVLPOFX
root@arm:~# MARKER='PQLB''KEPJWW' run 'i2cget -y -f 2 0x60 0x21'
PQLBKEPJWW0xce
PQLBKEPJWW 0
root@arm:~# echo 'GEWX''XMXXPH'
GEWXXMXXPH
root@arm:~# MARKER='ZQKJ''PCEMTB' run 'echo 1730000 1730000 > /sys/kernel/mva_tesst/regulators/buck1_set'
ZQKJPCEMTBZQKJPCEMTB 0
root@arm:~# echo 'BBSJ''XGQYYG'
BBSJXGQYYG
root@arm:~# MARKER='KPJU''WYBSCY' run 'i2cget -f -y 2 0x60 0x28'
KPJUWYBSCY0x38
KPJUWYBSCY 0
root@arm:~# echo 'NYXN''LUVWJE'
NYXNLUVWJE
root@arm:~# MARKER='QKTY''SATXKJ' run 'i2cget -y -f 2 0x60 0x21'
QKTYSATXKJ0xce
QKTYSATXKJ 0
root@arm:~# echo 'SXNV''AQVGKB'
SXNVAQVGKB
root@arm:~# MARKER='JPLG''EUEKYK' run 'i2cget -y -f 2 0x60 0x21'
JPLGEUEKYK0xce
JPLGEUEKYK 0
root@arm:~# echo 'NTTJ''ZANOZW'
NTTJZANOZW
root@arm:~# MARKER='ASKE''ZSEJZC' run 'echo 1740000 1740000 > /sys/kernel/mva_tesst/regulators/buck1_set'
ASKEZSEJZCASKEZSEJZC 0
root@arm:~# echo 'AOCZ''XWEZPQ'
AOCZXWEZPQ
root@arm:~# MARKER='FFEZ''HJPSFZ' run 'i2cget -f -y 2 0x60 0x28'
FFEZHJPSFZ0x39
FFEZHJPSFZ 0
root@arm:~# echo 'HFCJ''UOUXJL'
HFCJUOUXJL
root@arm:~# MARKER='LSJB''QWPBOO' run 'i2cget -y -f 2 0x60 0x21'
LSJBQWPBOO0xce
LSJBQWPBOO 0
root@arm:~# echo 'STLV''HYLCFU'
STLVHYLCFU
root@arm:~# MARKER='OMKZ''UGJNPZ' run 'i2cget -y -f 2 0x60 0x21'
OMKZUGJNPZ0xce
OMKZUGJNPZ 0
root@arm:~# echo 'LVWN''APMBMC'
LVWNAPMBMC
root@arm:~# MARKER='LVPN''ECUWZA' run 'echo 1750000 1750000 > /sys/kernel/mva_tesst/regulators/buck1_set'
LVPNECUWZALVPNECUWZA 0
root@arm:~# echo 'NVAH''OPBSOY'
NVAHOPBSOY
root@arm:~# MARKER='VQXC''GMKZFJ' run 'i2cget -f -y 2 0x60 0x28'
VQXCGMKZFJ0x3a
VQXCGMKZFJ 0
root@arm:~# echo 'YNKH''CMYGHJ'
YNKHCMYGHJ
root@arm:~# MARKER='SQGS''LQQBJS' run 'i2cget -y -f 2 0x60 0x21'
SQGSLQQBJS0xce
SQGSLQQBJS 0
root@arm:~# echo 'XBBW''JCXNEO'
XBBWJCXNEO
root@arm:~# MARKER='QGGT''LCWHTU' run 'i2cget -y -f 2 0x60 0x21'
QGGTLCWHTU0xce
QGGTLCWHTU 0
root@arm:~# echo 'KELO''YSYOLU'
KELOYSYOLU
root@arm:~# MARKER='OMYC''VHTFAH' run 'echo 1760000 1760000 > /sys/kernel/mva_tesst/regulators/buck1_set'
OMYCVHTFAHOMYCVHTFAH 0
root@arm:~# echo 'KNWG''OQZWSC'
KNWGOQZWSC
root@arm:~# MARKER='PJXM''MHEMWF' run 'i2cget -f -y 2 0x60 0x28'
PJXMMHEMWF0x3b
PJXMMHEMWF 0
root@arm:~# echo 'OXJJ''YMVUQS'
OXJJYMVUQS
root@arm:~# MARKER='JMXQ''PEUTLV' run 'i2cget -y -f 2 0x60 0x21'
JMXQPEUTLV0xce
JMXQPEUTLV 0
root@arm:~# echo 'QYCX''JPWWWQ'
QYCXJPWWWQ
root@arm:~# MARKER='LLMB''ZVVKWA' run 'i2cget -y -f 2 0x60 0x21'
LLMBZVVKWA0xce
LLMBZVVKWA 0
root@arm:~# echo 'WOOK''XSHKVA'
WOOKXSHKVA
root@arm:~# MARKER='QGZS''AMMUBX' run 'echo 1770000 1770000 > /sys/kernel/mva_tesst/regulators/buck1_set'
QGZSAMMUBXQGZSAMMUBX 0
root@arm:~# echo 'HBJF''YHHVTQ'
HBJFYHHVTQ
root@arm:~# MARKER='NAAM''EEMGAL' run 'i2cget -f -y 2 0x60 0x28'
NAAMEEMGAL0x3c
NAAMEEMGAL 0
root@arm:~# echo 'EPGZ''YUSJLP'
EPGZYUSJLP
root@arm:~# MARKER='KGKB''OKVMJH' run 'i2cget -y -f 2 0x60 0x21'
KGKBOKVMJH0xce
KGKBOKVMJH 0
root@arm:~# echo 'GEOK''JWXHBB'
GEOKJWXHBB
root@arm:~# MARKER='VBLG''NTBSWL' run 'i2cget -y -f 2 0x60 0x21'
VBLGNTBSWL0xce
VBLGNTBSWL 0
root@arm:~# echo 'WZKA''PQSOTC'
WZKAPQSOTC
root@arm:~# MARKER='WVPF''ASQJTK' run 'echo 1780000 1780000 > /sys/kernel/mva_tesst/regulators/buck1_set'
WVPFASQJTKWVPFASQJTK 0
root@arm:~# echo 'JBOY''XJBOHF'
JBOYXJBOHF
root@arm:~# MARKER='NOUV''OZPBQW' run 'i2cget -f -y 2 0x60 0x28'
NOUVOZPBQW0x3d
NOUVOZPBQW 0
root@arm:~# echo 'ZAWU''FALEYM'
ZAWUFALEYM
root@arm:~# MARKER='SWBX''GPFAZB' run 'i2cget -y -f 2 0x60 0x21'
SWBXGPFAZB0xce
SWBXGPFAZB 0
root@arm:~# echo 'UAST''SNJMNU'
UASTSNJMNU
root@arm:~# MARKER='BLKU''JCXLHZ' run 'i2cget -y -f 2 0x60 0x21'
BLKUJCXLHZ0xce
BLKUJCXLHZ 0
root@arm:~# echo 'PXNU''VAGPUL'
PXNUVAGPUL
root@arm:~# MARKER='WTSW''UTJSFX' run 'echo 1790000 1790000 > /sys/kernel/mva_tesst/regulators/buck1_set'
WTSWUTJSFXWTSWUTJSFX 0
root@arm:~# echo 'QBFC''NTMCBZ'
QBFCNTMCBZ
root@arm:~# MARKER='KTYE''ACNVEQ' run 'i2cget -f -y 2 0x60 0x28'
KTYEACNVEQ0x3e
KTYEACNVEQ 0
root@arm:~# echo 'HOGN''XKUAVT'
HOGNXKUAVT
root@arm:~# MARKER='YKCL''AWQUNQ' run 'i2cget -y -f 2 0x60 0x21'
YKCLAWQUNQ0xce
YKCLAWQUNQ 0
root@arm:~# echo 'FTAG''EAMBPG'
FTAGEAMBPG
root@arm:~# MARKER='JAVA''HSJBBM' run 'i2cget -y -f 2 0x60 0x21'
JAVAHSJBBM0xce
JAVAHSJBBM 0
root@arm:~# echo 'WMAN''MXEUBS'
WMANMXEUBS
root@arm:~# MARKER='YFZS''XVVJQQ' run 'echo 1800000 1800000 > /sys/kernel/mva_tesst/regulators/buck1_set'
YFZSXVVJQQYFZSXVVJQQ 0
root@arm:~# echo 'NKPA''BEYYBT'
NKPABEYYBT
root@arm:~# MARKER='VGPG''HKQYMQ' run 'i2cget -f -y 2 0x60 0x28'
VGPGHKQYMQ0x00
VGPGHKQYMQ 0
root@arm:~# echo 'PGCM''CAFHAX'
PGCMCAFHAX
root@arm:~# MARKER='CFZA''QMCCAN' run 'i2cget -y -f 2 0x60 0x21'
CFZAQMCCAN0xce
CFZAQMCCAN 0
root@arm:~# echo 'LEAV''SNWCYC'
LEAVSNWCYC
root@arm:~# MARKER='WBJK''YHOLYX' run 'i2cget -y -f 2 0x60 0x22'
WBJKYHOLYX0x78
WBJKYHOLYX 0
root@arm:~# echo 'EFXG''FTPLXG'
EFXGFTPLXG
root@arm:~# MARKER='QAFU''VOJJHA' run 'echo 1100000 1100000 > /sys/kernel/mva_tesst/regulators/buck2_set'
QAFUVOJJHAQAFUVOJJHA 0
root@arm:~# echo 'LKXV''SFXNBE'
LKXVSFXNBE
root@arm:~# MARKER='WYNZ''MYQFNZ' run 'i2cget -f -y 2 0x60 0x29'
WYNZMYQFNZ0x40
WYNZMYQFNZ 0
root@arm:~# echo 'QGXG''UMWUBP'
QGXGUMWUBP
root@arm:~# MARKER='VGXW''UXESST' run 'i2cget -y -f 2 0x60 0x22'
VGXWUXESST0x78
VGXWUXESST 0
root@arm:~# echo 'UPGV''BKQKZK'
UPGVBKQKZK
root@arm:~# MARKER='NQAG''KBXCSQ' run 'i2cget -y -f 2 0x60 0x22'
NQAGKBXCSQ0x78
NQAGKBXCSQ 0
root@arm:~# echo 'HAZK''NPTJWS'
HAZKNPTJWS
root@arm:~# MARKER='BCAL''OKEUUL' run 'echo 1110000 1110000 > /sys/kernel/mva_tesst/regulators/buck2_set'
BCALOKEUULBCALOKEUUL 0
root@arm:~# echo 'QMNO''AWOWHZ'
QMNOAWOWHZ
root@arm:~# MARKER='WYYU''TOLYUT' run 'i2cget -f -y 2 0x60 0x29'
WYYUTOLYUT0x41
WYYUTOLYUT 0
root@arm:~# echo 'HVAO''JOPKCV'
HVAOJOPKCV
root@arm:~# MARKER='LFMM''JNSZMZ' run 'i2cget -y -f 2 0x60 0x22'
LFMMJNSZMZ0x78
LFMMJNSZMZ 0
root@arm:~# echo 'KPMJ''PPXMJJ'
KPMJPPXMJJ
root@arm:~# MARKER='WFCA''KTGOPM' run 'i2cget -y -f 2 0x60 0x22'
WFCAKTGOPM0x78
WFCAKTGOPM 0
root@arm:~# echo 'QEKO''VCGCJM'
QEKOVCGCJM
root@arm:~# MARKER='AMYB''XYBOCU' run 'echo 1120000 1120000 > /sys/kernel/mva_tesst/regulators/buck2_set'
AMYBXYBOCUAMYBXYBOCU 0
root@arm:~# echo 'MASP''NNVMHJ'
MASPNNVMHJ
root@arm:~# MARKER='VKGW''GHFEWT' run 'i2cget -f -y 2 0x60 0x29'
VKGWGHFEWT0x42
VKGWGHFEWT 0
root@arm:~# echo 'YZWB''ABUFJV'
YZWBABUFJV
root@arm:~# MARKER='HAQZ''ZSBXZS' run 'i2cget -y -f 2 0x60 0x22'
HAQZZSBXZS0x78
HAQZZSBXZS 0
root@arm:~# echo 'HVFK''WNFBKG'
HVFKWNFBKG
root@arm:~# MARKER='SWKK''WZBJBJ' run 'i2cget -y -f 2 0x60 0x22'
SWKKWZBJBJ0x78
SWKKWZBJBJ 0
root@arm:~# echo 'HZTH''QOJBNG'
HZTHQOJBNG
root@arm:~# MARKER='VEQE''YLMLLQ' run 'echo 1130000 1130000 > /sys/kernel/mva_tesst/regulators/buck2_set'
VEQEYLMLLQVEQEYLMLLQ 0
root@arm:~# echo 'EKKG''NBWKOJ'
EKKGNBWKOJ
root@arm:~# MARKER='WWYE''UTCAQZ' run 'i2cget -f -y 2 0x60 0x29'
WWYEUTCAQZ0x43
WWYEUTCAQZ 0
root@arm:~# echo 'GAAW''HFNZHY'
GAAWHFNZHY
root@arm:~# MARKER='ZKSL''SHVQPJ' run 'i2cget -y -f 2 0x60 0x22'
ZKSLSHVQPJ0x78
ZKSLSHVQPJ 0
root@arm:~# echo 'JTVP''MQKZAZ'
JTVPMQKZAZ
root@arm:~# MARKER='YTFG''TQOBAL' run 'i2cget -y -f 2 0x60 0x22'
YTFGTQOBAL0x78
YTFGTQOBAL 0
root@arm:~# echo 'ONJA''UHWCFL'
ONJAUHWCFL
root@arm:~# MARKER='LSFL''SWTUMV' run 'echo 1140000 1140000 > /sys/kernel/mva_tesst/regulators/buck2_set'
LSFLSWTUMVLSFLSWTUMV 0
root@arm:~# echo 'SWXK''FCHEQL'
SWXKFCHEQL
root@arm:~# MARKER='YJNY''JWTSST' run 'i2cget -f -y 2 0x60 0x29'
YJNYJWTSST0x44
YJNYJWTSST 0
root@arm:~# echo 'COYW''XYTTHV'
COYWXYTTHV
root@arm:~# MARKER='TEWJ''TNHXTS' run 'i2cget -y -f 2 0x60 0x22'
TEWJTNHXTS0x78
TEWJTNHXTS 0
root@arm:~# echo 'GVUL''ZLSUGO'
GVULZLSUGO
root@arm:~# MARKER='BNCW''NFGLEJ' run 'i2cget -y -f 2 0x60 0x22'
BNCWNFGLEJ0x78
BNCWNFGLEJ 0
root@arm:~# echo 'BGEF''PEOVZV'
BGEFPEOVZV
root@arm:~# MARKER='GWBK''LTFAYB' run 'echo 1150000 1150000 > /sys/kernel/mva_tesst/regulators/buck2_set'
GWBKLTFAYBGWBKLTFAYB 0
root@arm:~# echo 'YXMZ''QGANXS'
YXMZQGANXS
root@arm:~# MARKER='CQCL''ANHNEP' run 'i2cget -f -y 2 0x60 0x29'
CQCLANHNEP0x45
CQCLANHNEP 0
root@arm:~# echo 'HFAH''ASYLCC'
HFAHASYLCC
root@arm:~# MARKER='UZHK''YHGCXU' run 'i2cget -y -f 2 0x60 0x22'
UZHKYHGCXU0x78
UZHKYHGCXU 0
root@arm:~# echo 'BUPN''BOCACQ'
BUPNBOCACQ
root@arm:~# MARKER='SWSS''USVPQK' run 'i2cget -y -f 2 0x60 0x22'
SWSSUSVPQK0x78
SWSSUSVPQK 0
root@arm:~# echo 'YPAZ''YXXWTH'
YPAZYXXWTH
root@arm:~# MARKER='NJOY''XEPZWU' run 'echo 1160000 1160000 > /sys/kernel/mva_tesst/regulators/buck2_set'
NJOYXEPZWUNJOYXEPZWU 0
root@arm:~# echo 'OZAK''WBYYLV'
OZAKWBYYLV
root@arm:~# MARKER='CSXW''BMZLNE' run 'i2cget -f -y 2 0x60 0x29'
CSXWBMZLNE0x46
CSXWBMZLNE 0
root@arm:~# echo 'YAAS''VYZMUA'
YAASVYZMUA
root@arm:~# MARKER='LMZU''VHBXGU' run 'i2cget -y -f 2 0x60 0x22'
LMZUVHBXGU0x78
LMZUVHBXGU 0
root@arm:~# echo 'LUYA''BPTWSF'
LUYABPTWSF
root@arm:~# MARKER='NMBW''KXLWFA' run 'i2cget -y -f 2 0x60 0x22'
NMBWKXLWFA0x78
NMBWKXLWFA 0
root@arm:~# echo 'LYLO''ZKYXHX'
LYLOZKYXHX
root@arm:~# MARKER='NSMH''BJNYSE' run 'echo 1170000 1170000 > /sys/kernel/mva_tesst/regulators/buck2_set'
NSMHBJNYSENSMHBJNYSE 0
root@arm:~# echo 'TOZF''WWYAMZ'
TOZFWWYAMZ
root@arm:~# MARKER='SPYL''TLHCKZ' run 'i2cget -f -y 2 0x60 0x29'
SPYLTLHCKZ0x47
SPYLTLHCKZ 0
root@arm:~# echo 'TMOU''HTCUFP'
TMOUHTCUFP
root@arm:~# MARKER='XAZT''JUBNSH' run 'i2cget -y -f 2 0x60 0x22'
XAZTJUBNSH0x78
XAZTJUBNSH 0
root@arm:~# echo 'YNTW''OPMVTJ'
YNTWOPMVTJ
root@arm:~# MARKER='LTNP''YBYYMU' run 'i2cget -y -f 2 0x60 0x22'
LTNPYBYYMU0x78
LTNPYBYYMU 0
root@arm:~# echo 'YWVF''OFMTTA'
YWVFOFMTTA
root@arm:~# MARKER='SLTB''HEALZX' run 'echo 1180000 1180000 > /sys/kernel/mva_tesst/regulators/buck2_set'
SLTBHEALZXSLTBHEALZX 0
root@arm:~# echo 'CJJU''HSSOAT'
CJJUHSSOAT
root@arm:~# MARKER='VQVU''FANVEM' run 'i2cget -f -y 2 0x60 0x29'
VQVUFANVEM0x48
VQVUFANVEM 0
root@arm:~# echo 'AGFV''UUKNWV'
AGFVUUKNWV
root@arm:~# MARKER='YCSS''EPNHZE' run 'i2cget -y -f 2 0x60 0x22'
YCSSEPNHZE0x78
YCSSEPNHZE 0
root@arm:~# echo 'QMCP''MMSMNJ'
QMCPMMSMNJ
root@arm:~# MARKER='MJUY''FLUEOJ' run 'i2cget -y -f 2 0x60 0x22'
MJUYFLUEOJ0x78
MJUYFLUEOJ 0
root@arm:~# echo 'ETOY''LSNLSO'
ETOYLSNLSO
root@arm:~# MARKER='QGEG''CTPLEX' run 'echo 1190000 1190000 > /sys/kernel/mva_tesst/regulators/buck2_set'
QGEGCTPLEXQGEGCTPLEX 0
root@arm:~# echo 'LVCC''NPZHXF'
LVCCNPZHXF
root@arm:~# MARKER='NGZE''UZPQQB' run 'i2cget -f -y 2 0x60 0x29'
NGZEUZPQQB0x49
NGZEUZPQQB 0
root@arm:~# echo 'WLHK''BPPBHM'
WLHKBPPBHM
root@arm:~# MARKER='BEGA''EBQEUG' run 'i2cget -y -f 2 0x60 0x22'
BEGAEBQEUG0x78
BEGAEBQEUG 0
root@arm:~# echo 'JTSO''GHFXYW'
JTSOGHFXYW
root@arm:~# MARKER='AAKA''HCCQQJ' run 'i2cget -y -f 2 0x60 0x22'
AAKAHCCQQJ0x78
AAKAHCCQQJ 0
root@arm:~# echo 'SAVM''TMMKZG'
SAVMTMMKZG
root@arm:~# MARKER='JTQQ''VLSGBQ' run 'echo 1200000 1200000 > /sys/kernel/mva_tesst/regulators/buck2_set'
JTQQVLSGBQJTQQVLSGBQ 0
root@arm:~# echo 'EXCC''JQSCEU'
EXCCJQSCEU
root@arm:~# MARKER='FNQA''PWWXAV' run 'i2cget -f -y 2 0x60 0x29'
FNQAPWWXAV0x4a
FNQAPWWXAV 0
root@arm:~# echo 'ZPHV''BZJESK'
ZPHVBZJESK
root@arm:~# MARKER='CZHL''SWCPNP' run 'i2cget -y -f 2 0x60 0x22'
CZHLSWCPNP0x78
CZHLSWCPNP 0
root@arm:~# echo 'KPMX''LYPZXM'
KPMXLYPZXM
root@arm:~# MARKER='LHAZ''UYXVZY' run 'i2cget -y -f 2 0x60 0x22'
LHAZUYXVZY0x78
LHAZUYXVZY 0
root@arm:~# echo 'TNAS''TZMSTE'
TNASTZMSTE
root@arm:~# MARKER='YMLO''LLMBOK' run 'echo 1210000 1210000 > /sys/kernel/mva_tesst/regulators/buck2_set'
YMLOLLMBOKYMLOLLMBOK 0
root@arm:~# echo 'YSJT''ZZMMEL'
YSJTZZMMEL
root@arm:~# MARKER='LUKA''EKUAXU' run 'i2cget -f -y 2 0x60 0x29'
LUKAEKUAXU0x4b
LUKAEKUAXU 0
root@arm:~# echo 'HFTH''BJZPJQ'
HFTHBJZPJQ
root@arm:~# MARKER='VWST''UTNSLA' run 'i2cget -y -f 2 0x60 0x22'
VWSTUTNSLA0x78
VWSTUTNSLA 0
root@arm:~# echo 'CTHL''NAUHLK'
CTHLNAUHLK
root@arm:~# MARKER='LXCG''TQPGVT' run 'i2cget -y -f 2 0x60 0x22'
LXCGTQPGVT0x78
LXCGTQPGVT 0
root@arm:~# echo 'EVPK''VPFUWW'
EVPKVPFUWW
root@arm:~# MARKER='XKOM''KPENBY' run 'echo 1220000 1220000 > /sys/kernel/mva_tesst/regulators/buck2_set'
XKOMKPENBYXKOMKPENBY 0
root@arm:~# echo 'QNVT''EWELNV'
QNVTEWELNV
root@arm:~# MARKER='PEAZ''CKVSGJ' run 'i2cget -f -y 2 0x60 0x29'
PEAZCKVSGJ0x4c
PEAZCKVSGJ 0
root@arm:~# echo 'XFYH''JZFTGO'
XFYHJZFTGO
root@arm:~# MARKER='OUYX''QMYPOE' run 'i2cget -y -f 2 0x60 0x22'
OUYXQMYPOE0x78
OUYXQMYPOE 0
root@arm:~# echo 'PHEA''AQYPHA'
PHEAAQYPHA
root@arm:~# MARKER='VWTO''FCCMOG' run 'i2cget -y -f 2 0x60 0x22'
VWTOFCCMOG0x78
VWTOFCCMOG 0
root@arm:~# echo 'EGFL''HEBEFF'
EGFLHEBEFF
root@arm:~# MARKER='PCSC''TBFTFJ' run 'echo 1230000 1230000 > /sys/kernel/mva_tesst/regulators/buck2_set'
PCSCTBFTFJPCSCTBFTFJ 0
root@arm:~# echo 'SUOH''FQNKPC'
SUOHFQNKPC
root@arm:~# MARKER='OEQX''CJHXOY' run 'i2cget -f -y 2 0x60 0x29'
OEQXCJHXOY0x4d
OEQXCJHXOY 0
root@arm:~# echo 'UCAH''MMSGEF'
UCAHMMSGEF
root@arm:~# MARKER='CFOU''WHBZNV' run 'i2cget -y -f 2 0x60 0x22'
CFOUWHBZNV0x78
CFOUWHBZNV 0
root@arm:~# echo 'SEJC''PEKMYC'
SEJCPEKMYC
root@arm:~# MARKER='TVZS''XAJZWS' run 'i2cget -y -f 2 0x60 0x22'
TVZSXAJZWS0x78
TVZSXAJZWS 0
root@arm:~# echo 'EMQK''HGOPBK'
EMQKHGOPBK
root@arm:~# MARKER='NMEN''XXHOPT' run 'echo 1240000 1240000 > /sys/kernel/mva_tesst/regulators/buck2_set'
NMENXXHOPTNMENXXHOPT 0
root@arm:~# echo 'GLQX''CKPAGM'
GLQXCKPAGM
root@arm:~# MARKER='LZJS''TXTCCJ' run 'i2cget -f -y 2 0x60 0x29'
LZJSTXTCCJ0x4e
LZJSTXTCCJ 0
root@arm:~# echo 'AATB''BYLXVS'
AATBBYLXVS
root@arm:~# MARKER='CXXF''WPCTWC' run 'i2cget -y -f 2 0x60 0x22'
CXXFWPCTWC0x78
CXXFWPCTWC 0
root@arm:~# echo 'BMTG''XHWFNG'
BMTGXHWFNG
root@arm:~# MARKER='SXPL''NGQVUL' run 'i2cget -y -f 2 0x60 0x22'
SXPLNGQVUL0x78
SXPLNGQVUL 0
root@arm:~# echo 'UEKV''NEBBGP'
UEKVNEBBGP
root@arm:~# MARKER='WMXO''WHJYNQ' run 'echo 1250000 1250000 > /sys/kernel/mva_tesst/regulators/buck2_set'
WMXOWHJYNQWMXOWHJYNQ 0
root@arm:~# echo 'HQOH''OFEXNG'
HQOHOFEXNG
root@arm:~# MARKER='FCNH''VLMTWG' run 'i2cget -f -y 2 0x60 0x29'
FCNHVLMTWG0x4f
FCNHVLMTWG 0
root@arm:~# echo 'GNJS''MXGTFN'
GNJSMXGTFN
root@arm:~# MARKER='BXPC''YSYXFZ' run 'i2cget -y -f 2 0x60 0x22'
BXPCYSYXFZ0x78
BXPCYSYXFZ 0
root@arm:~# echo 'LBGX''OEGNMF'
LBGXOEGNMF
root@arm:~# MARKER='HVCP''CPNCMT' run 'i2cget -y -f 2 0x60 0x22'
HVCPCPNCMT0x78
HVCPCPNCMT 0
root@arm:~# echo 'LAQQ''KCQNNT'
LAQQKCQNNT
root@arm:~# MARKER='AJWL''XXVVEV' run 'echo 1260000 1260000 > /sys/kernel/mva_tesst/regulators/buck2_set'
AJWLXXVVEVAJWLXXVVEV 0
root@arm:~# echo 'OMJH''PSSYPW'
OMJHPSSYPW
root@arm:~# MARKER='WWFG''XZVAAO' run 'i2cget -f -y 2 0x60 0x29'
WWFGXZVAAO0x50
WWFGXZVAAO 0
root@arm:~# echo 'UOZG''TFCNWW'
UOZGTFCNWW
root@arm:~# MARKER='CWTK''JNOCTV' run 'i2cget -y -f 2 0x60 0x22'
CWTKJNOCTV0x78
CWTKJNOCTV 0
root@arm:~# echo 'KQVH''QTOPNS'
KQVHQTOPNS
root@arm:~# MARKER='GZOZ''FMHFAH' run 'i2cget -y -f 2 0x60 0x22'
GZOZFMHFAH0x78
GZOZFMHFAH 0
root@arm:~# echo 'TABP''BWQOWB'
TABPBWQOWB
root@arm:~# MARKER='ZXOM''CXKLWN' run 'echo 1270000 1270000 > /sys/kernel/mva_tesst/regulators/buck2_set'
ZXOMCXKLWNZXOMCXKLWN 0
root@arm:~# echo 'WFFF''JSPWAE'
WFFFJSPWAE
root@arm:~# MARKER='HHBQ''FCSONH' run 'i2cget -f -y 2 0x60 0x29'
HHBQFCSONH0x51
HHBQFCSONH 0
root@arm:~# echo 'KTKT''CXNXOH'
KTKTCXNXOH
root@arm:~# MARKER='QWBW''PJJFFH' run 'i2cget -y -f 2 0x60 0x22'
QWBWPJJFFH0x78
QWBWPJJFFH 0
root@arm:~# echo 'SNZA''FSQBHB'
SNZAFSQBHB
root@arm:~# MARKER='BWZH''WUOBPP' run 'i2cget -y -f 2 0x60 0x22'
BWZHWUOBPP0x78
BWZHWUOBPP 0
root@arm:~# echo 'FHPB''KYBXVG'
FHPBKYBXVG
root@arm:~# MARKER='OETC''OYFLJW' run 'echo 1280000 1280000 > /sys/kernel/mva_tesst/regulators/buck2_set'
OETCOYFLJWOETCOYFLJW 0
root@arm:~# echo 'XAGP''VALJFF'
XAGPVALJFF
root@arm:~# MARKER='FBNN''GSYZPL' run 'i2cget -f -y 2 0x60 0x29'
FBNNGSYZPL0x52
FBNNGSYZPL 0
root@arm:~# echo 'VJKJ''AFEOZP'
VJKJAFEOZP
root@arm:~# MARKER='ETPB''LFTFCY' run 'i2cget -y -f 2 0x60 0x22'
ETPBLFTFCY0x78
ETPBLFTFCY 0
root@arm:~# echo 'PXOS''LHSHWH'
PXOSLHSHWH
root@arm:~# MARKER='GWNV''TSWWWO' run 'i2cget -y -f 2 0x60 0x22'
GWNVTSWWWO0x78
GWNVTSWWWO 0
root@arm:~# echo 'LAYF''KGAPJB'
LAYFKGAPJB
root@arm:~# MARKER='PCAS''OPWUOP' run 'echo 1290000 1290000 > /sys/kernel/mva_tesst/regulators/buck2_set'
PCASOPWUOPPCASOPWUOP 0
root@arm:~# echo 'QAJE''TBSLWH'
QAJETBSLWH
root@arm:~# MARKER='YWCM''JZCUBZ' run 'i2cget -f -y 2 0x60 0x29'
YWCMJZCUBZ0x53
YWCMJZCUBZ 0
root@arm:~# echo 'SKQZ''CJNVAA'
SKQZCJNVAA
root@arm:~# MARKER='OUTK''BNMLGZ' run 'i2cget -y -f 2 0x60 0x22'
OUTKBNMLGZ0x78
OUTKBNMLGZ 0
root@arm:~# echo 'OMKB''WQFFFK'
OMKBWQFFFK
root@arm:~# MARKER='QUGL''TCAEBG' run 'i2cget -y -f 2 0x60 0x22'
QUGLTCAEBG0x78
QUGLTCAEBG 0
root@arm:~# echo 'CBVY''ZKLLFZ'
CBVYZKLLFZ
root@arm:~# MARKER='YOXK''ULPAUP' run 'echo 1300000 1300000 > /sys/kernel/mva_tesst/regulators/buck2_set'
YOXKULPAUPYOXKULPAUP 0
root@arm:~# echo 'AFJW''ZQUTGU'
AFJWZQUTGU
root@arm:~# MARKER='EAHZ''JYQOCT' run 'i2cget -f -y 2 0x60 0x29'
EAHZJYQOCT0x54
EAHZJYQOCT 0
root@arm:~# echo 'VZGP''MLKNWQ'
VZGPMLKNWQ
root@arm:~# MARKER='AKQS''TSLSWW' run 'i2cget -y -f 2 0x60 0x22'
AKQSTSLSWW0x78
AKQSTSLSWW 0
root@arm:~# echo 'ACYV''WBBKXO'
ACYVWBBKXO
root@arm:~# MARKER='VGOV''EKQYXH' run 'i2cget -y -f 2 0x60 0x22'
VGOVEKQYXH0x78
VGOVEKQYXH 0
root@arm:~# echo 'XKUL''ANVVHG'
XKULANVVHG
root@arm:~# MARKER='GCTP''UACVHB' run 'echo 1310000 1310000 > /sys/kernel/mva_tesst/regulators/buck2_set'
GCTPUACVHBGCTPUACVHB 0
root@arm:~# echo 'HUWK''GFGFPV'
HUWKGFGFPV
root@arm:~# MARKER='JFAO''PXTOAS' run 'i2cget -f -y 2 0x60 0x29'
JFAOPXTOAS0x55
JFAOPXTOAS 0
root@arm:~# echo 'NCBW''CSKQYV'
NCBWCSKQYV
root@arm:~# MARKER='LAUJ''BHYSEZ' run 'i2cget -y -f 2 0x60 0x22'
LAUJBHYSEZ0x78
LAUJBHYSEZ 0
root@arm:~# echo 'VVUY''HBUKUM'
VVUYHBUKUM
root@arm:~# MARKER='PVLY''BJULMO' run 'i2cget -y -f 2 0x60 0x22'
PVLYBJULMO0x78
PVLYBJULMO 0
root@arm:~# echo 'HCVL''XSJTMV'
HCVLXSJTMV
root@arm:~# MARKER='TZPL''WNCZGA' run 'echo 1320000 1320000 > /sys/kernel/mva_tesst/regulators/buck2_set'
TZPLWNCZGATZPLWNCZGA 0
root@arm:~# echo 'PXQS''SWWSSK'
PXQSSWWSSK
root@arm:~# MARKER='UNQX''HLZAGK' run 'i2cget -f -y 2 0x60 0x29'
UNQXHLZAGK0x56
UNQXHLZAGK 0
root@arm:~# echo 'OGGX''FWKBYF'
OGGXFWKBYF
root@arm:~# MARKER='XYVB''SJJXMW' run 'i2cget -y -f 2 0x60 0x22'
XYVBSJJXMW0x78
XYVBSJJXMW 0
root@arm:~# echo 'AOTB''LLQMBZ'
AOTBLLQMBZ
root@arm:~# MARKER='HBUC''CSUJBW' run 'i2cget -y -f 2 0x60 0x22'
HBUCCSUJBW0x78
HBUCCSUJBW 0
root@arm:~# echo 'HLQB''LYUXEL'
HLQBLYUXEL
root@arm:~# MARKER='QFPF''GVAXQC' run 'echo 1330000 1330000 > /sys/kernel/mva_tesst/regulators/buck2_set'
QFPFGVAXQCQFPFGVAXQC 0
root@arm:~# echo 'TKAL''TPGOHW'
TKALTPGOHW
root@arm:~# MARKER='MACC''XKWWSQ' run 'i2cget -f -y 2 0x60 0x29'
MACCXKWWSQ0x57
MACCXKWWSQ 0
root@arm:~# echo 'BKZP''MTOBUZ'
BKZPMTOBUZ
root@arm:~# MARKER='XOVU''WNLEFJ' run 'i2cget -y -f 2 0x60 0x22'
XOVUWNLEFJ0x78
XOVUWNLEFJ 0
root@arm:~# echo 'FCOK''ACTKUA'
FCOKACTKUA
root@arm:~# MARKER='NMUN''PYLWCL' run 'i2cget -y -f 2 0x60 0x22'
NMUNPYLWCL0x78
NMUNPYLWCL 0
root@arm:~# echo 'BOGL''JNJHQS'
BOGLJNJHQS
root@arm:~# MARKER='CWWN''VQSKAT' run 'echo 1340000 1340000 > /sys/kernel/mva_tesst/regulators/buck2_set'
CWWNVQSKATCWWNVQSKAT 0
root@arm:~# echo 'TKUX''BOGXOP'
TKUXBOGXOP
root@arm:~# MARKER='ZUVM''OJWHCG' run 'i2cget -f -y 2 0x60 0x29'
ZUVMOJWHCG0x58
ZUVMOJWHCG 0
root@arm:~# echo 'XBWA''LGWZTU'
XBWALGWZTU
root@arm:~# MARKER='PZUF''PGEPZV' run 'i2cget -y -f 2 0x60 0x22'
PZUFPGEPZV0x78
PZUFPGEPZV 0
root@arm:~# echo 'AKHF''EOZUFZ'
AKHFEOZUFZ
root@arm:~# MARKER='JHAL''LVENHA' run 'i2cget -y -f 2 0x60 0x22'
JHALLVENHA0x78
JHALLVENHA 0
root@arm:~# echo 'MTVZ''HFZOLQ'
MTVZHFZOLQ
root@arm:~# MARKER='YNOT''GAZJZX' run 'echo 1350000 1350000 > /sys/kernel/mva_tesst/regulators/buck2_set'
YNOTGAZJZXYNOTGAZJZX 0
root@arm:~# echo 'SYZU''XSCCBO'
SYZUXSCCBO
root@arm:~# MARKER='HKQQ''BEPGKA' run 'i2cget -f -y 2 0x60 0x29'
HKQQBEPGKA0x59
HKQQBEPGKA 0
root@arm:~# echo 'WPBM''SLYLPL'
WPBMSLYLPL
root@arm:~# MARKER='TPOU''GZUNFC' run 'i2cget -y -f 2 0x60 0x22'
TPOUGZUNFC0x78
TPOUGZUNFC 0
root@arm:~# echo 'QEXS''PYMTXG'
QEXSPYMTXG
root@arm:~# MARKER='JBSV''YWSCTB' run 'i2cget -y -f 2 0x60 0x22'
JBSVYWSCTB0x78
JBSVYWSCTB 0
root@arm:~# echo 'HHTZ''PKTXLJ'
HHTZPKTXLJ
root@arm:~# MARKER='JUCE''HMVLOB' run 'echo 1360000 1360000 > /sys/kernel/mva_tesst/regulators/buck2_set'
JUCEHMVLOBJUCEHMVLOB 0
root@arm:~# echo 'OYWK''JGWGGT'
OYWKJGWGGT
root@arm:~# MARKER='WWPG''OSFUTX' run 'i2cget -f -y 2 0x60 0x29'
WWPGOSFUTX0x5a
WWPGOSFUTX 0
root@arm:~# echo 'OMCM''HGWTLG'
OMCMHGWTLG
root@arm:~# MARKER='ZOBP''KKUOZX' run 'i2cget -y -f 2 0x60 0x22'
ZOBPKKUOZX0x78
ZOBPKKUOZX 0
root@arm:~# echo 'KWSU''UJVUXS'
KWSUUJVUXS
root@arm:~# MARKER='BPOP''ONGUHK' run 'i2cget -y -f 2 0x60 0x22'
BPOPONGUHK0x78
BPOPONGUHK 0
root@arm:~# echo 'YWAF''HOWAKO'
YWAFHOWAKO
root@arm:~# MARKER='JYMU''QTXTAN' run 'echo 1370000 1370000 > /sys/kernel/mva_tesst/regulators/buck2_set'
JYMUQTXTANJYMUQTXTAN 0
root@arm:~# echo 'SBSW''HCFXWK'
SBSWHCFXWK
root@arm:~# MARKER='MFWF''FOYPMM' run 'i2cget -f -y 2 0x60 0x29'
MFWFFOYPMM0x5b
MFWFFOYPMM 0
root@arm:~# echo 'LTEY''WYQZTX'
LTEYWYQZTX
root@arm:~# MARKER='NNVU''WHQLSL' run 'i2cget -y -f 2 0x60 0x22'
NNVUWHQLSL0x78
NNVUWHQLSL 0
root@arm:~# echo 'WLEX''VWPYCJ'
WLEXVWPYCJ
root@arm:~# MARKER='TOAT''XUNBEW' run 'i2cget -y -f 2 0x60 0x22'
TOATXUNBEW0x78
TOATXUNBEW 0
root@arm:~# echo 'MLWK''OEOWHK'
MLWKOEOWHK
root@arm:~# MARKER='MSTL''OTAJNS' run 'echo 1380000 1380000 > /sys/kernel/mva_tesst/regulators/buck2_set'
MSTLOTAJNSMSTLOTAJNS 0
root@arm:~# echo 'PPVF''QYGWJH'
PPVFQYGWJH
root@arm:~# MARKER='CZAG''CZJGCA' run 'i2cget -f -y 2 0x60 0x29'
CZAGCZJGCA0x5c
CZAGCZJGCA 0
root@arm:~# echo 'MFVZ''SCXYPZ'
MFVZSCXYPZ
root@arm:~# MARKER='UAEO''VOGTQL' run 'i2cget -y -f 2 0x60 0x22'
UAEOVOGTQL0x78
UAEOVOGTQL 0
root@arm:~# echo 'GJKK''LQMXYK'
GJKKLQMXYK
root@arm:~# MARKER='TKFG''GJAHKQ' run 'i2cget -y -f 2 0x60 0x22'
TKFGGJAHKQ0x78
TKFGGJAHKQ 0
root@arm:~# echo 'XCLT''UBXXGJ'
XCLTUBXXGJ
root@arm:~# MARKER='KTTF''XBTYHE' run 'echo 1390000 1390000 > /sys/kernel/mva_tesst/regulators/buck2_set'
KTTFXBTYHEKTTFXBTYHE 0
root@arm:~# echo 'XLLF''TQQKSC'
XLLFTQQKSC
root@arm:~# MARKER='OOKU''CJWYZF' run 'i2cget -f -y 2 0x60 0x29'
OOKUCJWYZF0x5d
OOKUCJWYZF 0
root@arm:~# echo 'WQQM''YLXXEY'
WQQMYLXXEY
root@arm:~# MARKER='KNNM''HOMZAN' run 'i2cget -y -f 2 0x60 0x22'
KNNMHOMZAN0x78
KNNMHOMZAN 0
root@arm:~# echo 'JKES''MUMPEK'
JKESMUMPEK
root@arm:~# MARKER='AGLN''XJFLPC' run 'i2cget -y -f 2 0x60 0x22'
AGLNXJFLPC0x78
AGLNXJFLPC 0
root@arm:~# echo 'MXPP''LXSEHC'
MXPPLXSEHC
root@arm:~# MARKER='HPYY''ZUWLEV' run 'echo 1400000 1400000 > /sys/kernel/mva_tesst/regulators/buck2_set'
HPYYZUWLEVHPYYZUWLEV 0
root@arm:~# echo 'ENBB''OZVEJS'
ENBBOZVEJS
root@arm:~# MARKER='JGTY''MQHEYH' run 'i2cget -f -y 2 0x60 0x29'
JGTYMQHEYH0x5e
JGTYMQHEYH 0
root@arm:~# echo 'XGQS''XAPWBS'
XGQSXAPWBS
root@arm:~# MARKER='XXVP''GQXYSO' run 'i2cget -y -f 2 0x60 0x22'
XXVPGQXYSO0x78
XXVPGQXYSO 0
root@arm:~# echo 'EJNM''LHSJQF'
EJNMLHSJQF
root@arm:~# MARKER='HYNZ''UOZXBB' run 'i2cget -y -f 2 0x60 0x22'
HYNZUOZXBB0x78
HYNZUOZXBB 0
root@arm:~# echo 'PHXO''FCCNAN'
PHXOFCCNAN
root@arm:~# MARKER='MWEV''LLKKBS' run 'echo 1410000 1410000 > /sys/kernel/mva_tesst/regulators/buck2_set'
MWEVLLKKBSMWEVLLKKBS 0
root@arm:~# echo 'UKPM''SYMPJQ'
UKPMSYMPJQ
root@arm:~# MARKER='LWAU''NEUAPV' run 'i2cget -f -y 2 0x60 0x29'
LWAUNEUAPV0x5f
LWAUNEUAPV 0
root@arm:~# echo 'HXMP''PKUNUE'
HXMPPKUNUE
root@arm:~# MARKER='KLQK''OBOOPX' run 'i2cget -y -f 2 0x60 0x22'
KLQKOBOOPX0x78
KLQKOBOOPX 0
root@arm:~# echo 'WNAX''ZEUXOX'
WNAXZEUXOX
root@arm:~# MARKER='YCAP''GZJCWK' run 'i2cget -y -f 2 0x60 0x22'
YCAPGZJCWK0x78
YCAPGZJCWK 0
root@arm:~# echo 'EKAL''LUVYVU'
EKALLUVYVU
root@arm:~# MARKER='JUTO''WPJHZU' run 'echo 790000 790000 > /sys/kernel/mva_test//regulators/buck2_set'
JUTOWPJHZUJUTOWPJHZU 0
root@arm:~# echo 'OXJG''EPLXYY'
OXJGEPLXYY
root@arm:~# MARKER='XMWQ''PXVLQB' run 'i2cget -f -y 2 0x60 0x29'
XMWQPXVLQB0x60
XMWQPXVLQB 0
root@arm:~# echo 'XFWO''BSUPOX'
XFWOBSUPOX
root@arm:~# MARKER='JSEO''OALJQQ' run 'i2cget -y -f 2 0x60 0x22'
JSEOOALJQQ0x78
JSEOOALJQQ 0
root@arm:~# echo 'ANKM''JGOWKL'
ANKMJGOWKL
root@arm:~# MARKER='VTSJ''WBUXSU' run 'i2cget -y -f 2 0x60 0x22'
VTSJWBUXSU0x78
VTSJWBUXSU 0
root@arm:~# echo 'ZHOQ''HFWTFB'
ZHOQHFWTFB
root@arm:~# MARKER='ECYT''YATMZX' run 'echo 800000 800000 > /sys/kernel/mva_test//regulators/buck2_set'
ECYTYATMZXECYTYATMZX 0
root@arm:~# echo 'KXPL''MCGWLQ'
KXPLMCGWLQ
root@arm:~# MARKER='AQOC''KSULCL' run 'i2cget -f -y 2 0x60 0x29'
AQOCKSULCL0x61
AQOCKSULCL 0
root@arm:~# echo 'FPZF''BBQATQ'
FPZFBBQATQ
root@arm:~# MARKER='YAJS''XYNHXQ' run 'i2cget -y -f 2 0x60 0x22'
YAJSXYNHXQ0x78
YAJSXYNHXQ 0
root@arm:~# echo 'NWYL''QCQXBG'
NWYLQCQXBG
root@arm:~# MARKER='OSYU''WKQXUM' run 'i2cget -y -f 2 0x60 0x22'
OSYUWKQXUM0x78
OSYUWKQXUM 0
root@arm:~# echo 'SZUX''NANOTG'
SZUXNANOTG
root@arm:~# MARKER='YFTB''TJMMLJ' run 'echo 810000 810000 > /sys/kernel/mva_test//regulators/buck2_set'
YFTBTJMMLJYFTBTJMMLJ 0
root@arm:~# echo 'ZAOL''BKJTBY'
ZAOLBKJTBY
root@arm:~# MARKER='WLBX''XZUEHW' run 'i2cget -f -y 2 0x60 0x29'
WLBXXZUEHW0x62
WLBXXZUEHW 0
root@arm:~# echo 'MYAN''WHQVWV'
MYANWHQVWV
root@arm:~# MARKER='CNWS''HMXPZZ' run 'i2cget -y -f 2 0x60 0x22'
CNWSHMXPZZ0x78
CNWSHMXPZZ 0
root@arm:~# echo 'PLST''YBGJNS'
PLSTYBGJNS
root@arm:~# MARKER='JTHN''SKAHEW' run 'i2cget -y -f 2 0x60 0x22'
JTHNSKAHEW0x78
JTHNSKAHEW 0
root@arm:~# echo 'ZTGX''WPHTMC'
ZTGXWPHTMC
root@arm:~# MARKER='MBTC''ANHBXM' run 'echo 820000 820000 > /sys/kernel/mva_test//regulators/buck2_set'
MBTCANHBXMMBTCANHBXM 0
root@arm:~# echo 'VBZM''OXNUAS'
VBZMOXNUAS
root@arm:~# MARKER='AKFE''MBSKTU' run 'i2cget -f -y 2 0x60 0x29'
AKFEMBSKTU0x63
AKFEMBSKTU 0
root@arm:~# echo 'HXSP''MFGMUO'
HXSPMFGMUO
root@arm:~# MARKER='BXXL''CGMCZX' run 'i2cget -y -f 2 0x60 0x22'
BXXLCGMCZX0x78
BXXLCGMCZX 0
root@arm:~# echo 'BMVM''HPYBFC'
BMVMHPYBFC
root@arm:~# MARKER='YFFC''FMEZJU' run 'i2cget -y -f 2 0x60 0x22'
YFFCFMEZJU0x78
YFFCFMEZJU 0
root@arm:~# echo 'OMAU''EKOFAG'
OMAUEKOFAG
root@arm:~# MARKER='HEEH''AEMBOU' run 'echo 830000 830000 > /sys/kernel/mva_test//regulators/buck2_set'
HEEHAEMBOUHEEHAEMBOU 0
root@arm:~# echo 'TVYB''WOSFKH'
TVYBWOSFKH
root@arm:~# MARKER='ZLKO''ACVMAT' run 'i2cget -f -y 2 0x60 0x29'
ZLKOACVMAT0x64
ZLKOACVMAT 0
root@arm:~# echo 'ZMMC''ZOZHFB'
ZMMCZOZHFB
root@arm:~# MARKER='JMLG''AXUGHF' run 'i2cget -y -f 2 0x60 0x22'
JMLGAXUGHF0x78
JMLGAXUGHF 0
root@arm:~# echo 'ZAGJ''LLXZST'
ZAGJLLXZST
root@arm:~# MARKER='LAVV''CACJZP' run 'i2cget -y -f 2 0x60 0x22'
LAVVCACJZP0x78
LAVVCACJZP 0
root@arm:~# echo 'GGTJ''EUSPHG'
GGTJEUSPHG
root@arm:~# MARKER='TEVT''ZLFMPY' run 'echo 840000 840000 > /sys/kernel/mva_test//regulators/buck2_set'
TEVTZLFMPYTEVTZLFMPY 0
root@arm:~# echo 'YFOK''FSXXXZ'
YFOKFSXXXZ
root@arm:~# MARKER='JLGY''SHCYYF' run 'i2cget -f -y 2 0x60 0x29'
JLGYSHCYYF0x65
JLGYSHCYYF 0
root@arm:~# echo 'AOCT''XYTMNH'
AOCTXYTMNH
root@arm:~# MARKER='LYST''MOBETB' run 'i2cget -y -f 2 0x60 0x22'
LYSTMOBETB0x78
LYSTMOBETB 0
root@arm:~# echo 'KYPW''XFFOTL'
KYPWXFFOTL
root@arm:~# MARKER='JQXH''QQCMML' run 'i2cget -y -f 2 0x60 0x22'
JQXHQQCMML0x78
JQXHQQCMML 0
root@arm:~# echo 'GVBU''UWGJCE'
GVBUUWGJCE
root@arm:~# MARKER='CWMG''QFNOMO' run 'echo 850000 850000 > /sys/kernel/mva_test//regulators/buck2_set'
CWMGQFNOMOCWMGQFNOMO 0
root@arm:~# echo 'TSOV''XSZMCT'
TSOVXSZMCT
root@arm:~# MARKER='XBPQ''CWPZCG' run 'i2cget -f -y 2 0x60 0x29'
XBPQCWPZCG0x66
XBPQCWPZCG 0
root@arm:~# echo 'EMFT''YWASMJ'
EMFTYWASMJ
root@arm:~# MARKER='MAVY''HCJHZE' run 'i2cget -y -f 2 0x60 0x22'
MAVYHCJHZE0x78
MAVYHCJHZE 0
root@arm:~# echo 'SLFF''ZVSAFU'
SLFFZVSAFU
root@arm:~# MARKER='CPCU''LMASWQ' run 'i2cget -y -f 2 0x60 0x22'
CPCULMASWQ0x78
CPCULMASWQ 0
root@arm:~# echo 'BZYG''TWNFTC'
BZYGTWNFTC
root@arm:~# MARKER='TKTL''XAJWLT' run 'echo 860000 860000 > /sys/kernel/mva_test//regulators/buck2_set'
TKTLXAJWLTTKTLXAJWLT 0
root@arm:~# echo 'NFHC''XFBFWL'
NFHCXFBFWL
root@arm:~# MARKER='GFTG''KBBMYK' run 'i2cget -f -y 2 0x60 0x29'
GFTGKBBMYK0x67
GFTGKBBMYK 0
root@arm:~# echo 'QMKY''OVTMQF'
QMKYOVTMQF
root@arm:~# MARKER='ELLA''GPLLHW' run 'i2cget -y -f 2 0x60 0x22'
ELLAGPLLHW0x78
ELLAGPLLHW 0
root@arm:~# echo 'GMCN''MAWEKF'
GMCNMAWEKF
root@arm:~# MARKER='YNYG''KCNHZA' run 'i2cget -y -f 2 0x60 0x22'
YNYGKCNHZA0x78
YNYGKCNHZA 0
root@arm:~# echo 'QZLO''CBUELW'
QZLOCBUELW
root@arm:~# MARKER='OCAC''YQLOXV' run 'echo 870000 870000 > /sys/kernel/mva_test//regulators/buck2_set'
OCACYQLOXVOCACYQLOXV 0
root@arm:~# echo 'VBBC''MWZJTN'
VBBCMWZJTN
root@arm:~# MARKER='BLGC''FVZUVN' run 'i2cget -f -y 2 0x60 0x29'
BLGCFVZUVN0x68
BLGCFVZUVN 0
root@arm:~# echo 'HYPJ''PXSSJQ'
HYPJPXSSJQ
root@arm:~# MARKER='ZHWO''VMHGJT' run 'i2cget -y -f 2 0x60 0x22'
ZHWOVMHGJT0x78
ZHWOVMHGJT 0
root@arm:~# echo 'BAKO''AXSKOV'
BAKOAXSKOV
root@arm:~# MARKER='QAAJ''LCLYQP' run 'i2cget -y -f 2 0x60 0x22'
QAAJLCLYQP0x78
QAAJLCLYQP 0
root@arm:~# echo 'JFNF''BEYOES'
JFNFBEYOES
root@arm:~# MARKER='JBJB''WHEHAX' run 'echo 880000 880000 > /sys/kernel/mva_test//regulators/buck2_set'
JBJBWHEHAXJBJBWHEHAX 0
root@arm:~# echo 'QXGY''VKCOKW'
QXGYVKCOKW
root@arm:~# MARKER='FWFG''CANOZO' run 'i2cget -f -y 2 0x60 0x29'
FWFGCANOZO0x69
FWFGCANOZO 0
root@arm:~# echo 'JKHF''UBPXMN'
JKHFUBPXMN
root@arm:~# MARKER='SPES''CTGTNN' run 'i2cget -y -f 2 0x60 0x22'
SPESCTGTNN0x78
SPESCTGTNN 0
root@arm:~# echo 'XUHM''WWFXMN'
XUHMWWFXMN
root@arm:~# MARKER='TCVK''EZZCEP' run 'i2cget -y -f 2 0x60 0x22'
TCVKEZZCEP0x78
TCVKEZZCEP 0
root@arm:~# echo 'BLYS''ANZUYA'
BLYSANZUYA
root@arm:~# MARKER='WPZG''XEZNBX' run 'echo 890000 890000 > /sys/kernel/mva_test//regulators/buck2_set'
WPZGXEZNBXWPZGXEZNBX 0
root@arm:~# echo 'TYGK''FSFOUW'
TYGKFSFOUW
root@arm:~# MARKER='QQSP''OMGPMC' run 'i2cget -f -y 2 0x60 0x29'
QQSPOMGPMC0x6a
QQSPOMGPMC 0
root@arm:~# echo 'QWPF''VCKSVK'
QWPFVCKSVK
root@arm:~# MARKER='LEWJ''EYMMLW' run 'i2cget -y -f 2 0x60 0x22'
LEWJEYMMLW0x78
LEWJEYMMLW 0
root@arm:~# echo 'MYFO''ZEVPUY'
MYFOZEVPUY
root@arm:~# MARKER='MSCB''MHNQFU' run 'i2cget -y -f 2 0x60 0x22'
MSCBMHNQFU0x78
MSCBMHNQFU 0
root@arm:~# echo 'BZAY''JMUCLK'
BZAYJMUCLK
root@arm:~# MARKER='WZAU''VVXMVW' run 'echo 900000 900000 > /sys/kernel/mva_test//regulators/buck2_set'
WZAUVVXMVWWZAUVVXMVW 0
root@arm:~# echo 'UNYG''SSKNVZ'
UNYGSSKNVZ
root@arm:~# MARKER='ZGVO''NVLMMZ' run 'i2cget -f -y 2 0x60 0x29'
ZGVONVLMMZ0x6b
ZGVONVLMMZ 0
root@arm:~# echo 'KSCZ''VZKTGB'
KSCZVZKTGB
root@arm:~# MARKER='XAEJ''QKLBSG' run 'i2cget -y -f 2 0x60 0x22'
XAEJQKLBSG0x78
XAEJQKLBSG 0
root@arm:~# echo 'KBES''SXXPNP'
KBESSXXPNP
root@arm:~# MARKER='GBMU''HXSHFU' run 'i2cget -y -f 2 0x60 0x22'
GBMUHXSHFU0x78
GBMUHXSHFU 0
root@arm:~# echo 'SWAP''BXZQYX'
SWAPBXZQYX
root@arm:~# MARKER='XJHV''LTSYVO' run 'echo 910000 910000 > /sys/kernel/mva_test//regulators/buck2_set'
XJHVLTSYVOXJHVLTSYVO 0
root@arm:~# echo 'VBZV''JUFNYN'
VBZVJUFNYN
root@arm:~# MARKER='FCUP''FFWLCM' run 'i2cget -f -y 2 0x60 0x29'
FCUPFFWLCM0x6c
FCUPFFWLCM 0
root@arm:~# echo 'XPXT''AANJUS'
XPXTAANJUS
root@arm:~# MARKER='LETF''HCPMAN' run 'i2cget -y -f 2 0x60 0x22'
LETFHCPMAN0x78
LETFHCPMAN 0
root@arm:~# echo 'FWLS''AGMBZL'
FWLSAGMBZL
root@arm:~# MARKER='YBJV''CPLXBU' run 'i2cget -y -f 2 0x60 0x22'
YBJVCPLXBU0x78
YBJVCPLXBU 0
root@arm:~# echo 'BKMB''XYYTJO'
BKMBXYYTJO
root@arm:~# MARKER='WSPA''WYHUKN' run 'echo 920000 920000 > /sys/kernel/mva_test//regulators/buck2_set'
WSPAWYHUKNWSPAWYHUKN 0
root@arm:~# echo 'UPSM''PMJMFM'
UPSMPMJMFM
root@arm:~# MARKER='AAAM''QTZJFM' run 'i2cget -f -y 2 0x60 0x29'
AAAMQTZJFM0x6d
AAAMQTZJFM 0
root@arm:~# echo 'KOKT''UBVUYP'
KOKTUBVUYP
root@arm:~# MARKER='HZSK''WFAEYG' run 'i2cget -y -f 2 0x60 0x22'
HZSKWFAEYG0x78
HZSKWFAEYG 0
root@arm:~# echo 'XQMZ''NJZFAP'
XQMZNJZFAP
root@arm:~# MARKER='PHQS''KFLAMK' run 'i2cget -y -f 2 0x60 0x22'
PHQSKFLAMK0x78
PHQSKFLAMK 0
root@arm:~# echo 'WYKG''NCLBPK'
WYKGNCLBPK
root@arm:~# MARKER='AFOP''FEYPVZ' run 'echo 930000 930000 > /sys/kernel/mva_test//regulators/buck2_set'
AFOPFEYPVZAFOPFEYPVZ 0
root@arm:~# echo 'HWBW''MNLOPH'
HWBWMNLOPH
root@arm:~# MARKER='TBZL''WUQSCA' run 'i2cget -f -y 2 0x60 0x29'
TBZLWUQSCA0x6e
TBZLWUQSCA 0
root@arm:~# echo 'TCUZ''XACLEL'
TCUZXACLEL
root@arm:~# MARKER='PLJO''OVMZFA' run 'i2cget -y -f 2 0x60 0x22'
PLJOOVMZFA0x78
PLJOOVMZFA 0
root@arm:~# echo 'VTVG''XOTHKO'
VTVGXOTHKO
root@arm:~# MARKER='GQXV''MYCSPL' run 'i2cget -y -f 2 0x60 0x22'
GQXVMYCSPL0x78
GQXVMYCSPL 0
root@arm:~# echo 'PANG''BJFZYP'
PANGBJFZYP
root@arm:~# MARKER='MSYZ''WVENJW' run 'echo 940000 940000 > /sys/kernel/mva_test//regulators/buck2_set'
MSYZWVENJWMSYZWVENJW 0
root@arm:~# echo 'LCYJ''ZQUSTL'
LCYJZQUSTL
root@arm:~# MARKER='KLHO''TJHGJS' run 'i2cget -f -y 2 0x60 0x29'
KLHOTJHGJS0x6f
KLHOTJHGJS 0
root@arm:~# echo 'POZH''WEMTOY'
POZHWEMTOY
root@arm:~# MARKER='EZCQ''LUBPYG' run 'i2cget -y -f 2 0x60 0x22'
EZCQLUBPYG0x78
EZCQLUBPYG 0
root@arm:~# echo 'MHOZ''QNSNQY'
MHOZQNSNQY
root@arm:~# MARKER='YVQN''VYFYEO' run 'i2cget -y -f 2 0x60 0x22'
YVQNVYFYEO0x78
YVQNVYFYEO 0
root@arm:~# echo 'BZUX''LWUACW'
BZUXLWUACW
root@arm:~# MARKER='EZMS''OLGQWM' run 'echo 950000 950000 > /sys/kernel/mva_test//regulators/buck2_set'
EZMSOLGQWMEZMSOLGQWM 0
root@arm:~# echo 'PPBX''LTFCPF'
PPBXLTFCPF
root@arm:~# MARKER='WXSM''KBHUYF' run 'i2cget -f -y 2 0x60 0x29'
WXSMKBHUYF0x70
WXSMKBHUYF 0
root@arm:~# echo 'YSCW''SOBZYF'
YSCWSOBZYF
root@arm:~# MARKER='YJCH''CHWXNB' run 'i2cget -y -f 2 0x60 0x22'
YJCHCHWXNB0x78
YJCHCHWXNB 0
root@arm:~# echo 'TPCZ''JMLPWH'
TPCZJMLPWH
root@arm:~# MARKER='CXPM''PWBAAA' run 'i2cget -y -f 2 0x60 0x22'
CXPMPWBAAA0x78
CXPMPWBAAA 0
root@arm:~# echo 'PMSZ''APUCGE'
PMSZAPUCGE
root@arm:~# MARKER='YOLT''EQTCML' run 'echo 960000 960000 > /sys/kernel/mva_test//regulators/buck2_set'
YOLTEQTCMLYOLTEQTCML 0
root@arm:~# echo 'VPWK''ZFBSFK'
VPWKZFBSFK
root@arm:~# MARKER='ZAOZ''BQELCV' run 'i2cget -f -y 2 0x60 0x29'
ZAOZBQELCV0x71
ZAOZBQELCV 0
root@arm:~# echo 'GENQ''MHLFLK'
GENQMHLFLK
root@arm:~# MARKER='VPBB''LFKZVT' run 'i2cget -y -f 2 0x60 0x22'
VPBBLFKZVT0x78
VPBBLFKZVT 0
root@arm:~# echo 'PEHA''PFFWLK'
PEHAPFFWLK
root@arm:~# MARKER='KEOG''MFGABU' run 'i2cget -y -f 2 0x60 0x22'
KEOGMFGABU0x78
KEOGMFGABU 0
root@arm:~# echo 'OTAB''XMABMT'
OTABXMABMT
root@arm:~# MARKER='OYTX''AWFZNS' run 'echo 970000 970000 > /sys/kernel/mva_test//regulators/buck2_set'
OYTXAWFZNSOYTXAWFZNS 0
root@arm:~# echo 'QGSJ''FXLPGP'
QGSJFXLPGP
root@arm:~# MARKER='FZWG''QGQQGN' run 'i2cget -f -y 2 0x60 0x29'
FZWGQGQQGN0x72
FZWGQGQQGN 0
root@arm:~# echo 'BWHK''QLNTJW'
BWHKQLNTJW
root@arm:~# MARKER='LBAA''SZGCSA' run 'i2cget -y -f 2 0x60 0x22'
LBAASZGCSA0x78
LBAASZGCSA 0
root@arm:~# echo 'EEKY''KKYCYC'
EEKYKKYCYC
root@arm:~# MARKER='JVHC''FGJCOS' run 'i2cget -y -f 2 0x60 0x22'
JVHCFGJCOS0x78
JVHCFGJCOS 0
root@arm:~# echo 'CFKB''JNEOWP'
CFKBJNEOWP
root@arm:~# MARKER='VHLL''NXMCYH' run 'echo 980000 980000 > /sys/kernel/mva_test//regulators/buck2_set'
VHLLNXMCYHVHLLNXMCYH 0
root@arm:~# echo 'AUAZ''TMUMTG'
AUAZTMUMTG
root@arm:~# MARKER='VEVH''ABFCXZ' run 'i2cget -f -y 2 0x60 0x29'
VEVHABFCXZ0x73
VEVHABFCXZ 0
root@arm:~# echo 'LMWO''PKOTKZ'
LMWOPKOTKZ
root@arm:~# MARKER='APXB''XNAFTX' run 'i2cget -y -f 2 0x60 0x22'
APXBXNAFTX0x78
APXBXNAFTX 0
root@arm:~# echo 'FCSV''FPAWTJ'
FCSVFPAWTJ
root@arm:~# MARKER='QBCO''KTZVTM' run 'i2cget -y -f 2 0x60 0x22'
QBCOKTZVTM0x78
QBCOKTZVTM 0
root@arm:~# echo 'XVLW''KVCBJX'
XVLWKVCBJX
root@arm:~# MARKER='ZTBG''ZLMLKQ' run 'echo 990000 990000 > /sys/kernel/mva_test//regulators/buck2_set'
ZTBGZLMLKQZTBGZLMLKQ 0
root@arm:~# echo 'QTCN''SYTNCZ'
QTCNSYTNCZ
root@arm:~# MARKER='HQOS''TTQEVC' run 'i2cget -f -y 2 0x60 0x29'
HQOSTTQEVC0x74
HQOSTTQEVC 0
root@arm:~# echo 'NVAN''XCKXXM'
NVANXCKXXM
root@arm:~# MARKER='AWEO''YAXLUL' run 'i2cget -y -f 2 0x60 0x22'
AWEOYAXLUL0x78
AWEOYAXLUL 0
root@arm:~# echo 'NMAH''ZTEXTY'
NMAHZTEXTY
root@arm:~# MARKER='BEBQ''YBFEWA' run 'i2cget -y -f 2 0x60 0x22'
BEBQYBFEWA0x78
BEBQYBFEWA 0
root@arm:~# echo 'LFHT''ELJPMC'
LFHTELJPMC
root@arm:~# MARKER='TKMF''UKXSSJ' run 'echo 1000000 1000000 > /sys/kernel/mva_tesst/regulators/buck2_set'
TKMFUKXSSJTKMFUKXSSJ 0
root@arm:~# echo 'SPOS''EYMEWZ'
SPOSEYMEWZ
root@arm:~# MARKER='YFCB''QTBGWM' run 'i2cget -f -y 2 0x60 0x29'
YFCBQTBGWM0x75
YFCBQTBGWM 0
root@arm:~# echo 'GMAF''AWEWWF'
GMAFAWEWWF
root@arm:~# MARKER='GOXE''POZXLL' run 'i2cget -y -f 2 0x60 0x22'
GOXEPOZXLL0x78
GOXEPOZXLL 0
root@arm:~# echo 'MJOG''XYSPXC'
MJOGXYSPXC
root@arm:~# MARKER='NQOZ''KEQKBL' run 'i2cget -y -f 2 0x60 0x22'
NQOZKEQKBL0x78
NQOZKEQKBL 0
root@arm:~# echo 'YZKE''SCHOUS'
YZKESCHOUS
root@arm:~# MARKER='HKVM''GUJKYJ' run 'echo 1010000 1010000 > /sys/kernel/mva_tesst/regulators/buck2_set'
HKVMGUJKYJHKVMGUJKYJ 0
root@arm:~# echo 'LATM''SGSLTG'
LATMSGSLTG
root@arm:~# MARKER='CNBG''PKLTVY' run 'i2cget -f -y 2 0x60 0x29'
CNBGPKLTVY0x76
CNBGPKLTVY 0
root@arm:~# echo 'EAFK''BPOZYM'
EAFKBPOZYM
root@arm:~# MARKER='ZZZZ''ZTKNCN' run 'i2cget -y -f 2 0x60 0x22'
ZZZZZTKNCN0x78
ZZZZZTKNCN 0
root@arm:~# echo 'MHHZ''BFPGQE'
MHHZBFPGQE
root@arm:~# MARKER='LOUF''MHOAXY' run 'i2cget -y -f 2 0x60 0x22'
LOUFMHOAXY0x78
LOUFMHOAXY 0
root@arm:~# echo 'VQUU''CCAKZF'
VQUUCCAKZF
root@arm:~# MARKER='FPSH''HTGKWQ' run 'echo 1020000 1020000 > /sys/kernel/mva_tesst/regulators/buck2_set'
FPSHHTGKWQFPSHHTGKWQ 0
root@arm:~# echo 'GQFZ''EHSVTJ'
GQFZEHSVTJ
root@arm:~# MARKER='VPAN''CJEXJZ' run 'i2cget -f -y 2 0x60 0x29'
VPANCJEXJZ0x77
VPANCJEXJZ 0
root@arm:~# echo 'EFFG''FKHPMO'
EFFGFKHPMO
root@arm:~# MARKER='GQSV''FBWJMQ' run 'i2cget -y -f 2 0x60 0x22'
GQSVFBWJMQ0x78
GQSVFBWJMQ 0
root@arm:~# echo 'YOQC''XQJVQN'
YOQCXQJVQN
root@arm:~# MARKER='OEFU''FKQZCA' run 'i2cget -y -f 2 0x60 0x22'
OEFUFKQZCA0x78
OEFUFKQZCA 0
root@arm:~# echo 'FVTH''NAHQEV'
FVTHNAHQEV
root@arm:~# MARKER='JVEF''NQPQLA' run 'echo 1030000 1030000 > /sys/kernel/mva_tesst/regulators/buck2_set'
JVEFNQPQLAJVEFNQPQLA 0
root@arm:~# echo 'VVBM''ZNMKHC'
VVBMZNMKHC
root@arm:~# MARKER='FZYW''WQKOZF' run 'i2cget -f -y 2 0x60 0x29'
FZYWWQKOZF0x78
FZYWWQKOZF 0
root@arm:~# echo 'HSMX''LMXVMP'
HSMXLMXVMP
root@arm:~# MARKER='FUPE''EZSKKX' run 'i2cget -y -f 2 0x60 0x22'
FUPEEZSKKX0x78
FUPEEZSKKX 0
root@arm:~# echo 'HBSS''SPXZOQ'
HBSSSPXZOQ
root@arm:~# MARKER='MWGM''CJTSSU' run 'i2cget -y -f 2 0x60 0x22'
MWGMCJTSSU0x78
MWGMCJTSSU 0
root@arm:~# echo 'YOCM''EQTLBH'
YOCMEQTLBH
root@arm:~# MARKER='XJVB''NFMNHA' run 'echo 1040000 1040000 > /sys/kernel/mva_tesst/regulators/buck2_set'
XJVBNFMNHAXJVBNFMNHA 0
root@arm:~# echo 'AGCB''WOZSAM'
AGCBWOZSAM
root@arm:~# MARKER='GBGA''PQAKMC' run 'i2cget -f -y 2 0x60 0x29'
GBGAPQAKMC0x79
GBGAPQAKMC 0
root@arm:~# echo 'XWHW''EZFYUQ'
XWHWEZFYUQ
root@arm:~# MARKER='OMCQ''LGUXVS' run 'i2cget -y -f 2 0x60 0x22'
OMCQLGUXVS0x78
OMCQLGUXVS 0
root@arm:~# echo 'LNPK''WPFFLC'
LNPKWPFFLC
root@arm:~# MARKER='NFLW''LHQXCQ' run 'i2cget -y -f 2 0x60 0x22'
NFLWLHQXCQ0x78
NFLWLHQXCQ 0
root@arm:~# echo 'KEXK''YYJXFK'
KEXKYYJXFK
root@arm:~# MARKER='EAKX''AMWMXQ' run 'echo 1050000 1050000 > /sys/kernel/mva_tesst/regulators/buck2_set'
EAKXAMWMXQEAKXAMWMXQ 0
root@arm:~# echo 'JWHW''LMCNNS'
JWHWLMCNNS
root@arm:~# MARKER='PJFT''VEWVHT' run 'i2cget -f -y 2 0x60 0x29'
PJFTVEWVHT0x7a
PJFTVEWVHT 0
root@arm:~# echo 'TGHQ''VWWBNZ'
TGHQVWWBNZ
root@arm:~# MARKER='VAJY''CWVUGT' run 'i2cget -y -f 2 0x60 0x22'
VAJYCWVUGT0x78
VAJYCWVUGT 0
root@arm:~# echo 'KXOL''AJKYWF'
KXOLAJKYWF
root@arm:~# MARKER='BNBL''TUMMJG' run 'i2cget -y -f 2 0x60 0x22'
BNBLTUMMJG0x78
BNBLTUMMJG 0
root@arm:~# echo 'UUCS''NJVUWM'
UUCSNJVUWM
root@arm:~# MARKER='MEKF''PCTLCU' run 'echo 1060000 1060000 > /sys/kernel/mva_tesst/regulators/buck2_set'
MEKFPCTLCUMEKFPCTLCU 0
root@arm:~# echo 'UTVZ''ACUGTL'
UTVZACUGTL
root@arm:~# MARKER='YMCQ''KCOHLT' run 'i2cget -f -y 2 0x60 0x29'
YMCQKCOHLT0x7b
YMCQKCOHLT 0
root@arm:~# echo 'LBKS''AWCLWT'
LBKSAWCLWT
root@arm:~# MARKER='OOKV''EVNGOB' run 'i2cget -y -f 2 0x60 0x22'
OOKVEVNGOB0x78
OOKVEVNGOB 0
root@arm:~# echo 'UZMP''HLTAOB'
UZMPHLTAOB
root@arm:~# MARKER='JCBW''QKHKZQ' run 'i2cget -y -f 2 0x60 0x22'
JCBWQKHKZQ0x78
JCBWQKHKZQ 0
root@arm:~# echo 'GUJS''YYKXFU'
GUJSYYKXFU
root@arm:~# MARKER='VOVE''YUMWAU' run 'echo 1070000 1070000 > /sys/kernel/mva_tesst/regulators/buck2_set'
VOVEYUMWAUVOVEYUMWAU 0
root@arm:~# echo 'HFEB''LOCTFB'
HFEBLOCTFB
root@arm:~# MARKER='JBXG''MYZZWL' run 'i2cget -f -y 2 0x60 0x29'
JBXGMYZZWL0x7c
JBXGMYZZWL 0
root@arm:~# echo 'LVOE''BBSHNQ'
LVOEBBSHNQ
root@arm:~# MARKER='WQTS''CTVCYE' run 'i2cget -y -f 2 0x60 0x22'
WQTSCTVCYE0x78
WQTSCTVCYE 0
root@arm:~# echo 'GPXM''QFUCVW'
GPXMQFUCVW
root@arm:~# MARKER='QYSZ''UNYJGX' run 'i2cget -y -f 2 0x60 0x22'
QYSZUNYJGX0x78
QYSZUNYJGX 0
root@arm:~# echo 'HTUS''VNTYFA'
HTUSVNTYFA
root@arm:~# MARKER='AXXH''LNJKXB' run 'echo 1080000 1080000 > /sys/kernel/mva_tesst/regulators/buck2_set'
AXXHLNJKXBAXXHLNJKXB 0
root@arm:~# echo 'FVTA''AZJONA'
FVTAAZJONA
root@arm:~# MARKER='WOSP''VKGTYM' run 'i2cget -f -y 2 0x60 0x29'
WOSPVKGTYM0x7d
WOSPVKGTYM 0
root@arm:~# echo 'YZZO''CLKHKA'
YZZOCLKHKA
root@arm:~# MARKER='YTAX''LQGQUU' run 'i2cget -y -f 2 0x60 0x22'
YTAXLQGQUU0x78
YTAXLQGQUU 0
root@arm:~# echo 'YOBT''VXHOQG'
YOBTVXHOQG
root@arm:~# MARKER='JBVU''UVUPBU' run 'i2cget -y -f 2 0x60 0x22'
JBVUUVUPBU0x78
JBVUUVUPBU 0
root@arm:~# echo 'HBZL''CJYMXV'
HBZLCJYMXV
root@arm:~# MARKER='BHPW''MKQMLF' run 'echo 1090000 1090000 > /sys/kernel/mva_tesst/regulators/buck2_set'
BHPWMKQMLFBHPWMKQMLF 0
root@arm:~# echo 'HMJK''TLFGWF'
HMJKTLFGWF
root@arm:~# MARKER='KTEJ''EHZHOK' run 'i2cget -f -y 2 0x60 0x29'
KTEJEHZHOK0x7e
KTEJEHZHOK 0
root@arm:~# echo 'LZKW''AEZHFC'
LZKWAEZHFC
root@arm:~# MARKER='KMCC''UUAVLJ' run 'i2cget -y -f 2 0x60 0x22'
KMCCUUAVLJ0x78
KMCCUUAVLJ 0
root@arm:~# echo 'XCBZ''OEAHFT'
XCBZOEAHFT
root@arm:~# MARKER='FNPV''KFEYEF' run 'i2cget -y -f 2 0x60 0x22'
FNPVKFEYEF0x78
FNPVKFEYEF 0
root@arm:~# echo 'WCLB''YXCGZO'
WCLBYXCGZO
root@arm:~# MARKER='QKWQ''NQPPCU' run 'echo 1100000 1100000 > /sys/kernel/mva_tesst/regulators/buck2_set'
QKWQNQPPCUQKWQNQPPCU 0
root@arm:~# echo 'AKEG''KHZUUB'
AKEGKHZUUB
root@arm:~# MARKER='BFMZ''KEPWXK' run 'i2cget -f -y 2 0x60 0x29'
BFMZKEPWXK0x40
BFMZKEPWXK 0
root@arm:~# echo 'ZEPL''SSXKQT'
ZEPLSSXKQT
root@arm:~# MARKER='ZMBK''AEPQLW' run 'i2cget -y -f 2 0x60 0x22'
ZMBKAEPQLW0x78
ZMBKAEPQLW 0
root@arm:~# echo 'QMVP''MCPUJE'
QMVPMCPUJE
root@arm:~# MARKER='MCFP''ETMTKM' run 'i2cget -y -f 2 0x60 0x23'
MCFPETMTKM0x46
MCFPETMTKM 0
root@arm:~# echo 'XWWC''WGVFGT'
XWWCWGVFGT
root@arm:~# MARKER='BKEL''KQWLXJ' run 'echo 850000 850000 > /sys/kernel/mva_test//regulators/buck3_set'
BKELKQWLXJBKELKQWLXJ 0
root@arm:~# echo 'MULV''AMOLKQ'
MULVAMOLKQ
root@arm:~# MARKER='MUVN''SOTPKX' run 'i2cget -f -y 2 0x60 0x2a'
MUVNSOTPKX0x80
MUVNSOTPKX 0
root@arm:~# echo 'QPGA''SVWZCP'
QPGASVWZCP
root@arm:~# MARKER='PTBZ''PQKHMJ' run 'i2cget -y -f 2 0x60 0x23'
PTBZPQKHMJ0x46
PTBZPQKHMJ 0
root@arm:~# echo 'OJSH''BHVVWJ'
OJSHBHVVWJ
root@arm:~# MARKER='CWFS''VVSFNV' run 'i2cget -y -f 2 0x60 0x23'
CWFSVVSFNV0x46
CWFSVVSFNV 0
root@arm:~# echo 'YJPM''NKXCYO'
YJPMNKXCYO
root@arm:~# MARKER='FOTX''JXHMCB' run 'echo 860000 860000 > /sys/kernel/mva_test//regulators/buck3_set'
FOTXJXHMCBFOTXJXHMCB 0
root@arm:~# echo 'CHYY''HCKXMA'
CHYYHCKXMA
root@arm:~# MARKER='QNQM''BNZCYS' run 'i2cget -f -y 2 0x60 0x2a'
QNQMBNZCYS0x81
QNQMBNZCYS 0
root@arm:~# echo 'JYVP''MCTJQX'
JYVPMCTJQX
root@arm:~# MARKER='UFWP''ZBJXEC' run 'i2cget -y -f 2 0x60 0x23'
UFWPZBJXEC0x46
UFWPZBJXEC 0
root@arm:~# echo 'SBGT''JGFNPC'
SBGTJGFNPC
root@arm:~# MARKER='MULE''YEKAYC' run 'i2cget -y -f 2 0x60 0x23'
MULEYEKAYC0x46
MULEYEKAYC 0
root@arm:~# echo 'YKNN''PVPSYQ'
YKNNPVPSYQ
root@arm:~# MARKER='NJCH''COOTXH' run 'echo 870000 870000 > /sys/kernel/mva_test//regulators/buck3_set'
NJCHCOOTXHNJCHCOOTXH 0
root@arm:~# echo 'KHSL''VEEHVJ'
KHSLVEEHVJ
root@arm:~# MARKER='ZCCS''FELYYQ' run 'i2cget -f -y 2 0x60 0x2a'
ZCCSFELYYQ0x82
ZCCSFELYYQ 0
root@arm:~# echo 'BEBB''OAPZKX'
BEBBOAPZKX
root@arm:~# MARKER='UOYG''LVQBVW' run 'i2cget -y -f 2 0x60 0x23'
UOYGLVQBVW0x46
UOYGLVQBVW 0
root@arm:~# echo 'NCQX''VOHTFT'
NCQXVOHTFT
root@arm:~# MARKER='CWLB''ZSYFYU' run 'i2cget -y -f 2 0x60 0x23'
CWLBZSYFYU0x46
CWLBZSYFYU 0
root@arm:~# echo 'GSOX''YVSCLS'
GSOXYVSCLS
root@arm:~# MARKER='OPLE''CEUANL' run 'echo 880000 880000 > /sys/kernel/mva_test//regulators/buck3_set'
OPLECEUANLOPLECEUANL 0
root@arm:~# echo 'PKYT''FOATQP'
PKYTFOATQP
root@arm:~# MARKER='KZPJ''NJYFEU' run 'i2cget -f -y 2 0x60 0x2a'
KZPJNJYFEU0x83
KZPJNJYFEU 0
root@arm:~# echo 'FCCL''PPHZOJ'
FCCLPPHZOJ
root@arm:~# MARKER='MZCY''SFYLOX' run 'i2cget -y -f 2 0x60 0x23'
MZCYSFYLOX0x46
MZCYSFYLOX 0
root@arm:~# echo 'KFCY''MOHOGV'
KFCYMOHOGV
root@arm:~# MARKER='FALK''HQVEKZ' run 'i2cget -y -f 2 0x60 0x23'
FALKHQVEKZ0x46
FALKHQVEKZ 0
root@arm:~# echo 'YGYM''MPWHHV'
YGYMMPWHHV
root@arm:~# MARKER='VWLE''YBQASF' run 'echo 890000 890000 > /sys/kernel/mva_test//regulators/buck3_set'
VWLEYBQASFVWLEYBQASF 0
root@arm:~# echo 'ZLWS''STYZKN'
ZLWSSTYZKN
root@arm:~# MARKER='MQKO''WWHOZS' run 'i2cget -f -y 2 0x60 0x2a'
MQKOWWHOZS0x84
MQKOWWHOZS 0
root@arm:~# echo 'ZJAQ''BVBBJF'
ZJAQBVBBJF
root@arm:~# MARKER='JGBS''XXEVHU' run 'i2cget -y -f 2 0x60 0x23'
JGBSXXEVHU0x46
JGBSXXEVHU 0
root@arm:~# echo 'EYWB''HGHGCC'
EYWBHGHGCC
root@arm:~# MARKER='ZJXU''WGNAMY' run 'i2cget -y -f 2 0x60 0x23'
ZJXUWGNAMY0x46
ZJXUWGNAMY 0
root@arm:~# echo 'SKYZ''BEVTPU'
SKYZBEVTPU
root@arm:~# MARKER='KOGN''XMOPPO' run 'echo 900000 900000 > /sys/kernel/mva_test//regulators/buck3_set'
KOGNXMOPPOKOGNXMOPPO 0
root@arm:~# echo 'JPYL''WUQYJY'
JPYLWUQYJY
root@arm:~# MARKER='PYBZ''JYNVSU' run 'i2cget -f -y 2 0x60 0x2a'
PYBZJYNVSU0x85
PYBZJYNVSU 0
root@arm:~# echo 'KSNH''AENXQG'
KSNHAENXQG
root@arm:~# MARKER='CXVQ''ZVNAOY' run 'i2cget -y -f 2 0x60 0x23'
CXVQZVNAOY0x46
CXVQZVNAOY 0
root@arm:~# echo 'HOOG''YTAYCH'
HOOGYTAYCH
root@arm:~# MARKER='SAVP''LTAFJM' run 'i2cget -y -f 2 0x60 0x23'
SAVPLTAFJM0x46
SAVPLTAFJM 0
root@arm:~# echo 'VSQN''HPUYZM'
VSQNHPUYZM
root@arm:~# MARKER='PLOP''GBGHTA' run 'echo 910000 910000 > /sys/kernel/mva_test//regulators/buck3_set'
PLOPGBGHTAPLOPGBGHTA 0
root@arm:~# echo 'SPMK''ETMZPC'
SPMKETMZPC
root@arm:~# MARKER='KTPC''XQKTXL' run 'i2cget -f -y 2 0x60 0x2a'
KTPCXQKTXL0x86
KTPCXQKTXL 0
root@arm:~# echo 'UBVY''JUOMOP'
UBVYJUOMOP
root@arm:~# MARKER='WBGN''AJVSUU' run 'i2cget -y -f 2 0x60 0x23'
WBGNAJVSUU0x46
WBGNAJVSUU 0
root@arm:~# echo 'YULU''EFUPGU'
YULUEFUPGU
root@arm:~# MARKER='LGUC''BBCGPF' run 'i2cget -y -f 2 0x60 0x23'
LGUCBBCGPF0x46
LGUCBBCGPF 0
root@arm:~# echo 'XTVM''BCYJLY'
XTVMBCYJLY
root@arm:~# MARKER='STOU''ALZUPQ' run 'echo 920000 920000 > /sys/kernel/mva_test//regulators/buck3_set'
STOUALZUPQSTOUALZUPQ 0
root@arm:~# echo 'JWBB''KLBVLY'
JWBBKLBVLY
root@arm:~# MARKER='EJWQ''HMSYAW' run 'i2cget -f -y 2 0x60 0x2a'
EJWQHMSYAW0x87
EJWQHMSYAW 0
root@arm:~# echo 'OUJK''FAAWVF'
OUJKFAAWVF
root@arm:~# MARKER='YTUW''WWJAPC' run 'i2cget -y -f 2 0x60 0x23'
YTUWWWJAPC0x46
YTUWWWJAPC 0
root@arm:~# echo 'BHKJ''ZKEAFY'
BHKJZKEAFY
root@arm:~# MARKER='XAPT''GXAXXT' run 'i2cget -y -f 2 0x60 0x23'
XAPTGXAXXT0x46
XAPTGXAXXT 0
root@arm:~# echo 'VAAV''FQUVXO'
VAAVFQUVXO
root@arm:~# MARKER='CYBQ''POFLMK' run 'echo 930000 930000 > /sys/kernel/mva_test//regulators/buck3_set'
CYBQPOFLMKCYBQPOFLMK 0
root@arm:~# echo 'FZBP''POXZQP'
FZBPPOXZQP
root@arm:~# MARKER='MOFY''ZSXZEZ' run 'i2cget -f -y 2 0x60 0x2a'
MOFYZSXZEZ0x88
MOFYZSXZEZ 0
root@arm:~# echo 'JQXM''KHPGZF'
JQXMKHPGZF
root@arm:~# MARKER='ZQYN''SZKVJL' run 'i2cget -y -f 2 0x60 0x23'
ZQYNSZKVJL0x46
ZQYNSZKVJL 0
root@arm:~# echo 'TFOC''FEWKLE'
TFOCFEWKLE
root@arm:~# MARKER='GCVU''UKAEJU' run 'i2cget -y -f 2 0x60 0x23'
GCVUUKAEJU0x46
GCVUUKAEJU 0
root@arm:~# echo 'CQAL''AJJLNY'
CQALAJJLNY
root@arm:~# MARKER='SZSA''JLNCWC' run 'echo 940000 940000 > /sys/kernel/mva_test//regulators/buck3_set'
SZSAJLNCWCSZSAJLNCWC 0
root@arm:~# echo 'PGZF''MGJSUH'
PGZFMGJSUH
root@arm:~# MARKER='SOXB''UBGGOJ' run 'i2cget -f -y 2 0x60 0x2a'
SOXBUBGGOJ0x89
SOXBUBGGOJ 0
root@arm:~# echo 'ZPZL''VOOYXC'
ZPZLVOOYXC
root@arm:~# MARKER='HULS''YUBWWO' run 'i2cget -y -f 2 0x60 0x23'
HULSYUBWWO0x46
HULSYUBWWO 0
root@arm:~# echo 'EXMX''YJCHYZ'
EXMXYJCHYZ
root@arm:~# MARKER='QQNN''XBZHXK' run 'i2cget -y -f 2 0x60 0x23'
QQNNXBZHXK0x46
QQNNXBZHXK 0
root@arm:~# echo 'FOSY''WOGFHV'
FOSYWOGFHV
root@arm:~# MARKER='WBVB''QOLJVH' run 'echo 950000 950000 > /sys/kernel/mva_test//regulators/buck3_set'
WBVBQOLJVHWBVBQOLJVH 0
root@arm:~# echo 'PONH''NPOKGA'
PONHNPOKGA
root@arm:~# MARKER='BYQP''KPHFXN' run 'i2cget -f -y 2 0x60 0x2a'
BYQPKPHFXN0x8a
BYQPKPHFXN 0
root@arm:~# echo 'AUSY''SBLEYO'
AUSYSBLEYO
root@arm:~# MARKER='XNOT''MKMPUS' run 'i2cget -y -f 2 0x60 0x23'
XNOTMKMPUS0x46
XNOTMKMPUS 0
root@arm:~# echo 'PBKT''HTYGKQ'
PBKTHTYGKQ
root@arm:~# MARKER='ZEVO''UQKPBL' run 'i2cget -y -f 2 0x60 0x23'
ZEVOUQKPBL0x46
ZEVOUQKPBL 0
root@arm:~# echo 'AEFA''FJZTFN'
AEFAFJZTFN
root@arm:~# MARKER='KBVE''PBTJHP' run 'echo 960000 960000 > /sys/kernel/mva_test//regulators/buck3_set'
KBVEPBTJHPKBVEPBTJHP 0
root@arm:~# echo 'ZHFP''HWLGZP'
ZHFPHWLGZP
root@arm:~# MARKER='VPEB''ENQEMY' run 'i2cget -f -y 2 0x60 0x2a'
VPEBENQEMY0x8b
VPEBENQEMY 0
root@arm:~# echo 'TBJX''AWPXWA'
TBJXAWPXWA
root@arm:~# MARKER='YSBA''SHTXHP' run 'i2cget -y -f 2 0x60 0x23'
YSBASHTXHP0x46
YSBASHTXHP 0
root@arm:~# echo 'TAOB''TMTKPG'
TAOBTMTKPG
root@arm:~# MARKER='FFPB''PTTMUH' run 'i2cget -y -f 2 0x60 0x23'
FFPBPTTMUH0x46
FFPBPTTMUH 0
root@arm:~# echo 'NCEP''WMAQUV'
NCEPWMAQUV
root@arm:~# MARKER='ZHWW''LZABOO' run 'echo 970000 970000 > /sys/kernel/mva_test//regulators/buck3_set'
ZHWWLZABOOZHWWLZABOO 0
root@arm:~# echo 'TONL''TXCOEF'
TONLTXCOEF
root@arm:~# MARKER='HJAB''WUCYCU' run 'i2cget -f -y 2 0x60 0x2a'
HJABWUCYCU0x8c
HJABWUCYCU 0
root@arm:~# echo 'VKML''HFAYHH'
VKMLHFAYHH
root@arm:~# MARKER='SUMW''PMKMXL' run 'i2cget -y -f 2 0x60 0x23'
SUMWPMKMXL0x46
SUMWPMKMXL 0
root@arm:~# echo 'HFEF''GPBTXG'
HFEFGPBTXG
root@arm:~# MARKER='JTLS''HTVZEY' run 'i2cget -y -f 2 0x60 0x23'
JTLSHTVZEY0x46
JTLSHTVZEY 0
root@arm:~# echo 'AZCM''HKKNUJ'
AZCMHKKNUJ
root@arm:~# MARKER='OWBC''MWFEQT' run 'echo 980000 980000 > /sys/kernel/mva_test//regulators/buck3_set'
OWBCMWFEQTOWBCMWFEQT 0
root@arm:~# echo 'KWKP''BETLMA'
KWKPBETLMA
root@arm:~# MARKER='KTJU''TNAXJG' run 'i2cget -f -y 2 0x60 0x2a'
KTJUTNAXJG0x8d
KTJUTNAXJG 0
root@arm:~# echo 'CPGW''CEBUOH'
CPGWCEBUOH
root@arm:~# MARKER='YTWB''YTJFBU' run 'i2cget -y -f 2 0x60 0x23'
YTWBYTJFBU0x46
YTWBYTJFBU 0
root@arm:~# echo 'XUTS''BXCZOS'
XUTSBXCZOS
root@arm:~# MARKER='GAKY''WGLGKN' run 'i2cget -y -f 2 0x60 0x23'
GAKYWGLGKN0x46
GAKYWGLGKN 0
root@arm:~# echo 'AGNQ''CZPQKL'
AGNQCZPQKL
root@arm:~# MARKER='XAUG''AZZHBY' run 'echo 990000 990000 > /sys/kernel/mva_test//regulators/buck3_set'
XAUGAZZHBYXAUGAZZHBY 0
root@arm:~# echo 'WPWH''ZOHGGN'
WPWHZOHGGN
root@arm:~# MARKER='GXFO''XOUGYY' run 'i2cget -f -y 2 0x60 0x2a'
GXFOXOUGYY0x8e
GXFOXOUGYY 0
root@arm:~# echo 'PWLM''AOTGBT'
PWLMAOTGBT
root@arm:~# MARKER='HLAX''UCPMZW' run 'i2cget -y -f 2 0x60 0x23'
HLAXUCPMZW0x46
HLAXUCPMZW 0
root@arm:~# echo 'BLFG''SXXAEC'
BLFGSXXAEC
root@arm:~# MARKER='ZYCK''LGYFAM' run 'i2cget -y -f 2 0x60 0x23'
ZYCKLGYFAM0x46
ZYCKLGYFAM 0
root@arm:~# echo 'QZLV''BPYVPY'
QZLVBPYVPY
root@arm:~# MARKER='QQSQ''VCAJSW' run 'echo 1000000 1000000 > /sys/kernel/mva_tesst/regulators/buck3_set'
QQSQVCAJSWQQSQVCAJSW 0
root@arm:~# echo 'XHVP''UWLEBV'
XHVPUWLEBV
root@arm:~# MARKER='CPTK''FEMXQS' run 'i2cget -f -y 2 0x60 0x2a'
CPTKFEMXQS0x8f
CPTKFEMXQS 0
root@arm:~# echo 'QHHH''AZKMCE'
QHHHAZKMCE
root@arm:~# MARKER='AQQU''SUAQPX' run 'i2cget -y -f 2 0x60 0x23'
AQQUSUAQPX0x46
AQQUSUAQPX 0
root@arm:~# echo 'OCNU''XVUTEH'
OCNUXVUTEH
root@arm:~# MARKER='LUWN''FVMBGG' run 'i2cget -y -f 2 0x60 0x23'
LUWNFVMBGG0x46
LUWNFVMBGG 0
root@arm:~# echo 'QTOM''UBAFNF'
QTOMUBAFNF
root@arm:~# MARKER='TTKV''OBBJLX' run 'echo 1010000 1010000 > /sys/kernel/mva_tesst/regulators/buck3_set'
TTKVOBBJLXTTKVOBBJLX 0
root@arm:~# echo 'WKQG''WLUXKT'
WKQGWLUXKT
root@arm:~# MARKER='UOTC''LESYFT' run 'i2cget -f -y 2 0x60 0x2a'
UOTCLESYFT0x90
UOTCLESYFT 0
root@arm:~# echo 'JBKT''XCGZTM'
JBKTXCGZTM
root@arm:~# MARKER='XCGU''VOBGCX' run 'i2cget -y -f 2 0x60 0x23'
XCGUVOBGCX0x46
XCGUVOBGCX 0
root@arm:~# echo 'UPBL''TMLXQP'
UPBLTMLXQP
root@arm:~# MARKER='SQJY''VHWJSA' run 'i2cget -y -f 2 0x60 0x23'
SQJYVHWJSA0x46
SQJYVHWJSA 0
root@arm:~# echo 'QAQP''CTAQCW'
QAQPCTAQCW
root@arm:~# MARKER='OPXM''KXYZQO' run 'echo 1020000 1020000 > /sys/kernel/mva_tesst/regulators/buck3_set'
OPXMKXYZQOOPXMKXYZQO 0
root@arm:~# echo 'OBZV''TWZMME'
OBZVTWZMME
root@arm:~# MARKER='KVON''YLTCQG' run 'i2cget -f -y 2 0x60 0x2a'
KVONYLTCQG0x91
KVONYLTCQG 0
root@arm:~# echo 'ZMSB''LJMGVS'
ZMSBLJMGVS
root@arm:~# MARKER='PMOP''MCCSPT' run 'i2cget -y -f 2 0x60 0x23'
PMOPMCCSPT0x46
PMOPMCCSPT 0
root@arm:~# echo 'NAGX''OGWAXL'
NAGXOGWAXL
root@arm:~# MARKER='BHLV''QUFWCJ' run 'i2cget -y -f 2 0x60 0x23'
BHLVQUFWCJ0x46
BHLVQUFWCJ 0
root@arm:~# echo 'EUJF''YUBGQE'
EUJFYUBGQE
root@arm:~# MARKER='YWZT''MXJBGM' run 'echo 1030000 1030000 > /sys/kernel/mva_tesst/regulators/buck3_set'
YWZTMXJBGMYWZTMXJBGM 0
root@arm:~# echo 'EQON''YQPVAN'
EQONYQPVAN
root@arm:~# MARKER='AYXE''UMJXPY' run 'i2cget -f -y 2 0x60 0x2a'
AYXEUMJXPY0x92
AYXEUMJXPY 0
root@arm:~# echo 'PNQE''ENSWHY'
PNQEENSWHY
root@arm:~# MARKER='JSXE''MKKYPY' run 'i2cget -y -f 2 0x60 0x23'
JSXEMKKYPY0x46
JSXEMKKYPY 0
root@arm:~# echo 'GUAV''PUBFKB'
GUAVPUBFKB
root@arm:~# MARKER='SZKY''AZSZYC' run 'i2cget -y -f 2 0x60 0x23'
SZKYAZSZYC0x46
SZKYAZSZYC 0
root@arm:~# echo 'LVES''GCJZCB'
LVESGCJZCB
root@arm:~# MARKER='OZOW''YOLWYU' run 'echo 1040000 1040000 > /sys/kernel/mva_tesst/regulators/buck3_set'
OZOWYOLWYUOZOWYOLWYU 0
root@arm:~# echo 'TLPT''CMQZTS'
TLPTCMQZTS
root@arm:~# MARKER='QWEH''CMGBCN' run 'i2cget -f -y 2 0x60 0x2a'
QWEHCMGBCN0x93
QWEHCMGBCN 0
root@arm:~# echo 'LLOW''GVZOLJ'
LLOWGVZOLJ
root@arm:~# MARKER='VEEF''AQONAK' run 'i2cget -y -f 2 0x60 0x23'
VEEFAQONAK0x46
VEEFAQONAK 0
root@arm:~# echo 'SSEP''UCEGVL'
SSEPUCEGVL
root@arm:~# MARKER='HTQL''GEFOSS' run 'i2cget -y -f 2 0x60 0x23'
HTQLGEFOSS0x46
HTQLGEFOSS 0
root@arm:~# echo 'NQQA''WUUWYG'
NQQAWUUWYG
root@arm:~# MARKER='ZQEV''PMFHSP' run 'echo 1050000 1050000 > /sys/kernel/mva_tesst/regulators/buck3_set'
ZQEVPMFHSPZQEVPMFHSP 0
root@arm:~# echo 'GGSA''UGNZGC'
GGSAUGNZGC
root@arm:~# MARKER='EVAV''BNBUBP' run 'i2cget -f -y 2 0x60 0x2a'
EVAVBNBUBP0x94
EVAVBNBUBP 0
root@arm:~# echo 'FEQE''AAOZFU'
FEQEAAOZFU
root@arm:~# MARKER='ECOM''GPNXOJ' run 'i2cget -y -f 2 0x60 0x23'
ECOMGPNXOJ0x46
ECOMGPNXOJ 0
root@arm:~# echo 'TUCV''HZZOQT'
TUCVHZZOQT
root@arm:~# MARKER='KYCO''KOWUAN' run 'i2cget -y -f 2 0x60 0x23'
KYCOKOWUAN0x46
KYCOKOWUAN 0
root@arm:~# echo 'AYXB''EOWGNC'
AYXBEOWGNC
root@arm:~# MARKER='BAQO''UFAJQT' run 'echo 1060000 1060000 > /sys/kernel/mva_tesst/regulators/buck3_set'
BAQOUFAJQTBAQOUFAJQT 0
root@arm:~# echo 'FUTG''AAXFKJ'
FUTGAAXFKJ
root@arm:~# MARKER='GEEF''QQAQNZ' run 'i2cget -f -y 2 0x60 0x2a'
GEEFQQAQNZ0x95
GEEFQQAQNZ 0
root@arm:~# echo 'AYMC''XZKTGM'
AYMCXZKTGM
root@arm:~# MARKER='HLSQ''EKUCKX' run 'i2cget -y -f 2 0x60 0x23'
HLSQEKUCKX0x46
HLSQEKUCKX 0
root@arm:~# echo 'YOHM''JOYFUQ'
YOHMJOYFUQ
root@arm:~# MARKER='KKEF''MOHVSU' run 'i2cget -y -f 2 0x60 0x23'
KKEFMOHVSU0x46
KKEFMOHVSU 0
root@arm:~# echo 'QVHX''HWSPOV'
QVHXHWSPOV
root@arm:~# MARKER='TOTT''OJWCCX' run 'echo 1070000 1070000 > /sys/kernel/mva_tesst/regulators/buck3_set'
TOTTOJWCCXTOTTOJWCCX 0
root@arm:~# echo 'STTJ''ZSEYKU'
STTJZSEYKU
root@arm:~# MARKER='CVPH''ZGZHAY' run 'i2cget -f -y 2 0x60 0x2a'
CVPHZGZHAY0x96
CVPHZGZHAY 0
root@arm:~# echo 'ZACX''YAMXSG'
ZACXYAMXSG
root@arm:~# MARKER='ANJJ''UZTWWY' run 'i2cget -y -f 2 0x60 0x23'
ANJJUZTWWY0x46
ANJJUZTWWY 0
root@arm:~# echo 'PQOJ''TZENSC'
PQOJTZENSC
root@arm:~# MARKER='HGTC''LYXBMQ' run 'i2cget -y -f 2 0x60 0x23'
HGTCLYXBMQ0x46
HGTCLYXBMQ 0
root@arm:~# echo 'BXOQ''SEUYJB'
BXOQSEUYJB
root@arm:~# MARKER='ENKY''JJOZVP' run 'echo 1080000 1080000 > /sys/kernel/mva_tesst/regulators/buck3_set'
ENKYJJOZVPENKYJJOZVP 0
root@arm:~# echo 'VVPG''CPZPAJ'
VVPGCPZPAJ
root@arm:~# MARKER='JUQY''ZMAJMG' run 'i2cget -f -y 2 0x60 0x2a'
JUQYZMAJMG0x97
JUQYZMAJMG 0
root@arm:~# echo 'KVHH''TUHQHC'
KVHHTUHQHC
root@arm:~# MARKER='UYBX''ZETKBS' run 'i2cget -y -f 2 0x60 0x23'
UYBXZETKBS0x46
UYBXZETKBS 0
root@arm:~# echo 'BVQB''XJHHWN'
BVQBXJHHWN
root@arm:~# MARKER='NUNM''UPWTGW' run 'i2cget -y -f 2 0x60 0x23'
NUNMUPWTGW0x46
NUNMUPWTGW 0
root@arm:~# echo 'KCMW''UOQFXT'
KCMWUOQFXT
root@arm:~# MARKER='BWMA''ALHTMQ' run 'echo 1090000 1090000 > /sys/kernel/mva_tesst/regulators/buck3_set'
BWMAALHTMQBWMAALHTMQ 0
root@arm:~# echo 'GBWT''PTJOKY'
GBWTPTJOKY
root@arm:~# MARKER='JWJG''PWLPMP' run 'i2cget -f -y 2 0x60 0x2a'
JWJGPWLPMP0x98
JWJGPWLPMP 0
root@arm:~# echo 'AMJH''NMQPGP'
AMJHNMQPGP
root@arm:~# MARKER='LHYX''NNUGBS' run 'i2cget -y -f 2 0x60 0x23'
LHYXNNUGBS0x46
LHYXNNUGBS 0
root@arm:~# echo 'EXQQ''EFQYWN'
EXQQEFQYWN
root@arm:~# MARKER='VBTN''VPZPZL' run 'i2cget -y -f 2 0x60 0x23'
VBTNVPZPZL0x46
VBTNVPZPZL 0
root@arm:~# echo 'LJNB''FGUEQV'
LJNBFGUEQV
root@arm:~# MARKER='MKHG''HHWJAH' run 'echo 1100000 1100000 > /sys/kernel/mva_tesst/regulators/buck3_set'
MKHGHHWJAHMKHGHHWJAH 0
root@arm:~# echo 'JPGY''XELYYU'
JPGYXELYYU
root@arm:~# MARKER='ZSNX''GSXPHY' run 'i2cget -f -y 2 0x60 0x2a'
ZSNXGSXPHY0x99
ZSNXGSXPHY 0
root@arm:~# echo 'PQEP''VWEAAB'
PQEPVWEAAB
root@arm:~# MARKER='MBQE''GSYESU' run 'i2cget -y -f 2 0x60 0x23'
MBQEGSYESU0x46
MBQEGSYESU 0
root@arm:~# echo 'YOVX''FFKGKL'
YOVXFFKGKL
