Labgrid Console Logfile for main
Logfile started at 2025-06-23 11:47:59.292139
=== Log starts here ===

root@arm:~# run() { echo -n "$MARKER"; sh -c "$@"; echo "$MARKER $?"; }
root@arm:~# echo 'WPSQ''QFKLHG'
WPSQQFKLHG
root@arm:~# MARKER='QTBS''POFVJL' run 'grep -r -l rohm,bd96805 /proc/device-tree  | sed '"'"'s![^/]*$!!'"'"''
QTBSPOFVJL/proc/device-tree/ocp/interconnect@48000000/segment@100000/target-module@9c000/i2c@0/pmic@60/
QTBSPOFVJL 0
root@arm:~# echo 'BUUM''VNOLWC'
BUUMVNOLWC
root@arm:~# MARKER='BEUQ''BUPZZE' run 'test -f /proc/device-tree/ocp/interconnectt\@48000000/segment\@100000/target-module\@9c000/i2c\@0/pmic\@60/regulators/buck11/rohm,no-regulator-enable-control ;echo $?'
BEUQBUPZZE1
BEUQBUPZZE 0
root@arm:~# echo 'KXJC''ESPAXQ'
KXJCESPAXQ
root@arm:~# MARKER='NHYN''EYSXMA' run 'i2cget -y -f 2 0x60 0xb'
NHYNEYSXMA0x00
NHYNEYSXMA 0
root@arm:~# echo 'NLZX''GHOMVU'
NLZXGHOMVU
root@arm:~# MARKER='ZPAS''KOSZHO' run 'grep -r -l rohm,bd96805 /proc/device-tree  | sed '"'"'s![^/]*$!!'"'"''
ZPASKOSZHO/proc/device-tree/ocp/interconnect@48000000/segment@100000/target-module@9c000/i2c@0/pmic@60/
ZPASKOSZHO 0
root@arm:~# echo 'TLLH''FGSNJV'
TLLHFGSNJV
root@arm:~# MARKER='UBLW''JMHNWQ' run 'test -f /proc/device-tree/ocp/interconnectt\@48000000/segment\@100000/target-module\@9c000/i2c\@0/pmic\@60/regulators/buck 2/rohm,no-regulator-enable-control ;echo $?'
UBLWJMHNWQ1
UBLWJMHNWQ 0
root@arm:~# echo 'SUXB''YJFFZC'
SUXBYJFFZC
root@arm:~# MARKER='NZAG''JQSPYT' run 'i2cget -y -f 2 0x60 0xb'
NZAGJQSPYT0x00
NZAGJQSPYT 0
root@arm:~# echo 'JELJ''ECAXCV'
JELJECAXCV
root@arm:~# MARKER='WUFJ''HMGVYT' run 'grep -r -l rohm,bd96805 /proc/device-tree  | sed '"'"'s![^/]*$!!'"'"''
WUFJHMGVYT/proc/device-tree/ocp/interconnect@48000000/segment@100000/target-module@9c000/i2c@0/pmic@60/
WUFJHMGVYT 0
root@arm:~# echo 'CLNB''BAJCAM'
CLNBBAJCAM
root@arm:~# MARKER='HYON''BBLFWZ' run 'test -f /proc/device-tree/ocp/interconnectt\@48000000/segment\@100000/target-module\@9c000/i2c\@0/pmic\@60/regulators/buck33/rohm,no-regulator-enable-control ;echo $?'
HYONBBLFWZ1
HYONBBLFWZ 0
root@arm:~# echo 'GETT''ZLMVSH'
GETTZLMVSH
root@arm:~# MARKER='XXNA''XGNGKO' run 'i2cget -y -f 2 0x60 0xb'
XXNAXGNGKO0x00
XXNAXGNGKO 0
root@arm:~# echo 'YTEO''KAOZYW'
YTEOKAOZYW
root@arm:~# MARKER='WXMF''SLOGCL' run 'grep -r -l rohm,bd96805 /proc/device-tree  | sed '"'"'s![^/]*$!!'"'"''
WXMFSLOGCL/proc/device-tree/ocp/interconnect@48000000/segment@100000/target-module@9c000/i2c@0/pmic@60/
WXMFSLOGCL 0
root@arm:~# echo 'QABW''BKYMPT'
QABWBKYMPT
root@arm:~# MARKER='XHYA''PYYEVB' run 'test -f /proc/device-tree/ocp/interconnectt\@48000000/segment\@100000/target-module\@9c000/i2c\@0/pmic\@60/regulators/buck44/rohm,no-regulator-enable-control ;echo $?'
XHYAPYYEVB1
XHYAPYYEVB 0
root@arm:~# echo 'KUVL''HNMLYJ'
KUVLHNMLYJ
root@arm:~# MARKER='SLJM''ZCPLZC' run 'i2cget -y -f 2 0x60 0xb'
SLJMZCPLZC0x00
SLJMZCPLZC 0
root@arm:~# echo 'UYWM''LOMGUN'
UYWMLOMGUN
root@arm:~# MARKER='XPSZ''LMXHVE' run 'grep -r -l rohm,bd96805 /proc/device-tree  | sed '"'"'s![^/]*$!!'"'"''
XPSZLMXHVE/proc/device-tree/ocp/interconnect@48000000/segment@100000/target-module@9c000/i2c@0/pmic@60/
XPSZLMXHVE 0
root@arm:~# echo 'WPYB''WOPNBM'
WPYBWOPNBM
root@arm:~# MARKER='XYSV''BFOZMN' run 'test -f /proc/device-tree/ocp/interconnectt\@48000000/segment\@100000/target-module\@9c000/i2c\@0/pmic\@60/regulators/ldo5//rohm,no-regulator-enable-control ;echo $?'
XYSVBFOZMN1
XYSVBFOZMN 0
root@arm:~# echo 'UCCU''EWAKFV'
UCCUEWAKFV
root@arm:~# MARKER='SSWT''ZSFNZP' run 'i2cget -y -f 2 0x60 0xb'
SSWTZSFNZP0x00
SSWTZSFNZP 0
root@arm:~# echo 'WVTS''HPZXCO'
WVTSHPZXCO
root@arm:~# MARKER='GBWE''ANBCFL' run 'grep -r -l rohm,bd96805 /proc/device-tree  | sed '"'"'s![^/]*$!!'"'"''
GBWEANBCFL/proc/device-tree/ocp/interconnect@48000000/segment@100000/target-module@9c000/i2c@0/pmic@60/
GBWEANBCFL 0
root@arm:~# echo 'FKME''JTBOWK'
FKMEJTBOWK
root@arm:~# MARKER='PHZA''GZMEKH' run 'test -f /proc/device-tree/ocp/interconnectt\@48000000/segment\@100000/target-module\@9c000/i2c\@0/pmic\@60/regulators/ldo6//rohm,no-regulator-enable-control ;echo $?'
PHZAGZMEKH1
PHZAGZMEKH 0
root@arm:~# echo 'BVSY''AMOBYC'
BVSYAMOBYC
root@arm:~# MARKER='EVXT''HUCCLA' run 'i2cget -y -f 2 0x60 0xb'
EVXTHUCCLA0x00
EVXTHUCCLA 0
root@arm:~# echo 'VLQQ''HNCCKC'
VLQQHNCCKC
root@arm:~# MARKER='CYUV''WNUEYP' run 'grep -r -l rohm,bd96805 /proc/device-tree  | sed '"'"'s![^/]*$!!'"'"''
CYUVWNUEYP/proc/device-tree/ocp/interconnect@48000000/segment@100000/target-module@9c000/i2c@0/pmic@60/
CYUVWNUEYP 0
root@arm:~# echo 'VZSQ''JTOOTE'
VZSQJTOOTE
root@arm:~# MARKER='WJWK''XWBCCK' run 'test -f /proc/device-tree/ocp/interconnectt\@48000000/segment\@100000/target-module\@9c000/i2c\@0/pmic\@60/regulators/ldo7//rohm,no-regulator-enable-control ;echo $?'
WJWKXWBCCK1
WJWKXWBCCK 0
root@arm:~# echo 'OHJW''CHFJPX'
OHJWCHFJPX
root@arm:~# MARKER='WQFV''SHJJWE' run 'i2cget -y -f 2 0x60 0xb'
WQFVSHJJWE0x00
WQFVSHJJWE 0
root@arm:~# Labgrid Console Logfile for main
Logfile started at 2025-06-23 11:48:06.709606
=== Log starts here ===

root@arm:~# run() { echo -n "$MARKER"; sh -c "$@"; echo "$MARKER $?"; }
root@arm:~# echo 'JMGO''UTGNOX'
JMGOUTGNOX
root@arm:~# MARKER='YMKV''AXBJLK' run 'cat /sys/kernel/mva_test/regulators/buck1__set'
YMKVAXBJLK1800000
YMKVAXBJLK 0
root@arm:~# echo 'VLOW''FXKZCN'
VLOWFXKZCN
root@arm:~# MARKER='ZAMJ''ZPWGBY' run 'i2cget -y -f 2 0x60 0x21'
ZAMJZPWGBY0xce
ZAMJZPWGBY 0
root@arm:~# echo 'WLTG''ZVQCGQ'
WLTGZVQCGQ
root@arm:~# MARKER='CLMV''WJFWWH' run 'cat /sys/kernel/mva_test/regulators/buck2__set'
CLMVWJFWWH1100000
CLMVWJFWWH 0
root@arm:~# echo 'OQYP''ZQGWCE'
OQYPZQGWCE
root@arm:~# MARKER='MUHT''QKEMCJ' run 'i2cget -y -f 2 0x60 0x22'
MUHTQKEMCJ0x78
MUHTQKEMCJ 0
root@arm:~# echo 'EWYY''KOAXBY'
EWYYKOAXBY
root@arm:~# MARKER='AOHM''FCCPMU' run 'cat /sys/kernel/mva_test/regulators/buck3__set'
AOHMFCCPMU850000
AOHMFCCPMU 0
root@arm:~# echo 'LPBJ''FJEHUU'
LPBJFJEHUU
root@arm:~# MARKER='XMMZ''CKXPGM' run 'i2cget -y -f 2 0x60 0x23'
XMMZCKXPGM0x46
XMMZCKXPGM 0
root@arm:~# echo 'COSU''UOSJCL'
COSUUOSJCL
root@arm:~# MARKER='HLOW''FMECLH' run 'cat /sys/kernel/mva_test/regulators/buck4__set'
HLOWFMECLH850000
HLOWFMECLH 0
root@arm:~# echo 'JKQK''BAUPVH'
JKQKBAUPVH
root@arm:~# MARKER='PWSU''WVAYST' run 'i2cget -y -f 2 0x60 0x24'
PWSUWVAYST0x46
PWSUWVAYST 0
root@arm:~# echo 'AZXS''WXCYVU'
AZXSWXCYVU
root@arm:~# MARKER='AMCB''QVKXKC' run 'cat /sys/kernel/mva_test/regulators/buck5__set'
AMCBQVKXKC900000
AMCBQVKXKC 0
root@arm:~# echo 'WMEQ''COMQYA'
WMEQCOMQYA
root@arm:~# MARKER='LZVX''QZEXFL' run 'i2cget -y -f 2 0x60 0x25'
LZVXQZEXFL0x18
LZVXQZEXFL 0
root@arm:~# echo 'GAWH''UWLEQY'
GAWHUWLEQY
root@arm:~# MARKER='GVBL''YNENAS' run 'cat /sys/kernel/mva_test/regulators/buck6__set'
GVBLYNENAS1200000
GVBLYNENAS 0
root@arm:~# echo 'MXLM''YPUSUH'
MXLMYPUSUH
root@arm:~# MARKER='XZYJ''YHVYWS' run 'i2cget -y -f 2 0x60 0x26'
XZYJYHVYWS0x24
XZYJYHVYWS 0
root@arm:~# echo 'EESU''XVPYLT'
EESUXVPYLT
root@arm:~# MARKER='TYWY''PJOYBP' run 'cat /sys/kernel/mva_test/regulators/buck7__set'
TYWYPJOYBP3300000
TYWYPJOYBP 0
root@arm:~# echo 'HQNS''JBUAJZ'
HQNSJBUAJZ
root@arm:~# MARKER='WUAF''KHAHMW' run 'i2cget -y -f 2 0x60 0x27'
WUAFKHAHMW0x78
WUAFKHAHMW 0
root@arm:~# Labgrid Console Logfile for main
Logfile started at 2025-06-23 11:48:11.962249
=== Log starts here ===

root@arm:~# run() { echo -n "$MARKER"; sh -c "$@"; echo "$MARKER $?"; }
root@arm:~# echo 'ATOF''LZCYVN'
ATOFLZCYVN
root@arm:~# MARKER='AQMS''NQBYBT' run 'i2cget -y -f 2 0x60 0x21'
AQMSNQBYBT0xce
AQMSNQBYBT 0
root@arm:~# echo 'SXJX''AHBOYF'
SXJXAHBOYF
root@arm:~# MARKER='JGTH''GQCGTN' run 'echo 1800000 1800000 > /sys/kernel/mva_tesst/regulators/buck1_set'
JGTHGQCGTNJGTHGQCGTN 0
root@arm:~# echo 'VNQZ''LFTEQN'
VNQZLFTEQN
root@arm:~# MARKER='MCMF''JLZKJK' run 'i2cget -f -y 2 0x60 0x28'
MCMFJLZKJK0x00
MCMFJLZKJK 0
root@arm:~# echo 'VFTK''KKHPHY'
VFTKKKHPHY
root@arm:~# MARKER='BKBX''LELAJG' run 'i2cget -y -f 2 0x60 0x21'
BKBXLELAJG0xce
BKBXLELAJG 0
root@arm:~# echo 'MUXO''HYCSLO'
MUXOHYCSLO
root@arm:~# MARKER='JQZV''YVELGX' run 'i2cget -y -f 2 0x60 0x21'
JQZVYVELGX0xce
JQZVYVELGX 0
root@arm:~# echo 'GKLF''EONECN'
GKLFEONECN
root@arm:~# MARKER='EYMA''WUQLNU' run 'echo 1810000 1810000 > /sys/kernel/mva_tesst/regulators/buck1_set'
EYMAWUQLNUEYMAWUQLNU 0
root@arm:~# echo 'LYUS''GWKTMN'
LYUSGWKTMN
root@arm:~# MARKER='JSBP''POHAJN' run 'i2cget -f -y 2 0x60 0x28'
JSBPPOHAJN0x01
JSBPPOHAJN 0
root@arm:~# echo 'LYQA''EXNVJA'
LYQAEXNVJA
root@arm:~# MARKER='PBKN''KUCEMZ' run 'i2cget -y -f 2 0x60 0x21'
PBKNKUCEMZ0xce
PBKNKUCEMZ 0
root@arm:~# echo 'YQPN''CCJGUJ'
YQPNCCJGUJ
root@arm:~# MARKER='BPOZ''UEKMCM' run 'i2cget -y -f 2 0x60 0x21'
BPOZUEKMCM0xce
BPOZUEKMCM 0
root@arm:~# echo 'SZGZ''CJXKOX'
SZGZCJXKOX
root@arm:~# MARKER='STHP''HGMMWE' run 'echo 1820000 1820000 > /sys/kernel/mva_tesst/regulators/buck1_set'
STHPHGMMWESTHPHGMMWE 0
root@arm:~# echo 'ENPM''OECFME'
ENPMOECFME
root@arm:~# MARKER='YTBA''VHBFUU' run 'i2cget -f -y 2 0x60 0x28'
YTBAVHBFUU0x02
YTBAVHBFUU 0
root@arm:~# echo 'SACT''MVQBVK'
SACTMVQBVK
root@arm:~# MARKER='ZQEK''CZJTUE' run 'i2cget -y -f 2 0x60 0x21'
ZQEKCZJTUE0xce
ZQEKCZJTUE 0
root@arm:~# echo 'NFGJ''OSJKCJ'
NFGJOSJKCJ
root@arm:~# MARKER='SLWO''MAYTST' run 'i2cget -y -f 2 0x60 0x21'
SLWOMAYTST0xce
SLWOMAYTST 0
root@arm:~# echo 'BQQN''NCVKGQ'
BQQNNCVKGQ
root@arm:~# MARKER='BVQZ''VGXZQP' run 'echo 1830000 1830000 > /sys/kernel/mva_tesst/regulators/buck1_set'
BVQZVGXZQPBVQZVGXZQP 0
root@arm:~# echo 'LGCV''TGUMGB'
LGCVTGUMGB
root@arm:~# MARKER='SFSG''QLXBZG' run 'i2cget -f -y 2 0x60 0x28'
SFSGQLXBZG0x03
SFSGQLXBZG 0
root@arm:~# echo 'LLEG''CWEKXU'
LLEGCWEKXU
root@arm:~# MARKER='SKSY''YPTAZU' run 'i2cget -y -f 2 0x60 0x21'
SKSYYPTAZU0xce
SKSYYPTAZU 0
root@arm:~# echo 'YGLE''WKCVEX'
YGLEWKCVEX
root@arm:~# MARKER='WTKV''UBCJGS' run 'i2cget -y -f 2 0x60 0x21'
WTKVUBCJGS0xce
WTKVUBCJGS 0
root@arm:~# echo 'SQLL''XMULAG'
SQLLXMULAG
root@arm:~# MARKER='LTYT''EYXSUP' run 'echo 1840000 1840000 > /sys/kernel/mva_tesst/regulators/buck1_set'
LTYTEYXSUPLTYTEYXSUP 0
root@arm:~# echo 'AHZB''FCZLSG'
AHZBFCZLSG
root@arm:~# MARKER='BPYK''YSOYFV' run 'i2cget -f -y 2 0x60 0x28'
BPYKYSOYFV0x04
BPYKYSOYFV 0
root@arm:~# echo 'CWVS''NKYKWP'
CWVSNKYKWP
root@arm:~# MARKER='LLEE''AFZYVQ' run 'i2cget -y -f 2 0x60 0x21'
LLEEAFZYVQ0xce
LLEEAFZYVQ 0
root@arm:~# echo 'UGWH''NHHGOG'
UGWHNHHGOG
root@arm:~# MARKER='COVJ''EBFVBC' run 'i2cget -y -f 2 0x60 0x21'
COVJEBFVBC0xce
COVJEBFVBC 0
root@arm:~# echo 'HNET''FVTAML'
HNETFVTAML
root@arm:~# MARKER='VSTW''WTLKGM' run 'echo 1850000 1850000 > /sys/kernel/mva_tesst/regulators/buck1_set'
VSTWWTLKGMVSTWWTLKGM 0
root@arm:~# echo 'TTHN''KBLPCH'
TTHNKBLPCH
root@arm:~# MARKER='ELNJ''KYSLNG' run 'i2cget -f -y 2 0x60 0x28'
ELNJKYSLNG0x05
ELNJKYSLNG 0
root@arm:~# echo 'ASZJ''CAVMTM'
ASZJCAVMTM
root@arm:~# MARKER='YXTK''EEBGGU' run 'i2cget -y -f 2 0x60 0x21'
YXTKEEBGGU0xce
YXTKEEBGGU 0
root@arm:~# echo 'ZJCA''AFLZLA'
ZJCAAFLZLA
root@arm:~# MARKER='BNYU''CLHHVC' run 'i2cget -y -f 2 0x60 0x21'
BNYUCLHHVC0xce
BNYUCLHHVC 0
root@arm:~# echo 'GYBL''QHUMSC'
GYBLQHUMSC
root@arm:~# MARKER='CNXT''UBPCNV' run 'echo 1860000 1860000 > /sys/kernel/mva_tesst/regulators/buck1_set'
CNXTUBPCNVCNXTUBPCNV 0
root@arm:~# echo 'EXFY''SBOTXO'
EXFYSBOTXO
root@arm:~# MARKER='KBSY''XNPLBW' run 'i2cget -f -y 2 0x60 0x28'
KBSYXNPLBW0x06
KBSYXNPLBW 0
root@arm:~# echo 'HQXW''KQAWCB'
HQXWKQAWCB
root@arm:~# MARKER='VULA''LBCGPS' run 'i2cget -y -f 2 0x60 0x21'
VULALBCGPS0xce
VULALBCGPS 0
root@arm:~# echo 'GSHT''TVBCQW'
GSHTTVBCQW
root@arm:~# MARKER='SOBK''UOUBAP' run 'i2cget -y -f 2 0x60 0x21'
SOBKUOUBAP0xce
SOBKUOUBAP 0
root@arm:~# echo 'CGKT''SLYUBY'
CGKTSLYUBY
root@arm:~# MARKER='XVBY''VGHEWH' run 'echo 1870000 1870000 > /sys/kernel/mva_tesst/regulators/buck1_set'
XVBYVGHEWHXVBYVGHEWH 0
root@arm:~# echo 'ZNBX''KPGTZM'
ZNBXKPGTZM
root@arm:~# MARKER='AYPZ''GVSBAL' run 'i2cget -f -y 2 0x60 0x28'
AYPZGVSBAL0x07
AYPZGVSBAL 0
root@arm:~# echo 'EJOK''SSNZVQ'
EJOKSSNZVQ
root@arm:~# MARKER='FUYW''TZVSCK' run 'i2cget -y -f 2 0x60 0x21'
FUYWTZVSCK0xce
FUYWTZVSCK 0
root@arm:~# echo 'VTYJ''FWWPUY'
VTYJFWWPUY
root@arm:~# MARKER='CUXC''CVVTJA' run 'i2cget -y -f 2 0x60 0x21'
CUXCCVVTJA0xce
CUXCCVVTJA 0
root@arm:~# echo 'EPLO''TOKFMJ'
EPLOTOKFMJ
root@arm:~# MARKER='OGEC''ZBFKYK' run 'echo 1880000 1880000 > /sys/kernel/mva_tesst/regulators/buck1_set'
OGECZBFKYKOGECZBFKYK 0
root@arm:~# echo 'AWHO''EMBMVG'
AWHOEMBMVG
root@arm:~# MARKER='LKUK''VVVCUZ' run 'i2cget -f -y 2 0x60 0x28'
LKUKVVVCUZ0x08
LKUKVVVCUZ 0
root@arm:~# echo 'QPFM''EBXVJG'
QPFMEBXVJG
root@arm:~# MARKER='FPYY''OJBXNL' run 'i2cget -y -f 2 0x60 0x21'
FPYYOJBXNL0xce
FPYYOJBXNL 0
root@arm:~# echo 'NFJL''BNJKAW'
NFJLBNJKAW
root@arm:~# MARKER='KMMW''WKHNLB' run 'i2cget -y -f 2 0x60 0x21'
KMMWWKHNLB0xce
KMMWWKHNLB 0
root@arm:~# echo 'SOWF''THLWJJ'
SOWFTHLWJJ
root@arm:~# MARKER='JYST''OXYSTW' run 'echo 1890000 1890000 > /sys/kernel/mva_tesst/regulators/buck1_set'
JYSTOXYSTWJYSTOXYSTW 0
root@arm:~# echo 'SOBB''ZZCHTH'
SOBBZZCHTH
root@arm:~# MARKER='XPJC''BBALBH' run 'i2cget -f -y 2 0x60 0x28'
XPJCBBALBH0x09
XPJCBBALBH 0
root@arm:~# echo 'ZEBX''SOJEEY'
ZEBXSOJEEY
root@arm:~# MARKER='AJWE''CHOFJF' run 'i2cget -y -f 2 0x60 0x21'
AJWECHOFJF0xce
AJWECHOFJF 0
root@arm:~# echo 'PKHA''XTOFWU'
PKHAXTOFWU
root@arm:~# MARKER='GEQK''KCGZCH' run 'i2cget -y -f 2 0x60 0x21'
GEQKKCGZCH0xce
GEQKKCGZCH 0
root@arm:~# echo 'MXAB''FOHQWQ'
MXABFOHQWQ
root@arm:~# MARKER='WWWB''XHZKOE' run 'echo 1900000 1900000 > /sys/kernel/mva_tesst/regulators/buck1_set'
WWWBXHZKOEWWWBXHZKOE 0
root@arm:~# echo 'SPCV''VKFPTF'
SPCVVKFPTF
root@arm:~# MARKER='NPWG''SPEQHH' run 'i2cget -f -y 2 0x60 0x28'
NPWGSPEQHH0x0a
NPWGSPEQHH 0
root@arm:~# echo 'QEMK''PEKVKW'
QEMKPEKVKW
root@arm:~# MARKER='BHGU''VCGKJO' run 'i2cget -y -f 2 0x60 0x21'
BHGUVCGKJO0xce
BHGUVCGKJO 0
root@arm:~# echo 'ZTQX''GHUZBS'
ZTQXGHUZBS
root@arm:~# MARKER='EKLE''TSHPNA' run 'i2cget -y -f 2 0x60 0x21'
EKLETSHPNA0xce
EKLETSHPNA 0
root@arm:~# echo 'XQNW''VZPHWH'
XQNWVZPHWH
root@arm:~# MARKER='XELJ''QBTQUL' run 'echo 1910000 1910000 > /sys/kernel/mva_tesst/regulators/buck1_set'
XELJQBTQULXELJQBTQUL 0
root@arm:~# echo 'YQGZ''POGQOO'
YQGZPOGQOO
root@arm:~# MARKER='AASQ''WNWLJB' run 'i2cget -f -y 2 0x60 0x28'
AASQWNWLJB0x0b
AASQWNWLJB 0
root@arm:~# echo 'SHWN''YUYHBG'
SHWNYUYHBG
root@arm:~# MARKER='XWGO''EGPWMA' run 'i2cget -y -f 2 0x60 0x21'
XWGOEGPWMA0xce
XWGOEGPWMA 0
root@arm:~# echo 'PPJZ''FOMXMG'
PPJZFOMXMG
root@arm:~# MARKER='LAHJ''HZCUOQ' run 'i2cget -y -f 2 0x60 0x21'
LAHJHZCUOQ0xce
LAHJHZCUOQ 0
root@arm:~# echo 'KFHV''VKUEHG'
KFHVVKUEHG
root@arm:~# MARKER='AQJJ''WJJVPM' run 'echo 1920000 1920000 > /sys/kernel/mva_tesst/regulators/buck1_set'
AQJJWJJVPMAQJJWJJVPM 0
root@arm:~# echo 'QNFF''KTAFPY'
QNFFKTAFPY
root@arm:~# MARKER='SNCP''FZMQAB' run 'i2cget -f -y 2 0x60 0x28'
SNCPFZMQAB0x0c
SNCPFZMQAB 0
root@arm:~# echo 'MYWN''TUBVFY'
MYWNTUBVFY
root@arm:~# MARKER='ATVH''KZZXYS' run 'i2cget -y -f 2 0x60 0x21'
ATVHKZZXYS0xce
ATVHKZZXYS 0
root@arm:~# echo 'MUSH''WKZWVX'
MUSHWKZWVX
root@arm:~# MARKER='HJHJ''NOWVNC' run 'i2cget -y -f 2 0x60 0x21'
HJHJNOWVNC0xce
HJHJNOWVNC 0
root@arm:~# echo 'MHZX''FBKTUH'
MHZXFBKTUH
root@arm:~# MARKER='UMPG''CCLEON' run 'echo 1930000 1930000 > /sys/kernel/mva_tesst/regulators/buck1_set'
UMPGCCLEONUMPGCCLEON 0
root@arm:~# echo 'YSUZ''NKMHOU'
YSUZNKMHOU
root@arm:~# MARKER='NUFJ''ASBOXE' run 'i2cget -f -y 2 0x60 0x28'
NUFJASBOXE0x0d
NUFJASBOXE 0
root@arm:~# echo 'YXWO''MFZYPV'
YXWOMFZYPV
root@arm:~# MARKER='HGLX''WQBXHF' run 'i2cget -y -f 2 0x60 0x21'
HGLXWQBXHF0xce
HGLXWQBXHF 0
root@arm:~# echo 'CFYS''HOFVUK'
CFYSHOFVUK
root@arm:~# MARKER='USYP''SJLMYA' run 'i2cget -y -f 2 0x60 0x21'
USYPSJLMYA0xce
USYPSJLMYA 0
root@arm:~# echo 'ZEZX''AGHZWT'
ZEZXAGHZWT
root@arm:~# MARKER='EBCV''KKNAQB' run 'echo 1940000 1940000 > /sys/kernel/mva_tesst/regulators/buck1_set'
EBCVKKNAQBEBCVKKNAQB 0
root@arm:~# echo 'WGGC''OZLBCQ'
WGGCOZLBCQ
root@arm:~# MARKER='ENBU''MTKGLL' run 'i2cget -f -y 2 0x60 0x28'
ENBUMTKGLL0x0e
ENBUMTKGLL 0
root@arm:~# echo 'BQLJ''SKTPMU'
BQLJSKTPMU
root@arm:~# MARKER='YYKG''HCLMYB' run 'i2cget -y -f 2 0x60 0x21'
YYKGHCLMYB0xce
YYKGHCLMYB 0
root@arm:~# echo 'VZKU''PCQXAM'
VZKUPCQXAM
root@arm:~# MARKER='YLNQ''CQUUUQ' run 'i2cget -y -f 2 0x60 0x21'
YLNQCQUUUQ0xce
YLNQCQUUUQ 0
root@arm:~# echo 'UBBE''TWHLME'
UBBETWHLME
root@arm:~# MARKER='JFHB''QUUOKX' run 'echo 1950000 1950000 > /sys/kernel/mva_tesst/regulators/buck1_set'
JFHBQUUOKXJFHBQUUOKX 0
root@arm:~# echo 'BEBE''NJVLWL'
BEBENJVLWL
root@arm:~# MARKER='ZNOY''AOYYNB' run 'i2cget -f -y 2 0x60 0x28'
ZNOYAOYYNB0x0f
ZNOYAOYYNB 0
root@arm:~# echo 'ZLFE''GUAMNN'
ZLFEGUAMNN
root@arm:~# MARKER='GQLN''OGLHKF' run 'i2cget -y -f 2 0x60 0x21'
GQLNOGLHKF0xce
GQLNOGLHKF 0
root@arm:~# echo 'VWCK''JFCWGB'
VWCKJFCWGB
root@arm:~# MARKER='AXXH''PBLUQO' run 'i2cget -y -f 2 0x60 0x21'
AXXHPBLUQO0xce
AXXHPBLUQO 0
root@arm:~# echo 'YNNG''KCZAHB'
YNNGKCZAHB
root@arm:~# MARKER='BYYN''WMLWOX' run 'echo 1960000 1960000 > /sys/kernel/mva_tesst/regulators/buck1_set'
BYYNWMLWOXBYYNWMLWOX 0
root@arm:~# echo 'LPKH''OAWHFE'
LPKHOAWHFE
root@arm:~# MARKER='HTNY''OXYUZB' run 'i2cget -f -y 2 0x60 0x28'
HTNYOXYUZB0x10
HTNYOXYUZB 0
root@arm:~# echo 'PHEN''JPLJMK'
PHENJPLJMK
root@arm:~# MARKER='TWCL''BLVSME' run 'i2cget -y -f 2 0x60 0x21'
TWCLBLVSME0xce
TWCLBLVSME 0
root@arm:~# echo 'JUVZ''FCUHKW'
JUVZFCUHKW
root@arm:~# MARKER='JBYX''HCJFPW' run 'i2cget -y -f 2 0x60 0x21'
JBYXHCJFPW0xce
JBYXHCJFPW 0
root@arm:~# echo 'CAUJ''KWGQVQ'
CAUJKWGQVQ
root@arm:~# MARKER='ZBPN''QAHKWN' run 'echo 1970000 1970000 > /sys/kernel/mva_tesst/regulators/buck1_set'
ZBPNQAHKWNZBPNQAHKWN 0
root@arm:~# echo 'XSXH''KWOBQY'
XSXHKWOBQY
root@arm:~# MARKER='NSCZ''NWYTEU' run 'i2cget -f -y 2 0x60 0x28'
NSCZNWYTEU0x11
NSCZNWYTEU 0
root@arm:~# echo 'PSLG''JMGNSJ'
PSLGJMGNSJ
root@arm:~# MARKER='XACA''AYVZAS' run 'i2cget -y -f 2 0x60 0x21'
XACAAYVZAS0xce
XACAAYVZAS 0
root@arm:~# echo 'JJXE''SMOBEJ'
JJXESMOBEJ
root@arm:~# MARKER='NJHP''PJUNPQ' run 'i2cget -y -f 2 0x60 0x21'
NJHPPJUNPQ0xce
NJHPPJUNPQ 0
root@arm:~# echo 'XOHP''GWJWYA'
XOHPGWJWYA
root@arm:~# MARKER='VVZK''CEVFUQ' run 'echo 1980000 1980000 > /sys/kernel/mva_tesst/regulators/buck1_set'
VVZKCEVFUQVVZKCEVFUQ 0
root@arm:~# echo 'UMNP''YFEOJX'
UMNPYFEOJX
root@arm:~# MARKER='SYOX''TLBUJL' run 'i2cget -f -y 2 0x60 0x28'
SYOXTLBUJL0x12
SYOXTLBUJL 0
root@arm:~# echo 'CHBY''FYXCWF'
CHBYFYXCWF
root@arm:~# MARKER='VKKA''MKHEPL' run 'i2cget -y -f 2 0x60 0x21'
VKKAMKHEPL0xce
VKKAMKHEPL 0
root@arm:~# echo 'QHZP''HXVWHS'
QHZPHXVWHS
root@arm:~# MARKER='GVCK''CXATQY' run 'i2cget -y -f 2 0x60 0x21'
GVCKCXATQY0xce
GVCKCXATQY 0
root@arm:~# echo 'GXMX''TCOOJQ'
GXMXTCOOJQ
root@arm:~# MARKER='WQWO''MOJEWU' run 'echo 1990000 1990000 > /sys/kernel/mva_tesst/regulators/buck1_set'
WQWOMOJEWUWQWOMOJEWU 0
root@arm:~# echo 'KWNU''LUMMQW'
KWNULUMMQW
root@arm:~# MARKER='CMPA''FZALJV' run 'i2cget -f -y 2 0x60 0x28'
CMPAFZALJV0x13
CMPAFZALJV 0
root@arm:~# echo 'ENPW''GTCYKK'
ENPWGTCYKK
root@arm:~# MARKER='PYBY''WJOZEO' run 'i2cget -y -f 2 0x60 0x21'
PYBYWJOZEO0xce
PYBYWJOZEO 0
root@arm:~# echo 'WJNG''BLETCV'
WJNGBLETCV
root@arm:~# MARKER='OHXK''VPXVVH' run 'i2cget -y -f 2 0x60 0x21'
OHXKVPXVVH0xce
OHXKVPXVVH 0
root@arm:~# echo 'LPQV''KGTGGM'
LPQVKGTGGM
root@arm:~# MARKER='HGZN''PQQYNZ' run 'echo 2000000 2000000 > /sys/kernel/mva_tesst/regulators/buck1_set'
HGZNPQQYNZHGZNPQQYNZ 0
root@arm:~# echo 'LFNT''SZMXNC'
LFNTSZMXNC
root@arm:~# MARKER='VKAN''JGBWNL' run 'i2cget -f -y 2 0x60 0x28'
VKANJGBWNL0x14
VKANJGBWNL 0
root@arm:~# echo 'FAHH''FMNHEJ'
FAHHFMNHEJ
root@arm:~# MARKER='MGBQ''ELZXVP' run 'i2cget -y -f 2 0x60 0x21'
MGBQELZXVP0xce
MGBQELZXVP 0
root@arm:~# echo 'NAJM''WYMXYF'
NAJMWYMXYF
root@arm:~# MARKER='UJJB''LAKMBK' run 'i2cget -y -f 2 0x60 0x21'
UJJBLAKMBK0xce
UJJBLAKMBK 0
root@arm:~# echo 'JOEX''NXSGHP'
JOEXNXSGHP
root@arm:~# MARKER='MPJT''GFGKTJ' run 'echo 2010000 2010000 > /sys/kernel/mva_tesst/regulators/buck1_set'
MPJTGFGKTJMPJTGFGKTJ 0
root@arm:~# echo 'FUGX''ZEOPHY'
FUGXZEOPHY
root@arm:~# MARKER='NJVP''PTYJPF' run 'i2cget -f -y 2 0x60 0x28'
NJVPPTYJPF0x15
NJVPPTYJPF 0
root@arm:~# echo 'LTZL''ZGBPZT'
LTZLZGBPZT
root@arm:~# MARKER='LTKW''VKUQLG' run 'i2cget -y -f 2 0x60 0x21'
LTKWVKUQLG0xce
LTKWVKUQLG 0
root@arm:~# echo 'QUGM''WHNEYB'
QUGMWHNEYB
root@arm:~# MARKER='PHCZ''HWTBEW' run 'i2cget -y -f 2 0x60 0x21'
PHCZHWTBEW0xce
PHCZHWTBEW 0
root@arm:~# echo 'EFJH''LSYOTJ'
EFJHLSYOTJ
root@arm:~# MARKER='AXGM''XTGHJU' run 'echo 2020000 2020000 > /sys/kernel/mva_tesst/regulators/buck1_set'
AXGMXTGHJUAXGMXTGHJU 0
root@arm:~# echo 'MQVG''UMUUUC'
MQVGUMUUUC
root@arm:~# MARKER='UVLC''EFPLKZ' run 'i2cget -f -y 2 0x60 0x28'
UVLCEFPLKZ0x16
UVLCEFPLKZ 0
root@arm:~# echo 'NNLL''XUTYLQ'
NNLLXUTYLQ
root@arm:~# MARKER='PXOX''YEAEAC' run 'i2cget -y -f 2 0x60 0x21'
PXOXYEAEAC0xce
PXOXYEAEAC 0
root@arm:~# echo 'HWOL''PTLKAW'
HWOLPTLKAW
root@arm:~# MARKER='WXAG''KANKBQ' run 'i2cget -y -f 2 0x60 0x21'
WXAGKANKBQ0xce
WXAGKANKBQ 0
root@arm:~# echo 'TAJY''XZJQJH'
TAJYXZJQJH
root@arm:~# MARKER='UZJQ''JYCGVU' run 'echo 2030000 2030000 > /sys/kernel/mva_tesst/regulators/buck1_set'
UZJQJYCGVUUZJQJYCGVU 0
root@arm:~# echo 'EQNF''EPVWWC'
EQNFEPVWWC
root@arm:~# MARKER='YWCT''XXHPAM' run 'i2cget -f -y 2 0x60 0x28'
YWCTXXHPAM0x17
YWCTXXHPAM 0
root@arm:~# echo 'YXEN''EKZHPE'
YXENEKZHPE
root@arm:~# MARKER='ZQUZ''WVTAAW' run 'i2cget -y -f 2 0x60 0x21'
ZQUZWVTAAW0xce
ZQUZWVTAAW 0
root@arm:~# echo 'JBVK''ZLPKQQ'
JBVKZLPKQQ
root@arm:~# MARKER='VHXN''HYPQQM' run 'i2cget -y -f 2 0x60 0x21'
VHXNHYPQQM0xce
VHXNHYPQQM 0
root@arm:~# echo 'CUNF''YMHSPZ'
CUNFYMHSPZ
root@arm:~# MARKER='LVLY''HZONGW' run 'echo 2040000 2040000 > /sys/kernel/mva_tesst/regulators/buck1_set'
LVLYHZONGWLVLYHZONGW 0
root@arm:~# echo 'ZYSU''NEQXKB'
ZYSUNEQXKB
root@arm:~# MARKER='BEUX''JBUJNT' run 'i2cget -f -y 2 0x60 0x28'
BEUXJBUJNT0x18
BEUXJBUJNT 0
root@arm:~# echo 'FNHK''GPQMAQ'
FNHKGPQMAQ
root@arm:~# MARKER='BMYS''GLOLNT' run 'i2cget -y -f 2 0x60 0x21'
BMYSGLOLNT0xce
BMYSGLOLNT 0
root@arm:~# echo 'EVNK''GJCVZF'
EVNKGJCVZF
root@arm:~# MARKER='OUWO''VSONLP' run 'i2cget -y -f 2 0x60 0x21'
OUWOVSONLP0xce
OUWOVSONLP 0
root@arm:~# echo 'GFKH''HFNNFN'
GFKHHFNNFN
root@arm:~# MARKER='KCZO''QXCPBP' run 'echo 2050000 2050000 > /sys/kernel/mva_tesst/regulators/buck1_set'
KCZOQXCPBPKCZOQXCPBP 0
root@arm:~# echo 'WMYJ''WHWFMK'
WMYJWHWFMK
root@arm:~# MARKER='WJTU''TPBNHF' run 'i2cget -f -y 2 0x60 0x28'
WJTUTPBNHF0x19
WJTUTPBNHF 0
root@arm:~# echo 'XVEW''HXVGMK'
XVEWHXVGMK
root@arm:~# MARKER='UNGF''EBWFVO' run 'i2cget -y -f 2 0x60 0x21'
UNGFEBWFVO0xce
UNGFEBWFVO 0
root@arm:~# echo 'PUAB''SNVPGF'
PUABSNVPGF
root@arm:~# MARKER='CPKC''XEFLZS' run 'i2cget -y -f 2 0x60 0x21'
CPKCXEFLZS0xce
CPKCXEFLZS 0
root@arm:~# echo 'PSPV''QEHQCV'
PSPVQEHQCV
root@arm:~# MARKER='BPLW''GXPUQF' run 'echo 2060000 2060000 > /sys/kernel/mva_tesst/regulators/buck1_set'
BPLWGXPUQFBPLWGXPUQF 0
root@arm:~# echo 'WMAK''BWGLNY'
WMAKBWGLNY
root@arm:~# MARKER='OWGL''ZOKMFB' run 'i2cget -f -y 2 0x60 0x28'
OWGLZOKMFB0x1a
OWGLZOKMFB 0
root@arm:~# echo 'TSJA''OWZQKE'
TSJAOWZQKE
root@arm:~# MARKER='VOSP''USHNSU' run 'i2cget -y -f 2 0x60 0x21'
VOSPUSHNSU0xce
VOSPUSHNSU 0
root@arm:~# echo 'TGBB''QWYCWF'
TGBBQWYCWF
root@arm:~# MARKER='VSBN''ZTXZQB' run 'i2cget -y -f 2 0x60 0x21'
VSBNZTXZQB0xce
VSBNZTXZQB 0
root@arm:~# echo 'FAXG''KBZOPA'
FAXGKBZOPA
root@arm:~# MARKER='XOMX''JOQJAZ' run 'echo 2070000 2070000 > /sys/kernel/mva_tesst/regulators/buck1_set'
XOMXJOQJAZXOMXJOQJAZ 0
root@arm:~# echo 'EVMH''EBSFYO'
EVMHEBSFYO
root@arm:~# MARKER='FFSO''PPYGEY' run 'i2cget -f -y 2 0x60 0x28'
FFSOPPYGEY0x1b
FFSOPPYGEY 0
root@arm:~# echo 'ZTEE''FCHSAA'
ZTEEFCHSAA
root@arm:~# MARKER='GWSU''AOAXJO' run 'i2cget -y -f 2 0x60 0x21'
GWSUAOAXJO0xce
GWSUAOAXJO 0
root@arm:~# echo 'UCKZ''BGHGVH'
UCKZBGHGVH
root@arm:~# MARKER='ZGPP''FFUOFF' run 'i2cget -y -f 2 0x60 0x21'
ZGPPFFUOFF0xce
ZGPPFFUOFF 0
root@arm:~# echo 'UZQV''NEMCYX'
UZQVNEMCYX
root@arm:~# MARKER='UGJG''YZLATO' run 'echo 2080000 2080000 > /sys/kernel/mva_tesst/regulators/buck1_set'
UGJGYZLATOUGJGYZLATO 0
root@arm:~# echo 'SXYJ''NUXOEN'
SXYJNUXOEN
root@arm:~# MARKER='WNBH''GUVGPT' run 'i2cget -f -y 2 0x60 0x28'
WNBHGUVGPT0x1c
WNBHGUVGPT 0
root@arm:~# echo 'PFNW''KMPWHF'
PFNWKMPWHF
root@arm:~# MARKER='VKSG''SBWZHF' run 'i2cget -y -f 2 0x60 0x21'
VKSGSBWZHF0xce
VKSGSBWZHF 0
root@arm:~# echo 'WQSB''ZKEXHF'
WQSBZKEXHF
root@arm:~# MARKER='EVNZ''FGGMVY' run 'i2cget -y -f 2 0x60 0x21'
EVNZFGGMVY0xce
EVNZFGGMVY 0
root@arm:~# echo 'FPSM''VVGAAL'
FPSMVVGAAL
root@arm:~# MARKER='KKSN''LYFBPO' run 'echo 2090000 2090000 > /sys/kernel/mva_tesst/regulators/buck1_set'
KKSNLYFBPOKKSNLYFBPO 0
root@arm:~# echo 'QPJU''BACFQG'
QPJUBACFQG
root@arm:~# MARKER='HHSP''EOUCZW' run 'i2cget -f -y 2 0x60 0x28'
HHSPEOUCZW0x1d
HHSPEOUCZW 0
root@arm:~# echo 'JTAH''NFJTSN'
JTAHNFJTSN
root@arm:~# MARKER='HTQN''BTZLEA' run 'i2cget -y -f 2 0x60 0x21'
HTQNBTZLEA0xce
HTQNBTZLEA 0
root@arm:~# echo 'OEMC''UTONYB'
OEMCUTONYB
root@arm:~# MARKER='AQQK''PXTOUF' run 'i2cget -y -f 2 0x60 0x21'
AQQKPXTOUF0xce
AQQKPXTOUF 0
root@arm:~# echo 'WHPW''OCXBAZ'
WHPWOCXBAZ
root@arm:~# MARKER='EBHV''KBGVAS' run 'echo 2100000 2100000 > /sys/kernel/mva_tesst/regulators/buck1_set'
EBHVKBGVASEBHVKBGVAS 0
root@arm:~# echo 'HZUZ''UYXXQT'
HZUZUYXXQT
root@arm:~# MARKER='LSMS''KVTYEM' run 'i2cget -f -y 2 0x60 0x28'
LSMSKVTYEM0x1e
LSMSKVTYEM 0
root@arm:~# echo 'WZTA''NVJCVL'
WZTANVJCVL
root@arm:~# MARKER='WAMF''XSLPXQ' run 'i2cget -y -f 2 0x60 0x21'
WAMFXSLPXQ0xce
WAMFXSLPXQ 0
root@arm:~# echo 'KWJS''VHBOST'
KWJSVHBOST
root@arm:~# MARKER='NHPV''TXTTZS' run 'i2cget -y -f 2 0x60 0x21'
NHPVTXTTZS0xce
NHPVTXTTZS 0
root@arm:~# echo 'FUJY''SONVCL'
FUJYSONVCL
root@arm:~# MARKER='USBF''KHHAAJ' run 'echo 2110000 2110000 > /sys/kernel/mva_tesst/regulators/buck1_set'
USBFKHHAAJUSBFKHHAAJ 0
root@arm:~# echo 'PZKW''SLBQBX'
PZKWSLBQBX
root@arm:~# MARKER='ZPAO''WKZZVJ' run 'i2cget -f -y 2 0x60 0x28'
ZPAOWKZZVJ0x1f
ZPAOWKZZVJ 0
root@arm:~# echo 'GYBV''ZFTVBL'
GYBVZFTVBL
root@arm:~# MARKER='UWMO''KLHXWE' run 'i2cget -y -f 2 0x60 0x21'
UWMOKLHXWE0xce
UWMOKLHXWE 0
root@arm:~# echo 'PCTO''EQFUHV'
PCTOEQFUHV
root@arm:~# MARKER='WBTS''LTQGTU' run 'i2cget -y -f 2 0x60 0x21'
WBTSLTQGTU0xce
WBTSLTQGTU 0
root@arm:~# echo 'HSPE''FCVHBA'
HSPEFCVHBA
root@arm:~# MARKER='XAUA''AEMVVS' run 'echo 1490000 1490000 > /sys/kernel/mva_tesst/regulators/buck1_set'
XAUAAEMVVSXAUAAEMVVS 0
root@arm:~# echo 'AGOY''QWJFWP'
AGOYQWJFWP
root@arm:~# MARKER='VVWU''JZTNZL' run 'i2cget -f -y 2 0x60 0x28'
VVWUJZTNZL0x20
VVWUJZTNZL 0
root@arm:~# echo 'JWKB''XPGNEF'
JWKBXPGNEF
root@arm:~# MARKER='PWYA''NVUEOK' run 'i2cget -y -f 2 0x60 0x21'
PWYANVUEOK0xce
PWYANVUEOK 0
root@arm:~# echo 'VZHT''LFBCKH'
VZHTLFBCKH
root@arm:~# MARKER='BLQQ''ALNTSE' run 'i2cget -y -f 2 0x60 0x21'
BLQQALNTSE0xce
BLQQALNTSE 0
root@arm:~# echo 'JSPN''EVHNMB'
JSPNEVHNMB
root@arm:~# MARKER='MAUO''MKBOQZ' run 'echo 1500000 1500000 > /sys/kernel/mva_tesst/regulators/buck1_set'
MAUOMKBOQZMAUOMKBOQZ 0
root@arm:~# echo 'QWGP''ELTYOZ'
QWGPELTYOZ
root@arm:~# MARKER='HHKY''PULQEO' run 'i2cget -f -y 2 0x60 0x28'
HHKYPULQEO0x21
HHKYPULQEO 0
root@arm:~# echo 'EGUO''MMHGHB'
EGUOMMHGHB
root@arm:~# MARKER='KSKG''VMQUEN' run 'i2cget -y -f 2 0x60 0x21'
KSKGVMQUEN0xce
KSKGVMQUEN 0
root@arm:~# echo 'OEQH''TBXVYU'
OEQHTBXVYU
root@arm:~# MARKER='KPOU''FGOWLV' run 'i2cget -y -f 2 0x60 0x21'
KPOUFGOWLV0xce
KPOUFGOWLV 0
root@arm:~# echo 'GFJY''AZWSOA'
GFJYAZWSOA
root@arm:~# MARKER='QQBK''PBVOPZ' run 'echo 1510000 1510000 > /sys/kernel/mva_tesst/regulators/buck1_set'
QQBKPBVOPZQQBKPBVOPZ 0
root@arm:~# echo 'JWXS''CQTTBG'
JWXSCQTTBG
root@arm:~# MARKER='NVMG''ETUYLE' run 'i2cget -f -y 2 0x60 0x28'
NVMGETUYLE0x22
NVMGETUYLE 0
root@arm:~# echo 'OTJM''GZACYK'
OTJMGZACYK
root@arm:~# MARKER='NBCV''PHQZGK' run 'i2cget -y -f 2 0x60 0x21'
NBCVPHQZGK0xce
NBCVPHQZGK 0
root@arm:~# echo 'JLCN''VNLCGE'
JLCNVNLCGE
root@arm:~# MARKER='ZTQF''FKYYXT' run 'i2cget -y -f 2 0x60 0x21'
ZTQFFKYYXT0xce
ZTQFFKYYXT 0
root@arm:~# echo 'KWGG''TLLJAP'
KWGGTLLJAP
root@arm:~# MARKER='TSQC''ZLQBNN' run 'echo 1520000 1520000 > /sys/kernel/mva_tesst/regulators/buck1_set'
TSQCZLQBNNTSQCZLQBNN 0
root@arm:~# echo 'WTQZ''EPZUQK'
WTQZEPZUQK
root@arm:~# MARKER='JPFM''XUXLHF' run 'i2cget -f -y 2 0x60 0x28'
JPFMXUXLHF0x23
JPFMXUXLHF 0
root@arm:~# echo 'VQQW''WJXALA'
VQQWWJXALA
root@arm:~# MARKER='AGNT''OYEOAJ' run 'i2cget -y -f 2 0x60 0x21'
AGNTOYEOAJ0xce
AGNTOYEOAJ 0
root@arm:~# echo 'LHUJ''YPCWWX'
LHUJYPCWWX
root@arm:~# MARKER='LOOG''XLTFXQ' run 'i2cget -y -f 2 0x60 0x21'
LOOGXLTFXQ0xce
LOOGXLTFXQ 0
root@arm:~# echo 'JJYE''PTATHX'
JJYEPTATHX
root@arm:~# MARKER='WHYZ''UFCLQA' run 'echo 1530000 1530000 > /sys/kernel/mva_tesst/regulators/buck1_set'
WHYZUFCLQAWHYZUFCLQA 0
root@arm:~# echo 'LVXE''FXYTVU'
LVXEFXYTVU
root@arm:~# MARKER='JMNJ''FNUTLP' run 'i2cget -f -y 2 0x60 0x28'
JMNJFNUTLP0x24
JMNJFNUTLP 0
root@arm:~# echo 'CQLT''TJSSUT'
CQLTTJSSUT
root@arm:~# MARKER='SBUO''FMMUQZ' run 'i2cget -y -f 2 0x60 0x21'
SBUOFMMUQZ0xce
SBUOFMMUQZ 0
root@arm:~# echo 'JXPG''QWWYYB'
JXPGQWWYYB
root@arm:~# MARKER='YECQ''OQUNWZ' run 'i2cget -y -f 2 0x60 0x21'
YECQOQUNWZ0xce
YECQOQUNWZ 0
root@arm:~# echo 'NLLK''PPEPNS'
NLLKPPEPNS
root@arm:~# MARKER='QXSC''FVTAVK' run 'echo 1540000 1540000 > /sys/kernel/mva_tesst/regulators/buck1_set'
QXSCFVTAVKQXSCFVTAVK 0
root@arm:~# echo 'ABPN''XQPWKF'
ABPNXQPWKF
root@arm:~# MARKER='BASM''JMCQVW' run 'i2cget -f -y 2 0x60 0x28'
BASMJMCQVW0x25
BASMJMCQVW 0
root@arm:~# echo 'MFVH''BCOCKU'
MFVHBCOCKU
root@arm:~# MARKER='XQKK''BMZOOY' run 'i2cget -y -f 2 0x60 0x21'
XQKKBMZOOY0xce
XQKKBMZOOY 0
root@arm:~# echo 'XSZQ''FVHHYY'
XSZQFVHHYY
root@arm:~# MARKER='UQNC''EKFZZF' run 'i2cget -y -f 2 0x60 0x21'
UQNCEKFZZF0xce
UQNCEKFZZF 0
root@arm:~# echo 'VYKC''VTALNS'
VYKCVTALNS
root@arm:~# MARKER='UPGV''ZENNUW' run 'echo 1550000 1550000 > /sys/kernel/mva_tesst/regulators/buck1_set'
UPGVZENNUWUPGVZENNUW 0
root@arm:~# echo 'ZSQX''HPBAXW'
ZSQXHPBAXW
root@arm:~# MARKER='WCPV''WWHKGP' run 'i2cget -f -y 2 0x60 0x28'
WCPVWWHKGP0x26
WCPVWWHKGP 0
root@arm:~# echo 'NVZQ''EWHABG'
NVZQEWHABG
root@arm:~# MARKER='GKGP''HQENSW' run 'i2cget -y -f 2 0x60 0x21'
GKGPHQENSW0xce
GKGPHQENSW 0
root@arm:~# echo 'EFCZ''NNPCSJ'
EFCZNNPCSJ
root@arm:~# MARKER='KOWX''MSFWUX' run 'i2cget -y -f 2 0x60 0x21'
KOWXMSFWUX0xce
KOWXMSFWUX 0
root@arm:~# echo 'TWES''NOSQUT'
TWESNOSQUT
root@arm:~# MARKER='GASG''YTFZYB' run 'echo 1560000 1560000 > /sys/kernel/mva_tesst/regulators/buck1_set'
GASGYTFZYBGASGYTFZYB 0
root@arm:~# echo 'CFNQ''BZTUYM'
CFNQBZTUYM
root@arm:~# MARKER='OAWX''JNYFQF' run 'i2cget -f -y 2 0x60 0x28'
OAWXJNYFQF0x27
OAWXJNYFQF 0
root@arm:~# echo 'KGWV''WJSNUQ'
KGWVWJSNUQ
root@arm:~# MARKER='LCQV''YFZLXJ' run 'i2cget -y -f 2 0x60 0x21'
LCQVYFZLXJ0xce
LCQVYFZLXJ 0
root@arm:~# echo 'MKBW''XOGCUY'
MKBWXOGCUY
root@arm:~# MARKER='BCGX''SAHOHX' run 'i2cget -y -f 2 0x60 0x21'
BCGXSAHOHX0xce
BCGXSAHOHX 0
root@arm:~# echo 'VVOS''MNQLKE'
VVOSMNQLKE
root@arm:~# MARKER='EQGJ''UAUOMX' run 'echo 1570000 1570000 > /sys/kernel/mva_tesst/regulators/buck1_set'
EQGJUAUOMXEQGJUAUOMX 0
root@arm:~# echo 'SBQJ''VHGQBS'
SBQJVHGQBS
root@arm:~# MARKER='OAOG''WTWXVS' run 'i2cget -f -y 2 0x60 0x28'
OAOGWTWXVS0x28
OAOGWTWXVS 0
root@arm:~# echo 'LHMC''YKQYAB'
LHMCYKQYAB
root@arm:~# MARKER='CVVO''BGXVGF' run 'i2cget -y -f 2 0x60 0x21'
CVVOBGXVGF0xce
CVVOBGXVGF 0
root@arm:~# echo 'LMVA''ZLAKQC'
LMVAZLAKQC
root@arm:~# MARKER='VTKK''OASOPO' run 'i2cget -y -f 2 0x60 0x21'
VTKKOASOPO0xce
VTKKOASOPO 0
root@arm:~# echo 'EYKZ''OWHQMQ'
EYKZOWHQMQ
root@arm:~# MARKER='QYWL''LYZFLF' run 'echo 1580000 1580000 > /sys/kernel/mva_tesst/regulators/buck1_set'
QYWLLYZFLFQYWLLYZFLF 0
root@arm:~# echo 'QQXQ''CFXHQZ'
QQXQCFXHQZ
root@arm:~# MARKER='XSVX''QYGTHN' run 'i2cget -f -y 2 0x60 0x28'
XSVXQYGTHN0x29
XSVXQYGTHN 0
root@arm:~# echo 'LZOQ''OJQKEV'
LZOQOJQKEV
root@arm:~# MARKER='VOMS''LMUOHA' run 'i2cget -y -f 2 0x60 0x21'
VOMSLMUOHA0xce
VOMSLMUOHA 0
root@arm:~# echo 'OGZG''WTZGZU'
OGZGWTZGZU
root@arm:~# MARKER='XUVN''ULNTXN' run 'i2cget -y -f 2 0x60 0x21'
XUVNULNTXN0xce
XUVNULNTXN 0
root@arm:~# echo 'YLYG''OYUEHP'
YLYGOYUEHP
root@arm:~# MARKER='SQCU''MLGCVJ' run 'echo 1590000 1590000 > /sys/kernel/mva_tesst/regulators/buck1_set'
SQCUMLGCVJSQCUMLGCVJ 0
root@arm:~# echo 'NGMQ''FCMWZG'
NGMQFCMWZG
root@arm:~# MARKER='MQWT''LOAUCP' run 'i2cget -f -y 2 0x60 0x28'
MQWTLOAUCP0x2a
MQWTLOAUCP 0
root@arm:~# echo 'GPQP''HVKZSP'
GPQPHVKZSP
root@arm:~# MARKER='ZBAX''FNWHZJ' run 'i2cget -y -f 2 0x60 0x21'
ZBAXFNWHZJ0xce
ZBAXFNWHZJ 0
root@arm:~# echo 'MKLZ''QWZXLU'
MKLZQWZXLU
root@arm:~# MARKER='ATCH''BWUKEH' run 'i2cget -y -f 2 0x60 0x21'
ATCHBWUKEH0xce
ATCHBWUKEH 0
root@arm:~# echo 'XTLT''MAELVC'
XTLTMAELVC
root@arm:~# MARKER='BXNT''JOBHAY' run 'echo 1600000 1600000 > /sys/kernel/mva_tesst/regulators/buck1_set'
BXNTJOBHAYBXNTJOBHAY 0
root@arm:~# echo 'ZQMF''KKAKZU'
ZQMFKKAKZU
root@arm:~# MARKER='KYQK''CNETBF' run 'i2cget -f -y 2 0x60 0x28'
KYQKCNETBF0x2b
KYQKCNETBF 0
root@arm:~# echo 'XOVS''BSXGAF'
XOVSBSXGAF
root@arm:~# MARKER='GVAH''EHKZUK' run 'i2cget -y -f 2 0x60 0x21'
GVAHEHKZUK0xce
GVAHEHKZUK 0
root@arm:~# echo 'LUPB''HOUBHP'
LUPBHOUBHP
root@arm:~# MARKER='MWMU''PFXNGZ' run 'i2cget -y -f 2 0x60 0x21'
MWMUPFXNGZ0xce
MWMUPFXNGZ 0
root@arm:~# echo 'YGCZ''SBGZQM'
YGCZSBGZQM
root@arm:~# MARKER='VLFJ''CLSFYP' run 'echo 1610000 1610000 > /sys/kernel/mva_tesst/regulators/buck1_set'
VLFJCLSFYPVLFJCLSFYP 0
root@arm:~# echo 'KEQE''PFBJWL'
KEQEPFBJWL
root@arm:~# MARKER='SXOU''NKOBEV' run 'i2cget -f -y 2 0x60 0x28'
SXOUNKOBEV0x2c
SXOUNKOBEV 0
root@arm:~# echo 'WTUH''KLSCCV'
WTUHKLSCCV
root@arm:~# MARKER='OCJH''USBEUS' run 'i2cget -y -f 2 0x60 0x21'
OCJHUSBEUS0xce
OCJHUSBEUS 0
root@arm:~# echo 'KNHM''ECCNVM'
KNHMECCNVM
root@arm:~# MARKER='QJSW''PWSHZH' run 'i2cget -y -f 2 0x60 0x21'
QJSWPWSHZH0xce
QJSWPWSHZH 0
root@arm:~# echo 'EYZZ''HVWSJW'
EYZZHVWSJW
root@arm:~# MARKER='ACES''UVXWQU' run 'echo 1620000 1620000 > /sys/kernel/mva_tesst/regulators/buck1_set'
ACESUVXWQUACESUVXWQU 0
root@arm:~# echo 'NNVQ''QHYVGV'
NNVQQHYVGV
root@arm:~# MARKER='NSCS''CUTJOB' run 'i2cget -f -y 2 0x60 0x28'
NSCSCUTJOB0x2d
NSCSCUTJOB 0
root@arm:~# echo 'AZAG''TBUXKY'
AZAGTBUXKY
root@arm:~# MARKER='YZEV''MHVQXS' run 'i2cget -y -f 2 0x60 0x21'
YZEVMHVQXS0xce
YZEVMHVQXS 0
root@arm:~# echo 'BGKV''HGGPLS'
BGKVHGGPLS
root@arm:~# MARKER='HGBV''JTSPYP' run 'i2cget -y -f 2 0x60 0x21'
HGBVJTSPYP0xce
HGBVJTSPYP 0
root@arm:~# echo 'WWFE''ALLVAB'
WWFEALLVAB
root@arm:~# MARKER='WJCN''SCLWOH' run 'echo 1630000 1630000 > /sys/kernel/mva_tesst/regulators/buck1_set'
WJCNSCLWOHWJCNSCLWOH 0
root@arm:~# echo 'JFOY''OHSTYU'
JFOYOHSTYU
root@arm:~# MARKER='JWXC''CZAAEC' run 'i2cget -f -y 2 0x60 0x28'
JWXCCZAAEC0x2e
JWXCCZAAEC 0
root@arm:~# echo 'OSLH''QOVGVE'
OSLHQOVGVE
root@arm:~# MARKER='JUAQ''TOYGNH' run 'i2cget -y -f 2 0x60 0x21'
JUAQTOYGNH0xce
JUAQTOYGNH 0
root@arm:~# echo 'YJNF''MYCYQE'
YJNFMYCYQE
root@arm:~# MARKER='YAXJ''YKWJEX' run 'i2cget -y -f 2 0x60 0x21'
YAXJYKWJEX0xce
YAXJYKWJEX 0
root@arm:~# echo 'ZCJB''KJZCPU'
ZCJBKJZCPU
root@arm:~# MARKER='AAAS''TBNNCU' run 'echo 1640000 1640000 > /sys/kernel/mva_tesst/regulators/buck1_set'
AAASTBNNCUAAASTBNNCU 0
root@arm:~# echo 'WFKA''JPHMJC'
WFKAJPHMJC
root@arm:~# MARKER='SCTP''NUCYFG' run 'i2cget -f -y 2 0x60 0x28'
SCTPNUCYFG0x2f
SCTPNUCYFG 0
root@arm:~# echo 'LVOW''TWNGJA'
LVOWTWNGJA
root@arm:~# MARKER='KCMT''EOETQX' run 'i2cget -y -f 2 0x60 0x21'
KCMTEOETQX0xce
KCMTEOETQX 0
root@arm:~# echo 'APUN''FYPZEY'
APUNFYPZEY
root@arm:~# MARKER='QKNE''GKJCQN' run 'i2cget -y -f 2 0x60 0x21'
QKNEGKJCQN0xce
QKNEGKJCQN 0
root@arm:~# echo 'LKUC''VNUFMX'
LKUCVNUFMX
root@arm:~# MARKER='FEXV''NYGSVE' run 'echo 1650000 1650000 > /sys/kernel/mva_tesst/regulators/buck1_set'
FEXVNYGSVEFEXVNYGSVE 0
root@arm:~# echo 'KSXX''GHFTFX'
KSXXGHFTFX
root@arm:~# MARKER='LUPM''ZLYTSY' run 'i2cget -f -y 2 0x60 0x28'
LUPMZLYTSY0x30
LUPMZLYTSY 0
root@arm:~# echo 'HFZB''CAVEQA'
HFZBCAVEQA
root@arm:~# MARKER='BEPS''THBQEB' run 'i2cget -y -f 2 0x60 0x21'
BEPSTHBQEB0xce
BEPSTHBQEB 0
root@arm:~# echo 'TPXT''SOZAMX'
TPXTSOZAMX
root@arm:~# MARKER='VPZC''PTXQAP' run 'i2cget -y -f 2 0x60 0x21'
VPZCPTXQAP0xce
VPZCPTXQAP 0
root@arm:~# echo 'NEAF''PPOSQF'
NEAFPPOSQF
root@arm:~# MARKER='VBXB''BTKCJH' run 'echo 1660000 1660000 > /sys/kernel/mva_tesst/regulators/buck1_set'
VBXBBTKCJHVBXBBTKCJH 0
root@arm:~# echo 'WQXX''TGBVSM'
WQXXTGBVSM
root@arm:~# MARKER='GMUC''FYNMQM' run 'i2cget -f -y 2 0x60 0x28'
GMUCFYNMQM0x31
GMUCFYNMQM 0
root@arm:~# echo 'QMPK''MHHNMX'
QMPKMHHNMX
root@arm:~# MARKER='YTVE''OJVZEP' run 'i2cget -y -f 2 0x60 0x21'
YTVEOJVZEP0xce
YTVEOJVZEP 0
root@arm:~# echo 'XHPG''PXXZBM'
XHPGPXXZBM
root@arm:~# MARKER='OVGB''WMXXCU' run 'i2cget -y -f 2 0x60 0x21'
OVGBWMXXCU0xce
OVGBWMXXCU 0
root@arm:~# echo 'UPFL''BGQHPT'
UPFLBGQHPT
root@arm:~# MARKER='HKTU''HWYTSK' run 'echo 1670000 1670000 > /sys/kernel/mva_tesst/regulators/buck1_set'
HKTUHWYTSKHKTUHWYTSK 0
root@arm:~# echo 'USOJ''XUOJYE'
USOJXUOJYE
root@arm:~# MARKER='MAFK''YQJLUO' run 'i2cget -f -y 2 0x60 0x28'
MAFKYQJLUO0x32
MAFKYQJLUO 0
root@arm:~# echo 'CEPG''KGLGUU'
CEPGKGLGUU
root@arm:~# MARKER='VYZV''LLSBKH' run 'i2cget -y -f 2 0x60 0x21'
VYZVLLSBKH0xce
VYZVLLSBKH 0
root@arm:~# echo 'KYAY''JNHWBW'
KYAYJNHWBW
root@arm:~# MARKER='MBHQ''HBTYSE' run 'i2cget -y -f 2 0x60 0x21'
MBHQHBTYSE0xce
MBHQHBTYSE 0
root@arm:~# echo 'SKYY''YCFYOT'
SKYYYCFYOT
root@arm:~# MARKER='TEBM''POKFPK' run 'echo 1680000 1680000 > /sys/kernel/mva_tesst/regulators/buck1_set'
TEBMPOKFPKTEBMPOKFPK 0
root@arm:~# echo 'JTGY''TZLQVA'
JTGYTZLQVA
root@arm:~# MARKER='TZQQ''GOSWLX' run 'i2cget -f -y 2 0x60 0x28'
TZQQGOSWLX0x33
TZQQGOSWLX 0
root@arm:~# echo 'XHEQ''YMTGWO'
XHEQYMTGWO
root@arm:~# MARKER='WGYO''CCGMJZ' run 'i2cget -y -f 2 0x60 0x21'
WGYOCCGMJZ0xce
WGYOCCGMJZ 0
root@arm:~# echo 'GZEB''LCXXFK'
GZEBLCXXFK
root@arm:~# MARKER='UEEF''ATJFAJ' run 'i2cget -y -f 2 0x60 0x21'
UEEFATJFAJ0xce
UEEFATJFAJ 0
root@arm:~# echo 'ESOV''KAFXFQ'
ESOVKAFXFQ
root@arm:~# MARKER='MWSO''VPTFGT' run 'echo 1690000 1690000 > /sys/kernel/mva_tesst/regulators/buck1_set'
MWSOVPTFGTMWSOVPTFGT 0
root@arm:~# echo 'KXHG''NMGMYW'
KXHGNMGMYW
root@arm:~# MARKER='NQEC''KOKNAF' run 'i2cget -f -y 2 0x60 0x28'
NQECKOKNAF0x34
NQECKOKNAF 0
root@arm:~# echo 'NFXS''NTKKYP'
NFXSNTKKYP
root@arm:~# MARKER='COYF''TZNMGX' run 'i2cget -y -f 2 0x60 0x21'
COYFTZNMGX0xce
COYFTZNMGX 0
root@arm:~# echo 'ENYK''PVEAJB'
ENYKPVEAJB
root@arm:~# MARKER='NKCM''OQELHT' run 'i2cget -y -f 2 0x60 0x21'
NKCMOQELHT0xce
NKCMOQELHT 0
root@arm:~# echo 'GETK''QHYFSA'
GETKQHYFSA
root@arm:~# MARKER='MPZS''OELMWQ' run 'echo 1700000 1700000 > /sys/kernel/mva_tesst/regulators/buck1_set'
MPZSOELMWQMPZSOELMWQ 0
root@arm:~# echo 'JLME''KVXJYE'
JLMEKVXJYE
root@arm:~# MARKER='LZUC''TLVHAF' run 'i2cget -f -y 2 0x60 0x28'
LZUCTLVHAF0x35
LZUCTLVHAF 0
root@arm:~# echo 'YPCA''FVKJEX'
YPCAFVKJEX
root@arm:~# MARKER='ZCVV''XWBZNQ' run 'i2cget -y -f 2 0x60 0x21'
ZCVVXWBZNQ0xce
ZCVVXWBZNQ 0
root@arm:~# echo 'JHQT''AHNZJT'
JHQTAHNZJT
root@arm:~# MARKER='BZUK''HGMSGW' run 'i2cget -y -f 2 0x60 0x21'
BZUKHGMSGW0xce
BZUKHGMSGW 0
root@arm:~# echo 'AMZJ''HPZUQC'
AMZJHPZUQC
root@arm:~# MARKER='KQKC''EUOLSQ' run 'echo 1710000 1710000 > /sys/kernel/mva_tesst/regulators/buck1_set'
KQKCEUOLSQKQKCEUOLSQ 0
root@arm:~# echo 'PQSB''FCWOVW'
PQSBFCWOVW
root@arm:~# MARKER='NTTK''QPEYEP' run 'i2cget -f -y 2 0x60 0x28'
NTTKQPEYEP0x36
NTTKQPEYEP 0
root@arm:~# echo 'JGMQ''GJWKES'
JGMQGJWKES
root@arm:~# MARKER='GJFU''TZKMJK' run 'i2cget -y -f 2 0x60 0x21'
GJFUTZKMJK0xce
GJFUTZKMJK 0
root@arm:~# echo 'FAFT''VHYYZA'
FAFTVHYYZA
root@arm:~# MARKER='EQEV''BOUXSH' run 'i2cget -y -f 2 0x60 0x21'
EQEVBOUXSH0xce
EQEVBOUXSH 0
root@arm:~# echo 'ZGVU''UJCOSH'
ZGVUUJCOSH
root@arm:~# MARKER='UKQA''JPCXTC' run 'echo 1720000 1720000 > /sys/kernel/mva_tesst/regulators/buck1_set'
UKQAJPCXTCUKQAJPCXTC 0
root@arm:~# echo 'KPMW''YCLWGE'
KPMWYCLWGE
root@arm:~# MARKER='YXZZ''TGXLTC' run 'i2cget -f -y 2 0x60 0x28'
YXZZTGXLTC0x37
YXZZTGXLTC 0
root@arm:~# echo 'UHZE''APZXJC'
UHZEAPZXJC
root@arm:~# MARKER='OSGE''WKBXXN' run 'i2cget -y -f 2 0x60 0x21'
OSGEWKBXXN0xce
OSGEWKBXXN 0
root@arm:~# echo 'NMUO''CHMOKE'
NMUOCHMOKE
root@arm:~# MARKER='ZOSQ''LCLPEL' run 'i2cget -y -f 2 0x60 0x21'
ZOSQLCLPEL0xce
ZOSQLCLPEL 0
root@arm:~# echo 'YGOY''HUBQUY'
YGOYHUBQUY
root@arm:~# MARKER='BXCM''OUTQEJ' run 'echo 1730000 1730000 > /sys/kernel/mva_tesst/regulators/buck1_set'
BXCMOUTQEJBXCMOUTQEJ 0
root@arm:~# echo 'NMNA''JJKEEZ'
NMNAJJKEEZ
root@arm:~# MARKER='LFFN''XUZQFC' run 'i2cget -f -y 2 0x60 0x28'
LFFNXUZQFC0x38
LFFNXUZQFC 0
root@arm:~# echo 'MUWH''ZALCQF'
MUWHZALCQF
root@arm:~# MARKER='SMUN''VVMKLP' run 'i2cget -y -f 2 0x60 0x21'
SMUNVVMKLP0xce
SMUNVVMKLP 0
root@arm:~# echo 'NSJC''WHCBLW'
NSJCWHCBLW
root@arm:~# MARKER='BQQF''KCBYFJ' run 'i2cget -y -f 2 0x60 0x21'
BQQFKCBYFJ0xce
BQQFKCBYFJ 0
root@arm:~# echo 'HSBS''JQOCHJ'
HSBSJQOCHJ
root@arm:~# MARKER='KXQP''QXZOFH' run 'echo 1740000 1740000 > /sys/kernel/mva_tesst/regulators/buck1_set'
KXQPQXZOFHKXQPQXZOFH 0
root@arm:~# echo 'BAJM''BBZFKQ'
BAJMBBZFKQ
root@arm:~# MARKER='SNFX''PLNTKN' run 'i2cget -f -y 2 0x60 0x28'
SNFXPLNTKN0x39
SNFXPLNTKN 0
root@arm:~# echo 'NMQG''XTGPHA'
NMQGXTGPHA
root@arm:~# MARKER='TAYU''SUMLBW' run 'i2cget -y -f 2 0x60 0x21'
TAYUSUMLBW0xce
TAYUSUMLBW 0
root@arm:~# echo 'EFHC''WLYQVT'
EFHCWLYQVT
root@arm:~# MARKER='VUUK''LJOCJP' run 'i2cget -y -f 2 0x60 0x21'
VUUKLJOCJP0xce
VUUKLJOCJP 0
root@arm:~# echo 'OPJH''AWGSJJ'
OPJHAWGSJJ
root@arm:~# MARKER='XMBH''SYKAZH' run 'echo 1750000 1750000 > /sys/kernel/mva_tesst/regulators/buck1_set'
XMBHSYKAZHXMBHSYKAZH 0
root@arm:~# echo 'LQUE''ZPKVOB'
LQUEZPKVOB
root@arm:~# MARKER='FWSF''UJOGGL' run 'i2cget -f -y 2 0x60 0x28'
FWSFUJOGGL0x3a
FWSFUJOGGL 0
root@arm:~# echo 'UZBJ''WKZYHE'
UZBJWKZYHE
root@arm:~# MARKER='SMTA''PBNPSM' run 'i2cget -y -f 2 0x60 0x21'
SMTAPBNPSM0xce
SMTAPBNPSM 0
root@arm:~# echo 'VNUS''LZBWHT'
VNUSLZBWHT
root@arm:~# MARKER='HNHN''BZBMXL' run 'i2cget -y -f 2 0x60 0x21'
HNHNBZBMXL0xce
HNHNBZBMXL 0
root@arm:~# echo 'OHGQ''FBGSUL'
OHGQFBGSUL
root@arm:~# MARKER='SMVG''GVOKVY' run 'echo 1760000 1760000 > /sys/kernel/mva_tesst/regulators/buck1_set'
SMVGGVOKVYSMVGGVOKVY 0
root@arm:~# echo 'PZWE''EVOQSN'
PZWEEVOQSN
root@arm:~# MARKER='OQXC''TSUKUM' run 'i2cget -f -y 2 0x60 0x28'
OQXCTSUKUM0x3b
OQXCTSUKUM 0
root@arm:~# echo 'PUAN''FBUMQG'
PUANFBUMQG
root@arm:~# MARKER='MNCQ''QGPHZC' run 'i2cget -y -f 2 0x60 0x21'
MNCQQGPHZC0xce
MNCQQGPHZC 0
root@arm:~# echo 'KWVK''HPWWOX'
KWVKHPWWOX
root@arm:~# MARKER='MFEL''QOBBZW' run 'i2cget -y -f 2 0x60 0x21'
MFELQOBBZW0xce
MFELQOBBZW 0
root@arm:~# echo 'HAMG''YSUOCP'
HAMGYSUOCP
root@arm:~# MARKER='PWKW''KYLETE' run 'echo 1770000 1770000 > /sys/kernel/mva_tesst/regulators/buck1_set'
PWKWKYLETEPWKWKYLETE 0
root@arm:~# echo 'NLHE''WCTMTV'
NLHEWCTMTV
root@arm:~# MARKER='OKNP''ZTXYHB' run 'i2cget -f -y 2 0x60 0x28'
OKNPZTXYHB0x3c
OKNPZTXYHB 0
root@arm:~# echo 'SKAQ''STVWJL'
SKAQSTVWJL
root@arm:~# MARKER='LZTC''ZOCOQE' run 'i2cget -y -f 2 0x60 0x21'
LZTCZOCOQE0xce
LZTCZOCOQE 0
root@arm:~# echo 'FSJQ''FPZUXP'
FSJQFPZUXP
root@arm:~# MARKER='WOMJ''YOAWXG' run 'i2cget -y -f 2 0x60 0x21'
WOMJYOAWXG0xce
WOMJYOAWXG 0
root@arm:~# echo 'YVBG''FWSHWQ'
YVBGFWSHWQ
root@arm:~# MARKER='BNQB''SFNSCW' run 'echo 1780000 1780000 > /sys/kernel/mva_tesst/regulators/buck1_set'
BNQBSFNSCWBNQBSFNSCW 0
root@arm:~# echo 'JZKS''WAXMXT'
JZKSWAXMXT
root@arm:~# MARKER='ETWY''CGPXAX' run 'i2cget -f -y 2 0x60 0x28'
ETWYCGPXAX0x3d
ETWYCGPXAX 0
root@arm:~# echo 'BWNP''WFUMEK'
BWNPWFUMEK
root@arm:~# MARKER='HBOL''QNYWCJ' run 'i2cget -y -f 2 0x60 0x21'
HBOLQNYWCJ0xce
HBOLQNYWCJ 0
root@arm:~# echo 'GXYT''LLLAGG'
GXYTLLLAGG
root@arm:~# MARKER='TMXS''UEKQZM' run 'i2cget -y -f 2 0x60 0x21'
TMXSUEKQZM0xce
TMXSUEKQZM 0
root@arm:~# echo 'KPTY''FWQCUL'
KPTYFWQCUL
root@arm:~# MARKER='SXAV''BVYBWC' run 'echo 1790000 1790000 > /sys/kernel/mva_tesst/regulators/buck1_set'
SXAVBVYBWCSXAVBVYBWC 0
root@arm:~# echo 'JGNT''UHQSCN'
JGNTUHQSCN
root@arm:~# MARKER='TKXF''FFGAEW' run 'i2cget -f -y 2 0x60 0x28'
TKXFFFGAEW0x3e
TKXFFFGAEW 0
root@arm:~# echo 'JWAA''LMHFZL'
JWAALMHFZL
root@arm:~# MARKER='BNXS''GTQZWB' run 'i2cget -y -f 2 0x60 0x21'
BNXSGTQZWB0xce
BNXSGTQZWB 0
root@arm:~# echo 'CKTU''CMQLGM'
CKTUCMQLGM
root@arm:~# MARKER='HTZK''FSNLBC' run 'i2cget -y -f 2 0x60 0x21'
HTZKFSNLBC0xce
HTZKFSNLBC 0
root@arm:~# echo 'XPTY''SQQCNX'
XPTYSQQCNX
root@arm:~# MARKER='AUKT''OYKJQS' run 'echo 1800000 1800000 > /sys/kernel/mva_tesst/regulators/buck1_set'
AUKTOYKJQSAUKTOYKJQS 0
root@arm:~# echo 'QAEH''CFAPOE'
QAEHCFAPOE
root@arm:~# MARKER='XBGZ''XAQUML' run 'i2cget -f -y 2 0x60 0x28'
XBGZXAQUML0x00
XBGZXAQUML 0
root@arm:~# echo 'QOOE''PCKPNQ'
QOOEPCKPNQ
root@arm:~# MARKER='BZAN''HEKSTS' run 'i2cget -y -f 2 0x60 0x21'
BZANHEKSTS0xce
BZANHEKSTS 0
root@arm:~# echo 'MBON''JOASAW'
MBONJOASAW
root@arm:~# MARKER='NMUC''ZTKGUM' run 'i2cget -y -f 2 0x60 0x22'
NMUCZTKGUM0x78
NMUCZTKGUM 0
root@arm:~# echo 'QOCN''VOUVYU'
QOCNVOUVYU
root@arm:~# MARKER='EBGV''VUTUHQ' run 'echo 1100000 1100000 > /sys/kernel/mva_tesst/regulators/buck2_set'
EBGVVUTUHQEBGVVUTUHQ 0
root@arm:~# echo 'HBSH''VZLNTW'
HBSHVZLNTW
root@arm:~# MARKER='ALZE''AKOKUZ' run 'i2cget -f -y 2 0x60 0x29'
ALZEAKOKUZ0x40
ALZEAKOKUZ 0
root@arm:~# echo 'ELZP''WYVZCY'
ELZPWYVZCY
root@arm:~# MARKER='EHVW''EXNQHX' run 'i2cget -y -f 2 0x60 0x22'
EHVWEXNQHX0x78
EHVWEXNQHX 0
root@arm:~# echo 'XVJW''WHHNCG'
XVJWWHHNCG
root@arm:~# MARKER='BSVP''FYJETH' run 'i2cget -y -f 2 0x60 0x22'
BSVPFYJETH0x78
BSVPFYJETH 0
root@arm:~# echo 'SZWH''COFAZU'
SZWHCOFAZU
root@arm:~# MARKER='CLAF''ABKHZL' run 'echo 1110000 1110000 > /sys/kernel/mva_tesst/regulators/buck2_set'
CLAFABKHZLCLAFABKHZL 0
root@arm:~# echo 'AXCW''WZOYSV'
AXCWWZOYSV
root@arm:~# MARKER='OCUP''YTAFOU' run 'i2cget -f -y 2 0x60 0x29'
OCUPYTAFOU0x41
OCUPYTAFOU 0
root@arm:~# echo 'YVJY''VYNQNY'
YVJYVYNQNY
root@arm:~# MARKER='LEGP''ULLFLW' run 'i2cget -y -f 2 0x60 0x22'
LEGPULLFLW0x78
LEGPULLFLW 0
root@arm:~# echo 'YECG''VYMYXS'
YECGVYMYXS
root@arm:~# MARKER='YYNS''EPENLF' run 'i2cget -y -f 2 0x60 0x22'
YYNSEPENLF0x78
YYNSEPENLF 0
root@arm:~# echo 'MEJP''SBNAJC'
MEJPSBNAJC
root@arm:~# MARKER='NOQL''YXKFAM' run 'echo 1120000 1120000 > /sys/kernel/mva_tesst/regulators/buck2_set'
NOQLYXKFAMNOQLYXKFAM 0
root@arm:~# echo 'ABCX''PTYECO'
ABCXPTYECO
root@arm:~# MARKER='PCOT''WNPXOO' run 'i2cget -f -y 2 0x60 0x29'
PCOTWNPXOO0x42
PCOTWNPXOO 0
root@arm:~# echo 'JFZV''FCWVVA'
JFZVFCWVVA
root@arm:~# MARKER='LWMY''ZUVZXT' run 'i2cget -y -f 2 0x60 0x22'
LWMYZUVZXT0x78
LWMYZUVZXT 0
root@arm:~# echo 'ZGFZ''UBHHAV'
ZGFZUBHHAV
root@arm:~# MARKER='BTWG''OQSKBB' run 'i2cget -y -f 2 0x60 0x22'
BTWGOQSKBB0x78
BTWGOQSKBB 0
root@arm:~# echo 'GNET''KSYHCC'
GNETKSYHCC
root@arm:~# MARKER='GTVW''PQHCBS' run 'echo 1130000 1130000 > /sys/kernel/mva_tesst/regulators/buck2_set'
GTVWPQHCBSGTVWPQHCBS 0
root@arm:~# echo 'NHWM''XKYGYC'
NHWMXKYGYC
root@arm:~# MARKER='JKUP''WGUGWH' run 'i2cget -f -y 2 0x60 0x29'
JKUPWGUGWH0x43
JKUPWGUGWH 0
root@arm:~# echo 'SONT''GPWOQO'
SONTGPWOQO
root@arm:~# MARKER='FSYW''OZCZZF' run 'i2cget -y -f 2 0x60 0x22'
FSYWOZCZZF0x78
FSYWOZCZZF 0
root@arm:~# echo 'GSGH''BYTMCZ'
GSGHBYTMCZ
root@arm:~# MARKER='ANCJ''XTJUBJ' run 'i2cget -y -f 2 0x60 0x22'
ANCJXTJUBJ0x78
ANCJXTJUBJ 0
root@arm:~# echo 'YJFE''UJGYJE'
YJFEUJGYJE
root@arm:~# MARKER='XHGK''AXPTBN' run 'echo 1140000 1140000 > /sys/kernel/mva_tesst/regulators/buck2_set'
XHGKAXPTBNXHGKAXPTBN 0
root@arm:~# echo 'AMLK''JGYZVU'
AMLKJGYZVU
root@arm:~# MARKER='YWPW''HTMHYQ' run 'i2cget -f -y 2 0x60 0x29'
YWPWHTMHYQ0x44
YWPWHTMHYQ 0
root@arm:~# echo 'ESCW''HQGCEA'
ESCWHQGCEA
root@arm:~# MARKER='JYQW''GOSGZA' run 'i2cget -y -f 2 0x60 0x22'
JYQWGOSGZA0x78
JYQWGOSGZA 0
root@arm:~# echo 'YLGX''OTTNFX'
YLGXOTTNFX
root@arm:~# MARKER='BBQS''GXKGTG' run 'i2cget -y -f 2 0x60 0x22'
BBQSGXKGTG0x78
BBQSGXKGTG 0
root@arm:~# echo 'ZNXU''VLCLZF'
ZNXUVLCLZF
root@arm:~# MARKER='ZYYO''NSXVLP' run 'echo 1150000 1150000 > /sys/kernel/mva_tesst/regulators/buck2_set'
ZYYONSXVLPZYYONSXVLP 0
root@arm:~# echo 'JSUW''NJHACX'
JSUWNJHACX
root@arm:~# MARKER='VEMS''SETTSC' run 'i2cget -f -y 2 0x60 0x29'
VEMSSETTSC0x45
VEMSSETTSC 0
root@arm:~# echo 'CMWA''SGTNOT'
CMWASGTNOT
root@arm:~# MARKER='SUQY''ELWMHW' run 'i2cget -y -f 2 0x60 0x22'
SUQYELWMHW0x78
SUQYELWMHW 0
root@arm:~# echo 'EFAY''GWBNES'
EFAYGWBNES
root@arm:~# MARKER='GAAF''MLWPHF' run 'i2cget -y -f 2 0x60 0x22'
GAAFMLWPHF0x78
GAAFMLWPHF 0
root@arm:~# echo 'AVLJ''GYMQPZ'
AVLJGYMQPZ
root@arm:~# MARKER='FPUK''JEXFTM' run 'echo 1160000 1160000 > /sys/kernel/mva_tesst/regulators/buck2_set'
FPUKJEXFTMFPUKJEXFTM 0
root@arm:~# echo 'KAOZ''MVPEOK'
KAOZMVPEOK
root@arm:~# MARKER='KGZW''AXTJEY' run 'i2cget -f -y 2 0x60 0x29'
KGZWAXTJEY0x46
KGZWAXTJEY 0
root@arm:~# echo 'ALLK''JUXWNT'
ALLKJUXWNT
root@arm:~# MARKER='GAVZ''MXCOEJ' run 'i2cget -y -f 2 0x60 0x22'
GAVZMXCOEJ0x78
GAVZMXCOEJ 0
root@arm:~# echo 'FLTE''ZZYBQK'
FLTEZZYBQK
root@arm:~# MARKER='ABLE''BKQWUT' run 'i2cget -y -f 2 0x60 0x22'
ABLEBKQWUT0x78
ABLEBKQWUT 0
root@arm:~# echo 'FJMT''NAQMSK'
FJMTNAQMSK
root@arm:~# MARKER='UNTC''ZEOFEW' run 'echo 1170000 1170000 > /sys/kernel/mva_tesst/regulators/buck2_set'
UNTCZEOFEWUNTCZEOFEW 0
root@arm:~# echo 'GOOV''TXLGFT'
GOOVTXLGFT
root@arm:~# MARKER='CUSA''OMETFY' run 'i2cget -f -y 2 0x60 0x29'
CUSAOMETFY0x47
CUSAOMETFY 0
root@arm:~# echo 'VAVM''OPYZKP'
VAVMOPYZKP
root@arm:~# MARKER='KBWJ''GYOQUH' run 'i2cget -y -f 2 0x60 0x22'
KBWJGYOQUH0x78
KBWJGYOQUH 0
root@arm:~# echo 'MSBS''XWGQGB'
MSBSXWGQGB
root@arm:~# MARKER='HPZH''FTWTEJ' run 'i2cget -y -f 2 0x60 0x22'
HPZHFTWTEJ0x78
HPZHFTWTEJ 0
root@arm:~# echo 'BQNH''YPJJQG'
BQNHYPJJQG
root@arm:~# MARKER='EVAF''YUUNQS' run 'echo 1180000 1180000 > /sys/kernel/mva_tesst/regulators/buck2_set'
EVAFYUUNQSEVAFYUUNQS 0
root@arm:~# echo 'QPJV''GPMGJA'
QPJVGPMGJA
root@arm:~# MARKER='TFKO''OEQGSK' run 'i2cget -f -y 2 0x60 0x29'
TFKOOEQGSK0x48
TFKOOEQGSK 0
root@arm:~# echo 'MNVT''OOJJKC'
MNVTOOJJKC
root@arm:~# MARKER='EFLJ''KQWXKM' run 'i2cget -y -f 2 0x60 0x22'
EFLJKQWXKM0x78
EFLJKQWXKM 0
root@arm:~# echo 'YXAW''MCFMPT'
YXAWMCFMPT
root@arm:~# MARKER='GSQU''LTKZHC' run 'i2cget -y -f 2 0x60 0x22'
GSQULTKZHC0x78
GSQULTKZHC 0
root@arm:~# echo 'VULK''NCLVGS'
VULKNCLVGS
root@arm:~# MARKER='TWEL''BKFJLJ' run 'echo 1190000 1190000 > /sys/kernel/mva_tesst/regulators/buck2_set'
TWELBKFJLJTWELBKFJLJ 0
root@arm:~# echo 'LQMW''LKBSNT'
LQMWLKBSNT
root@arm:~# MARKER='HBCF''JXPUGC' run 'i2cget -f -y 2 0x60 0x29'
HBCFJXPUGC0x49
HBCFJXPUGC 0
root@arm:~# echo 'YGWP''KZVEPK'
YGWPKZVEPK
root@arm:~# MARKER='CKOY''ZZEGVM' run 'i2cget -y -f 2 0x60 0x22'
CKOYZZEGVM0x78
CKOYZZEGVM 0
root@arm:~# echo 'UEQW''QFXYBQ'
UEQWQFXYBQ
root@arm:~# MARKER='MJCC''JZHAXK' run 'i2cget -y -f 2 0x60 0x22'
MJCCJZHAXK0x78
MJCCJZHAXK 0
root@arm:~# echo 'SPQQ''GPZSUT'
SPQQGPZSUT
root@arm:~# MARKER='HCNJ''PUQJQZ' run 'echo 1200000 1200000 > /sys/kernel/mva_tesst/regulators/buck2_set'
HCNJPUQJQZHCNJPUQJQZ 0
root@arm:~# echo 'UFQT''WMXXMZ'
UFQTWMXXMZ
root@arm:~# MARKER='AWLH''TVXALV' run 'i2cget -f -y 2 0x60 0x29'
AWLHTVXALV0x4a
AWLHTVXALV 0
root@arm:~# echo 'TNCC''ESWFKK'
TNCCESWFKK
root@arm:~# MARKER='LNPV''NJOUHZ' run 'i2cget -y -f 2 0x60 0x22'
LNPVNJOUHZ0x78
LNPVNJOUHZ 0
root@arm:~# echo 'QTHH''JUHVWF'
QTHHJUHVWF
root@arm:~# MARKER='VZPP''MFLSBQ' run 'i2cget -y -f 2 0x60 0x22'
VZPPMFLSBQ0x78
VZPPMFLSBQ 0
root@arm:~# echo 'CGWO''FPGABA'
CGWOFPGABA
root@arm:~# MARKER='EJFH''JXKTML' run 'echo 1210000 1210000 > /sys/kernel/mva_tesst/regulators/buck2_set'
EJFHJXKTMLEJFHJXKTML 0
root@arm:~# echo 'OHTS''OXFOUQ'
OHTSOXFOUQ
root@arm:~# MARKER='PXUO''YWJUAK' run 'i2cget -f -y 2 0x60 0x29'
PXUOYWJUAK0x4b
PXUOYWJUAK 0
root@arm:~# echo 'TXKG''ESBQAX'
TXKGESBQAX
root@arm:~# MARKER='QFSW''BCEACS' run 'i2cget -y -f 2 0x60 0x22'
QFSWBCEACS0x78
QFSWBCEACS 0
root@arm:~# echo 'YLFA''JCKEJB'
YLFAJCKEJB
root@arm:~# MARKER='KWET''YJXJMQ' run 'i2cget -y -f 2 0x60 0x22'
KWETYJXJMQ0x78
KWETYJXJMQ 0
root@arm:~# echo 'KEUG''JGLEYO'
KEUGJGLEYO
root@arm:~# MARKER='SOQL''FUAQXS' run 'echo 1220000 1220000 > /sys/kernel/mva_tesst/regulators/buck2_set'
SOQLFUAQXSSOQLFUAQXS 0
root@arm:~# echo 'OSCF''GWVLYK'
OSCFGWVLYK
root@arm:~# MARKER='CEON''MOVYLL' run 'i2cget -f -y 2 0x60 0x29'
CEONMOVYLL0x4c
CEONMOVYLL 0
root@arm:~# echo 'YTOY''FLTENF'
YTOYFLTENF
root@arm:~# MARKER='NFNQ''UNYFEE' run 'i2cget -y -f 2 0x60 0x22'
NFNQUNYFEE0x78
NFNQUNYFEE 0
root@arm:~# echo 'PVKL''BLFKNF'
PVKLBLFKNF
root@arm:~# MARKER='HVAB''JEWJEP' run 'i2cget -y -f 2 0x60 0x22'
HVABJEWJEP0x78
HVABJEWJEP 0
root@arm:~# echo 'NTGX''LUZXEB'
NTGXLUZXEB
root@arm:~# MARKER='SUAQ''JCEUBX' run 'echo 1230000 1230000 > /sys/kernel/mva_tesst/regulators/buck2_set'
SUAQJCEUBXSUAQJCEUBX 0
root@arm:~# echo 'CCOK''FJJPPU'
CCOKFJJPPU
root@arm:~# MARKER='QLEU''JKNBYZ' run 'i2cget -f -y 2 0x60 0x29'
QLEUJKNBYZ0x4d
QLEUJKNBYZ 0
root@arm:~# echo 'TKQG''MGLFUN'
TKQGMGLFUN
root@arm:~# MARKER='PUHS''JMYVEP' run 'i2cget -y -f 2 0x60 0x22'
PUHSJMYVEP0x78
PUHSJMYVEP 0
root@arm:~# echo 'NHHK''ZFYEXJ'
NHHKZFYEXJ
root@arm:~# MARKER='ACHU''JMMEQH' run 'i2cget -y -f 2 0x60 0x22'
ACHUJMMEQH0x78
ACHUJMMEQH 0
root@arm:~# echo 'TSPC''WMFHEQ'
TSPCWMFHEQ
root@arm:~# MARKER='VJXV''ZEQGBP' run 'echo 1240000 1240000 > /sys/kernel/mva_tesst/regulators/buck2_set'
VJXVZEQGBPVJXVZEQGBP 0
root@arm:~# echo 'ABVE''WYMSGL'
ABVEWYMSGL
root@arm:~# MARKER='FTAA''UBMQMF' run 'i2cget -f -y 2 0x60 0x29'
FTAAUBMQMF0x4e
FTAAUBMQMF 0
root@arm:~# echo 'NPOW''BHZVFQ'
NPOWBHZVFQ
root@arm:~# MARKER='FHQA''HAEFJM' run 'i2cget -y -f 2 0x60 0x22'
FHQAHAEFJM0x78
FHQAHAEFJM 0
root@arm:~# echo 'UWKB''WPEVNL'
UWKBWPEVNL
root@arm:~# MARKER='YQOW''TLCSGK' run 'i2cget -y -f 2 0x60 0x22'
YQOWTLCSGK0x78
YQOWTLCSGK 0
root@arm:~# echo 'NCPQ''JAXSZX'
NCPQJAXSZX
root@arm:~# MARKER='ZTCL''AMNLJH' run 'echo 1250000 1250000 > /sys/kernel/mva_tesst/regulators/buck2_set'
ZTCLAMNLJHZTCLAMNLJH 0
root@arm:~# echo 'HMAS''UYJFXH'
HMASUYJFXH
root@arm:~# MARKER='ULFP''EXLWOG' run 'i2cget -f -y 2 0x60 0x29'
ULFPEXLWOG0x4f
ULFPEXLWOG 0
root@arm:~# echo 'OBEK''MFBBHN'
OBEKMFBBHN
root@arm:~# MARKER='ZABL''XSOGGG' run 'i2cget -y -f 2 0x60 0x22'
ZABLXSOGGG0x78
ZABLXSOGGG 0
root@arm:~# echo 'ZLPY''BQMQJP'
ZLPYBQMQJP
root@arm:~# MARKER='MJSF''WKNCWF' run 'i2cget -y -f 2 0x60 0x22'
MJSFWKNCWF0x78
MJSFWKNCWF 0
root@arm:~# echo 'YFTG''SYKXNJ'
YFTGSYKXNJ
root@arm:~# MARKER='YMQO''SLTTNT' run 'echo 1260000 1260000 > /sys/kernel/mva_tesst/regulators/buck2_set'
YMQOSLTTNTYMQOSLTTNT 0
root@arm:~# echo 'ENPW''JQALPH'
ENPWJQALPH
root@arm:~# MARKER='UTVA''YVUCNL' run 'i2cget -f -y 2 0x60 0x29'
UTVAYVUCNL0x50
UTVAYVUCNL 0
root@arm:~# echo 'YPLS''QSJPWT'
YPLSQSJPWT
root@arm:~# MARKER='BKQV''FQHZHN' run 'i2cget -y -f 2 0x60 0x22'
BKQVFQHZHN0x78
BKQVFQHZHN 0
root@arm:~# echo 'VKLF''TQNCWH'
VKLFTQNCWH
root@arm:~# MARKER='MNZV''UCYSBM' run 'i2cget -y -f 2 0x60 0x22'
MNZVUCYSBM0x78
MNZVUCYSBM 0
root@arm:~# echo 'PPEN''FYCAYC'
PPENFYCAYC
root@arm:~# MARKER='YYUB''GBCFFT' run 'echo 1270000 1270000 > /sys/kernel/mva_tesst/regulators/buck2_set'
YYUBGBCFFTYYUBGBCFFT 0
root@arm:~# echo 'EVYH''SBYGHU'
EVYHSBYGHU
root@arm:~# MARKER='VMMF''NSLEHH' run 'i2cget -f -y 2 0x60 0x29'
VMMFNSLEHH0x51
VMMFNSLEHH 0
root@arm:~# echo 'JWWK''ONJGOU'
JWWKONJGOU
root@arm:~# MARKER='TUZE''QHWLNC' run 'i2cget -y -f 2 0x60 0x22'
TUZEQHWLNC0x78
TUZEQHWLNC 0
root@arm:~# echo 'TLAZ''KHESPG'
TLAZKHESPG
root@arm:~# MARKER='LJGS''VUNYVA' run 'i2cget -y -f 2 0x60 0x22'
LJGSVUNYVA0x78
LJGSVUNYVA 0
root@arm:~# echo 'BEOE''FWNOQP'
BEOEFWNOQP
root@arm:~# MARKER='UFSK''YONHCL' run 'echo 1280000 1280000 > /sys/kernel/mva_tesst/regulators/buck2_set'
UFSKYONHCLUFSKYONHCL 0
root@arm:~# echo 'EPEJ''MNJTSZ'
EPEJMNJTSZ
root@arm:~# MARKER='XQXS''NCHFAL' run 'i2cget -f -y 2 0x60 0x29'
XQXSNCHFAL0x52
XQXSNCHFAL 0
root@arm:~# echo 'EBZZ''ZSASQF'
EBZZZSASQF
root@arm:~# MARKER='ONAY''QVZTJP' run 'i2cget -y -f 2 0x60 0x22'
ONAYQVZTJP0x78
ONAYQVZTJP 0
root@arm:~# echo 'UFYG''VNKGKM'
UFYGVNKGKM
root@arm:~# MARKER='MPLU''OMTGWM' run 'i2cget -y -f 2 0x60 0x22'
MPLUOMTGWM0x78
MPLUOMTGWM 0
root@arm:~# echo 'HOHU''ECOOHA'
HOHUECOOHA
root@arm:~# MARKER='YVAT''QYHHWH' run 'echo 1290000 1290000 > /sys/kernel/mva_tesst/regulators/buck2_set'
YVATQYHHWHYVATQYHHWH 0
root@arm:~# echo 'WPCK''ATUPLQ'
WPCKATUPLQ
root@arm:~# MARKER='VHBW''EZSEVG' run 'i2cget -f -y 2 0x60 0x29'
VHBWEZSEVG0x53
VHBWEZSEVG 0
root@arm:~# echo 'LBZZ''KJJAQQ'
LBZZKJJAQQ
root@arm:~# MARKER='ENYQ''OEZWFL' run 'i2cget -y -f 2 0x60 0x22'
ENYQOEZWFL0x78
ENYQOEZWFL 0
root@arm:~# echo 'BZPJ''UGGZTB'
BZPJUGGZTB
root@arm:~# MARKER='FXVT''QKFCAB' run 'i2cget -y -f 2 0x60 0x22'
FXVTQKFCAB0x78
FXVTQKFCAB 0
root@arm:~# echo 'JMPU''FEVEPM'
JMPUFEVEPM
root@arm:~# MARKER='XAJF''QQMFMA' run 'echo 1300000 1300000 > /sys/kernel/mva_tesst/regulators/buck2_set'
XAJFQQMFMAXAJFQQMFMA 0
root@arm:~# echo 'UABM''ANUEGB'
UABMANUEGB
root@arm:~# MARKER='BESB''FEJOQM' run 'i2cget -f -y 2 0x60 0x29'
BESBFEJOQM0x54
BESBFEJOQM 0
root@arm:~# echo 'TKSA''CKCHFG'
TKSACKCHFG
root@arm:~# MARKER='BMEM''TWVAZM' run 'i2cget -y -f 2 0x60 0x22'
BMEMTWVAZM0x78
BMEMTWVAZM 0
root@arm:~# echo 'FSXA''PPBEMM'
FSXAPPBEMM
root@arm:~# MARKER='EAXG''PKPTME' run 'i2cget -y -f 2 0x60 0x22'
EAXGPKPTME0x78
EAXGPKPTME 0
root@arm:~# echo 'FKKW''ZYGXES'
FKKWZYGXES
root@arm:~# MARKER='JUSE''UKMHNN' run 'echo 1310000 1310000 > /sys/kernel/mva_tesst/regulators/buck2_set'
JUSEUKMHNNJUSEUKMHNN 0
root@arm:~# echo 'TMSA''EJABYL'
TMSAEJABYL
root@arm:~# MARKER='GHVQ''KYEJML' run 'i2cget -f -y 2 0x60 0x29'
GHVQKYEJML0x55
GHVQKYEJML 0
root@arm:~# echo 'XTMY''KSEXKV'
XTMYKSEXKV
root@arm:~# MARKER='PHQY''ABEKEQ' run 'i2cget -y -f 2 0x60 0x22'
PHQYABEKEQ0x78
PHQYABEKEQ 0
root@arm:~# echo 'WMMW''MZTQYP'
WMMWMZTQYP
root@arm:~# MARKER='NTSJ''HCJHGT' run 'i2cget -y -f 2 0x60 0x22'
NTSJHCJHGT0x78
NTSJHCJHGT 0
root@arm:~# echo 'KGLK''QKCENH'
KGLKQKCENH
root@arm:~# MARKER='CWAN''ALAYZY' run 'echo 1320000 1320000 > /sys/kernel/mva_tesst/regulators/buck2_set'
CWANALAYZYCWANALAYZY 0
root@arm:~# echo 'CWXN''HJSLGS'
CWXNHJSLGS
root@arm:~# MARKER='PALO''ANSGLA' run 'i2cget -f -y 2 0x60 0x29'
PALOANSGLA0x56
PALOANSGLA 0
root@arm:~# echo 'MOTP''FWWJCB'
MOTPFWWJCB
root@arm:~# MARKER='UGAM''GUTPBG' run 'i2cget -y -f 2 0x60 0x22'
UGAMGUTPBG0x78
UGAMGUTPBG 0
root@arm:~# echo 'MQFL''LGEKPL'
MQFLLGEKPL
root@arm:~# MARKER='SNEF''ZJAKGB' run 'i2cget -y -f 2 0x60 0x22'
SNEFZJAKGB0x78
SNEFZJAKGB 0
root@arm:~# echo 'UQYT''YPZOJX'
UQYTYPZOJX
root@arm:~# MARKER='VQBJ''FJYOXV' run 'echo 1330000 1330000 > /sys/kernel/mva_tesst/regulators/buck2_set'
VQBJFJYOXVVQBJFJYOXV 0
root@arm:~# echo 'KZTX''NJPGPT'
KZTXNJPGPT
root@arm:~# MARKER='YXPB''ACVZJH' run 'i2cget -f -y 2 0x60 0x29'
YXPBACVZJH0x57
YXPBACVZJH 0
root@arm:~# echo 'AQSL''THFWBC'
AQSLTHFWBC
root@arm:~# MARKER='QJWF''POFZKL' run 'i2cget -y -f 2 0x60 0x22'
QJWFPOFZKL0x78
QJWFPOFZKL 0
root@arm:~# echo 'OEGY''ESXNZZ'
OEGYESXNZZ
root@arm:~# MARKER='XJOO''LFTEYO' run 'i2cget -y -f 2 0x60 0x22'
XJOOLFTEYO0x78
XJOOLFTEYO 0
root@arm:~# echo 'ETFE''GSCFQU'
ETFEGSCFQU
root@arm:~# MARKER='BAAG''MJSKWN' run 'echo 1340000 1340000 > /sys/kernel/mva_tesst/regulators/buck2_set'
BAAGMJSKWNBAAGMJSKWN 0
root@arm:~# echo 'CULP''OEQWCM'
CULPOEQWCM
root@arm:~# MARKER='OLTJ''EKXJEJ' run 'i2cget -f -y 2 0x60 0x29'
OLTJEKXJEJ0x58
OLTJEKXJEJ 0
root@arm:~# echo 'MCKQ''AEUNQC'
MCKQAEUNQC
root@arm:~# MARKER='FAEG''QFQTBU' run 'i2cget -y -f 2 0x60 0x22'
FAEGQFQTBU0x78
FAEGQFQTBU 0
root@arm:~# echo 'HATA''XSVBXJ'
HATAXSVBXJ
root@arm:~# MARKER='JTFO''WMFJKT' run 'i2cget -y -f 2 0x60 0x22'
JTFOWMFJKT0x78
JTFOWMFJKT 0
root@arm:~# echo 'YGJV''JXGJGG'
YGJVJXGJGG
root@arm:~# MARKER='MNGS''AMOEHZ' run 'echo 1350000 1350000 > /sys/kernel/mva_tesst/regulators/buck2_set'
MNGSAMOEHZMNGSAMOEHZ 0
root@arm:~# echo 'UFMP''ONBMUY'
UFMPONBMUY
root@arm:~# MARKER='QXML''XZHYXS' run 'i2cget -f -y 2 0x60 0x29'
QXMLXZHYXS0x59
QXMLXZHYXS 0
root@arm:~# echo 'GOQJ''VVMHYQ'
GOQJVVMHYQ
root@arm:~# MARKER='OSTF''KVMVCC' run 'i2cget -y -f 2 0x60 0x22'
OSTFKVMVCC0x78
OSTFKVMVCC 0
root@arm:~# echo 'COBO''EQUTHT'
COBOEQUTHT
root@arm:~# MARKER='UGON''QZVHLB' run 'i2cget -y -f 2 0x60 0x22'
UGONQZVHLB0x78
UGONQZVHLB 0
root@arm:~# echo 'YOTC''QGGFWT'
YOTCQGGFWT
root@arm:~# MARKER='NPUC''ZGATNJ' run 'echo 1360000 1360000 > /sys/kernel/mva_tesst/regulators/buck2_set'
NPUCZGATNJNPUCZGATNJ 0
root@arm:~# echo 'ZPBX''HNXEXU'
ZPBXHNXEXU
root@arm:~# MARKER='WGQB''ZOKCZV' run 'i2cget -f -y 2 0x60 0x29'
WGQBZOKCZV0x5a
WGQBZOKCZV 0
root@arm:~# echo 'MAFG''YOJNKU'
MAFGYOJNKU
root@arm:~# MARKER='CECJ''XTZLYA' run 'i2cget -y -f 2 0x60 0x22'
CECJXTZLYA0x78
CECJXTZLYA 0
root@arm:~# echo 'CLXY''GSQPOY'
CLXYGSQPOY
root@arm:~# MARKER='KJQC''MBBJGK' run 'i2cget -y -f 2 0x60 0x22'
KJQCMBBJGK0x78
KJQCMBBJGK 0
root@arm:~# echo 'WATY''FVNKUY'
WATYFVNKUY
root@arm:~# MARKER='ZQZU''TXFTYT' run 'echo 1370000 1370000 > /sys/kernel/mva_tesst/regulators/buck2_set'
ZQZUTXFTYTZQZUTXFTYT 0
root@arm:~# echo 'TMQJ''CPYFYG'
TMQJCPYFYG
root@arm:~# MARKER='MUFL''ASEJMW' run 'i2cget -f -y 2 0x60 0x29'
MUFLASEJMW0x5b
MUFLASEJMW 0
root@arm:~# echo 'LQSV''LAVSHU'
LQSVLAVSHU
root@arm:~# MARKER='LHNU''QBBJAB' run 'i2cget -y -f 2 0x60 0x22'
LHNUQBBJAB0x78
LHNUQBBJAB 0
root@arm:~# echo 'BEJX''SXCLGO'
BEJXSXCLGO
root@arm:~# MARKER='PQES''CUBUQW' run 'i2cget -y -f 2 0x60 0x22'
PQESCUBUQW0x78
PQESCUBUQW 0
root@arm:~# echo 'FNTV''ZXMWPW'
FNTVZXMWPW
root@arm:~# MARKER='EEGY''YSVGVN' run 'echo 1380000 1380000 > /sys/kernel/mva_tesst/regulators/buck2_set'
EEGYYSVGVNEEGYYSVGVN 0
root@arm:~# echo 'JJLG''EQNUBA'
JJLGEQNUBA
root@arm:~# MARKER='OBET''SOKNWL' run 'i2cget -f -y 2 0x60 0x29'
OBETSOKNWL0x5c
OBETSOKNWL 0
root@arm:~# echo 'KLKH''LPFQCK'
KLKHLPFQCK
root@arm:~# MARKER='SAAU''GBBOXH' run 'i2cget -y -f 2 0x60 0x22'
SAAUGBBOXH0x78
SAAUGBBOXH 0
root@arm:~# echo 'CYQS''QFEQYB'
CYQSQFEQYB
root@arm:~# MARKER='BOMH''MXCHEX' run 'i2cget -y -f 2 0x60 0x22'
BOMHMXCHEX0x78
BOMHMXCHEX 0
root@arm:~# echo 'ASSO''SPZUOZ'
ASSOSPZUOZ
root@arm:~# MARKER='KBXB''HVGHUW' run 'echo 1390000 1390000 > /sys/kernel/mva_tesst/regulators/buck2_set'
KBXBHVGHUWKBXBHVGHUW 0
root@arm:~# echo 'QUNV''MUTUBG'
QUNVMUTUBG
root@arm:~# MARKER='WKBL''ZBEMVA' run 'i2cget -f -y 2 0x60 0x29'
WKBLZBEMVA0x5d
WKBLZBEMVA 0
root@arm:~# echo 'NBYB''BTULFY'
NBYBBTULFY
root@arm:~# MARKER='OVLC''HJMUVB' run 'i2cget -y -f 2 0x60 0x22'
OVLCHJMUVB0x78
OVLCHJMUVB 0
root@arm:~# echo 'LHXB''MLFAEC'
LHXBMLFAEC
root@arm:~# MARKER='BHYM''BYKYWP' run 'i2cget -y -f 2 0x60 0x22'
BHYMBYKYWP0x78
BHYMBYKYWP 0
root@arm:~# echo 'AEXH''NBGCNX'
AEXHNBGCNX
root@arm:~# MARKER='OMQN''ZNVZKQ' run 'echo 1400000 1400000 > /sys/kernel/mva_tesst/regulators/buck2_set'
OMQNZNVZKQOMQNZNVZKQ 0
root@arm:~# echo 'MQHV''KCCTBV'
MQHVKCCTBV
root@arm:~# MARKER='XJSB''ZKBLOJ' run 'i2cget -f -y 2 0x60 0x29'
XJSBZKBLOJ0x5e
XJSBZKBLOJ 0
root@arm:~# echo 'QFUV''CTFHVU'
QFUVCTFHVU
root@arm:~# MARKER='JQYH''CBBKCN' run 'i2cget -y -f 2 0x60 0x22'
JQYHCBBKCN0x78
JQYHCBBKCN 0
root@arm:~# echo 'FFZN''HEFYAZ'
FFZNHEFYAZ
root@arm:~# MARKER='NWFX''CLXFKA' run 'i2cget -y -f 2 0x60 0x22'
NWFXCLXFKA0x78
NWFXCLXFKA 0
root@arm:~# echo 'NVPY''BXVJMK'
NVPYBXVJMK
root@arm:~# MARKER='TJMH''PTFBJN' run 'echo 1410000 1410000 > /sys/kernel/mva_tesst/regulators/buck2_set'
TJMHPTFBJNTJMHPTFBJN 0
root@arm:~# echo 'WONY''VQUFJT'
WONYVQUFJT
root@arm:~# MARKER='UNLV''XOYXEX' run 'i2cget -f -y 2 0x60 0x29'
UNLVXOYXEX0x5f
UNLVXOYXEX 0
root@arm:~# echo 'SBOT''POZVNC'
SBOTPOZVNC
root@arm:~# MARKER='OHXF''NAKPZE' run 'i2cget -y -f 2 0x60 0x22'
OHXFNAKPZE0x78
OHXFNAKPZE 0
root@arm:~# echo 'SKAH''BMOGJF'
SKAHBMOGJF
root@arm:~# MARKER='YWOG''AJWGCJ' run 'i2cget -y -f 2 0x60 0x22'
YWOGAJWGCJ0x78
YWOGAJWGCJ 0
root@arm:~# echo 'QMGV''ONKWEP'
QMGVONKWEP
root@arm:~# MARKER='BUGQ''LTQQUS' run 'echo 790000 790000 > /sys/kernel/mva_test//regulators/buck2_set'
BUGQLTQQUSBUGQLTQQUS 0
root@arm:~# echo 'MKKJ''EEXBUA'
MKKJEEXBUA
root@arm:~# MARKER='FLAE''UTZZBF' run 'i2cget -f -y 2 0x60 0x29'
FLAEUTZZBF0x60
FLAEUTZZBF 0
root@arm:~# echo 'GBYB''VMHQOY'
GBYBVMHQOY
root@arm:~# MARKER='SBBE''VNGJJC' run 'i2cget -y -f 2 0x60 0x22'
SBBEVNGJJC0x78
SBBEVNGJJC 0
root@arm:~# echo 'KFKC''BZGJEQ'
KFKCBZGJEQ
root@arm:~# MARKER='AQST''COPMAT' run 'i2cget -y -f 2 0x60 0x22'
AQSTCOPMAT0x78
AQSTCOPMAT 0
root@arm:~# echo 'FWFL''HTGEOA'
FWFLHTGEOA
root@arm:~# MARKER='AMTC''SVBQJZ' run 'echo 800000 800000 > /sys/kernel/mva_test//regulators/buck2_set'
AMTCSVBQJZAMTCSVBQJZ 0
root@arm:~# echo 'OFAU''SMQXZM'
OFAUSMQXZM
root@arm:~# MARKER='WXWK''UOKOPX' run 'i2cget -f -y 2 0x60 0x29'
WXWKUOKOPX0x61
WXWKUOKOPX 0
root@arm:~# echo 'XZCO''NWMYBL'
XZCONWMYBL
root@arm:~# MARKER='HTFQ''EJKCLX' run 'i2cget -y -f 2 0x60 0x22'
HTFQEJKCLX0x78
HTFQEJKCLX 0
root@arm:~# echo 'CMHW''WCNBCU'
CMHWWCNBCU
root@arm:~# MARKER='JAQJ''OYOYEG' run 'i2cget -y -f 2 0x60 0x22'
JAQJOYOYEG0x78
JAQJOYOYEG 0
root@arm:~# echo 'TFXN''OMLGLA'
TFXNOMLGLA
root@arm:~# MARKER='OHMO''HKHBMT' run 'echo 810000 810000 > /sys/kernel/mva_test//regulators/buck2_set'
OHMOHKHBMTOHMOHKHBMT 0
root@arm:~# echo 'HTTH''NMGZVF'
HTTHNMGZVF
root@arm:~# MARKER='XZXN''ZLBVMQ' run 'i2cget -f -y 2 0x60 0x29'
XZXNZLBVMQ0x62
XZXNZLBVMQ 0
root@arm:~# echo 'YVVF''AVCJBH'
YVVFAVCJBH
root@arm:~# MARKER='LBWO''BGKXCU' run 'i2cget -y -f 2 0x60 0x22'
LBWOBGKXCU0x78
LBWOBGKXCU 0
root@arm:~# echo 'GOHK''AGYVJU'
GOHKAGYVJU
root@arm:~# MARKER='NWGU''PZQOXB' run 'i2cget -y -f 2 0x60 0x22'
NWGUPZQOXB0x78
NWGUPZQOXB 0
root@arm:~# echo 'XPPM''FZCTFP'
XPPMFZCTFP
root@arm:~# MARKER='AVMF''BTQZNP' run 'echo 820000 820000 > /sys/kernel/mva_test//regulators/buck2_set'
AVMFBTQZNPAVMFBTQZNP 0
root@arm:~# echo 'BYAN''MBYSXL'
BYANMBYSXL
root@arm:~# MARKER='KGCM''HPFEZE' run 'i2cget -f -y 2 0x60 0x29'
KGCMHPFEZE0x63
KGCMHPFEZE 0
root@arm:~# echo 'TSJX''MZKYUZ'
TSJXMZKYUZ
root@arm:~# MARKER='QYXM''AVQBYY' run 'i2cget -y -f 2 0x60 0x22'
QYXMAVQBYY0x78
QYXMAVQBYY 0
root@arm:~# echo 'XNGN''TNQWSA'
XNGNTNQWSA
root@arm:~# MARKER='VLVK''KZAFVL' run 'i2cget -y -f 2 0x60 0x22'
VLVKKZAFVL0x78
VLVKKZAFVL 0
root@arm:~# echo 'USSP''FTQEFC'
USSPFTQEFC
root@arm:~# MARKER='OZPE''EOEXMB' run 'echo 830000 830000 > /sys/kernel/mva_test//regulators/buck2_set'
OZPEEOEXMBOZPEEOEXMB 0
root@arm:~# echo 'JXFA''HHPPOY'
JXFAHHPPOY
root@arm:~# MARKER='QXLG''VQMTXK' run 'i2cget -f -y 2 0x60 0x29'
QXLGVQMTXK0x64
QXLGVQMTXK 0
root@arm:~# echo 'LBGW''PNJHEX'
LBGWPNJHEX
root@arm:~# MARKER='PGKU''NFTJUW' run 'i2cget -y -f 2 0x60 0x22'
PGKUNFTJUW0x78
PGKUNFTJUW 0
root@arm:~# echo 'AKVS''XZMBNS'
AKVSXZMBNS
root@arm:~# MARKER='ZJBU''EJUVEE' run 'i2cget -y -f 2 0x60 0x22'
ZJBUEJUVEE0x78
ZJBUEJUVEE 0
root@arm:~# echo 'XLTG''YMKOTS'
XLTGYMKOTS
root@arm:~# MARKER='KKNL''HLAKQV' run 'echo 840000 840000 > /sys/kernel/mva_test//regulators/buck2_set'
KKNLHLAKQVKKNLHLAKQV 0
root@arm:~# echo 'LQFN''HCALOW'
LQFNHCALOW
root@arm:~# MARKER='SXLL''CCXWHG' run 'i2cget -f -y 2 0x60 0x29'
SXLLCCXWHG0x65
SXLLCCXWHG 0
root@arm:~# echo 'MAZT''OWJUJX'
MAZTOWJUJX
root@arm:~# MARKER='EFCX''AMXEXN' run 'i2cget -y -f 2 0x60 0x22'
EFCXAMXEXN0x78
EFCXAMXEXN 0
root@arm:~# echo 'NVVQ''WHUBPO'
NVVQWHUBPO
root@arm:~# MARKER='OGVH''PZAAGQ' run 'i2cget -y -f 2 0x60 0x22'
OGVHPZAAGQ0x78
OGVHPZAAGQ 0
root@arm:~# echo 'OEXF''CZVXNJ'
OEXFCZVXNJ
root@arm:~# MARKER='FJMU''FPMPEM' run 'echo 850000 850000 > /sys/kernel/mva_test//regulators/buck2_set'
FJMUFPMPEMFJMUFPMPEM 0
root@arm:~# echo 'ZANG''KZWYFO'
ZANGKZWYFO
root@arm:~# MARKER='JPNB''HLUWMW' run 'i2cget -f -y 2 0x60 0x29'
JPNBHLUWMW0x66
JPNBHLUWMW 0
root@arm:~# echo 'JWNZ''VSTUMH'
JWNZVSTUMH
root@arm:~# MARKER='LBAO''LZOXPJ' run 'i2cget -y -f 2 0x60 0x22'
LBAOLZOXPJ0x78
LBAOLZOXPJ 0
root@arm:~# echo 'YLHW''PFNQBM'
YLHWPFNQBM
root@arm:~# MARKER='BLKO''ENEXPO' run 'i2cget -y -f 2 0x60 0x22'
BLKOENEXPO0x78
BLKOENEXPO 0
root@arm:~# echo 'HMVV''MWGHOP'
HMVVMWGHOP
root@arm:~# MARKER='UYPX''XLEMVA' run 'echo 860000 860000 > /sys/kernel/mva_test//regulators/buck2_set'
UYPXXLEMVAUYPXXLEMVA 0
root@arm:~# echo 'FNWS''CNCUZL'
FNWSCNCUZL
root@arm:~# MARKER='SAFE''XULSGQ' run 'i2cget -f -y 2 0x60 0x29'
SAFEXULSGQ0x67
SAFEXULSGQ 0
root@arm:~# echo 'FCXO''PLXFZM'
FCXOPLXFZM
root@arm:~# MARKER='NBHF''NEOLBM' run 'i2cget -y -f 2 0x60 0x22'
NBHFNEOLBM0x78
NBHFNEOLBM 0
root@arm:~# echo 'YZKV''LEOTFV'
YZKVLEOTFV
root@arm:~# MARKER='FWGV''NYQHQC' run 'i2cget -y -f 2 0x60 0x22'
FWGVNYQHQC0x78
FWGVNYQHQC 0
root@arm:~# echo 'AQYQ''LFPKCM'
AQYQLFPKCM
root@arm:~# MARKER='XNGJ''BGPTFT' run 'echo 870000 870000 > /sys/kernel/mva_test//regulators/buck2_set'
XNGJBGPTFTXNGJBGPTFT 0
root@arm:~# echo 'WYUU''QXLSUN'
WYUUQXLSUN
root@arm:~# MARKER='QSUP''ZFJSWF' run 'i2cget -f -y 2 0x60 0x29'
QSUPZFJSWF0x68
QSUPZFJSWF 0
root@arm:~# echo 'KYJU''SJTMLP'
KYJUSJTMLP
root@arm:~# MARKER='BHXC''PVZTOC' run 'i2cget -y -f 2 0x60 0x22'
BHXCPVZTOC0x78
BHXCPVZTOC 0
root@arm:~# echo 'NACM''VMVYGO'
NACMVMVYGO
root@arm:~# MARKER='PVMG''YAPNHC' run 'i2cget -y -f 2 0x60 0x22'
PVMGYAPNHC0x78
PVMGYAPNHC 0
root@arm:~# echo 'BHXN''MOPOVM'
BHXNMOPOVM
root@arm:~# MARKER='CWNN''EFVTPE' run 'echo 880000 880000 > /sys/kernel/mva_test//regulators/buck2_set'
CWNNEFVTPECWNNEFVTPE 0
root@arm:~# echo 'TVKG''QYTBXO'
TVKGQYTBXO
root@arm:~# MARKER='AMHS''PNSQQN' run 'i2cget -f -y 2 0x60 0x29'
AMHSPNSQQN0x69
AMHSPNSQQN 0
root@arm:~# echo 'JWZE''QMYMHX'
JWZEQMYMHX
root@arm:~# MARKER='QSUK''VTBPCC' run 'i2cget -y -f 2 0x60 0x22'
QSUKVTBPCC0x78
QSUKVTBPCC 0
root@arm:~# echo 'FKXH''MUAQNP'
FKXHMUAQNP
root@arm:~# MARKER='TMYV''MGNSCB' run 'i2cget -y -f 2 0x60 0x22'
TMYVMGNSCB0x78
TMYVMGNSCB 0
root@arm:~# echo 'QXVE''XPBGUF'
QXVEXPBGUF
root@arm:~# MARKER='GZAO''JFVBWA' run 'echo 890000 890000 > /sys/kernel/mva_test//regulators/buck2_set'
GZAOJFVBWAGZAOJFVBWA 0
root@arm:~# echo 'ZLKB''JPPGQM'
ZLKBJPPGQM
root@arm:~# MARKER='TLCO''CCUXWU' run 'i2cget -f -y 2 0x60 0x29'
TLCOCCUXWU0x6a
TLCOCCUXWU 0
root@arm:~# echo 'XQEY''NPFLQG'
XQEYNPFLQG
root@arm:~# MARKER='UMGY''TQBHPZ' run 'i2cget -y -f 2 0x60 0x22'
UMGYTQBHPZ0x78
UMGYTQBHPZ 0
root@arm:~# echo 'BTMH''ZUZVZZ'
BTMHZUZVZZ
root@arm:~# MARKER='XAAM''PXJATJ' run 'i2cget -y -f 2 0x60 0x22'
XAAMPXJATJ0x78
XAAMPXJATJ 0
root@arm:~# echo 'CYHZ''KYQPZX'
CYHZKYQPZX
root@arm:~# MARKER='TQKU''NZGPAW' run 'echo 900000 900000 > /sys/kernel/mva_test//regulators/buck2_set'
TQKUNZGPAWTQKUNZGPAW 0
root@arm:~# echo 'TVLP''CBLOQL'
TVLPCBLOQL
root@arm:~# MARKER='BJCO''KFGPFX' run 'i2cget -f -y 2 0x60 0x29'
BJCOKFGPFX0x6b
BJCOKFGPFX 0
root@arm:~# echo 'MLXG''XQSGWE'
MLXGXQSGWE
root@arm:~# MARKER='JQCO''UOXWNQ' run 'i2cget -y -f 2 0x60 0x22'
JQCOUOXWNQ0x78
JQCOUOXWNQ 0
root@arm:~# echo 'ZPZL''NBXXAU'
ZPZLNBXXAU
root@arm:~# MARKER='LNLS''UQOFPB' run 'i2cget -y -f 2 0x60 0x22'
LNLSUQOFPB0x78
LNLSUQOFPB 0
root@arm:~# echo 'BTGT''GQHMSY'
BTGTGQHMSY
root@arm:~# MARKER='LBNF''MWCGUC' run 'echo 910000 910000 > /sys/kernel/mva_test//regulators/buck2_set'
LBNFMWCGUCLBNFMWCGUC 0
root@arm:~# echo 'KAJN''GFHZJJ'
KAJNGFHZJJ
root@arm:~# MARKER='LPBS''LPZFGO' run 'i2cget -f -y 2 0x60 0x29'
LPBSLPZFGO0x6c
LPBSLPZFGO 0
root@arm:~# echo 'QHJB''QJWTGH'
QHJBQJWTGH
root@arm:~# MARKER='OBGX''YWMAEM' run 'i2cget -y -f 2 0x60 0x22'
OBGXYWMAEM0x78
OBGXYWMAEM 0
root@arm:~# echo 'MQSP''CNJQVB'
MQSPCNJQVB
root@arm:~# MARKER='EJVQ''KXLSWW' run 'i2cget -y -f 2 0x60 0x22'
EJVQKXLSWW0x78
EJVQKXLSWW 0
root@arm:~# echo 'ACLT''QEOLXN'
ACLTQEOLXN
root@arm:~# MARKER='EXTG''UOANVE' run 'echo 920000 920000 > /sys/kernel/mva_test//regulators/buck2_set'
EXTGUOANVEEXTGUOANVE 0
root@arm:~# echo 'AHAF''HVHPTS'
AHAFHVHPTS
root@arm:~# MARKER='ZVYY''UAEPVQ' run 'i2cget -f -y 2 0x60 0x29'
ZVYYUAEPVQ0x6d
ZVYYUAEPVQ 0
root@arm:~# echo 'WKPW''BTLFGO'
WKPWBTLFGO
root@arm:~# MARKER='BWTC''MAKLUC' run 'i2cget -y -f 2 0x60 0x22'
BWTCMAKLUC0x78
BWTCMAKLUC 0
root@arm:~# echo 'CBLV''FXNAKB'
CBLVFXNAKB
root@arm:~# MARKER='ZJBC''KTYKXW' run 'i2cget -y -f 2 0x60 0x22'
ZJBCKTYKXW0x78
ZJBCKTYKXW 0
root@arm:~# echo 'BGHM''SYEUUH'
BGHMSYEUUH
root@arm:~# MARKER='GBGF''GXKCHC' run 'echo 930000 930000 > /sys/kernel/mva_test//regulators/buck2_set'
GBGFGXKCHCGBGFGXKCHC 0
root@arm:~# echo 'YSTG''EFOFLK'
YSTGEFOFLK
root@arm:~# MARKER='EFNO''SWFMFY' run 'i2cget -f -y 2 0x60 0x29'
EFNOSWFMFY0x6e
EFNOSWFMFY 0
root@arm:~# echo 'XXOH''STTWCC'
XXOHSTTWCC
root@arm:~# MARKER='SVAQ''LQSAZX' run 'i2cget -y -f 2 0x60 0x22'
SVAQLQSAZX0x78
SVAQLQSAZX 0
root@arm:~# echo 'QAHM''TFVCPZ'
QAHMTFVCPZ
root@arm:~# MARKER='CJXY''QXAHPN' run 'i2cget -y -f 2 0x60 0x22'
CJXYQXAHPN0x78
CJXYQXAHPN 0
root@arm:~# echo 'AGKA''CQKBNZ'
AGKACQKBNZ
root@arm:~# MARKER='VUKG''CQTLHN' run 'echo 940000 940000 > /sys/kernel/mva_test//regulators/buck2_set'
VUKGCQTLHNVUKGCQTLHN 0
root@arm:~# echo 'CZMP''BPTXCN'
CZMPBPTXCN
root@arm:~# MARKER='KMSA''FGEVKV' run 'i2cget -f -y 2 0x60 0x29'
KMSAFGEVKV0x6f
KMSAFGEVKV 0
root@arm:~# echo 'LKET''MEZVSC'
LKETMEZVSC
root@arm:~# MARKER='TCZB''CMQJGV' run 'i2cget -y -f 2 0x60 0x22'
TCZBCMQJGV0x78
TCZBCMQJGV 0
root@arm:~# echo 'BQXB''CJGBPP'
BQXBCJGBPP
root@arm:~# MARKER='TOWS''PKSNZZ' run 'i2cget -y -f 2 0x60 0x22'
TOWSPKSNZZ0x78
TOWSPKSNZZ 0
root@arm:~# echo 'ZVQJ''NUVYTQ'
ZVQJNUVYTQ
root@arm:~# MARKER='BBPL''OCKHPX' run 'echo 950000 950000 > /sys/kernel/mva_test//regulators/buck2_set'
BBPLOCKHPXBBPLOCKHPX 0
root@arm:~# echo 'OWTG''ETAVTJ'
OWTGETAVTJ
root@arm:~# MARKER='VUYL''LQTOPT' run 'i2cget -f -y 2 0x60 0x29'
VUYLLQTOPT0x70
VUYLLQTOPT 0
root@arm:~# echo 'YBSY''FXCMTL'
YBSYFXCMTL
root@arm:~# MARKER='HUTV''LXJYUQ' run 'i2cget -y -f 2 0x60 0x22'
HUTVLXJYUQ0x78
HUTVLXJYUQ 0
root@arm:~# echo 'NXQS''KMUWCT'
NXQSKMUWCT
root@arm:~# MARKER='JMQV''KEXTSL' run 'i2cget -y -f 2 0x60 0x22'
JMQVKEXTSL0x78
JMQVKEXTSL 0
root@arm:~# echo 'MAXY''CBZTKP'
MAXYCBZTKP
root@arm:~# MARKER='QZWM''ATQSPZ' run 'echo 960000 960000 > /sys/kernel/mva_test//regulators/buck2_set'
QZWMATQSPZQZWMATQSPZ 0
root@arm:~# echo 'HVEY''KJLYLZ'
HVEYKJLYLZ
root@arm:~# MARKER='TBWV''PTYBUZ' run 'i2cget -f -y 2 0x60 0x29'
TBWVPTYBUZ0x71
TBWVPTYBUZ 0
root@arm:~# echo 'QZTA''JWUPXO'
QZTAJWUPXO
root@arm:~# MARKER='NNPC''LTLUGL' run 'i2cget -y -f 2 0x60 0x22'
NNPCLTLUGL0x78
NNPCLTLUGL 0
root@arm:~# echo 'NQAG''TKWKPO'
NQAGTKWKPO
root@arm:~# MARKER='WOZJ''ZNWKAO' run 'i2cget -y -f 2 0x60 0x22'
WOZJZNWKAO0x78
WOZJZNWKAO 0
root@arm:~# echo 'NSNA''AAGLML'
NSNAAAGLML
root@arm:~# MARKER='ZGHX''SPVBOF' run 'echo 970000 970000 > /sys/kernel/mva_test//regulators/buck2_set'
ZGHXSPVBOFZGHXSPVBOF 0
root@arm:~# echo 'BYHV''EEQENY'
BYHVEEQENY
root@arm:~# MARKER='QMQP''KBVKKY' run 'i2cget -f -y 2 0x60 0x29'
QMQPKBVKKY0x72
QMQPKBVKKY 0
root@arm:~# echo 'VUUO''XBAWMP'
VUUOXBAWMP
root@arm:~# MARKER='HTVE''XXHFHZ' run 'i2cget -y -f 2 0x60 0x22'
HTVEXXHFHZ0x78
HTVEXXHFHZ 0
root@arm:~# echo 'CBSJ''QKVLMW'
CBSJQKVLMW
root@arm:~# MARKER='FLGM''GCFWBU' run 'i2cget -y -f 2 0x60 0x22'
FLGMGCFWBU0x78
FLGMGCFWBU 0
root@arm:~# echo 'MBZN''HUAEOA'
MBZNHUAEOA
root@arm:~# MARKER='FCBQ''FKWUUV' run 'echo 980000 980000 > /sys/kernel/mva_test//regulators/buck2_set'
FCBQFKWUUVFCBQFKWUUV 0
root@arm:~# echo 'LJKX''GTEFPO'
LJKXGTEFPO
root@arm:~# MARKER='ZHQK''LNVQSF' run 'i2cget -f -y 2 0x60 0x29'
ZHQKLNVQSF0x73
ZHQKLNVQSF 0
root@arm:~# echo 'FBFM''JHHSTB'
FBFMJHHSTB
root@arm:~# MARKER='XBAY''JHESZY' run 'i2cget -y -f 2 0x60 0x22'
XBAYJHESZY0x78
XBAYJHESZY 0
root@arm:~# echo 'MSNO''OJXOBQ'
MSNOOJXOBQ
root@arm:~# MARKER='EEAF''XTUVOF' run 'i2cget -y -f 2 0x60 0x22'
EEAFXTUVOF0x78
EEAFXTUVOF 0
root@arm:~# echo 'UKQW''AFNHOW'
UKQWAFNHOW
root@arm:~# MARKER='JZNX''VASLTL' run 'echo 990000 990000 > /sys/kernel/mva_test//regulators/buck2_set'
JZNXVASLTLJZNXVASLTL 0
root@arm:~# echo 'NFNF''TBSJCQ'
NFNFTBSJCQ
root@arm:~# MARKER='FOFA''FPENNE' run 'i2cget -f -y 2 0x60 0x29'
FOFAFPENNE0x74
FOFAFPENNE 0
root@arm:~# echo 'LUUW''LKOSBU'
LUUWLKOSBU
root@arm:~# MARKER='LBGY''FZCMVG' run 'i2cget -y -f 2 0x60 0x22'
LBGYFZCMVG0x78
LBGYFZCMVG 0
root@arm:~# echo 'SYNY''TUKYPT'
SYNYTUKYPT
root@arm:~# MARKER='MYNG''GCFQCS' run 'i2cget -y -f 2 0x60 0x22'
MYNGGCFQCS0x78
MYNGGCFQCS 0
root@arm:~# echo 'ENML''MQZQSX'
ENMLMQZQSX
root@arm:~# MARKER='CFZC''EWXFWV' run 'echo 1000000 1000000 > /sys/kernel/mva_tesst/regulators/buck2_set'
CFZCEWXFWVCFZCEWXFWV 0
root@arm:~# echo 'PNAX''ZEYAKV'
PNAXZEYAKV
root@arm:~# MARKER='HHHZ''JZWBMQ' run 'i2cget -f -y 2 0x60 0x29'
HHHZJZWBMQ0x75
HHHZJZWBMQ 0
root@arm:~# echo 'CZYT''KZWPQF'
CZYTKZWPQF
root@arm:~# MARKER='BZXE''ENJNUO' run 'i2cget -y -f 2 0x60 0x22'
BZXEENJNUO0x78
BZXEENJNUO 0
root@arm:~# echo 'EUTO''QFCFJQ'
EUTOQFCFJQ
root@arm:~# MARKER='KXKT''KUOCXS' run 'i2cget -y -f 2 0x60 0x22'
KXKTKUOCXS0x78
KXKTKUOCXS 0
root@arm:~# echo 'OSTK''ALEWUM'
OSTKALEWUM
root@arm:~# MARKER='LZTL''VOTEZV' run 'echo 1010000 1010000 > /sys/kernel/mva_tesst/regulators/buck2_set'
LZTLVOTEZVLZTLVOTEZV 0
root@arm:~# echo 'FVJL''JKXUXE'
FVJLJKXUXE
root@arm:~# MARKER='YTPA''HMBATY' run 'i2cget -f -y 2 0x60 0x29'
YTPAHMBATY0x76
YTPAHMBATY 0
root@arm:~# echo 'LGHC''NHXFUO'
LGHCNHXFUO
root@arm:~# MARKER='NYLA''ZUYAYH' run 'i2cget -y -f 2 0x60 0x22'
NYLAZUYAYH0x78
NYLAZUYAYH 0
root@arm:~# echo 'VKOB''OAAQBE'
VKOBOAAQBE
root@arm:~# MARKER='QSJB''JKNYMT' run 'i2cget -y -f 2 0x60 0x22'
QSJBJKNYMT0x78
QSJBJKNYMT 0
root@arm:~# echo 'AEXZ''ETSJFF'
AEXZETSJFF
root@arm:~# MARKER='LUWP''OVQFLB' run 'echo 1020000 1020000 > /sys/kernel/mva_tesst/regulators/buck2_set'
LUWPOVQFLBLUWPOVQFLB 0
root@arm:~# echo 'ENJK''AYUCSK'
ENJKAYUCSK
root@arm:~# MARKER='GFMM''AGYMHZ' run 'i2cget -f -y 2 0x60 0x29'
GFMMAGYMHZ0x77
GFMMAGYMHZ 0
root@arm:~# echo 'JZYQ''MEOSOP'
JZYQMEOSOP
root@arm:~# MARKER='ZNES''XQQHAB' run 'i2cget -y -f 2 0x60 0x22'
ZNESXQQHAB0x78
ZNESXQQHAB 0
root@arm:~# echo 'UPVN''OFMOAW'
UPVNOFMOAW
root@arm:~# MARKER='BKSE''FKMFEM' run 'i2cget -y -f 2 0x60 0x22'
BKSEFKMFEM0x78
BKSEFKMFEM 0
root@arm:~# echo 'ZPQW''KVJUBH'
ZPQWKVJUBH
root@arm:~# MARKER='BEUJ''JABFFL' run 'echo 1030000 1030000 > /sys/kernel/mva_tesst/regulators/buck2_set'
BEUJJABFFLBEUJJABFFL 0
root@arm:~# echo 'GEZW''ULMBPX'
GEZWULMBPX
root@arm:~# MARKER='GFME''YGBPWS' run 'i2cget -f -y 2 0x60 0x29'
GFMEYGBPWS0x78
GFMEYGBPWS 0
root@arm:~# echo 'PHHQ''KCBXOT'
PHHQKCBXOT
root@arm:~# MARKER='TPKQ''XHOTFB' run 'i2cget -y -f 2 0x60 0x22'
TPKQXHOTFB0x78
TPKQXHOTFB 0
root@arm:~# echo 'MZUC''XTZYTJ'
MZUCXTZYTJ
root@arm:~# MARKER='QZAJ''EXQFWX' run 'i2cget -y -f 2 0x60 0x22'
QZAJEXQFWX0x78
QZAJEXQFWX 0
root@arm:~# echo 'QQOH''UFNCMW'
QQOHUFNCMW
root@arm:~# MARKER='GQFY''HOGCBK' run 'echo 1040000 1040000 > /sys/kernel/mva_tesst/regulators/buck2_set'
GQFYHOGCBKGQFYHOGCBK 0
root@arm:~# echo 'YPCV''CJXGSC'
YPCVCJXGSC
root@arm:~# MARKER='EMJZ''MWAOLO' run 'i2cget -f -y 2 0x60 0x29'
EMJZMWAOLO0x79
EMJZMWAOLO 0
root@arm:~# echo 'QFHQ''QUQBTL'
QFHQQUQBTL
root@arm:~# MARKER='LXXQ''LBVVOV' run 'i2cget -y -f 2 0x60 0x22'
LXXQLBVVOV0x78
LXXQLBVVOV 0
root@arm:~# echo 'XJLA''LMQFEA'
XJLALMQFEA
root@arm:~# MARKER='MMGY''OFNHJT' run 'i2cget -y -f 2 0x60 0x22'
MMGYOFNHJT0x78
MMGYOFNHJT 0
root@arm:~# echo 'LOEU''TGBOTY'
LOEUTGBOTY
root@arm:~# MARKER='XQLY''LEMBGV' run 'echo 1050000 1050000 > /sys/kernel/mva_tesst/regulators/buck2_set'
XQLYLEMBGVXQLYLEMBGV 0
root@arm:~# echo 'ESOT''YNMKVV'
ESOTYNMKVV
root@arm:~# MARKER='JMWS''QAQYOE' run 'i2cget -f -y 2 0x60 0x29'
JMWSQAQYOE0x7a
JMWSQAQYOE 0
root@arm:~# echo 'WQWT''CYUWXE'
WQWTCYUWXE
root@arm:~# MARKER='OXUS''ABAHJX' run 'i2cget -y -f 2 0x60 0x22'
OXUSABAHJX0x78
OXUSABAHJX 0
root@arm:~# echo 'SOGO''BWZBSX'
SOGOBWZBSX
root@arm:~# MARKER='FSFS''PZFJZF' run 'i2cget -y -f 2 0x60 0x22'
FSFSPZFJZF0x78
FSFSPZFJZF 0
root@arm:~# echo 'CVCH''SCEUZA'
CVCHSCEUZA
root@arm:~# MARKER='GLTE''MGPXOO' run 'echo 1060000 1060000 > /sys/kernel/mva_tesst/regulators/buck2_set'
GLTEMGPXOOGLTEMGPXOO 0
root@arm:~# echo 'MZQY''WEFBXZ'
MZQYWEFBXZ
root@arm:~# MARKER='NMPQ''NETLYV' run 'i2cget -f -y 2 0x60 0x29'
NMPQNETLYV0x7b
NMPQNETLYV 0
root@arm:~# echo 'BEVP''NZCJUL'
BEVPNZCJUL
root@arm:~# MARKER='AWTT''FJLHFJ' run 'i2cget -y -f 2 0x60 0x22'
AWTTFJLHFJ0x78
AWTTFJLHFJ 0
root@arm:~# echo 'LMPG''FGWFFP'
LMPGFGWFFP
root@arm:~# MARKER='JGZB''AXMNBK' run 'i2cget -y -f 2 0x60 0x22'
JGZBAXMNBK0x78
JGZBAXMNBK 0
root@arm:~# echo 'AAHU''TWZLZK'
AAHUTWZLZK
root@arm:~# MARKER='TBOM''SPFVEG' run 'echo 1070000 1070000 > /sys/kernel/mva_tesst/regulators/buck2_set'
TBOMSPFVEGTBOMSPFVEG 0
root@arm:~# echo 'GLHB''FJCAEL'
GLHBFJCAEL
root@arm:~# MARKER='XOPZ''UBJTON' run 'i2cget -f -y 2 0x60 0x29'
XOPZUBJTON0x7c
XOPZUBJTON 0
root@arm:~# echo 'EVFX''OVJSXN'
EVFXOVJSXN
root@arm:~# MARKER='GVXJ''PSBQYU' run 'i2cget -y -f 2 0x60 0x22'
GVXJPSBQYU0x78
GVXJPSBQYU 0
root@arm:~# echo 'XCZB''SWVETT'
XCZBSWVETT
root@arm:~# MARKER='GSXE''ZPOEJB' run 'i2cget -y -f 2 0x60 0x22'
GSXEZPOEJB0x78
GSXEZPOEJB 0
root@arm:~# echo 'HMUJ''AOGQQW'
HMUJAOGQQW
root@arm:~# MARKER='BVUV''VSJAQX' run 'echo 1080000 1080000 > /sys/kernel/mva_tesst/regulators/buck2_set'
BVUVVSJAQXBVUVVSJAQX 0
root@arm:~# echo 'AZSK''KHPSAQ'
AZSKKHPSAQ
root@arm:~# MARKER='NBMB''OMYWXM' run 'i2cget -f -y 2 0x60 0x29'
NBMBOMYWXM0x7d
NBMBOMYWXM 0
root@arm:~# echo 'VVMS''EPTATB'
VVMSEPTATB
root@arm:~# MARKER='MEOF''PWJZFO' run 'i2cget -y -f 2 0x60 0x22'
MEOFPWJZFO0x78
MEOFPWJZFO 0
root@arm:~# echo 'CETS''MUZENV'
CETSMUZENV
root@arm:~# MARKER='UUKG''OUACNL' run 'i2cget -y -f 2 0x60 0x22'
UUKGOUACNL0x78
UUKGOUACNL 0
root@arm:~# echo 'GPET''XFOUUE'
GPETXFOUUE
root@arm:~# MARKER='HWVA''WEHGKQ' run 'echo 1090000 1090000 > /sys/kernel/mva_tesst/regulators/buck2_set'
HWVAWEHGKQHWVAWEHGKQ 0
root@arm:~# echo 'QPSL''ZCEMKM'
QPSLZCEMKM
root@arm:~# MARKER='TPBT''JMGXWM' run 'i2cget -f -y 2 0x60 0x29'
TPBTJMGXWM0x7e
TPBTJMGXWM 0
root@arm:~# echo 'OGYP''AETYCX'
OGYPAETYCX
root@arm:~# MARKER='ONGF''YXKVBU' run 'i2cget -y -f 2 0x60 0x22'
ONGFYXKVBU0x78
ONGFYXKVBU 0
root@arm:~# echo 'SHLJ''JGZPOK'
SHLJJGZPOK
root@arm:~# MARKER='CQVC''BPFVWP' run 'i2cget -y -f 2 0x60 0x22'
CQVCBPFVWP0x78
CQVCBPFVWP 0
root@arm:~# echo 'VSMY''XOVWNB'
VSMYXOVWNB
root@arm:~# MARKER='WLMQ''XCUHJC' run 'echo 1100000 1100000 > /sys/kernel/mva_tesst/regulators/buck2_set'
WLMQXCUHJCWLMQXCUHJC 0
root@arm:~# echo 'GTJQ''TVVUVQ'
GTJQTVVUVQ
root@arm:~# MARKER='FNAK''MTYCQT' run 'i2cget -f -y 2 0x60 0x29'
FNAKMTYCQT0x40
FNAKMTYCQT 0
root@arm:~# echo 'XZXA''OXCAEV'
XZXAOXCAEV
root@arm:~# MARKER='VWQP''WOVPPL' run 'i2cget -y -f 2 0x60 0x22'
VWQPWOVPPL0x78
VWQPWOVPPL 0
root@arm:~# echo 'JUTT''OXSSVN'
JUTTOXSSVN
root@arm:~# MARKER='FHWV''TCYABP' run 'i2cget -y -f 2 0x60 0x23'
FHWVTCYABP0x46
FHWVTCYABP 0
root@arm:~# echo 'BWQP''SQLEUO'
BWQPSQLEUO
root@arm:~# MARKER='CJLE''LWELZV' run 'echo 850000 850000 > /sys/kernel/mva_test//regulators/buck3_set'
CJLELWELZVCJLELWELZV 0
root@arm:~# echo 'CFYK''UHGLFK'
CFYKUHGLFK
root@arm:~# MARKER='WANH''GWNPJT' run 'i2cget -f -y 2 0x60 0x2a'
WANHGWNPJT0x80
WANHGWNPJT 0
root@arm:~# echo 'TAKY''JCTYAJ'
TAKYJCTYAJ
root@arm:~# MARKER='VFGL''UJXOHV' run 'i2cget -y -f 2 0x60 0x23'
VFGLUJXOHV0x46
VFGLUJXOHV 0
root@arm:~# echo 'BWNF''MEVHNW'
BWNFMEVHNW
root@arm:~# MARKER='BFQB''PFZNZQ' run 'i2cget -y -f 2 0x60 0x23'
BFQBPFZNZQ0x46
BFQBPFZNZQ 0
root@arm:~# echo 'XJQF''KGUBGZ'
XJQFKGUBGZ
root@arm:~# MARKER='UKLL''LTBPQE' run 'echo 860000 860000 > /sys/kernel/mva_test//regulators/buck3_set'
UKLLLTBPQEUKLLLTBPQE 0
root@arm:~# echo 'AYWE''WTTMNS'
AYWEWTTMNS
root@arm:~# MARKER='OPCM''MVVGWP' run 'i2cget -f -y 2 0x60 0x2a'
OPCMMVVGWP0x81
OPCMMVVGWP 0
root@arm:~# echo 'OPMV''LCVOKU'
OPMVLCVOKU
root@arm:~# MARKER='MELU''BPOFAE' run 'i2cget -y -f 2 0x60 0x23'
MELUBPOFAE0x46
MELUBPOFAE 0
root@arm:~# echo 'BOQG''TCJCKB'
BOQGTCJCKB
root@arm:~# MARKER='QZZO''HJZYSL' run 'i2cget -y -f 2 0x60 0x23'
QZZOHJZYSL0x46
QZZOHJZYSL 0
root@arm:~# echo 'PBOG''OWGUVX'
PBOGOWGUVX
root@arm:~# MARKER='AFUO''LZUUVN' run 'echo 870000 870000 > /sys/kernel/mva_test//regulators/buck3_set'
AFUOLZUUVNAFUOLZUUVN 0
root@arm:~# echo 'SGEH''AYXCVN'
SGEHAYXCVN
root@arm:~# MARKER='YOAU''BUHLXL' run 'i2cget -f -y 2 0x60 0x2a'
YOAUBUHLXL0x82
YOAUBUHLXL 0
root@arm:~# echo 'HEJB''ZWNPQP'
HEJBZWNPQP
root@arm:~# MARKER='QKBG''YCOGNE' run 'i2cget -y -f 2 0x60 0x23'
QKBGYCOGNE0x46
QKBGYCOGNE 0
root@arm:~# echo 'NXUF''YMXWBU'
NXUFYMXWBU
root@arm:~# MARKER='FGKK''YLKZXJ' run 'i2cget -y -f 2 0x60 0x23'
FGKKYLKZXJ0x46
FGKKYLKZXJ 0
root@arm:~# echo 'GKEZ''QYPKQY'
GKEZQYPKQY
root@arm:~# MARKER='NSVX''PPANFQ' run 'echo 880000 880000 > /sys/kernel/mva_test//regulators/buck3_set'
NSVXPPANFQNSVXPPANFQ 0
root@arm:~# echo 'ZXQP''XAUTSS'
ZXQPXAUTSS
root@arm:~# MARKER='EMEW''PGPVEJ' run 'i2cget -f -y 2 0x60 0x2a'
EMEWPGPVEJ0x83
EMEWPGPVEJ 0
root@arm:~# echo 'NHZK''GZLKGE'
NHZKGZLKGE
root@arm:~# MARKER='KXPW''MMCBVC' run 'i2cget -y -f 2 0x60 0x23'
KXPWMMCBVC0x46
KXPWMMCBVC 0
root@arm:~# echo 'SBOA''LHUYCA'
SBOALHUYCA
root@arm:~# MARKER='HAJP''USVNWA' run 'i2cget -y -f 2 0x60 0x23'
HAJPUSVNWA0x46
HAJPUSVNWA 0
root@arm:~# echo 'ASGY''UBCBFC'
ASGYUBCBFC
root@arm:~# MARKER='YJWL''LFAZPQ' run 'echo 890000 890000 > /sys/kernel/mva_test//regulators/buck3_set'
YJWLLFAZPQYJWLLFAZPQ 0
root@arm:~# echo 'VKAY''MNJJYT'
VKAYMNJJYT
root@arm:~# MARKER='VZHQ''YVOKPE' run 'i2cget -f -y 2 0x60 0x2a'
VZHQYVOKPE0x84
VZHQYVOKPE 0
root@arm:~# echo 'OWPN''XAVHWJ'
OWPNXAVHWJ
root@arm:~# MARKER='WNPY''SALBTB' run 'i2cget -y -f 2 0x60 0x23'
WNPYSALBTB0x46
WNPYSALBTB 0
root@arm:~# echo 'LTHN''PBMSHF'
LTHNPBMSHF
root@arm:~# MARKER='HMEX''QHNVZL' run 'i2cget -y -f 2 0x60 0x23'
HMEXQHNVZL0x46
HMEXQHNVZL 0
root@arm:~# echo 'LYGA''SKHBVS'
LYGASKHBVS
root@arm:~# MARKER='JGSK''OBWFBW' run 'echo 900000 900000 > /sys/kernel/mva_test//regulators/buck3_set'
JGSKOBWFBWJGSKOBWFBW 0
root@arm:~# echo 'VXAL''QXVBQL'
VXALQXVBQL
root@arm:~# MARKER='VAVC''NLHXOY' run 'i2cget -f -y 2 0x60 0x2a'
VAVCNLHXOY0x85
VAVCNLHXOY 0
root@arm:~# echo 'ZMLF''NULYYF'
ZMLFNULYYF
root@arm:~# MARKER='LNXS''YFKXLL' run 'i2cget -y -f 2 0x60 0x23'
LNXSYFKXLL0x46
LNXSYFKXLL 0
root@arm:~# echo 'VJUJ''QVZHGT'
VJUJQVZHGT
root@arm:~# MARKER='KETQ''EVKCOK' run 'i2cget -y -f 2 0x60 0x23'
KETQEVKCOK0x46
KETQEVKCOK 0
root@arm:~# echo 'MOMM''FWNFMH'
MOMMFWNFMH
root@arm:~# MARKER='CPJC''MPPKLW' run 'echo 910000 910000 > /sys/kernel/mva_test//regulators/buck3_set'
CPJCMPPKLWCPJCMPPKLW 0
root@arm:~# echo 'AENH''XPBATV'
AENHXPBATV
root@arm:~# MARKER='UMNJ''UJFSMU' run 'i2cget -f -y 2 0x60 0x2a'
UMNJUJFSMU0x86
UMNJUJFSMU 0
root@arm:~# echo 'OZCW''ATXMHP'
OZCWATXMHP
root@arm:~# MARKER='LEKU''NTELHJ' run 'i2cget -y -f 2 0x60 0x23'
LEKUNTELHJ0x46
LEKUNTELHJ 0
root@arm:~# echo 'ULZG''QBXFWK'
ULZGQBXFWK
root@arm:~# MARKER='XFQW''EABUSA' run 'i2cget -y -f 2 0x60 0x23'
XFQWEABUSA0x46
XFQWEABUSA 0
root@arm:~# echo 'UONW''VGZTOW'
UONWVGZTOW
root@arm:~# MARKER='KWVJ''BJTOOE' run 'echo 920000 920000 > /sys/kernel/mva_test//regulators/buck3_set'
KWVJBJTOOEKWVJBJTOOE 0
root@arm:~# echo 'VWAM''GHWTZA'
VWAMGHWTZA
root@arm:~# MARKER='FNZH''KYVVNN' run 'i2cget -f -y 2 0x60 0x2a'
FNZHKYVVNN0x87
FNZHKYVVNN 0
root@arm:~# echo 'KJAE''BUUAAJ'
KJAEBUUAAJ
root@arm:~# MARKER='EHEY''XELAUA' run 'i2cget -y -f 2 0x60 0x23'
EHEYXELAUA0x46
EHEYXELAUA 0
root@arm:~# echo 'YNWU''CWGCYN'
YNWUCWGCYN
root@arm:~# MARKER='TKZC''ZOTWCJ' run 'i2cget -y -f 2 0x60 0x23'
TKZCZOTWCJ0x46
TKZCZOTWCJ 0
root@arm:~# echo 'LJUN''WXNJMK'
LJUNWXNJMK
root@arm:~# MARKER='MVYU''BKFGKC' run 'echo 930000 930000 > /sys/kernel/mva_test//regulators/buck3_set'
MVYUBKFGKCMVYUBKFGKC 0
root@arm:~# echo 'SYZL''KSBLEL'
SYZLKSBLEL
root@arm:~# MARKER='GYUU''BXNLSZ' run 'i2cget -f -y 2 0x60 0x2a'
GYUUBXNLSZ0x88
GYUUBXNLSZ 0
root@arm:~# echo 'LPWT''EWGQXH'
LPWTEWGQXH
root@arm:~# MARKER='JYPA''BTHLUG' run 'i2cget -y -f 2 0x60 0x23'
JYPABTHLUG0x46
JYPABTHLUG 0
root@arm:~# echo 'CTNV''ZMBLWE'
CTNVZMBLWE
root@arm:~# MARKER='LQPB''AXMUNP' run 'i2cget -y -f 2 0x60 0x23'
LQPBAXMUNP0x46
LQPBAXMUNP 0
root@arm:~# echo 'JNHF''VSXOKY'
JNHFVSXOKY
root@arm:~# MARKER='YCPV''LSYTFU' run 'echo 940000 940000 > /sys/kernel/mva_test//regulators/buck3_set'
YCPVLSYTFUYCPVLSYTFU 0
root@arm:~# echo 'FJPK''ZSKASW'
FJPKZSKASW
root@arm:~# MARKER='XYNS''CGLJJY' run 'i2cget -f -y 2 0x60 0x2a'
XYNSCGLJJY0x89
XYNSCGLJJY 0
root@arm:~# echo 'XMJU''NPELLP'
XMJUNPELLP
root@arm:~# MARKER='LFJS''XZBWVZ' run 'i2cget -y -f 2 0x60 0x23'
LFJSXZBWVZ0x46
LFJSXZBWVZ 0
root@arm:~# echo 'QXFY''EFOQZN'
QXFYEFOQZN
root@arm:~# MARKER='VUNN''SMXHCT' run 'i2cget -y -f 2 0x60 0x23'
VUNNSMXHCT0x46
VUNNSMXHCT 0
root@arm:~# echo 'JPNJ''JVZLLZ'
JPNJJVZLLZ
root@arm:~# MARKER='FNQJ''WHMAFF' run 'echo 950000 950000 > /sys/kernel/mva_test//regulators/buck3_set'
FNQJWHMAFFFNQJWHMAFF 0
root@arm:~# echo 'XNJA''TSEJPU'
XNJATSEJPU
root@arm:~# MARKER='VWMA''WSJCZN' run 'i2cget -f -y 2 0x60 0x2a'
VWMAWSJCZN0x8a
VWMAWSJCZN 0
root@arm:~# echo 'QNPT''PLYUHV'
QNPTPLYUHV
root@arm:~# MARKER='KNFV''LPUNUC' run 'i2cget -y -f 2 0x60 0x23'
KNFVLPUNUC0x46
KNFVLPUNUC 0
root@arm:~# echo 'FLQH''OYTVBW'
FLQHOYTVBW
root@arm:~# MARKER='KAEF''PNJEUK' run 'i2cget -y -f 2 0x60 0x23'
KAEFPNJEUK0x46
KAEFPNJEUK 0
root@arm:~# echo 'EESC''NFQYEF'
EESCNFQYEF
root@arm:~# MARKER='ZBTA''OEQSSU' run 'echo 960000 960000 > /sys/kernel/mva_test//regulators/buck3_set'
ZBTAOEQSSUZBTAOEQSSU 0
root@arm:~# echo 'XNSU''XXXUAP'
XNSUXXXUAP
root@arm:~# MARKER='USBA''VPEYUC' run 'i2cget -f -y 2 0x60 0x2a'
USBAVPEYUC0x8b
USBAVPEYUC 0
root@arm:~# echo 'OPAJ''HWWPNT'
OPAJHWWPNT
root@arm:~# MARKER='UGWY''UKVYJF' run 'i2cget -y -f 2 0x60 0x23'
UGWYUKVYJF0x46
UGWYUKVYJF 0
root@arm:~# echo 'LELC''WYYSKC'
LELCWYYSKC
root@arm:~# MARKER='LQNL''UZSCQN' run 'i2cget -y -f 2 0x60 0x23'
LQNLUZSCQN0x46
LQNLUZSCQN 0
root@arm:~# echo 'SCCF''TWOYPM'
SCCFTWOYPM
root@arm:~# MARKER='NJPL''PTVWZK' run 'echo 970000 970000 > /sys/kernel/mva_test//regulators/buck3_set'
NJPLPTVWZKNJPLPTVWZK 0
root@arm:~# echo 'VUUQ''BLLQYK'
VUUQBLLQYK
root@arm:~# MARKER='VSPQ''YCCUKL' run 'i2cget -f -y 2 0x60 0x2a'
VSPQYCCUKL0x8c
VSPQYCCUKL 0
root@arm:~# echo 'PUOZ''XZSGTC'
PUOZXZSGTC
root@arm:~# MARKER='FYHX''UYBWCH' run 'i2cget -y -f 2 0x60 0x23'
FYHXUYBWCH0x46
FYHXUYBWCH 0
root@arm:~# echo 'FHMP''QLYWHN'
FHMPQLYWHN
root@arm:~# MARKER='YJQG''LAQTAV' run 'i2cget -y -f 2 0x60 0x23'
YJQGLAQTAV0x46
YJQGLAQTAV 0
root@arm:~# echo 'HYNK''STZAWM'
HYNKSTZAWM
root@arm:~# MARKER='BMNY''QCVJAK' run 'echo 980000 980000 > /sys/kernel/mva_test//regulators/buck3_set'
BMNYQCVJAKBMNYQCVJAK 0
root@arm:~# echo 'VXES''UCFQBH'
VXESUCFQBH
root@arm:~# MARKER='VMVO''JMKXNY' run 'i2cget -f -y 2 0x60 0x2a'
VMVOJMKXNY0x8d
VMVOJMKXNY 0
root@arm:~# echo 'QYJE''PQGZAS'
QYJEPQGZAS
root@arm:~# MARKER='USHH''FEYJVW' run 'i2cget -y -f 2 0x60 0x23'
USHHFEYJVW0x46
USHHFEYJVW 0
root@arm:~# echo 'FAWY''BGMOZK'
FAWYBGMOZK
root@arm:~# MARKER='VFXM''BHGHVA' run 'i2cget -y -f 2 0x60 0x23'
VFXMBHGHVA0x46
VFXMBHGHVA 0
root@arm:~# echo 'NGZM''ZOXAUK'
NGZMZOXAUK
root@arm:~# MARKER='YKXF''VTOWAP' run 'echo 990000 990000 > /sys/kernel/mva_test//regulators/buck3_set'
YKXFVTOWAPYKXFVTOWAP 0
root@arm:~# echo 'ZPQK''UJXSCW'
ZPQKUJXSCW
root@arm:~# MARKER='NYSB''VWGVSS' run 'i2cget -f -y 2 0x60 0x2a'
NYSBVWGVSS0x8e
NYSBVWGVSS 0
root@arm:~# echo 'AATZ''OGVELJ'
AATZOGVELJ
root@arm:~# MARKER='AVFC''JECEFP' run 'i2cget -y -f 2 0x60 0x23'
AVFCJECEFP0x46
AVFCJECEFP 0
root@arm:~# echo 'XGQA''AGQAZL'
XGQAAGQAZL
root@arm:~# MARKER='OZLM''LJCOJX' run 'i2cget -y -f 2 0x60 0x23'
OZLMLJCOJX0x46
OZLMLJCOJX 0
root@arm:~# echo 'GPAJ''TAGQOL'
GPAJTAGQOL
root@arm:~# MARKER='CKYZ''QOYNBL' run 'echo 1000000 1000000 > /sys/kernel/mva_tesst/regulators/buck3_set'
CKYZQOYNBLCKYZQOYNBL 0
root@arm:~# echo 'GYWE''HZZUBG'
GYWEHZZUBG
root@arm:~# MARKER='NSVQ''EYTGZS' run 'i2cget -f -y 2 0x60 0x2a'
NSVQEYTGZS0x8f
NSVQEYTGZS 0
root@arm:~# echo 'QHSN''JCTFOM'
QHSNJCTFOM
root@arm:~# MARKER='JSSK''FTUAXV' run 'i2cget -y -f 2 0x60 0x23'
JSSKFTUAXV0x46
JSSKFTUAXV 0
root@arm:~# echo 'KNVM''HXKOQZ'
KNVMHXKOQZ
root@arm:~# MARKER='QZPV''FVZWPC' run 'i2cget -y -f 2 0x60 0x23'
QZPVFVZWPC0x46
QZPVFVZWPC 0
root@arm:~# echo 'SSPN''YJSXEE'
SSPNYJSXEE
root@arm:~# MARKER='AOHX''KKSUEJ' run 'echo 1010000 1010000 > /sys/kernel/mva_tesst/regulators/buck3_set'
AOHXKKSUEJAOHXKKSUEJ 0
root@arm:~# echo 'BUNB''MGCBNB'
BUNBMGCBNB
root@arm:~# MARKER='QLPM''VOHFHZ' run 'i2cget -f -y 2 0x60 0x2a'
QLPMVOHFHZ0x90
QLPMVOHFHZ 0
root@arm:~# echo 'BOOP''ZOCAFY'
BOOPZOCAFY
root@arm:~# MARKER='APEW''FLGJZN' run 'i2cget -y -f 2 0x60 0x23'
APEWFLGJZN0x46
APEWFLGJZN 0
root@arm:~# echo 'LLHC''SBGPGY'
LLHCSBGPGY
root@arm:~# MARKER='YLPX''PZMAFO' run 'i2cget -y -f 2 0x60 0x23'
YLPXPZMAFO0x46
YLPXPZMAFO 0
root@arm:~# echo 'YBTL''GJZMVX'
YBTLGJZMVX
root@arm:~# MARKER='OKBH''AGHGUZ' run 'echo 1020000 1020000 > /sys/kernel/mva_tesst/regulators/buck3_set'
OKBHAGHGUZOKBHAGHGUZ 0
root@arm:~# echo 'HMUM''LZQSFE'
HMUMLZQSFE
root@arm:~# MARKER='SGGM''QUYNSO' run 'i2cget -f -y 2 0x60 0x2a'
SGGMQUYNSO0x91
SGGMQUYNSO 0
root@arm:~# echo 'WXFW''UFFAQV'
WXFWUFFAQV
root@arm:~# MARKER='QYHW''KUFAZL' run 'i2cget -y -f 2 0x60 0x23'
QYHWKUFAZL0x46
QYHWKUFAZL 0
root@arm:~# echo 'CAQA''JHSSHG'
CAQAJHSSHG
root@arm:~# MARKER='GUEA''EAQWLZ' run 'i2cget -y -f 2 0x60 0x23'
GUEAEAQWLZ0x46
GUEAEAQWLZ 0
root@arm:~# echo 'SCOC''OKJEUN'
SCOCOKJEUN
root@arm:~# MARKER='WUAH''FCKPME' run 'echo 1030000 1030000 > /sys/kernel/mva_tesst/regulators/buck3_set'
WUAHFCKPMEWUAHFCKPME 0
root@arm:~# echo 'KCAU''QMCJOL'
KCAUQMCJOL
root@arm:~# MARKER='WLMB''PWYXPU' run 'i2cget -f -y 2 0x60 0x2a'
WLMBPWYXPU0x92
WLMBPWYXPU 0
root@arm:~# echo 'CTJE''KNHFJP'
CTJEKNHFJP
root@arm:~# MARKER='YTLU''WXOLPY' run 'i2cget -y -f 2 0x60 0x23'
YTLUWXOLPY0x46
YTLUWXOLPY 0
root@arm:~# echo 'PHEW''PNZEOQ'
PHEWPNZEOQ
root@arm:~# MARKER='FVFE''PVFYJP' run 'i2cget -y -f 2 0x60 0x23'
FVFEPVFYJP0x46
FVFEPVFYJP 0
root@arm:~# echo 'SQOC''PVGTOW'
SQOCPVGTOW
root@arm:~# MARKER='XUXK''BCTMHY' run 'echo 1040000 1040000 > /sys/kernel/mva_tesst/regulators/buck3_set'
XUXKBCTMHYXUXKBCTMHY 0
root@arm:~# echo 'FQTU''OESCBG'
FQTUOESCBG
root@arm:~# MARKER='FGUH''XJYCBO' run 'i2cget -f -y 2 0x60 0x2a'
FGUHXJYCBO0x93
FGUHXJYCBO 0
root@arm:~# echo 'KNKG''QOHMVC'
KNKGQOHMVC
root@arm:~# MARKER='LHUL''JHXKBJ' run 'i2cget -y -f 2 0x60 0x23'
LHULJHXKBJ0x46
LHULJHXKBJ 0
root@arm:~# echo 'LGQJ''XSKMGC'
LGQJXSKMGC
root@arm:~# MARKER='JPWZ''UTEMFJ' run 'i2cget -y -f 2 0x60 0x23'
JPWZUTEMFJ0x46
JPWZUTEMFJ 0
root@arm:~# echo 'YEOL''QKNXBV'
YEOLQKNXBV
root@arm:~# MARKER='SHGW''LBBXHY' run 'echo 1050000 1050000 > /sys/kernel/mva_tesst/regulators/buck3_set'
SHGWLBBXHYSHGWLBBXHY 0
root@arm:~# echo 'AGVT''YHHJVB'
AGVTYHHJVB
root@arm:~# MARKER='GSJQ''HVZLFE' run 'i2cget -f -y 2 0x60 0x2a'
GSJQHVZLFE0x94
GSJQHVZLFE 0
root@arm:~# echo 'OJCH''ZLKUAB'
OJCHZLKUAB
root@arm:~# MARKER='KOUX''JTQTEL' run 'i2cget -y -f 2 0x60 0x23'
KOUXJTQTEL0x46
KOUXJTQTEL 0
root@arm:~# echo 'QMJF''NOPUNK'
QMJFNOPUNK
root@arm:~# MARKER='OCPO''VCVKOH' run 'i2cget -y -f 2 0x60 0x23'
OCPOVCVKOH0x46
OCPOVCVKOH 0
root@arm:~# echo 'FMOP''HEVSYC'
FMOPHEVSYC
root@arm:~# MARKER='YXWL''ANAXCA' run 'echo 1060000 1060000 > /sys/kernel/mva_tesst/regulators/buck3_set'
YXWLANAXCAYXWLANAXCA 0
root@arm:~# echo 'YSJY''BOYCAE'
YSJYBOYCAE
root@arm:~# MARKER='EVEG''FOAZWY' run 'i2cget -f -y 2 0x60 0x2a'
EVEGFOAZWY0x95
EVEGFOAZWY 0
root@arm:~# echo 'KQNC''FFAFQQ'
KQNCFFAFQQ
root@arm:~# MARKER='ZOTB''MLXYLQ' run 'i2cget -y -f 2 0x60 0x23'
ZOTBMLXYLQ0x46
ZOTBMLXYLQ 0
root@arm:~# echo 'OXXX''BPJOPG'
OXXXBPJOPG
root@arm:~# MARKER='KLSN''LGESCG' run 'i2cget -y -f 2 0x60 0x23'
KLSNLGESCG0x46
KLSNLGESCG 0
root@arm:~# echo 'SKUW''LKCSQO'
SKUWLKCSQO
root@arm:~# MARKER='EAFL''QNFLLH' run 'echo 1070000 1070000 > /sys/kernel/mva_tesst/regulators/buck3_set'
EAFLQNFLLHEAFLQNFLLH 0
root@arm:~# echo 'NUBM''WJTAKM'
NUBMWJTAKM
root@arm:~# MARKER='PWZY''QNVYGO' run 'i2cget -f -y 2 0x60 0x2a'
PWZYQNVYGO0x96
PWZYQNVYGO 0
root@arm:~# echo 'HPQB''KYJGOB'
HPQBKYJGOB
root@arm:~# MARKER='WOFP''KAYMPH' run 'i2cget -y -f 2 0x60 0x23'
WOFPKAYMPH0x46
WOFPKAYMPH 0
root@arm:~# echo 'TLBZ''OJQMQT'
TLBZOJQMQT
root@arm:~# MARKER='QBUE''OQTBFF' run 'i2cget -y -f 2 0x60 0x23'
QBUEOQTBFF0x46
QBUEOQTBFF 0
root@arm:~# echo 'ZKGU''YCBHPT'
ZKGUYCBHPT
root@arm:~# MARKER='CKNJ''SJNPKF' run 'echo 1080000 1080000 > /sys/kernel/mva_tesst/regulators/buck3_set'
CKNJSJNPKFCKNJSJNPKF 0
root@arm:~# echo 'BNLY''ATZHYV'
BNLYATZHYV
root@arm:~# MARKER='SLXW''QFPFJO' run 'i2cget -f -y 2 0x60 0x2a'
SLXWQFPFJO0x97
SLXWQFPFJO 0
root@arm:~# echo 'OQXS''LVBSAV'
OQXSLVBSAV
root@arm:~# MARKER='HQNQ''TOEOVX' run 'i2cget -y -f 2 0x60 0x23'
HQNQTOEOVX0x46
HQNQTOEOVX 0
root@arm:~# echo 'BWOV''PWEVXM'
BWOVPWEVXM
root@arm:~# MARKER='CULX''NXCWYC' run 'i2cget -y -f 2 0x60 0x23'
CULXNXCWYC0x46
CULXNXCWYC 0
root@arm:~# echo 'OHTZ''CFWHGZ'
OHTZCFWHGZ
root@arm:~# MARKER='XEAN''LLEPLL' run 'echo 1090000 1090000 > /sys/kernel/mva_tesst/regulators/buck3_set'
XEANLLEPLLXEANLLEPLL 0
root@arm:~# echo 'UNAO''EWQAQV'
UNAOEWQAQV
root@arm:~# MARKER='UHYS''ENBMMH' run 'i2cget -f -y 2 0x60 0x2a'
UHYSENBMMH0x98
UHYSENBMMH 0
root@arm:~# echo 'YYSA''BJVEGK'
YYSABJVEGK
root@arm:~# MARKER='SNAS''FHACTH' run 'i2cget -y -f 2 0x60 0x23'
SNASFHACTH0x46
SNASFHACTH 0
root@arm:~# echo 'AVVA''ZAQUTP'
AVVAZAQUTP
root@arm:~# MARKER='SNXB''YLJMJE' run 'i2cget -y -f 2 0x60 0x23'
SNXBYLJMJE0x46
SNXBYLJMJE 0
root@arm:~# echo 'KLBK''QPJANJ'
KLBKQPJANJ
root@arm:~# MARKER='GUHY''GASHAY' run 'echo 1100000 1100000 > /sys/kernel/mva_tesst/regulators/buck3_set'
GUHYGASHAYGUHYGASHAY 0
root@arm:~# echo 'GKHZ''XXYFLG'
GKHZXXYFLG
root@arm:~# MARKER='AGTP''ZZFWPH' run 'i2cget -f -y 2 0x60 0x2a'
AGTPZZFWPH0x99
AGTPZZFWPH 0
root@arm:~# echo 'LGCC''MUMUGM'
LGCCMUMUGM
root@arm:~# MARKER='XYLM''LMLMVE' run 'i2cget -y -f 2 0x60 0x23'
XYLMLMLMVE0x46
XYLMLMLMVE 0
root@arm:~# echo 'PHGY''ZGNTNC'
PHGYZGNTNC
