Labgrid Console Logfile for main
Logfile started at 2026-08-09 23:54:46.139564
=== Log starts here ===

root@arm:~# run() { echo -n "$MARKER"; sh -c "$@"; echo "$MARKER $?"; }
root@arm:~# echo 'AEQJ''QYQMUE'
AEQJQYQMUE
root@arm:~# MARKER='FTEF''BVFOYH' run 'grep -r -l rohm,bd71837 /proc/device-tree  | sed '"'"'s![^/]*$!!'"'"''
FTEFBVFOYH/proc/device-tree/ocp/interconnect@48000000/segment@100000/target-module@9c000/i2c@0/pmic@4b/
FTEFBVFOYH 0
root@arm:~# echo 'QEQO''NPQSVL'
QEQONPQSVL
root@arm:~# MARKER='YHNO''NVKEWY' run 'test -f /proc/device-tree/ocp/interconnectt\@48000000/segment\@100000/target-module\@9c000/i2c\@0/pmic\@4b/regulators/BUCK11/rohm,no-regulator-enable-control ;echo $?'
YHNONVKEWY1
YHNONVKEWY 0
root@arm:~# echo 'VGPG''CAHNLE'
VGPGCAHNLE
root@arm:~# MARKER='MYVJ''LFTMNF' run 'echo 1 > /sys/kernel/mva_test/regulators/bbuck1_en'
MYVJLFTMNFMYVJLFTMNF 0
root@arm:~# echo 'PFPX''ZPAAGO'
PFPXZPAAGO
root@arm:~# MARKER='GXAV''JNEAAZ' run 'i2cget -y -f 2 0x4b 0x5'
GXAVJNEAAZ0x03
GXAVJNEAAZ 0
root@arm:~# echo 'NQTY''LAGTMM'
NQTYLAGTMM
root@arm:~# MARKER='WMXF''AWSEVH' run 'grep -r -l rohm,bd71837 /proc/device-tree  | sed '"'"'s![^/]*$!!'"'"''
WMXFAWSEVH/proc/device-tree/ocp/interconnect@48000000/segment@100000/target-module@9c000/i2c@0/pmic@4b/
WMXFAWSEVH 0
root@arm:~# echo 'XVYX''WCVTWS'
XVYXWCVTWS
root@arm:~# MARKER='VBGX''QXGPYY' run 'test -f /proc/device-tree/ocp/interconnectt\@48000000/segment\@100000/target-module\@9c000/i2c\@0/pmic\@4b/regulators/BUCK11/rohm,no-regulator-enable-control ;echo $?'
VBGXQXGPYY1
VBGXQXGPYY 0
root@arm:~# echo 'ESJB''UJEXKA'
ESJBUJEXKA
root@arm:~# MARKER='WVOU''TCUNSY' run 'grep -r -l rohm,bd71837 /proc/device-tree  | sed '"'"'s![^/]*$!!'"'"''
WVOUTCUNSY/proc/device-tree/ocp/interconnect@48000000/segment@100000/target-module@9c000/i2c@0/pmic@4b/
WVOUTCUNSY 0
root@arm:~# echo 'XXEJ''SPYQQA'
XXEJSPYQQA
root@arm:~# MARKER='CJTW''BQYXEH' run 'test -f /proc/device-tree/ocp/interconnectt\@48000000/segment\@100000/target-module\@9c000/i2c\@0/pmic\@4b/regulators/BUCK11/regulator-always-on ;echo $?'
CJTWBQYXEH1
CJTWBQYXEH 0
root@arm:~# echo 'FKEM''MNJLZO'
FKEMMNJLZO
root@arm:~# MARKER='APBT''KESNMM' run 'echo 0 > /sys/kernel/mva_test/regulators/bbuck1_en'
APBTKESNMMAPBTKESNMM 0
root@arm:~# echo 'FUSZ''PJFLEB'
FUSZPJFLEB
root@arm:~# MARKER='ASWW''ATLSTK' run 'i2cget -y -f 2 0x4b 0x5'
ASWWATLSTK0x02
ASWWATLSTK 0
root@arm:~# echo 'MBCU''UBQOCE'
MBCUUBQOCE
root@arm:~# MARKER='LLCW''YZYGSZ' run 'grep -r -l rohm,bd71837 /proc/device-tree  | sed '"'"'s![^/]*$!!'"'"''
LLCWYZYGSZ/proc/device-tree/ocp/interconnect@48000000/segment@100000/target-module@9c000/i2c@0/pmic@4b/
LLCWYZYGSZ 0
root@arm:~# echo 'HJXS''ZLHHJH'
HJXSZLHHJH
root@arm:~# MARKER='JKSB''UBYXNF' run 'test -f /proc/device-tree/ocp/interconnectt\@48000000/segment\@100000/target-module\@9c000/i2c\@0/pmic\@4b/regulators/BUCK22/rohm,no-regulator-enable-control ;echo $?'
JKSBUBYXNF1
JKSBUBYXNF 0
root@arm:~# echo 'GMXB''OMSHQE'
GMXBOMSHQE
root@arm:~# MARKER='JOEY''TUPTEW' run 'echo 1 > /sys/kernel/mva_test/regulators/bbuck2_en'
JOEYTUPTEWJOEYTUPTEW 0
root@arm:~# echo 'MAFB''CQKBMP'
MAFBCQKBMP
root@arm:~# MARKER='ATLK''TZBNEZ' run 'i2cget -y -f 2 0x4b 0x6'
ATLKTZBNEZ0x43
ATLKTZBNEZ 0
root@arm:~# echo 'AJJS''SKTKHP'
AJJSSKTKHP
root@arm:~# MARKER='CVBP''MLWQVN' run 'grep -r -l rohm,bd71837 /proc/device-tree  | sed '"'"'s![^/]*$!!'"'"''
CVBPMLWQVN/proc/device-tree/ocp/interconnect@48000000/segment@100000/target-module@9c000/i2c@0/pmic@4b/
CVBPMLWQVN 0
root@arm:~# echo 'KYNH''QHFYJH'
KYNHQHFYJH
root@arm:~# MARKER='JOHO''LHCVHA' run 'test -f /proc/device-tree/ocp/interconnectt\@48000000/segment\@100000/target-module\@9c000/i2c\@0/pmic\@4b/regulators/BUCK22/rohm,no-regulator-enable-control ;echo $?'
JOHOLHCVHA1
JOHOLHCVHA 0
root@arm:~# echo 'ZYVF''HAEZBO'
ZYVFHAEZBO
root@arm:~# MARKER='PFFZ''FHYFUU' run 'grep -r -l rohm,bd71837 /proc/device-tree  | sed '"'"'s![^/]*$!!'"'"''
PFFZFHYFUU/proc/device-tree/ocp/interconnect@48000000/segment@100000/target-module@9c000/i2c@0/pmic@4b/
PFFZFHYFUU 0
root@arm:~# echo 'MBBP''BNNWWT'
MBBPBNNWWT
root@arm:~# MARKER='EMHB''ZMEMZQ' run 'test -f /proc/device-tree/ocp/interconnectt\@48000000/segment\@100000/target-module\@9c000/i2c\@0/pmic\@4b/regulators/BUCK 2/regulator-always-on ;echo $?'
EMHBZMEMZQ0
EMHBZMEMZQ 0
root@arm:~# echo 'QFUK''QCTOYM'
QFUKQCTOYM
root@arm:~# MARKER='WYTF''VFTAHS' run 'grep -r -l rohm,bd71837 /proc/device-tree  | sed '"'"'s![^/]*$!!'"'"''
WYTFVFTAHS/proc/device-tree/ocp/interconnect@48000000/segment@100000/target-module@9c000/i2c@0/pmic@4b/
WYTFVFTAHS 0
root@arm:~# echo 'ZZSG''FWUKAJ'
ZZSGFWUKAJ
root@arm:~# MARKER='LYWF''STJZXL' run 'test -f /proc/device-tree/ocp/interconnectt\@48000000/segment\@100000/target-module\@9c000/i2c\@0/pmic\@4b/regulators/BUCK33/rohm,no-regulator-enable-control ;echo $?'
LYWFSTJZXL0
LYWFSTJZXL 0
root@arm:~# echo 'JEBS''BCLTXL'
JEBSBCLTXL
root@arm:~# MARKER='SSQY''LBEHOA' run 'grep -r -l rohm,bd71837 /proc/device-tree  | sed '"'"'s![^/]*$!!'"'"''
SSQYLBEHOA/proc/device-tree/ocp/interconnect@48000000/segment@100000/target-module@9c000/i2c@0/pmic@4b/
SSQYLBEHOA 0
root@arm:~# echo 'ACXP''VAKBUZ'
ACXPVAKBUZ
root@arm:~# MARKER='YYLY''FJLFVK' run 'test -f /proc/device-tree/ocp/interconnectt\@48000000/segment\@100000/target-module\@9c000/i2c\@0/pmic\@4b/regulators/BUCK 3/rohm,no-regulator-enable-control ;echo $?'
YYLYFJLFVK0
YYLYFJLFVK 0
root@arm:~# echo 'LUPX''PKOFBV'
LUPXPKOFBV
root@arm:~# MARKER='VFPH''AVNLXA' run 'grep -r -l rohm,bd71837 /proc/device-tree  | sed '"'"'s![^/]*$!!'"'"''
VFPHAVNLXA/proc/device-tree/ocp/interconnect@48000000/segment@100000/target-module@9c000/i2c@0/pmic@4b/
VFPHAVNLXA 0
root@arm:~# echo 'TQQA''WYVPNW'
TQQAWYVPNW
root@arm:~# MARKER='FGTX''SCWKYF' run 'test -f /proc/device-tree/ocp/interconnectt\@48000000/segment\@100000/target-module\@9c000/i2c\@0/pmic\@4b/regulators/BUCK44/rohm,no-regulator-enable-control ;echo $?'
FGTXSCWKYF1
FGTXSCWKYF 0
root@arm:~# echo 'LWEU''LWZWQW'
LWEULWZWQW
root@arm:~# MARKER='WWSV''LXZXFN' run 'echo 1 > /sys/kernel/mva_test/regulators/bbuck4_en'
WWSVLXZXFNWWSVLXZXFN 0
root@arm:~# echo 'AXFS''ZFTTQO'
AXFSZFTTQO
root@arm:~# MARKER='EZFC''NGKUSS' run 'i2cget -y -f 2 0x4b 0x8'
EZFCNGKUSS0xc7
EZFCNGKUSS 0
root@arm:~# echo 'LKVY''VVNZUE'
LKVYVVNZUE
root@arm:~# MARKER='UCXY''OGGBQS' run 'grep -r -l rohm,bd71837 /proc/device-tree  | sed '"'"'s![^/]*$!!'"'"''
UCXYOGGBQS/proc/device-tree/ocp/interconnect@48000000/segment@100000/target-module@9c000/i2c@0/pmic@4b/
UCXYOGGBQS 0
root@arm:~# echo 'OJOA''LLYMHX'
OJOALLYMHX
root@arm:~# MARKER='VUHH''CHWGJM' run 'test -f /proc/device-tree/ocp/interconnectt\@48000000/segment\@100000/target-module\@9c000/i2c\@0/pmic\@4b/regulators/BUCK44/rohm,no-regulator-enable-control ;echo $?'
VUHHCHWGJM1
VUHHCHWGJM 0
root@arm:~# echo 'HOTN''ZCVXOQ'
HOTNZCVXOQ
root@arm:~# MARKER='KTNS''XPSCUU' run 'grep -r -l rohm,bd71837 /proc/device-tree  | sed '"'"'s![^/]*$!!'"'"''
KTNSXPSCUU/proc/device-tree/ocp/interconnect@48000000/segment@100000/target-module@9c000/i2c@0/pmic@4b/
KTNSXPSCUU 0
root@arm:~# echo 'XAWQ''SMPCUW'
XAWQSMPCUW
root@arm:~# MARKER='YXNM''WNMEBH' run 'test -f /proc/device-tree/ocp/interconnectt\@48000000/segment\@100000/target-module\@9c000/i2c\@0/pmic\@4b/regulators/BUCK44/regulator-always-on ;echo $?'
YXNMWNMEBH1
YXNMWNMEBH 0
root@arm:~# echo 'AAOF''QMQEEB'
AAOFQMQEEB
root@arm:~# MARKER='WNKA''NEQAGM' run 'echo 0 > /sys/kernel/mva_test/regulators/bbuck4_en'
WNKANEQAGMWNKANEQAGM 0
root@arm:~# echo 'FTHF''UHULLK'
FTHFUHULLK
root@arm:~# MARKER='KMVX''YHQAAG' run 'i2cget -y -f 2 0x4b 0x8'
KMVXYHQAAG0xc6
KMVXYHQAAG 0
root@arm:~# echo 'JTMM''WEVVTT'
JTMMWEVVTT
root@arm:~# MARKER='BLBZ''EWBHUZ' run 'grep -r -l rohm,bd71837 /proc/device-tree  | sed '"'"'s![^/]*$!!'"'"''
BLBZEWBHUZ/proc/device-tree/ocp/interconnect@48000000/segment@100000/target-module@9c000/i2c@0/pmic@4b/
BLBZEWBHUZ 0
root@arm:~# echo 'MOKW''ZQTXHO'
MOKWZQTXHO
root@arm:~# MARKER='JPUP''TULQMX' run 'test -f /proc/device-tree/ocp/interconnectt\@48000000/segment\@100000/target-module\@9c000/i2c\@0/pmic\@4b/regulators/BUCK55/rohm,no-regulator-enable-control ;echo $?'
JPUPTULQMX1
JPUPTULQMX 0
root@arm:~# echo 'NLGE''YGHOPP'
NLGEYGHOPP
root@arm:~# MARKER='KTMV''GYOVCX' run 'echo 1 > /sys/kernel/mva_test/regulators/bbuck5_en'
KTMVGYOVCXKTMVGYOVCX 0
root@arm:~# echo 'UZMZ''OYHXFC'
UZMZOYHXFC
root@arm:~# MARKER='QHFZ''QWPWEM' run 'i2cget -y -f 2 0x4b 0x9'
QHFZQWPWEM0x03
QHFZQWPWEM 0
root@arm:~# echo 'TVAT''KPSXOL'
TVATKPSXOL
root@arm:~# MARKER='SZEP''XKPTXT' run 'grep -r -l rohm,bd71837 /proc/device-tree  | sed '"'"'s![^/]*$!!'"'"''
SZEPXKPTXT/proc/device-tree/ocp/interconnect@48000000/segment@100000/target-module@9c000/i2c@0/pmic@4b/
SZEPXKPTXT 0
root@arm:~# echo 'JBHO''PAFWPK'
JBHOPAFWPK
root@arm:~# MARKER='LOYM''KCMSNB' run 'test -f /proc/device-tree/ocp/interconnectt\@48000000/segment\@100000/target-module\@9c000/i2c\@0/pmic\@4b/regulators/BUCK55/rohm,no-regulator-enable-control ;echo $?'
LOYMKCMSNB1
LOYMKCMSNB 0
root@arm:~# echo 'VVCU''SJCNMC'
VVCUSJCNMC
root@arm:~# MARKER='XWAV''HYJTTA' run 'grep -r -l rohm,bd71837 /proc/device-tree  | sed '"'"'s![^/]*$!!'"'"''
XWAVHYJTTA/proc/device-tree/ocp/interconnect@48000000/segment@100000/target-module@9c000/i2c@0/pmic@4b/
XWAVHYJTTA 0
root@arm:~# echo 'XKXF''KLGLYE'
XKXFKLGLYE
root@arm:~# MARKER='MMBU''ZSUVBQ' run 'test -f /proc/device-tree/ocp/interconnectt\@48000000/segment\@100000/target-module\@9c000/i2c\@0/pmic\@4b/regulators/BUCK 5/regulator-always-on ;echo $?'
MMBUZSUVBQ1
MMBUZSUVBQ 0
root@arm:~# echo 'MUXU''YZEQOM'
MUXUYZEQOM
root@arm:~# MARKER='UTNB''MCOPJA' run 'echo 0 > /sys/kernel/mva_test/regulators/bbuck5_en'
UTNBMCOPJAUTNBMCOPJA 0
root@arm:~# echo 'SYGX''PAWZMF'
SYGXPAWZMF
root@arm:~# MARKER='FATU''CLLZXY' run 'i2cget -y -f 2 0x4b 0x9'
FATUCLLZXY0x02
FATUCLLZXY 0
root@arm:~# echo 'TBTN''SYQCQT'
TBTNSYQCQT
root@arm:~# MARKER='XUGQ''LWHHXE' run 'grep -r -l rohm,bd71837 /proc/device-tree  | sed '"'"'s![^/]*$!!'"'"''
XUGQLWHHXE/proc/device-tree/ocp/interconnect@48000000/segment@100000/target-module@9c000/i2c@0/pmic@4b/
XUGQLWHHXE 0
root@arm:~# echo 'XFGT''ZEPJUW'
XFGTZEPJUW
root@arm:~# MARKER='JUFP''QPWYHB' run 'test -f /proc/device-tree/ocp/interconnectt\@48000000/segment\@100000/target-module\@9c000/i2c\@0/pmic\@4b/regulators/BUCK66/rohm,no-regulator-enable-control ;echo $?'
JUFPQPWYHB1
JUFPQPWYHB 0
root@arm:~# echo 'BOYO''NXJJMP'
BOYONXJJMP
root@arm:~# MARKER='UBAY''UFYXGU' run 'echo 1 > /sys/kernel/mva_test/regulators/bbuck6_en'
UBAYUFYXGUUBAYUFYXGU 0
root@arm:~# echo 'KTVN''KJFKXE'
KTVNKJFKXE
root@arm:~# MARKER='VGAZ''EPKSKV' run 'i2cget -y -f 2 0x4b 0xa'
VGAZEPKSKV0x03
VGAZEPKSKV 0
root@arm:~# echo 'XOOT''OJJAAC'
XOOTOJJAAC
root@arm:~# MARKER='JZMO''HOWSHA' run 'grep -r -l rohm,bd71837 /proc/device-tree  | sed '"'"'s![^/]*$!!'"'"''
JZMOHOWSHA/proc/device-tree/ocp/interconnect@48000000/segment@100000/target-module@9c000/i2c@0/pmic@4b/
JZMOHOWSHA 0
root@arm:~# echo 'YPZH''YNWBWJ'
YPZHYNWBWJ
root@arm:~# MARKER='YGUA''WVOXJT' run 'test -f /proc/device-tree/ocp/interconnectt\@48000000/segment\@100000/target-module\@9c000/i2c\@0/pmic\@4b/regulators/BUCK66/rohm,no-regulator-enable-control ;echo $?'
YGUAWVOXJT1
YGUAWVOXJT 0
root@arm:~# echo 'HBAP''OTAZKG'
HBAPOTAZKG
root@arm:~# MARKER='QZPB''SOZOBS' run 'grep -r -l rohm,bd71837 /proc/device-tree  | sed '"'"'s![^/]*$!!'"'"''
QZPBSOZOBS/proc/device-tree/ocp/interconnect@48000000/segment@100000/target-module@9c000/i2c@0/pmic@4b/
QZPBSOZOBS 0
root@arm:~# echo 'ZXKZ''SEQAWH'
ZXKZSEQAWH
root@arm:~# MARKER='EQCM''CBNUFF' run 'test -f /proc/device-tree/ocp/interconnectt\@48000000/segment\@100000/target-module\@9c000/i2c\@0/pmic\@4b/regulators/BUCK66/regulator-always-on ;echo $?'
EQCMCBNUFF1
EQCMCBNUFF 0
root@arm:~# echo 'POTK''USJLSE'
POTKUSJLSE
root@arm:~# MARKER='NXYL''ANLGZJ' run 'echo 0 > /sys/kernel/mva_test/regulators/bbuck6_en'
NXYLANLGZJNXYLANLGZJ 0
root@arm:~# echo 'ZOPK''JNKZGO'
ZOPKJNKZGO
root@arm:~# MARKER='NWAV''QEKYXL' run 'i2cget -y -f 2 0x4b 0xa'
NWAVQEKYXL0x02
NWAVQEKYXL 0
root@arm:~# echo 'SEVV''FVQNKS'
SEVVFVQNKS
root@arm:~# MARKER='LEXZ''ZQZASC' run 'grep -r -l rohm,bd71837 /proc/device-tree  | sed '"'"'s![^/]*$!!'"'"''
LEXZZQZASC/proc/device-tree/ocp/interconnect@48000000/segment@100000/target-module@9c000/i2c@0/pmic@4b/
LEXZZQZASC 0
root@arm:~# echo 'AZQG''QWXVJQ'
AZQGQWXVJQ
root@arm:~# MARKER='ZBLE''PXNCJA' run 'test -f /proc/device-tree/ocp/interconnectt\@48000000/segment\@100000/target-module\@9c000/i2c\@0/pmic\@4b/regulators/BUCK77/rohm,no-regulator-enable-control ;echo $?'
ZBLEPXNCJA1
ZBLEPXNCJA 0
root@arm:~# echo 'SMSC''WUFVYM'
SMSCWUFVYM
root@arm:~# MARKER='ASKL''BNWEGY' run 'echo 1 > /sys/kernel/mva_test/regulators/bbuck7_en'
ASKLBNWEGYASKLBNWEGY 0
root@arm:~# echo 'ZLSO''CUPTVH'
ZLSOCUPTVH
root@arm:~# MARKER='BZUE''XBPQKU' run 'i2cget -y -f 2 0x4b 0xb'
BZUEXBPQKU0x03
BZUEXBPQKU 0
root@arm:~# echo 'NSBG''YNCHOP'
NSBGYNCHOP
root@arm:~# MARKER='YTOF''VQFTUF' run 'grep -r -l rohm,bd71837 /proc/device-tree  | sed '"'"'s![^/]*$!!'"'"''
YTOFVQFTUF/proc/device-tree/ocp/interconnect@48000000/segment@100000/target-module@9c000/i2c@0/pmic@4b/
YTOFVQFTUF 0
root@arm:~# echo 'BUTW''SUPBGZ'
BUTWSUPBGZ
root@arm:~# MARKER='AFAZ''YKSSNQ' run 'test -f /proc/device-tree/ocp/interconnectt\@48000000/segment\@100000/target-module\@9c000/i2c\@0/pmic\@4b/regulators/BUCK77/rohm,no-regulator-enable-control ;echo $?'
AFAZYKSSNQ1
AFAZYKSSNQ 0
root@arm:~# echo 'YLNH''EGVJYP'
YLNHEGVJYP
root@arm:~# MARKER='FLUS''YMNYAX' run 'grep -r -l rohm,bd71837 /proc/device-tree  | sed '"'"'s![^/]*$!!'"'"''
FLUSYMNYAX/proc/device-tree/ocp/interconnect@48000000/segment@100000/target-module@9c000/i2c@0/pmic@4b/
FLUSYMNYAX 0
root@arm:~# echo 'MNYB''LLAYUT'
MNYBLLAYUT
root@arm:~# MARKER='CBUF''AYTSJQ' run 'test -f /proc/device-tree/ocp/interconnectt\@48000000/segment\@100000/target-module\@9c000/i2c\@0/pmic\@4b/regulators/BUCK77/regulator-always-on ;echo $?'
CBUFAYTSJQ1
CBUFAYTSJQ 0
root@arm:~# echo 'ZHAP''LQQBET'
ZHAPLQQBET
root@arm:~# MARKER='UYSV''OZVVJO' run 'echo 0 > /sys/kernel/mva_test/regulators/bbuck7_en'
UYSVOZVVJOUYSVOZVVJO 0
root@arm:~# echo 'HFGK''YOSCME'
HFGKYOSCME
root@arm:~# MARKER='UCMU''OSPMFY' run 'i2cget -y -f 2 0x4b 0xb'
UCMUOSPMFY0x02
UCMUOSPMFY 0
root@arm:~# echo 'JAZQ''VSPMJB'
JAZQVSPMJB
root@arm:~# MARKER='BSQV''JNYOBL' run 'grep -r -l rohm,bd71837 /proc/device-tree  | sed '"'"'s![^/]*$!!'"'"''
BSQVJNYOBL/proc/device-tree/ocp/interconnect@48000000/segment@100000/target-module@9c000/i2c@0/pmic@4b/
BSQVJNYOBL 0
root@arm:~# echo 'QFMN''CFUFUP'
QFMNCFUFUP
root@arm:~# MARKER='NOHQ''SKNVNL' run 'test -f /proc/device-tree/ocp/interconnectt\@48000000/segment\@100000/target-module\@9c000/i2c\@0/pmic\@4b/regulators/BUCK88/rohm,no-regulator-enable-control ;echo $?'
NOHQSKNVNL1
NOHQSKNVNL 0
root@arm:~# echo 'JTUT''TXJGUP'
JTUTTXJGUP
root@arm:~# MARKER='SQVG''KHYXZK' run 'echo 1 > /sys/kernel/mva_test/regulators/bbuck8_en'
SQVGKHYXZKSQVGKHYXZK 0
root@arm:~# echo 'JOFC''PGCALG'
JOFCPGCALG
root@arm:~# MARKER='UBZF''UTHVHM' run 'i2cget -y -f 2 0x4b 0xc'
UBZFUTHVHM0x03
UBZFUTHVHM 0
root@arm:~# echo 'SMQH''WFTPAQ'
SMQHWFTPAQ
root@arm:~# MARKER='WBEU''YAGYTJ' run 'grep -r -l rohm,bd71837 /proc/device-tree  | sed '"'"'s![^/]*$!!'"'"''
WBEUYAGYTJ/proc/device-tree/ocp/interconnect@48000000/segment@100000/target-module@9c000/i2c@0/pmic@4b/
WBEUYAGYTJ 0
root@arm:~# echo 'NBZA''YCENHF'
NBZAYCENHF
root@arm:~# MARKER='KXQZ''VEULLQ' run 'test -f /proc/device-tree/ocp/interconnectt\@48000000/segment\@100000/target-module\@9c000/i2c\@0/pmic\@4b/regulators/BUCK88/rohm,no-regulator-enable-control ;echo $?'
KXQZVEULLQ1
KXQZVEULLQ 0
root@arm:~# echo 'USFE''CFPESP'
USFECFPESP
root@arm:~# MARKER='TVTT''SFTLOK' run 'grep -r -l rohm,bd71837 /proc/device-tree  | sed '"'"'s![^/]*$!!'"'"''
TVTTSFTLOK/proc/device-tree/ocp/interconnect@48000000/segment@100000/target-module@9c000/i2c@0/pmic@4b/
TVTTSFTLOK 0
root@arm:~# echo 'FUCL''KCPYHH'
FUCLKCPYHH
root@arm:~# MARKER='VZVV''YOKHGY' run 'test -f /proc/device-tree/ocp/interconnectt\@48000000/segment\@100000/target-module\@9c000/i2c\@0/pmic\@4b/regulators/BUCK88/regulator-always-on ;echo $?'
VZVVYOKHGY1
VZVVYOKHGY 0
root@arm:~# echo 'JJXO''SVOHCE'
JJXOSVOHCE
root@arm:~# MARKER='MMJE''GFBGGP' run 'echo 0 > /sys/kernel/mva_test/regulators/bbuck8_en'
MMJEGFBGGPMMJEGFBGGP 0
root@arm:~# echo 'JSJW''ZTSEBP'
JSJWZTSEBP
root@arm:~# MARKER='HUZO''SOMZKG' run 'i2cget -y -f 2 0x4b 0xc'
HUZOSOMZKG0x02
HUZOSOMZKG 0
root@arm:~# echo 'TJZG''NTTAQS'
TJZGNTTAQS
root@arm:~# MARKER='SPMU''TWZWNN' run 'grep -r -l rohm,bd71837 /proc/device-tree  | sed '"'"'s![^/]*$!!'"'"''
SPMUTWZWNN/proc/device-tree/ocp/interconnect@48000000/segment@100000/target-module@9c000/i2c@0/pmic@4b/
SPMUTWZWNN 0
root@arm:~# echo 'OCZG''XKNXZK'
OCZGXKNXZK
root@arm:~# MARKER='EZCV''ETLLYM' run 'test -f /proc/device-tree/ocp/interconnectt\@48000000/segment\@100000/target-module\@9c000/i2c\@0/pmic\@4b/regulators/LDO1//rohm,no-regulator-enable-control ;echo $?'
EZCVETLLYM1
EZCVETLLYM 0
root@arm:~# echo 'BOAF''BQSSGM'
BOAFBQSSGM
root@arm:~# MARKER='KKMQ''KGTOTA' run 'echo 1 > /sys/kernel/mva_test/regulators/bbuck9_en'
KKMQKGTOTAKKMQKGTOTA 0
root@arm:~# echo 'AUOU''HJLTWJ'
AUOUHJLTWJ
root@arm:~# MARKER='NAUJ''PSVZXE' run 'i2cget -y -f 2 0x4b 0x18'
NAUJPSVZXE0xc3
NAUJPSVZXE 0
root@arm:~# echo 'ZCOW''ZYPNJG'
ZCOWZYPNJG
root@arm:~# MARKER='VELT''MEWQUJ' run 'grep -r -l rohm,bd71837 /proc/device-tree  | sed '"'"'s![^/]*$!!'"'"''
VELTMEWQUJ/proc/device-tree/ocp/interconnect@48000000/segment@100000/target-module@9c000/i2c@0/pmic@4b/
VELTMEWQUJ 0
root@arm:~# echo 'UGTU''KKJSZU'
UGTUKKJSZU
root@arm:~# MARKER='CZYZ''FJPFEP' run 'test -f /proc/device-tree/ocp/interconnectt\@48000000/segment\@100000/target-module\@9c000/i2c\@0/pmic\@4b/regulators/LDO1//rohm,no-regulator-enable-control ;echo $?'
CZYZFJPFEP1
CZYZFJPFEP 0
root@arm:~# echo 'NCQN''VBUEHG'
NCQNVBUEHG
root@arm:~# MARKER='XQFG''PHTQCN' run 'grep -r -l rohm,bd71837 /proc/device-tree  | sed '"'"'s![^/]*$!!'"'"''
XQFGPHTQCN/proc/device-tree/ocp/interconnect@48000000/segment@100000/target-module@9c000/i2c@0/pmic@4b/
XQFGPHTQCN 0
root@arm:~# echo 'USVP''PXCUOQ'
USVPPXCUOQ
root@arm:~# MARKER='NYCT''JEPEKC' run 'test -f /proc/device-tree/ocp/interconnectt\@48000000/segment\@100000/target-module\@9c000/i2c\@0/pmic\@4b/regulators/LDO1//regulator-always-on ;echo $?'
NYCTJEPEKC1
NYCTJEPEKC 0
root@arm:~# echo 'SQXO''ZZGLGF'
SQXOZZGLGF
root@arm:~# MARKER='ZGQF''BXMXJT' run 'echo 0 > /sys/kernel/mva_test/regulators/bbuck9_en'
ZGQFBXMXJTZGQFBXMXJT 0
root@arm:~# echo 'NNMP''YYSBTA'
NNMPYYSBTA
root@arm:~# MARKER='HWMB''ZBLBWX' run 'i2cget -y -f 2 0x4b 0x18'
HWMBZBLBWX0x83
HWMBZBLBWX 0
root@arm:~# echo 'GQEH''QFHCJV'
GQEHQFHCJV
root@arm:~# MARKER='MAWH''ZGECFE' run 'grep -r -l rohm,bd71837 /proc/device-tree  | sed '"'"'s![^/]*$!!'"'"''
MAWHZGECFE/proc/device-tree/ocp/interconnect@48000000/segment@100000/target-module@9c000/i2c@0/pmic@4b/
MAWHZGECFE 0
root@arm:~# echo 'ZHUZ''MFJCXQ'
ZHUZMFJCXQ
root@arm:~# MARKER='YYBL''ZFSLHQ' run 'test -f /proc/device-tree/ocp/interconnectt\@48000000/segment\@100000/target-module\@9c000/i2c\@0/pmic\@4b/regulators/LDO2//rohm,no-regulator-enable-control ;echo $?'
YYBLZFSLHQ1
YYBLZFSLHQ 0
root@arm:~# echo 'UTNN''HAHELU'
UTNNHAHELU
root@arm:~# MARKER='LTWM''VJTWNB' run 'echo 1 > /sys/kernel/mva_test/regulators/bbuck10_en'
LTWMVJTWNBLTWMVJTWNB 0
root@arm:~# echo 'GCEM''HZMUVX'
GCEMHZMUVX
root@arm:~# MARKER='ETUZ''MUXTNU' run 'i2cget -y -f 2 0x4b 0x19'
ETUZMUXTNU0xc0
ETUZMUXTNU 0
root@arm:~# echo 'VUEZ''XYPPSV'
VUEZXYPPSV
root@arm:~# MARKER='NMKM''GCGEHM' run 'grep -r -l rohm,bd71837 /proc/device-tree  | sed '"'"'s![^/]*$!!'"'"''
NMKMGCGEHM/proc/device-tree/ocp/interconnect@48000000/segment@100000/target-module@9c000/i2c@0/pmic@4b/
NMKMGCGEHM 0
root@arm:~# echo 'KNFB''CWAKVT'
KNFBCWAKVT
root@arm:~# MARKER='ATVX''QNTNGN' run 'test -f /proc/device-tree/ocp/interconnectt\@48000000/segment\@100000/target-module\@9c000/i2c\@0/pmic\@4b/regulators/LDO2 /rohm,no-regulator-enable-control ;echo $?'
ATVXQNTNGN1
ATVXQNTNGN 0
root@arm:~# echo 'WNXH''LOQSTU'
WNXHLOQSTU
root@arm:~# MARKER='KBMV''EQXFOY' run 'grep -r -l rohm,bd71837 /proc/device-tree  | sed '"'"'s![^/]*$!!'"'"''
KBMVEQXFOY/proc/device-tree/ocp/interconnect@48000000/segment@100000/target-module@9c000/i2c@0/pmic@4b/
KBMVEQXFOY 0
root@arm:~# echo 'QKMS''KBYKKF'
QKMSKBYKKF
root@arm:~# MARKER='KTXA''AHVVGO' run 'test -f /proc/device-tree/ocp/interconnectt\@48000000/segment\@100000/target-module\@9c000/i2c\@0/pmic\@4b/regulators/LDO2//regulator-always-on ;echo $?'
KTXAAHVVGO1
KTXAAHVVGO 0
root@arm:~# echo 'YWBE''WNOFST'
YWBEWNOFST
root@arm:~# MARKER='JZLO''BQFFXH' run 'echo 0 > /sys/kernel/mva_test/regulators/bbuck10_en'
JZLOBQFFXHJZLOBQFFXH 0
root@arm:~# echo 'MELA''VOBXSS'
MELAVOBXSS
root@arm:~# MARKER='MEQU''CQZQUJ' run 'i2cget -y -f 2 0x4b 0x19'
MEQUCQZQUJ0x80
MEQUCQZQUJ 0
root@arm:~# echo 'MGYU''FNGHCO'
MGYUFNGHCO
root@arm:~# MARKER='UWSO''HMJNGJ' run 'grep -r -l rohm,bd71837 /proc/device-tree  | sed '"'"'s![^/]*$!!'"'"''
UWSOHMJNGJ/proc/device-tree/ocp/interconnect@48000000/segment@100000/target-module@9c000/i2c@0/pmic@4b/
UWSOHMJNGJ 0
root@arm:~# echo 'SXVW''LYAAEY'
SXVWLYAAEY
root@arm:~# MARKER='KLQO''MKBKPM' run 'test -f /proc/device-tree/ocp/interconnectt\@48000000/segment\@100000/target-module\@9c000/i2c\@0/pmic\@4b/regulators/LDO3//rohm,no-regulator-enable-control ;echo $?'
KLQOMKBKPM1
KLQOMKBKPM 0
root@arm:~# echo 'NXHF''SMASCG'
NXHFSMASCG
root@arm:~# MARKER='SNHA''QUWLCG' run 'echo 1 > /sys/kernel/mva_test/regulators/bbuck11_en'
SNHAQUWLCGSNHAQUWLCG 0
root@arm:~# echo 'PNOW''BJJGJU'
PNOWBJJGJU
root@arm:~# MARKER='KKCP''YUZZTX' run 'i2cget -y -f 2 0x4b 0x1a'
KKCPYUZZTX0xc0
KKCPYUZZTX 0
root@arm:~# echo 'BUCH''EGPVSC'
BUCHEGPVSC
root@arm:~# MARKER='NOLC''GYQHBM' run 'grep -r -l rohm,bd71837 /proc/device-tree  | sed '"'"'s![^/]*$!!'"'"''
NOLCGYQHBM/proc/device-tree/ocp/interconnect@48000000/segment@100000/target-module@9c000/i2c@0/pmic@4b/
NOLCGYQHBM 0
root@arm:~# echo 'ZUHK''CYCJKP'
ZUHKCYCJKP
root@arm:~# MARKER='FATF''WNLKWH' run 'test -f /proc/device-tree/ocp/interconnectt\@48000000/segment\@100000/target-module\@9c000/i2c\@0/pmic\@4b/regulators/LDO3//rohm,no-regulator-enable-control ;echo $?'
FATFWNLKWH1
FATFWNLKWH 0
root@arm:~# echo 'JOCX''TGNQGG'
JOCXTGNQGG
root@arm:~# MARKER='FKLY''XOKHSN' run 'grep -r -l rohm,bd71837 /proc/device-tree  | sed '"'"'s![^/]*$!!'"'"''
FKLYXOKHSN/proc/device-tree/ocp/interconnect@48000000/segment@100000/target-module@9c000/i2c@0/pmic@4b/
FKLYXOKHSN 0
root@arm:~# echo 'CAWY''MGNYLV'
CAWYMGNYLV
root@arm:~# MARKER='BQSM''TJABKH' run 'test -f /proc/device-tree/ocp/interconnectt\@48000000/segment\@100000/target-module\@9c000/i2c\@0/pmic\@4b/regulators/LDO3//regulator-always-on ;echo $?'
BQSMTJABKH1
BQSMTJABKH 0
root@arm:~# echo 'JXHF''HLUQVH'
JXHFHLUQVH
root@arm:~# MARKER='TSEP''MFMOQU' run 'echo 0 > /sys/kernel/mva_test/regulators/bbuck11_en'
TSEPMFMOQUTSEPMFMOQU 0
root@arm:~# echo 'BNSN''JVJPLZ'
BNSNJVJPLZ
root@arm:~# MARKER='THUP''OKQWMM' run 'i2cget -y -f 2 0x4b 0x1a'
THUPOKQWMM0x80
THUPOKQWMM 0
root@arm:~# echo 'NWZJ''UUYJUC'
NWZJUUYJUC
root@arm:~# MARKER='ZQGE''UOSJJE' run 'grep -r -l rohm,bd71837 /proc/device-tree  | sed '"'"'s![^/]*$!!'"'"''
ZQGEUOSJJE/proc/device-tree/ocp/interconnect@48000000/segment@100000/target-module@9c000/i2c@0/pmic@4b/
ZQGEUOSJJE 0
root@arm:~# echo 'EPJO''JQYGOE'
EPJOJQYGOE
root@arm:~# MARKER='OJZQ''CZEANJ' run 'test -f /proc/device-tree/ocp/interconnectt\@48000000/segment\@100000/target-module\@9c000/i2c\@0/pmic\@4b/regulators/LDO4//rohm,no-regulator-enable-control ;echo $?'
OJZQCZEANJ1
OJZQCZEANJ 0
root@arm:~# echo 'NBUT''LWXPFY'
NBUTLWXPFY
root@arm:~# MARKER='OOBU''XNCYQL' run 'echo 1 > /sys/kernel/mva_test/regulators/bbuck12_en'
OOBUXNCYQLOOBUXNCYQL 0
root@arm:~# echo 'NNPX''KFPVVM'
NNPXKFPVVM
root@arm:~# MARKER='SUSZ''UJFZXC' run 'i2cget -y -f 2 0x4b 0x1b'
SUSZUJFZXC0xc0
SUSZUJFZXC 0
root@arm:~# echo 'OVCB''HQOZNB'
OVCBHQOZNB
root@arm:~# MARKER='MSXU''PXHNKC' run 'grep -r -l rohm,bd71837 /proc/device-tree  | sed '"'"'s![^/]*$!!'"'"''
MSXUPXHNKC/proc/device-tree/ocp/interconnect@48000000/segment@100000/target-module@9c000/i2c@0/pmic@4b/
MSXUPXHNKC 0
root@arm:~# echo 'QPXG''SNBCEC'
QPXGSNBCEC
root@arm:~# MARKER='GLZB''UUSUQQ' run 'test -f /proc/device-tree/ocp/interconnectt\@48000000/segment\@100000/target-module\@9c000/i2c\@0/pmic\@4b/regulators/LDO4//rohm,no-regulator-enable-control ;echo $?'
GLZBUUSUQQ1
GLZBUUSUQQ 0
root@arm:~# echo 'FGEK''ZUKSOB'
FGEKZUKSOB
root@arm:~# MARKER='FUEP''WUQQCT' run 'grep -r -l rohm,bd71837 /proc/device-tree  | sed '"'"'s![^/]*$!!'"'"''
FUEPWUQQCT/proc/device-tree/ocp/interconnect@48000000/segment@100000/target-module@9c000/i2c@0/pmic@4b/
FUEPWUQQCT 0
root@arm:~# echo 'UXJM''QYZQNF'
UXJMQYZQNF
root@arm:~# MARKER='SNJH''AYSEUP' run 'test -f /proc/device-tree/ocp/interconnectt\@48000000/segment\@100000/target-module\@9c000/i2c\@0/pmic\@4b/regulators/LDO4//regulator-always-on ;echo $?'
SNJHAYSEUP1
SNJHAYSEUP 0
root@arm:~# echo 'PFOE''WKWWBY'
PFOEWKWWBY
root@arm:~# MARKER='AAGT''HBSMPF' run 'echo 0 > /sys/kernel/mva_test/regulators/bbuck12_en'
AAGTHBSMPFAAGTHBSMPF 0
root@arm:~# echo 'KKFW''GNTEJT'
KKFWGNTEJT
root@arm:~# MARKER='BTVL''ZQBWBF' run 'i2cget -y -f 2 0x4b 0x1b'
BTVLZQBWBF0x80
BTVLZQBWBF 0
root@arm:~# echo 'MNFQ''CLSJTS'
MNFQCLSJTS
root@arm:~# MARKER='AYLZ''HPWULC' run 'grep -r -l rohm,bd71837 /proc/device-tree  | sed '"'"'s![^/]*$!!'"'"''
AYLZHPWULC/proc/device-tree/ocp/interconnect@48000000/segment@100000/target-module@9c000/i2c@0/pmic@4b/
AYLZHPWULC 0
root@arm:~# echo 'JAKQ''NMSNXJ'
JAKQNMSNXJ
root@arm:~# MARKER='PJLZ''NPXAVW' run 'test -f /proc/device-tree/ocp/interconnectt\@48000000/segment\@100000/target-module\@9c000/i2c\@0/pmic\@4b/regulators/LDO5//rohm,no-regulator-enable-control ;echo $?'
PJLZNPXAVW0
PJLZNPXAVW 0
root@arm:~# echo 'ZONW''VBBLQZ'
ZONWVBBLQZ
root@arm:~# MARKER='PAKN''VBHCUO' run 'grep -r -l rohm,bd71837 /proc/device-tree  | sed '"'"'s![^/]*$!!'"'"''
PAKNVBHCUO/proc/device-tree/ocp/interconnect@48000000/segment@100000/target-module@9c000/i2c@0/pmic@4b/
PAKNVBHCUO 0
root@arm:~# echo 'EVCV''ATPCOW'
EVCVATPCOW
root@arm:~# MARKER='LAUS''VWCOVP' run 'test -f /proc/device-tree/ocp/interconnectt\@48000000/segment\@100000/target-module\@9c000/i2c\@0/pmic\@4b/regulators/LDO5//rohm,no-regulator-enable-control ;echo $?'
LAUSVWCOVP0
LAUSVWCOVP 0
root@arm:~# echo 'HNVY''TTFFPH'
HNVYTTFFPH
root@arm:~# MARKER='QMMJ''XFPOTZ' run 'grep -r -l rohm,bd71837 /proc/device-tree  | sed '"'"'s![^/]*$!!'"'"''
QMMJXFPOTZ/proc/device-tree/ocp/interconnect@48000000/segment@100000/target-module@9c000/i2c@0/pmic@4b/
QMMJXFPOTZ 0
root@arm:~# echo 'KQQJ''ANGBGZ'
KQQJANGBGZ
root@arm:~# MARKER='WCZA''QMCVJY' run 'test -f /proc/device-tree/ocp/interconnectt\@48000000/segment\@100000/target-module\@9c000/i2c\@0/pmic\@4b/regulators/LDO6//rohm,no-regulator-enable-control ;echo $?'
WCZAQMCVJY1
WCZAQMCVJY 0
root@arm:~# echo 'FSYF''ZSVXGY'
FSYFZSVXGY
root@arm:~# MARKER='WHGN''MHYYKX' run 'echo 1 > /sys/kernel/mva_test/regulators/bbuck14_en'
WHGNMHYYKXWHGNMHYYKX 0
root@arm:~# echo 'CMPH''VZALJZ'
CMPHVZALJZ
root@arm:~# MARKER='JZYU''GJHOUE' run 'i2cget -y -f 2 0x4b 0x1d'
JZYUGJHOUE0xc0
JZYUGJHOUE 0
root@arm:~# echo 'MEZE''AGOKTN'
MEZEAGOKTN
root@arm:~# MARKER='VXPY''PHBWBP' run 'grep -r -l rohm,bd71837 /proc/device-tree  | sed '"'"'s![^/]*$!!'"'"''
VXPYPHBWBP/proc/device-tree/ocp/interconnect@48000000/segment@100000/target-module@9c000/i2c@0/pmic@4b/
VXPYPHBWBP 0
root@arm:~# echo 'BXPY''ZGHJFU'
BXPYZGHJFU
root@arm:~# MARKER='KKWH''FNKVAE' run 'test -f /proc/device-tree/ocp/interconnectt\@48000000/segment\@100000/target-module\@9c000/i2c\@0/pmic\@4b/regulators/LDO6//rohm,no-regulator-enable-control ;echo $?'
KKWHFNKVAE1
KKWHFNKVAE 0
root@arm:~# echo 'TFTK''JSCJZW'
TFTKJSCJZW
root@arm:~# MARKER='XETS''MVVGFP' run 'grep -r -l rohm,bd71837 /proc/device-tree  | sed '"'"'s![^/]*$!!'"'"''
XETSMVVGFP/proc/device-tree/ocp/interconnect@48000000/segment@100000/target-module@9c000/i2c@0/pmic@4b/
XETSMVVGFP 0
root@arm:~# echo 'KFFN''HNWYKM'
KFFNHNWYKM
root@arm:~# MARKER='WYKW''BLCWUK' run 'test -f /proc/device-tree/ocp/interconnectt\@48000000/segment\@100000/target-module\@9c000/i2c\@0/pmic\@4b/regulators/LDO6//regulator-always-on ;echo $?'
WYKWBLCWUK1
WYKWBLCWUK 0
root@arm:~# echo 'NOYQ''XSMQZH'
NOYQXSMQZH
root@arm:~# MARKER='QNJK''HEVYNO' run 'echo 0 > /sys/kernel/mva_test/regulators/bbuck14_en'
QNJKHEVYNOQNJKHEVYNO 0
root@arm:~# echo 'JUEL''KPFVJW'
JUELKPFVJW
root@arm:~# MARKER='VNTE''TLBNWU' run 'i2cget -y -f 2 0x4b 0x1d'
VNTETLBNWU0x80
VNTETLBNWU 0
root@arm:~# echo 'QESK''EKTZZB'
QESKEKTZZB
root@arm:~# MARKER='MYMN''HTKJVX' run 'grep -r -l rohm,bd71837 /proc/device-tree  | sed '"'"'s![^/]*$!!'"'"''
MYMNHTKJVX/proc/device-tree/ocp/interconnect@48000000/segment@100000/target-module@9c000/i2c@0/pmic@4b/
MYMNHTKJVX 0
root@arm:~# echo 'FUVV''CSWFTS'
FUVVCSWFTS
root@arm:~# MARKER='CUBZ''CHKSHY' run 'test -f /proc/device-tree/ocp/interconnectt\@48000000/segment\@100000/target-module\@9c000/i2c\@0/pmic\@4b/regulators/LDO7//rohm,no-regulator-enable-control ;echo $?'
CUBZCHKSHY1
CUBZCHKSHY 0
root@arm:~# echo 'MATP''AVSHUY'
MATPAVSHUY
root@arm:~# MARKER='MMXM''GNKFBH' run 'echo 1 > /sys/kernel/mva_test/regulators/bbuck15_en'
MMXMGNKFBHMMXMGNKFBH 0
root@arm:~# echo 'ZVNL''TKPUHP'
ZVNLTKPUHP
root@arm:~# MARKER='TOHJ''NOXQOG' run 'i2cget -y -f 2 0x4b 0x1e'
TOHJNOXQOG0xcf
TOHJNOXQOG 0
root@arm:~# echo 'EXBT''MGSLVT'
EXBTMGSLVT
root@arm:~# MARKER='QHCF''QPANCC' run 'grep -r -l rohm,bd71837 /proc/device-tree  | sed '"'"'s![^/]*$!!'"'"''
QHCFQPANCC/proc/device-tree/ocp/interconnect@48000000/segment@100000/target-module@9c000/i2c@0/pmic@4b/
QHCFQPANCC 0
root@arm:~# echo 'UCOG''AMWUPG'
UCOGAMWUPG
root@arm:~# MARKER='UUAS''YXJWVS' run 'test -f /proc/device-tree/ocp/interconnectt\@48000000/segment\@100000/target-module\@9c000/i2c\@0/pmic\@4b/regulators/LDO7//rohm,no-regulator-enable-control ;echo $?'
UUASYXJWVS1
UUASYXJWVS 0
root@arm:~# echo 'TSCQ''PGVJVE'
TSCQPGVJVE
root@arm:~# MARKER='MPTL''JCLSON' run 'grep -r -l rohm,bd71837 /proc/device-tree  | sed '"'"'s![^/]*$!!'"'"''
MPTLJCLSON/proc/device-tree/ocp/interconnect@48000000/segment@100000/target-module@9c000/i2c@0/pmic@4b/
MPTLJCLSON 0
root@arm:~# echo 'APSH''NBCQMB'
APSHNBCQMB
root@arm:~# MARKER='ZGZW''XQUHVB' run 'test -f /proc/device-tree/ocp/interconnectt\@48000000/segment\@100000/target-module\@9c000/i2c\@0/pmic\@4b/regulators/LDO7//regulator-always-on ;echo $?'
ZGZWXQUHVB1
ZGZWXQUHVB 0
root@arm:~# echo 'QMTC''GYLLFW'
QMTCGYLLFW
root@arm:~# MARKER='VCSG''YVYBPZ' run 'echo 0 > /sys/kernel/mva_test/regulators/bbuck15_en'
VCSGYVYBPZVCSGYVYBPZ 0
root@arm:~# echo 'OKTZ''YKABYY'
OKTZYKABYY
root@arm:~# MARKER='QHTY''YCEHPS' run 'i2cget -y -f 2 0x4b 0x1e'
QHTYYCEHPS0x8f
QHTYYCEHPS 0
root@arm:~# Labgrid Console Logfile for main
Logfile started at 2026-08-09 23:55:21.264018
=== Log starts here ===

root@arm:~# run() { echo -n "$MARKER"; sh -c "$@"; echo "$MARKER $?"; }
root@arm:~# echo 'BUBZ''PWBEAW'
BUBZPWBEAW
root@arm:~# MARKER='PWWC''HVWWTE' run 'grep -r -l rohm,bd71837 /proc/device-tree  | sed '"'"'s![^/]*$!!'"'"''
PWWCHVWWTE/proc/device-tree/ocp/interconnect@48000000/segment@100000/target-module@9c000/i2c@0/pmic@4b/
PWWCHVWWTE 0
root@arm:~# echo 'SUCJ''QCHOBQ'
SUCJQCHOBQ
root@arm:~# MARKER='QZXW''LVQQQJ' run 'test -f /proc/device-tree/ocp/interconnectt\@48000000/segment\@100000/target-module\@9c000/i2c\@0/pmic\@4b/regulators/BUCK11/rohm,no-regulator-enable-control ;echo $?'
QZXWLVQQQJ1
QZXWLVQQQJ 0
root@arm:~# echo 'KVAH''PGEWFL'
KVAHPGEWFL
root@arm:~# MARKER='LWVY''ZLTMJV' run 'i2cget -y -f 2 0x4b 0x5'
LWVYZLTMJV0x02
LWVYZLTMJV 0
root@arm:~# echo 'LAVE''LEWUTO'
LAVELEWUTO
root@arm:~# MARKER='FMCO''MNZJLY' run 'echo 700000 700000 > /sys/kernel/mva_test//regulators/buck1_set'
FMCOMNZJLYFMCOMNZJLY 0
root@arm:~# echo 'UHTB''YTCSBL'
UHTBYTCSBL
root@arm:~# MARKER='YKVG''GQOVNQ' run 'i2cget -y -f 2 0x4b 0xd'
YKVGGQOVNQ0x00
YKVGGQOVNQ 0
root@arm:~# echo 'KCAW''KAOHFJ'
KCAWKAOHFJ
root@arm:~# MARKER='HWOX''YTMZFZ' run 'echo 710000 710000 > /sys/kernel/mva_test//regulators/buck1_set'
HWOXYTMZFZHWOXYTMZFZ 0
root@arm:~# echo 'KUEG''UPYXNK'
KUEGUPYXNK
root@arm:~# MARKER='XNJZ''FKCHEC' run 'i2cget -y -f 2 0x4b 0xd'
XNJZFKCHEC0x01
XNJZFKCHEC 0
root@arm:~# echo 'VTUW''ZLZZJQ'
VTUWZLZZJQ
root@arm:~# MARKER='ECWT''TXKBUB' run 'echo 720000 720000 > /sys/kernel/mva_test//regulators/buck1_set'
ECWTTXKBUBECWTTXKBUB 0
root@arm:~# echo 'KWVG''UJUMBH'
KWVGUJUMBH
root@arm:~# MARKER='GUSW''ZTFXEJ' run 'i2cget -y -f 2 0x4b 0xd'
GUSWZTFXEJ0x02
GUSWZTFXEJ 0
root@arm:~# echo 'UTPU''LSSLTG'
UTPULSSLTG
root@arm:~# MARKER='WXEV''FVSEUA' run 'echo 730000 730000 > /sys/kernel/mva_test//regulators/buck1_set'
WXEVFVSEUAWXEVFVSEUA 0
root@arm:~# echo 'SJML''CLTAEU'
SJMLCLTAEU
root@arm:~# MARKER='TGQF''VMUWKM' run 'i2cget -y -f 2 0x4b 0xd'
TGQFVMUWKM0x03
TGQFVMUWKM 0
root@arm:~# echo 'HOFS''WQBLFK'
HOFSWQBLFK
root@arm:~# MARKER='JAYG''KFXHTF' run 'echo 740000 740000 > /sys/kernel/mva_test//regulators/buck1_set'
JAYGKFXHTFJAYGKFXHTF 0
root@arm:~# echo 'UYSQ''XPYLOO'
UYSQXPYLOO
root@arm:~# MARKER='WJEV''FEWKUU' run 'i2cget -y -f 2 0x4b 0xd'
WJEVFEWKUU0x04
WJEVFEWKUU 0
root@arm:~# echo 'CVFT''HKTZTE'
CVFTHKTZTE
root@arm:~# MARKER='HPSY''VSXMTZ' run 'echo 750000 750000 > /sys/kernel/mva_test//regulators/buck1_set'
HPSYVSXMTZHPSYVSXMTZ 0
root@arm:~# echo 'QJYW''NPULWK'
QJYWNPULWK
root@arm:~# MARKER='EXQC''ZNGFBF' run 'i2cget -y -f 2 0x4b 0xd'
EXQCZNGFBF0x05
EXQCZNGFBF 0
root@arm:~# echo 'ZNVX''TVXEMV'
ZNVXTVXEMV
root@arm:~# MARKER='AFUP''PFMVCS' run 'echo 760000 760000 > /sys/kernel/mva_test//regulators/buck1_set'
AFUPPFMVCSAFUPPFMVCS 0
root@arm:~# echo 'NHTW''NHQBJC'
NHTWNHQBJC
root@arm:~# MARKER='XCLC''ZOAATL' run 'i2cget -y -f 2 0x4b 0xd'
XCLCZOAATL0x06
XCLCZOAATL 0
root@arm:~# echo 'NEKU''JBWLBM'
NEKUJBWLBM
root@arm:~# MARKER='UVYC''MBAYYK' run 'echo 770000 770000 > /sys/kernel/mva_test//regulators/buck1_set'
UVYCMBAYYKUVYCMBAYYK 0
root@arm:~# echo 'XSEV''FKTWCW'
XSEVFKTWCW
root@arm:~# MARKER='MUZT''VOOONS' run 'i2cget -y -f 2 0x4b 0xd'
MUZTVOOONS0x07
MUZTVOOONS 0
root@arm:~# echo 'MJAT''MANNCS'
MJATMANNCS
root@arm:~# MARKER='JAKZ''BUTKTQ' run 'echo 780000 780000 > /sys/kernel/mva_test//regulators/buck1_set'
JAKZBUTKTQJAKZBUTKTQ 0
root@arm:~# echo 'WBEC''BMTHCT'
WBECBMTHCT
root@arm:~# MARKER='LZSS''ZTBXBV' run 'i2cget -y -f 2 0x4b 0xd'
LZSSZTBXBV0x08
LZSSZTBXBV 0
root@arm:~# echo 'PXSE''JQWPXK'
PXSEJQWPXK
root@arm:~# MARKER='KTGZ''CZSSVW' run 'echo 790000 790000 > /sys/kernel/mva_test//regulators/buck1_set'
KTGZCZSSVWKTGZCZSSVW 0
root@arm:~# echo 'GFTW''VCJMMS'
GFTWVCJMMS
root@arm:~# MARKER='ZAXK''GWJSKX' run 'i2cget -y -f 2 0x4b 0xd'
ZAXKGWJSKX0x09
ZAXKGWJSKX 0
root@arm:~# echo 'ULSO''VBTVHQ'
ULSOVBTVHQ
root@arm:~# MARKER='FYQY''LCNHYA' run 'echo 800000 800000 > /sys/kernel/mva_test//regulators/buck1_set'
FYQYLCNHYAFYQYLCNHYA 0
root@arm:~# echo 'COVF''EGACJO'
COVFEGACJO
root@arm:~# MARKER='GFFM''VATCGW' run 'i2cget -y -f 2 0x4b 0xd'
GFFMVATCGW0x0a
GFFMVATCGW 0
root@arm:~# echo 'YCEA''KQPYXM'
YCEAKQPYXM
root@arm:~# MARKER='XZEL''NLBQSA' run 'echo 810000 810000 > /sys/kernel/mva_test//regulators/buck1_set'
XZELNLBQSAXZELNLBQSA 0
root@arm:~# echo 'AMLY''XNGXXE'
AMLYXNGXXE
root@arm:~# MARKER='KJNV''OHLLWV' run 'i2cget -y -f 2 0x4b 0xd'
KJNVOHLLWV0x0b
KJNVOHLLWV 0
root@arm:~# echo 'XWLY''ATFZEP'
XWLYATFZEP
root@arm:~# MARKER='XCCG''KYTGBH' run 'echo 820000 820000 > /sys/kernel/mva_test//regulators/buck1_set'
XCCGKYTGBHXCCGKYTGBH 0
root@arm:~# echo 'SOJU''ULXVVA'
SOJUULXVVA
root@arm:~# MARKER='MTVX''YQNWTL' run 'i2cget -y -f 2 0x4b 0xd'
MTVXYQNWTL0x0c
MTVXYQNWTL 0
root@arm:~# echo 'MYLH''FQJYGU'
MYLHFQJYGU
root@arm:~# MARKER='FZMT''NXAYZF' run 'echo 830000 830000 > /sys/kernel/mva_test//regulators/buck1_set'
FZMTNXAYZFFZMTNXAYZF 0
root@arm:~# echo 'UGOS''AGVCYJ'
UGOSAGVCYJ
root@arm:~# MARKER='BNFU''UWFQSE' run 'i2cget -y -f 2 0x4b 0xd'
BNFUUWFQSE0x0d
BNFUUWFQSE 0
root@arm:~# echo 'MJFP''XJASMG'
MJFPXJASMG
root@arm:~# MARKER='QOXG''SOVKQV' run 'echo 840000 840000 > /sys/kernel/mva_test//regulators/buck1_set'
QOXGSOVKQVQOXGSOVKQV 0
root@arm:~# echo 'EUGL''HALUMV'
EUGLHALUMV
root@arm:~# MARKER='KOYS''SSFBTV' run 'i2cget -y -f 2 0x4b 0xd'
KOYSSSFBTV0x0e
KOYSSSFBTV 0
root@arm:~# echo 'PVWH''HJBNON'
PVWHHJBNON
root@arm:~# MARKER='AJWM''PNLXLW' run 'echo 850000 850000 > /sys/kernel/mva_test//regulators/buck1_set'
AJWMPNLXLWAJWMPNLXLW 0
root@arm:~# echo 'OEVU''XAACCO'
OEVUXAACCO
root@arm:~# MARKER='WUJZ''BPANZX' run 'i2cget -y -f 2 0x4b 0xd'
WUJZBPANZX0x0f
WUJZBPANZX 0
root@arm:~# echo 'JWVO''EVOFKZ'
JWVOEVOFKZ
root@arm:~# MARKER='XXWS''QGCGYA' run 'echo 860000 860000 > /sys/kernel/mva_test//regulators/buck1_set'
XXWSQGCGYAXXWSQGCGYA 0
root@arm:~# echo 'YAOU''JPMOYM'
YAOUJPMOYM
root@arm:~# MARKER='XQAQ''AUFCSA' run 'i2cget -y -f 2 0x4b 0xd'
XQAQAUFCSA0x10
XQAQAUFCSA 0
root@arm:~# echo 'WSQX''SKNLXL'
WSQXSKNLXL
root@arm:~# MARKER='ZTXF''GUEEWA' run 'echo 870000 870000 > /sys/kernel/mva_test//regulators/buck1_set'
ZTXFGUEEWAZTXFGUEEWA 0
root@arm:~# echo 'VQZP''WPQGCQ'
VQZPWPQGCQ
root@arm:~# MARKER='NNUA''HFLLHH' run 'i2cget -y -f 2 0x4b 0xd'
NNUAHFLLHH0x11
NNUAHFLLHH 0
root@arm:~# echo 'CHXP''WFJBAP'
CHXPWFJBAP
root@arm:~# MARKER='OCGH''ZGQZVC' run 'echo 880000 880000 > /sys/kernel/mva_test//regulators/buck1_set'
OCGHZGQZVCOCGHZGQZVC 0
root@arm:~# echo 'TSKY''WTGFFH'
TSKYWTGFFH
root@arm:~# MARKER='XGYZ''WJWKQT' run 'i2cget -y -f 2 0x4b 0xd'
XGYZWJWKQT0x12
XGYZWJWKQT 0
root@arm:~# echo 'FKQE''OEFJXP'
FKQEOEFJXP
root@arm:~# MARKER='JXLB''TVKAQG' run 'echo 890000 890000 > /sys/kernel/mva_test//regulators/buck1_set'
JXLBTVKAQGJXLBTVKAQG 0
root@arm:~# echo 'KEPH''HGMBXP'
KEPHHGMBXP
root@arm:~# MARKER='TGVO''OUZWSB' run 'i2cget -y -f 2 0x4b 0xd'
TGVOOUZWSB0x13
TGVOOUZWSB 0
root@arm:~# echo 'ZMBJ''BWLPBQ'
ZMBJBWLPBQ
root@arm:~# MARKER='BGCW''BACYLU' run 'echo 900000 900000 > /sys/kernel/mva_test//regulators/buck1_set'
BGCWBACYLUBGCWBACYLU 0
root@arm:~# echo 'GAPH''WNKYQX'
GAPHWNKYQX
root@arm:~# MARKER='PGMP''XVONEC' run 'i2cget -y -f 2 0x4b 0xd'
PGMPXVONEC0x14
PGMPXVONEC 0
root@arm:~# echo 'XMJX''NYQFVM'
XMJXNYQFVM
root@arm:~# MARKER='BNQE''JVPNQW' run 'echo 910000 910000 > /sys/kernel/mva_test//regulators/buck1_set'
BNQEJVPNQWBNQEJVPNQW 0
root@arm:~# echo 'VQTX''NPBPTJ'
VQTXNPBPTJ
root@arm:~# MARKER='SNXZ''GPFHJT' run 'i2cget -y -f 2 0x4b 0xd'
SNXZGPFHJT0x15
SNXZGPFHJT 0
root@arm:~# echo 'KMCU''NYNAWT'
KMCUNYNAWT
root@arm:~# MARKER='SSZX''CHUCQT' run 'echo 920000 920000 > /sys/kernel/mva_test//regulators/buck1_set'
SSZXCHUCQTSSZXCHUCQT 0
root@arm:~# echo 'TXPK''FBJPTP'
TXPKFBJPTP
root@arm:~# MARKER='JTXW''JVEOVG' run 'i2cget -y -f 2 0x4b 0xd'
JTXWJVEOVG0x16
JTXWJVEOVG 0
root@arm:~# echo 'WFJE''VFTBCO'
WFJEVFTBCO
root@arm:~# MARKER='OPPJ''FZCZLJ' run 'echo 930000 930000 > /sys/kernel/mva_test//regulators/buck1_set'
OPPJFZCZLJOPPJFZCZLJ 0
root@arm:~# echo 'CAKG''XSHCWO'
CAKGXSHCWO
root@arm:~# MARKER='OSSE''KVSKOM' run 'i2cget -y -f 2 0x4b 0xd'
OSSEKVSKOM0x17
OSSEKVSKOM 0
root@arm:~# echo 'EZHQ''FMSJVM'
EZHQFMSJVM
root@arm:~# MARKER='OTNY''FCQZOS' run 'echo 940000 940000 > /sys/kernel/mva_test//regulators/buck1_set'
OTNYFCQZOSOTNYFCQZOS 0
root@arm:~# echo 'WZLH''NAKWKQ'
WZLHNAKWKQ
root@arm:~# MARKER='YKHO''AUQEPE' run 'i2cget -y -f 2 0x4b 0xd'
YKHOAUQEPE0x18
YKHOAUQEPE 0
root@arm:~# echo 'BYOJ''XTAECG'
BYOJXTAECG
root@arm:~# MARKER='VWHA''JJYUSJ' run 'echo 950000 950000 > /sys/kernel/mva_test//regulators/buck1_set'
VWHAJJYUSJVWHAJJYUSJ 0
root@arm:~# echo 'LUGQ''FQTKSL'
LUGQFQTKSL
root@arm:~# MARKER='WLWM''NXVPET' run 'i2cget -y -f 2 0x4b 0xd'
WLWMNXVPET0x19
WLWMNXVPET 0
root@arm:~# echo 'ANXU''ZNKMLV'
ANXUZNKMLV
root@arm:~# MARKER='SZLM''QZVMEP' run 'echo 960000 960000 > /sys/kernel/mva_test//regulators/buck1_set'
SZLMQZVMEPSZLMQZVMEP 0
root@arm:~# echo 'WENX''NXGASQ'
WENXNXGASQ
root@arm:~# MARKER='ZFGY''XTFYCL' run 'i2cget -y -f 2 0x4b 0xd'
ZFGYXTFYCL0x1a
ZFGYXTFYCL 0
root@arm:~# echo 'MCPA''TSFBEC'
MCPATSFBEC
root@arm:~# MARKER='SOZF''LCSHWZ' run 'echo 970000 970000 > /sys/kernel/mva_test//regulators/buck1_set'
SOZFLCSHWZSOZFLCSHWZ 0
root@arm:~# echo 'BYUP''HFSBAF'
BYUPHFSBAF
root@arm:~# MARKER='GEYC''BJEGJL' run 'i2cget -y -f 2 0x4b 0xd'
GEYCBJEGJL0x1b
GEYCBJEGJL 0
root@arm:~# echo 'EWZM''QTZSGC'
EWZMQTZSGC
root@arm:~# MARKER='MWVV''NJUXNC' run 'echo 980000 980000 > /sys/kernel/mva_test//regulators/buck1_set'
MWVVNJUXNCMWVVNJUXNC 0
root@arm:~# echo 'ENMN''WCKCEU'
ENMNWCKCEU
root@arm:~# MARKER='SELM''XOHTBG' run 'i2cget -y -f 2 0x4b 0xd'
SELMXOHTBG0x1c
SELMXOHTBG 0
root@arm:~# echo 'HWMG''QOCYSK'
HWMGQOCYSK
root@arm:~# MARKER='KNUT''AOGFSW' run 'echo 990000 990000 > /sys/kernel/mva_test//regulators/buck1_set'
KNUTAOGFSWKNUTAOGFSW 0
root@arm:~# echo 'UPON''LKFJZV'
UPONLKFJZV
root@arm:~# MARKER='AESO''ATVZUE' run 'i2cget -y -f 2 0x4b 0xd'
AESOATVZUE0x1d
AESOATVZUE 0
root@arm:~# echo 'VFYT''PNVWHM'
VFYTPNVWHM
root@arm:~# MARKER='VHFS''GHQFXY' run 'echo 1000000 1000000 > /sys/kernel/mva_tesst/regulators/buck1_set'
VHFSGHQFXYVHFSGHQFXY 0
root@arm:~# echo 'KENJ''WPVMMJ'
KENJWPVMMJ
root@arm:~# MARKER='SZQU''CLBEUF' run 'i2cget -y -f 2 0x4b 0xd'
SZQUCLBEUF0x1e
SZQUCLBEUF 0
root@arm:~# echo 'YVNL''HXBJAH'
YVNLHXBJAH
root@arm:~# MARKER='GKSQ''VZLEAZ' run 'echo 1010000 1010000 > /sys/kernel/mva_tesst/regulators/buck1_set'
GKSQVZLEAZGKSQVZLEAZ 0
root@arm:~# echo 'NKEM''PYOEAP'
NKEMPYOEAP
root@arm:~# MARKER='XTSB''AWQXAB' run 'i2cget -y -f 2 0x4b 0xd'
XTSBAWQXAB0x1f
XTSBAWQXAB 0
root@arm:~# echo 'UYZT''PHELEM'
UYZTPHELEM
root@arm:~# MARKER='WOEV''USEJKZ' run 'echo 1020000 1020000 > /sys/kernel/mva_tesst/regulators/buck1_set'
WOEVUSEJKZWOEVUSEJKZ 0
root@arm:~# echo 'EPJB''BLFAWY'
EPJBBLFAWY
root@arm:~# MARKER='VQLO''NWBCKX' run 'i2cget -y -f 2 0x4b 0xd'
VQLONWBCKX0x20
VQLONWBCKX 0
root@arm:~# echo 'CNJV''NOWLTQ'
CNJVNOWLTQ
root@arm:~# MARKER='CWSJ''BBVQMB' run 'echo 1030000 1030000 > /sys/kernel/mva_tesst/regulators/buck1_set'
CWSJBBVQMBCWSJBBVQMB 0
root@arm:~# echo 'WSGT''VZQEZM'
WSGTVZQEZM
root@arm:~# MARKER='GCMW''WLFOGE' run 'i2cget -y -f 2 0x4b 0xd'
GCMWWLFOGE0x21
GCMWWLFOGE 0
root@arm:~# echo 'ZXZO''JZMMTH'
ZXZOJZMMTH
root@arm:~# MARKER='VSWA''LVKBEH' run 'echo 1040000 1040000 > /sys/kernel/mva_tesst/regulators/buck1_set'
VSWALVKBEHVSWALVKBEH 0
root@arm:~# echo 'ZAQE''YJNJWT'
ZAQEYJNJWT
root@arm:~# MARKER='AZFT''LKHAVG' run 'i2cget -y -f 2 0x4b 0xd'
AZFTLKHAVG0x22
AZFTLKHAVG 0
root@arm:~# echo 'LYMY''SKOJXE'
LYMYSKOJXE
root@arm:~# MARKER='LTKT''TJYTZU' run 'echo 1050000 1050000 > /sys/kernel/mva_tesst/regulators/buck1_set'
LTKTTJYTZULTKTTJYTZU 0
root@arm:~# echo 'GGSQ''ZHWAXM'
GGSQZHWAXM
root@arm:~# MARKER='ULUM''VXUBZT' run 'i2cget -y -f 2 0x4b 0xd'
ULUMVXUBZT0x23
ULUMVXUBZT 0
root@arm:~# echo 'TCQO''UGOQBT'
TCQOUGOQBT
root@arm:~# MARKER='KTQW''CJSSWF' run 'echo 1060000 1060000 > /sys/kernel/mva_tesst/regulators/buck1_set'
KTQWCJSSWFKTQWCJSSWF 0
root@arm:~# echo 'APGJ''SZOQNS'
APGJSZOQNS
root@arm:~# MARKER='NANY''VVNQZY' run 'i2cget -y -f 2 0x4b 0xd'
NANYVVNQZY0x24
NANYVVNQZY 0
root@arm:~# echo 'ZOFP''BNSTHV'
ZOFPBNSTHV
root@arm:~# MARKER='PBZN''KBUAWZ' run 'echo 1070000 1070000 > /sys/kernel/mva_tesst/regulators/buck1_set'
PBZNKBUAWZPBZNKBUAWZ 0
root@arm:~# echo 'QZZC''OSWXEZ'
QZZCOSWXEZ
root@arm:~# MARKER='GMJQ''SOYTOJ' run 'i2cget -y -f 2 0x4b 0xd'
GMJQSOYTOJ0x25
GMJQSOYTOJ 0
root@arm:~# echo 'JCCN''FLQFQJ'
JCCNFLQFQJ
root@arm:~# MARKER='PMQU''GUOFTA' run 'echo 1080000 1080000 > /sys/kernel/mva_tesst/regulators/buck1_set'
PMQUGUOFTAPMQUGUOFTA 0
root@arm:~# echo 'JVSU''YXVJXG'
JVSUYXVJXG
root@arm:~# MARKER='XHJO''YTSEVF' run 'i2cget -y -f 2 0x4b 0xd'
XHJOYTSEVF0x26
XHJOYTSEVF 0
root@arm:~# echo 'FPXO''OPOMWN'
FPXOOPOMWN
root@arm:~# MARKER='QKPK''WJXBEW' run 'echo 1090000 1090000 > /sys/kernel/mva_tesst/regulators/buck1_set'
QKPKWJXBEWQKPKWJXBEW 0
root@arm:~# echo 'XJAT''TBXUQF'
XJATTBXUQF
root@arm:~# MARKER='ZHTQ''XAVVVP' run 'i2cget -y -f 2 0x4b 0xd'
ZHTQXAVVVP0x27
ZHTQXAVVVP 0
root@arm:~# echo 'YTMG''GCYLFM'
YTMGGCYLFM
root@arm:~# MARKER='KPUB''GBUWXE' run 'echo 1100000 1100000 > /sys/kernel/mva_tesst/regulators/buck1_set'
KPUBGBUWXEKPUBGBUWXE 0
root@arm:~# echo 'ULEZ''KZEGJT'
ULEZKZEGJT
root@arm:~# MARKER='UBWL''VTHCFV' run 'i2cget -y -f 2 0x4b 0xd'
UBWLVTHCFV0x28
UBWLVTHCFV 0
root@arm:~# echo 'FOEJ''ABCQVB'
FOEJABCQVB
root@arm:~# MARKER='GMYG''CAQKGH' run 'echo 1110000 1110000 > /sys/kernel/mva_tesst/regulators/buck1_set'
GMYGCAQKGHGMYGCAQKGH 0
root@arm:~# echo 'QALM''HJHJZW'
QALMHJHJZW
root@arm:~# MARKER='ZOAJ''TCOUXC' run 'i2cget -y -f 2 0x4b 0xd'
ZOAJTCOUXC0x29
ZOAJTCOUXC 0
root@arm:~# echo 'UMAF''QHMXXC'
UMAFQHMXXC
root@arm:~# MARKER='BABM''JFBUQJ' run 'echo 1120000 1120000 > /sys/kernel/mva_tesst/regulators/buck1_set'
BABMJFBUQJBABMJFBUQJ 0
root@arm:~# echo 'JZOF''GEJSNH'
JZOFGEJSNH
root@arm:~# MARKER='BYMS''KBAWLP' run 'i2cget -y -f 2 0x4b 0xd'
BYMSKBAWLP0x2a
BYMSKBAWLP 0
root@arm:~# echo 'USXF''QOLSEF'
USXFQOLSEF
root@arm:~# MARKER='BASJ''GBEJXT' run 'echo 1130000 1130000 > /sys/kernel/mva_tesst/regulators/buck1_set'
BASJGBEJXTBASJGBEJXT 0
root@arm:~# echo 'WYLN''AVCQLM'
WYLNAVCQLM
root@arm:~# MARKER='HLCT''QLYOWP' run 'i2cget -y -f 2 0x4b 0xd'
HLCTQLYOWP0x2b
HLCTQLYOWP 0
root@arm:~# echo 'MLCG''LAWFUW'
MLCGLAWFUW
root@arm:~# MARKER='BHXJ''JTZNTY' run 'echo 1140000 1140000 > /sys/kernel/mva_tesst/regulators/buck1_set'
BHXJJTZNTYBHXJJTZNTY 0
root@arm:~# echo 'FSMY''ULQTVJ'
FSMYULQTVJ
root@arm:~# MARKER='EFCW''TFKTNJ' run 'i2cget -y -f 2 0x4b 0xd'
EFCWTFKTNJ0x2c
EFCWTFKTNJ 0
root@arm:~# echo 'GSTA''WJSQVF'
GSTAWJSQVF
root@arm:~# MARKER='WALY''QBBOHN' run 'echo 1150000 1150000 > /sys/kernel/mva_tesst/regulators/buck1_set'
WALYQBBOHNWALYQBBOHN 0
root@arm:~# echo 'QYFZ''VWGVAV'
QYFZVWGVAV
root@arm:~# MARKER='XQMT''CZFVUO' run 'i2cget -y -f 2 0x4b 0xd'
XQMTCZFVUO0x2d
XQMTCZFVUO 0
root@arm:~# echo 'TWSE''GLLWJQ'
TWSEGLLWJQ
root@arm:~# MARKER='GHHC''EJWQAE' run 'echo 1160000 1160000 > /sys/kernel/mva_tesst/regulators/buck1_set'
GHHCEJWQAEGHHCEJWQAE 0
root@arm:~# echo 'EKQV''EZPMET'
EKQVEZPMET
root@arm:~# MARKER='EQCS''LYQLJZ' run 'i2cget -y -f 2 0x4b 0xd'
EQCSLYQLJZ0x2e
EQCSLYQLJZ 0
root@arm:~# echo 'JQEG''YTATWO'
JQEGYTATWO
root@arm:~# MARKER='UEOW''QAWLXG' run 'echo 1170000 1170000 > /sys/kernel/mva_tesst/regulators/buck1_set'
UEOWQAWLXGUEOWQAWLXG 0
root@arm:~# echo 'UEKJ''KQTTHO'
UEKJKQTTHO
root@arm:~# MARKER='KJGF''BTSWVF' run 'i2cget -y -f 2 0x4b 0xd'
KJGFBTSWVF0x2f
KJGFBTSWVF 0
root@arm:~# echo 'ZZLZ''UEJGQA'
ZZLZUEJGQA
root@arm:~# MARKER='ZTOE''ETEAOG' run 'echo 1180000 1180000 > /sys/kernel/mva_tesst/regulators/buck1_set'
ZTOEETEAOGZTOEETEAOG 0
root@arm:~# echo 'JNGX''NZZFJU'
JNGXNZZFJU
root@arm:~# MARKER='MBTS''BBBAWJ' run 'i2cget -y -f 2 0x4b 0xd'
MBTSBBBAWJ0x30
MBTSBBBAWJ 0
root@arm:~# echo 'BWNY''YELOMM'
BWNYYELOMM
root@arm:~# MARKER='ZELW''WASWMS' run 'echo 1190000 1190000 > /sys/kernel/mva_tesst/regulators/buck1_set'
ZELWWASWMSZELWWASWMS 0
root@arm:~# echo 'WPPK''TLLEAM'
WPPKTLLEAM
root@arm:~# MARKER='FHJP''EMCTZJ' run 'i2cget -y -f 2 0x4b 0xd'
FHJPEMCTZJ0x31
FHJPEMCTZJ 0
root@arm:~# echo 'WLPB''BVFTKJ'
WLPBBVFTKJ
root@arm:~# MARKER='FCHO''XMKFVX' run 'echo 1200000 1200000 > /sys/kernel/mva_tesst/regulators/buck1_set'
FCHOXMKFVXFCHOXMKFVX 0
root@arm:~# echo 'KWFG''QSTBJV'
KWFGQSTBJV
root@arm:~# MARKER='XMLK''QWTMSC' run 'i2cget -y -f 2 0x4b 0xd'
XMLKQWTMSC0x32
XMLKQWTMSC 0
root@arm:~# echo 'BXEA''UVBSXU'
BXEAUVBSXU
root@arm:~# MARKER='KWES''LFOMKK' run 'echo 1210000 1210000 > /sys/kernel/mva_tesst/regulators/buck1_set'
KWESLFOMKKKWESLFOMKK 0
root@arm:~# echo 'YNPM''TNESGE'
YNPMTNESGE
root@arm:~# MARKER='WXEO''EETWEP' run 'i2cget -y -f 2 0x4b 0xd'
WXEOEETWEP0x33
WXEOEETWEP 0
root@arm:~# echo 'MHYQ''QHZZBN'
MHYQQHZZBN
root@arm:~# MARKER='PVMS''KYKUWK' run 'echo 1220000 1220000 > /sys/kernel/mva_tesst/regulators/buck1_set'
PVMSKYKUWKPVMSKYKUWK 0
root@arm:~# echo 'BGKQ''MUCEFH'
BGKQMUCEFH
root@arm:~# MARKER='JOUH''SFBALO' run 'i2cget -y -f 2 0x4b 0xd'
JOUHSFBALO0x34
JOUHSFBALO 0
root@arm:~# echo 'UMEQ''UCTNXU'
UMEQUCTNXU
root@arm:~# MARKER='LPSC''YMCPJM' run 'echo 1230000 1230000 > /sys/kernel/mva_tesst/regulators/buck1_set'
LPSCYMCPJMLPSCYMCPJM 0
root@arm:~# echo 'XVEY''EOFMHL'
XVEYEOFMHL
root@arm:~# MARKER='SAJF''ETQTLZ' run 'i2cget -y -f 2 0x4b 0xd'
SAJFETQTLZ0x35
SAJFETQTLZ 0
root@arm:~# echo 'CUZS''ZEQTJE'
CUZSZEQTJE
root@arm:~# MARKER='TGUV''MLGAFS' run 'echo 1240000 1240000 > /sys/kernel/mva_tesst/regulators/buck1_set'
TGUVMLGAFSTGUVMLGAFS 0
root@arm:~# echo 'WBNV''KKLKUM'
WBNVKKLKUM
root@arm:~# MARKER='JQGV''ZPLZMH' run 'i2cget -y -f 2 0x4b 0xd'
JQGVZPLZMH0x36
JQGVZPLZMH 0
root@arm:~# echo 'ABBB''CXTQUV'
ABBBCXTQUV
root@arm:~# MARKER='SFQG''KFCOHX' run 'echo 1250000 1250000 > /sys/kernel/mva_tesst/regulators/buck1_set'
SFQGKFCOHXSFQGKFCOHX 0
root@arm:~# echo 'XLYA''LCOWPT'
XLYALCOWPT
root@arm:~# MARKER='AELA''KUUAVU' run 'i2cget -y -f 2 0x4b 0xd'
AELAKUUAVU0x37
AELAKUUAVU 0
root@arm:~# echo 'FPQU''XWTYVX'
FPQUXWTYVX
root@arm:~# MARKER='NLXZ''PFQAOF' run 'echo 1260000 1260000 > /sys/kernel/mva_tesst/regulators/buck1_set'
NLXZPFQAOFNLXZPFQAOF 0
root@arm:~# echo 'YUAV''JBELJT'
YUAVJBELJT
root@arm:~# MARKER='GVGF''CHYJMT' run 'i2cget -y -f 2 0x4b 0xd'
GVGFCHYJMT0x38
GVGFCHYJMT 0
root@arm:~# echo 'SWBW''WBVQPJ'
SWBWWBVQPJ
root@arm:~# MARKER='FPON''ZJGBYK' run 'echo 1270000 1270000 > /sys/kernel/mva_tesst/regulators/buck1_set'
FPONZJGBYKFPONZJGBYK 0
root@arm:~# echo 'SCGH''SMCCLQ'
SCGHSMCCLQ
root@arm:~# MARKER='TFXS''HUPBFU' run 'i2cget -y -f 2 0x4b 0xd'
TFXSHUPBFU0x39
TFXSHUPBFU 0
root@arm:~# echo 'MJLH''NBBVGW'
MJLHNBBVGW
root@arm:~# MARKER='JAZM''HUTBAO' run 'echo 1280000 1280000 > /sys/kernel/mva_tesst/regulators/buck1_set'
JAZMHUTBAOJAZMHUTBAO 0
root@arm:~# echo 'ZSZE''ZJPYKT'
ZSZEZJPYKT
root@arm:~# MARKER='PMVV''JVQPXZ' run 'i2cget -y -f 2 0x4b 0xd'
PMVVJVQPXZ0x3a
PMVVJVQPXZ 0
root@arm:~# echo 'TYOA''PMTHOY'
TYOAPMTHOY
root@arm:~# MARKER='BTXU''QJGQBN' run 'echo 1290000 1290000 > /sys/kernel/mva_tesst/regulators/buck1_set'
BTXUQJGQBNBTXUQJGQBN 0
root@arm:~# echo 'EJGY''JFHGCT'
EJGYJFHGCT
root@arm:~# MARKER='YTXU''LBWXCX' run 'i2cget -y -f 2 0x4b 0xd'
YTXULBWXCX0x3b
YTXULBWXCX 0
root@arm:~# echo 'POFZ''ALCJCB'
POFZALCJCB
root@arm:~# MARKER='LASU''NNVCPZ' run 'echo 1300000 1300000 > /sys/kernel/mva_tesst/regulators/buck1_set'
LASUNNVCPZLASUNNVCPZ 0
root@arm:~# echo 'ZKKH''KZTOTP'
ZKKHKZTOTP
root@arm:~# MARKER='BGBP''TWCKVK' run 'i2cget -y -f 2 0x4b 0xd'
BGBPTWCKVK0x3c
BGBPTWCKVK 0
root@arm:~# echo 'AWMP''GQWXYS'
AWMPGQWXYS
root@arm:~# MARKER='TOHL''GSEMMH' run 'grep -r -l rohm,bd71837 /proc/device-tree  | sed '"'"'s![^/]*$!!'"'"''
TOHLGSEMMH/proc/device-tree/ocp/interconnect@48000000/segment@100000/target-module@9c000/i2c@0/pmic@4b/
TOHLGSEMMH 0
root@arm:~# echo 'SUSH''UUEAQK'
SUSHUUEAQK
root@arm:~# MARKER='MBHQ''YMVULK' run 'test -f /proc/device-tree/ocp/interconnectt\@48000000/segment\@100000/target-module\@9c000/i2c\@0/pmic\@4b/regulators/BUCK 2/rohm,no-regulator-enable-control ;echo $?'
MBHQYMVULK1
MBHQYMVULK 0
root@arm:~# echo 'QGEB''VSVKAG'
QGEBVSVKAG
root@arm:~# MARKER='KTWU''HJSAAS' run 'i2cget -y -f 2 0x4b 0x6'
KTWUHJSAAS0x43
KTWUHJSAAS 0
root@arm:~# echo 'VUKZ''MKKVCH'
VUKZMKKVCH
root@arm:~# MARKER='CESE''PGHSHG' run 'echo 700000 700000 > /sys/kernel/mva_test//regulators/buck2_set'
CESEPGHSHGCESEPGHSHG 0
root@arm:~# echo 'LTPH''JWUUMF'
LTPHJWUUMF
root@arm:~# MARKER='XXCY''EOUYTC' run 'i2cget -y -f 2 0x4b 0x10'
XXCYEOUYTC0x00
XXCYEOUYTC 0
root@arm:~# echo 'GVBB''OVWZMH'
GVBBOVWZMH
root@arm:~# MARKER='BPAF''BYQJBZ' run 'echo 710000 710000 > /sys/kernel/mva_test//regulators/buck2_set'
BPAFBYQJBZBPAFBYQJBZ 0
root@arm:~# echo 'JNGA''EEYCJW'
JNGAEEYCJW
root@arm:~# MARKER='UVGS''GZPTLS' run 'i2cget -y -f 2 0x4b 0x10'
UVGSGZPTLS0x01
UVGSGZPTLS 0
root@arm:~# echo 'VHAB''SASZOK'
VHABSASZOK
root@arm:~# MARKER='UCEU''JEFBGB' run 'echo 720000 720000 > /sys/kernel/mva_test//regulators/buck2_set'
UCEUJEFBGBUCEUJEFBGB 0
root@arm:~# echo 'JLJW''SQELSU'
JLJWSQELSU
root@arm:~# MARKER='VTAA''GSUCCU' run 'i2cget -y -f 2 0x4b 0x10'
VTAAGSUCCU0x02
VTAAGSUCCU 0
root@arm:~# echo 'LJET''QEJKUP'
LJETQEJKUP
root@arm:~# MARKER='HOVH''QTWXSF' run 'echo 730000 730000 > /sys/kernel/mva_test//regulators/buck2_set'
HOVHQTWXSFHOVHQTWXSF 0
root@arm:~# echo 'ZEYL''GFWCXZ'
ZEYLGFWCXZ
root@arm:~# MARKER='PVQX''ABONVM' run 'i2cget -y -f 2 0x4b 0x10'
PVQXABONVM0x03
PVQXABONVM 0
root@arm:~# echo 'SUPA''CGZLXB'
SUPACGZLXB
root@arm:~# MARKER='FQLE''UZWNFU' run 'echo 740000 740000 > /sys/kernel/mva_test//regulators/buck2_set'
FQLEUZWNFUFQLEUZWNFU 0
root@arm:~# echo 'LFWZ''UPCBOJ'
LFWZUPCBOJ
root@arm:~# MARKER='ZUON''CVEXJZ' run 'i2cget -y -f 2 0x4b 0x10'
ZUONCVEXJZ0x04
ZUONCVEXJZ 0
root@arm:~# echo 'UQZA''JCJCHZ'
UQZAJCJCHZ
root@arm:~# MARKER='LFFQ''KHWTPU' run 'echo 750000 750000 > /sys/kernel/mva_test//regulators/buck2_set'
LFFQKHWTPULFFQKHWTPU 0
root@arm:~# echo 'HFXG''SWQPSS'
HFXGSWQPSS
root@arm:~# MARKER='TSPX''YQNSCA' run 'i2cget -y -f 2 0x4b 0x10'
TSPXYQNSCA0x05
TSPXYQNSCA 0
root@arm:~# echo 'EQOL''QWAFUG'
EQOLQWAFUG
root@arm:~# MARKER='MVTH''MCOKOY' run 'echo 760000 760000 > /sys/kernel/mva_test//regulators/buck2_set'
MVTHMCOKOYMVTHMCOKOY 0
root@arm:~# echo 'TLWX''KJGBNL'
TLWXKJGBNL
root@arm:~# MARKER='BFPS''GPZVFN' run 'i2cget -y -f 2 0x4b 0x10'
BFPSGPZVFN0x06
BFPSGPZVFN 0
root@arm:~# echo 'ZPYS''TSSOQB'
ZPYSTSSOQB
root@arm:~# MARKER='MVMG''YCJJSA' run 'echo 770000 770000 > /sys/kernel/mva_test//regulators/buck2_set'
MVMGYCJJSAMVMGYCJJSA 0
root@arm:~# echo 'VLXB''SSMONM'
VLXBSSMONM
root@arm:~# MARKER='FNLK''LLJOMB' run 'i2cget -y -f 2 0x4b 0x10'
FNLKLLJOMB0x07
FNLKLLJOMB 0
root@arm:~# echo 'OPXE''GEQFMA'
OPXEGEQFMA
root@arm:~# MARKER='QQJP''HHZGCM' run 'echo 780000 780000 > /sys/kernel/mva_test//regulators/buck2_set'
QQJPHHZGCMQQJPHHZGCM 0
root@arm:~# echo 'TTXM''LYTNBY'
TTXMLYTNBY
root@arm:~# MARKER='SNXC''QYBPWN' run 'i2cget -y -f 2 0x4b 0x10'
SNXCQYBPWN0x08
SNXCQYBPWN 0
root@arm:~# echo 'XAEO''NHTOWS'
XAEONHTOWS
root@arm:~# MARKER='TJVL''SYNGZZ' run 'echo 790000 790000 > /sys/kernel/mva_test//regulators/buck2_set'
TJVLSYNGZZTJVLSYNGZZ 0
root@arm:~# echo 'ZWOZ''ASPQYA'
ZWOZASPQYA
root@arm:~# MARKER='LUEB''OBCJAG' run 'i2cget -y -f 2 0x4b 0x10'
LUEBOBCJAG0x09
LUEBOBCJAG 0
root@arm:~# echo 'CAWJ''NOBFPE'
CAWJNOBFPE
root@arm:~# MARKER='JATJ''KLEXTG' run 'echo 800000 800000 > /sys/kernel/mva_test//regulators/buck2_set'
JATJKLEXTGJATJKLEXTG 0
root@arm:~# echo 'YPAG''EPUFXE'
YPAGEPUFXE
root@arm:~# MARKER='LOOE''HGZEYA' run 'i2cget -y -f 2 0x4b 0x10'
LOOEHGZEYA0x0a
LOOEHGZEYA 0
root@arm:~# echo 'NKZJ''ANVWZO'
NKZJANVWZO
root@arm:~# MARKER='JUQW''KPTVJY' run 'echo 810000 810000 > /sys/kernel/mva_test//regulators/buck2_set'
JUQWKPTVJYJUQWKPTVJY 0
root@arm:~# echo 'GUEH''BKMNJG'
GUEHBKMNJG
root@arm:~# MARKER='YUEQ''SJMQEU' run 'i2cget -y -f 2 0x4b 0x10'
YUEQSJMQEU0x0b
YUEQSJMQEU 0
root@arm:~# echo 'ZBVT''KJYOBN'
ZBVTKJYOBN
root@arm:~# MARKER='BTTQ''TEHCOC' run 'echo 820000 820000 > /sys/kernel/mva_test//regulators/buck2_set'
BTTQTEHCOCBTTQTEHCOC 0
root@arm:~# echo 'OJTW''EEVMJW'
OJTWEEVMJW
root@arm:~# MARKER='GWEH''UHWSXF' run 'i2cget -y -f 2 0x4b 0x10'
GWEHUHWSXF0x0c
GWEHUHWSXF 0
root@arm:~# echo 'WLTA''FJKYHP'
WLTAFJKYHP
root@arm:~# MARKER='LSUU''JXFZZW' run 'echo 830000 830000 > /sys/kernel/mva_test//regulators/buck2_set'
LSUUJXFZZWLSUUJXFZZW 0
root@arm:~# echo 'SZPF''WYHAVB'
SZPFWYHAVB
root@arm:~# MARKER='SYPS''PJVOWJ' run 'i2cget -y -f 2 0x4b 0x10'
SYPSPJVOWJ0x0d
SYPSPJVOWJ 0
root@arm:~# echo 'XXZF''AUALUT'
XXZFAUALUT
root@arm:~# MARKER='ETOK''XFNWAS' run 'echo 840000 840000 > /sys/kernel/mva_test//regulators/buck2_set'
ETOKXFNWASETOKXFNWAS 0
root@arm:~# echo 'GQZJ''CHOWCL'
GQZJCHOWCL
root@arm:~# MARKER='JEMC''BVUWVH' run 'i2cget -y -f 2 0x4b 0x10'
JEMCBVUWVH0x0e
JEMCBVUWVH 0
root@arm:~# echo 'HGGH''BYCLSL'
HGGHBYCLSL
root@arm:~# MARKER='FTTP''GYFOSE' run 'echo 850000 850000 > /sys/kernel/mva_test//regulators/buck2_set'
FTTPGYFOSEFTTPGYFOSE 0
root@arm:~# echo 'HMKW''HXOHJQ'
HMKWHXOHJQ
root@arm:~# MARKER='NPOG''WMNCUG' run 'i2cget -y -f 2 0x4b 0x10'
NPOGWMNCUG0x0f
NPOGWMNCUG 0
root@arm:~# echo 'NBMB''ZPZBMC'
NBMBZPZBMC
root@arm:~# MARKER='WSCQ''HQSPSK' run 'echo 860000 860000 > /sys/kernel/mva_test//regulators/buck2_set'
WSCQHQSPSKWSCQHQSPSK 0
root@arm:~# echo 'SVHX''NVVGUQ'
SVHXNVVGUQ
root@arm:~# MARKER='JZKA''GPWHLL' run 'i2cget -y -f 2 0x4b 0x10'
JZKAGPWHLL0x10
JZKAGPWHLL 0
root@arm:~# echo 'NLLK''TYUNLX'
NLLKTYUNLX
root@arm:~# MARKER='TXOH''AWXLHN' run 'echo 870000 870000 > /sys/kernel/mva_test//regulators/buck2_set'
TXOHAWXLHNTXOHAWXLHN 0
root@arm:~# echo 'KBXB''SLBLYK'
KBXBSLBLYK
root@arm:~# MARKER='TKGE''LYBZCF' run 'i2cget -y -f 2 0x4b 0x10'
TKGELYBZCF0x11
TKGELYBZCF 0
root@arm:~# echo 'ZGHH''JWNFCS'
ZGHHJWNFCS
root@arm:~# MARKER='WYLG''WGMPGF' run 'echo 880000 880000 > /sys/kernel/mva_test//regulators/buck2_set'
WYLGWGMPGFWYLGWGMPGF 0
root@arm:~# echo 'SSLW''CXUWHQ'
SSLWCXUWHQ
root@arm:~# MARKER='UJAG''LAQFHZ' run 'i2cget -y -f 2 0x4b 0x10'
UJAGLAQFHZ0x12
UJAGLAQFHZ 0
root@arm:~# echo 'GWUF''WPKQWO'
GWUFWPKQWO
root@arm:~# MARKER='VXWK''LTNKCW' run 'echo 890000 890000 > /sys/kernel/mva_test//regulators/buck2_set'
VXWKLTNKCWVXWKLTNKCW 0
root@arm:~# echo 'WEPF''PKXYSO'
WEPFPKXYSO
root@arm:~# MARKER='AJMZ''QAKPSA' run 'i2cget -y -f 2 0x4b 0x10'
AJMZQAKPSA0x13
AJMZQAKPSA 0
root@arm:~# echo 'MUHT''PBOUNF'
MUHTPBOUNF
root@arm:~# MARKER='KPEG''WKLENV' run 'echo 900000 900000 > /sys/kernel/mva_test//regulators/buck2_set'
KPEGWKLENVKPEGWKLENV 0
root@arm:~# echo 'FBCY''UBBZQP'
FBCYUBBZQP
root@arm:~# MARKER='ZTPB''ZECWTM' run 'i2cget -y -f 2 0x4b 0x10'
ZTPBZECWTM0x14
ZTPBZECWTM 0
root@arm:~# echo 'FMVA''CAJCEW'
FMVACAJCEW
root@arm:~# MARKER='OOJC''EBQCWN' run 'echo 910000 910000 > /sys/kernel/mva_test//regulators/buck2_set'
OOJCEBQCWNOOJCEBQCWN 0
root@arm:~# echo 'VNEB''TEXLMS'
VNEBTEXLMS
root@arm:~# MARKER='GCZG''CBJCQZ' run 'i2cget -y -f 2 0x4b 0x10'
GCZGCBJCQZ0x15
GCZGCBJCQZ 0
root@arm:~# echo 'QBAG''JQAWQH'
QBAGJQAWQH
root@arm:~# MARKER='GVLH''LHVVPH' run 'echo 920000 920000 > /sys/kernel/mva_test//regulators/buck2_set'
GVLHLHVVPHGVLHLHVVPH 0
root@arm:~# echo 'NCCV''OWJNTK'
NCCVOWJNTK
root@arm:~# MARKER='XGTW''KQQQFY' run 'i2cget -y -f 2 0x4b 0x10'
XGTWKQQQFY0x16
XGTWKQQQFY 0
root@arm:~# echo 'OPAO''AWJQGC'
OPAOAWJQGC
root@arm:~# MARKER='CZCQ''QQVJAQ' run 'echo 930000 930000 > /sys/kernel/mva_test//regulators/buck2_set'
CZCQQQVJAQCZCQQQVJAQ 0
root@arm:~# echo 'BTYM''VYUQTT'
BTYMVYUQTT
root@arm:~# MARKER='OYFT''BEFTNT' run 'i2cget -y -f 2 0x4b 0x10'
OYFTBEFTNT0x17
OYFTBEFTNT 0
root@arm:~# echo 'KQOE''WVVPHK'
KQOEWVVPHK
root@arm:~# MARKER='KVPO''JELEOY' run 'echo 940000 940000 > /sys/kernel/mva_test//regulators/buck2_set'
KVPOJELEOYKVPOJELEOY 0
root@arm:~# echo 'JCZQ''ZPZGTZ'
JCZQZPZGTZ
root@arm:~# MARKER='HXFT''BKQMCO' run 'i2cget -y -f 2 0x4b 0x10'
HXFTBKQMCO0x18
HXFTBKQMCO 0
root@arm:~# echo 'ENWX''QKGWAQ'
ENWXQKGWAQ
root@arm:~# MARKER='ZFTX''XFVFUF' run 'echo 950000 950000 > /sys/kernel/mva_test//regulators/buck2_set'
ZFTXXFVFUFZFTXXFVFUF 0
root@arm:~# echo 'SVQF''JUKOCM'
SVQFJUKOCM
root@arm:~# MARKER='KFFF''PVLQHS' run 'i2cget -y -f 2 0x4b 0x10'
KFFFPVLQHS0x19
KFFFPVLQHS 0
root@arm:~# echo 'SFEV''EVELLT'
SFEVEVELLT
root@arm:~# MARKER='GZAS''XJGWFM' run 'echo 960000 960000 > /sys/kernel/mva_test//regulators/buck2_set'
GZASXJGWFMGZASXJGWFM 0
root@arm:~# echo 'YAYQ''MMBFOX'
YAYQMMBFOX
root@arm:~# MARKER='PMPL''MXPMNS' run 'i2cget -y -f 2 0x4b 0x10'
PMPLMXPMNS0x1a
PMPLMXPMNS 0
root@arm:~# echo 'AOYC''HXMFHL'
AOYCHXMFHL
root@arm:~# MARKER='ZAKJ''NZGYNO' run 'echo 970000 970000 > /sys/kernel/mva_test//regulators/buck2_set'
ZAKJNZGYNOZAKJNZGYNO 0
root@arm:~# echo 'HOGC''GWMTTO'
HOGCGWMTTO
root@arm:~# MARKER='HBXE''WQPWGG' run 'i2cget -y -f 2 0x4b 0x10'
HBXEWQPWGG0x1b
HBXEWQPWGG 0
root@arm:~# echo 'UOBV''QKXHTP'
UOBVQKXHTP
root@arm:~# MARKER='YVJT''GUNFXO' run 'echo 980000 980000 > /sys/kernel/mva_test//regulators/buck2_set'
YVJTGUNFXOYVJTGUNFXO 0
root@arm:~# echo 'NQCH''ECHXEZ'
NQCHECHXEZ
root@arm:~# MARKER='EGBV''CBWAJW' run 'i2cget -y -f 2 0x4b 0x10'
EGBVCBWAJW0x1c
EGBVCBWAJW 0
root@arm:~# echo 'CUQW''MKBFUW'
CUQWMKBFUW
root@arm:~# MARKER='YEPZ''APUKTJ' run 'echo 990000 990000 > /sys/kernel/mva_test//regulators/buck2_set'
YEPZAPUKTJYEPZAPUKTJ 0
root@arm:~# echo 'FMSH''AFCHXG'
FMSHAFCHXG
root@arm:~# MARKER='XMXC''TCNEMA' run 'i2cget -y -f 2 0x4b 0x10'
XMXCTCNEMA0x1d
XMXCTCNEMA 0
root@arm:~# echo 'LTGC''EFHEGU'
LTGCEFHEGU
root@arm:~# MARKER='PKBW''TPSOVK' run 'echo 1000000 1000000 > /sys/kernel/mva_tesst/regulators/buck2_set'
PKBWTPSOVKPKBWTPSOVK 0
root@arm:~# echo 'HHJM''SYMNCK'
HHJMSYMNCK
root@arm:~# MARKER='VTUU''GCMVZF' run 'i2cget -y -f 2 0x4b 0x10'
VTUUGCMVZF0x1e
VTUUGCMVZF 0
root@arm:~# echo 'XKTH''TOBTPF'
XKTHTOBTPF
root@arm:~# MARKER='OXPP''EXKXQT' run 'echo 1010000 1010000 > /sys/kernel/mva_tesst/regulators/buck2_set'
OXPPEXKXQTOXPPEXKXQT 0
root@arm:~# echo 'SFKX''ZNTLCV'
SFKXZNTLCV
root@arm:~# MARKER='AYSP''WSCMEZ' run 'i2cget -y -f 2 0x4b 0x10'
AYSPWSCMEZ0x1f
AYSPWSCMEZ 0
root@arm:~# echo 'ZSMF''OKMFCY'
ZSMFOKMFCY
root@arm:~# MARKER='BJAF''XCLSAQ' run 'echo 1020000 1020000 > /sys/kernel/mva_tesst/regulators/buck2_set'
BJAFXCLSAQBJAFXCLSAQ 0
root@arm:~# echo 'EJKT''GOMSAT'
EJKTGOMSAT
root@arm:~# MARKER='UJEQ''UYAVCG' run 'i2cget -y -f 2 0x4b 0x10'
UJEQUYAVCG0x20
UJEQUYAVCG 0
root@arm:~# echo 'VYAO''VVPCAN'
VYAOVVPCAN
root@arm:~# MARKER='AAAN''VEKEGJ' run 'echo 1030000 1030000 > /sys/kernel/mva_tesst/regulators/buck2_set'
AAANVEKEGJAAANVEKEGJ 0
root@arm:~# echo 'ESTU''OWETQW'
ESTUOWETQW
root@arm:~# MARKER='YXBQ''HQVXWT' run 'i2cget -y -f 2 0x4b 0x10'
YXBQHQVXWT0x21
YXBQHQVXWT 0
root@arm:~# echo 'BLZK''OPGZGO'
BLZKOPGZGO
root@arm:~# MARKER='PCNT''CSJKJF' run 'echo 1040000 1040000 > /sys/kernel/mva_tesst/regulators/buck2_set'
PCNTCSJKJFPCNTCSJKJF 0
root@arm:~# echo 'QHLZ''PPCJBA'
QHLZPPCJBA
root@arm:~# MARKER='PUBZ''GVGHHK' run 'i2cget -y -f 2 0x4b 0x10'
PUBZGVGHHK0x22
PUBZGVGHHK 0
root@arm:~# echo 'JSJY''KLCBEB'
JSJYKLCBEB
root@arm:~# MARKER='LUQZ''BXPLWB' run 'echo 1050000 1050000 > /sys/kernel/mva_tesst/regulators/buck2_set'
LUQZBXPLWBLUQZBXPLWB 0
root@arm:~# echo 'MHKC''VWTJNE'
MHKCVWTJNE
root@arm:~# MARKER='PVKE''MKSZBF' run 'i2cget -y -f 2 0x4b 0x10'
PVKEMKSZBF0x23
PVKEMKSZBF 0
root@arm:~# echo 'XAUE''TOEAJU'
XAUETOEAJU
root@arm:~# MARKER='ZBVZ''TKTTPL' run 'echo 1060000 1060000 > /sys/kernel/mva_tesst/regulators/buck2_set'
ZBVZTKTTPLZBVZTKTTPL 0
root@arm:~# echo 'GNBM''OCBJST'
GNBMOCBJST
root@arm:~# MARKER='ZKEM''FYNMCV' run 'i2cget -y -f 2 0x4b 0x10'
ZKEMFYNMCV0x24
ZKEMFYNMCV 0
root@arm:~# echo 'AWUE''GZKLUH'
AWUEGZKLUH
root@arm:~# MARKER='ZZMT''NGOLUG' run 'echo 1070000 1070000 > /sys/kernel/mva_tesst/regulators/buck2_set'
ZZMTNGOLUGZZMTNGOLUG 0
root@arm:~# echo 'FTNC''BOOEMF'
FTNCBOOEMF
root@arm:~# MARKER='EVLV''PNGLUL' run 'i2cget -y -f 2 0x4b 0x10'
EVLVPNGLUL0x25
EVLVPNGLUL 0
root@arm:~# echo 'UCWJ''PXQAOK'
UCWJPXQAOK
root@arm:~# MARKER='ZUFT''LBZSOG' run 'echo 1080000 1080000 > /sys/kernel/mva_tesst/regulators/buck2_set'
ZUFTLBZSOGZUFTLBZSOG 0
root@arm:~# echo 'BZJT''OYAZWT'
BZJTOYAZWT
root@arm:~# MARKER='NVAQ''LSTBZX' run 'i2cget -y -f 2 0x4b 0x10'
NVAQLSTBZX0x26
NVAQLSTBZX 0
root@arm:~# echo 'CGGM''GHOEFK'
CGGMGHOEFK
root@arm:~# MARKER='PNXA''KCQMLX' run 'echo 1090000 1090000 > /sys/kernel/mva_tesst/regulators/buck2_set'
PNXAKCQMLXPNXAKCQMLX 0
root@arm:~# echo 'TWYT''MYQCKJ'
TWYTMYQCKJ
root@arm:~# MARKER='YYHX''VPSKJS' run 'i2cget -y -f 2 0x4b 0x10'
YYHXVPSKJS0x27
YYHXVPSKJS 0
root@arm:~# echo 'SGQL''XLHYMX'
SGQLXLHYMX
root@arm:~# MARKER='PYNN''WZOHBF' run 'echo 1100000 1100000 > /sys/kernel/mva_tesst/regulators/buck2_set'
PYNNWZOHBFPYNNWZOHBF 0
root@arm:~# echo 'HBPG''MKNCYE'
HBPGMKNCYE
root@arm:~# MARKER='SCJO''PAZGSY' run 'i2cget -y -f 2 0x4b 0x10'
SCJOPAZGSY0x28
SCJOPAZGSY 0
root@arm:~# echo 'USVV''WLKGUV'
USVVWLKGUV
root@arm:~# MARKER='VHAT''YSTPPE' run 'echo 1110000 1110000 > /sys/kernel/mva_tesst/regulators/buck2_set'
VHATYSTPPEVHATYSTPPE 0
root@arm:~# echo 'AKLY''YVGCTL'
AKLYYVGCTL
root@arm:~# MARKER='MNCF''GCELTE' run 'i2cget -y -f 2 0x4b 0x10'
MNCFGCELTE0x29
MNCFGCELTE 0
root@arm:~# echo 'XJHT''WPJSBT'
XJHTWPJSBT
root@arm:~# MARKER='QSQJ''AWXXZU' run 'echo 1120000 1120000 > /sys/kernel/mva_tesst/regulators/buck2_set'
QSQJAWXXZUQSQJAWXXZU 0
root@arm:~# echo 'TWOB''TSYAJH'
TWOBTSYAJH
root@arm:~# MARKER='WYPZ''WLHMXY' run 'i2cget -y -f 2 0x4b 0x10'
WYPZWLHMXY0x2a
WYPZWLHMXY 0
root@arm:~# echo 'VNHE''AMOXZN'
VNHEAMOXZN
root@arm:~# MARKER='OZXX''TYXVZA' run 'echo 1130000 1130000 > /sys/kernel/mva_tesst/regulators/buck2_set'
OZXXTYXVZAOZXXTYXVZA 0
root@arm:~# echo 'JZHF''OGCUMH'
JZHFOGCUMH
root@arm:~# MARKER='YTXE''YGPNZN' run 'i2cget -y -f 2 0x4b 0x10'
YTXEYGPNZN0x2b
YTXEYGPNZN 0
root@arm:~# echo 'WMHO''XXWULS'
WMHOXXWULS
root@arm:~# MARKER='CHGB''FSEGOL' run 'echo 1140000 1140000 > /sys/kernel/mva_tesst/regulators/buck2_set'
CHGBFSEGOLCHGBFSEGOL 0
root@arm:~# echo 'SQVM''OTJYSA'
SQVMOTJYSA
root@arm:~# MARKER='GOCO''OGUJXY' run 'i2cget -y -f 2 0x4b 0x10'
GOCOOGUJXY0x2c
GOCOOGUJXY 0
root@arm:~# echo 'GQTL''ZMTZFQ'
GQTLZMTZFQ
root@arm:~# MARKER='EMXF''KTQTNL' run 'echo 1150000 1150000 > /sys/kernel/mva_tesst/regulators/buck2_set'
EMXFKTQTNLEMXFKTQTNL 0
root@arm:~# echo 'YTKH''GOZCUV'
YTKHGOZCUV
root@arm:~# MARKER='KNMP''WQLWBP' run 'i2cget -y -f 2 0x4b 0x10'
KNMPWQLWBP0x2d
KNMPWQLWBP 0
root@arm:~# echo 'XXTE''JPQMVW'
XXTEJPQMVW
root@arm:~# MARKER='LTVJ''SOWOMZ' run 'echo 1160000 1160000 > /sys/kernel/mva_tesst/regulators/buck2_set'
LTVJSOWOMZLTVJSOWOMZ 0
root@arm:~# echo 'OUGW''UFWHAM'
OUGWUFWHAM
root@arm:~# MARKER='HGHO''WJXTBU' run 'i2cget -y -f 2 0x4b 0x10'
HGHOWJXTBU0x2e
HGHOWJXTBU 0
root@arm:~# echo 'FKAM''HWELBP'
FKAMHWELBP
root@arm:~# MARKER='OPLV''PGCUUE' run 'echo 1170000 1170000 > /sys/kernel/mva_tesst/regulators/buck2_set'
OPLVPGCUUEOPLVPGCUUE 0
root@arm:~# echo 'LKMK''WUZGFB'
LKMKWUZGFB
root@arm:~# MARKER='AAAX''LXSAQG' run 'i2cget -y -f 2 0x4b 0x10'
AAAXLXSAQG0x2f
AAAXLXSAQG 0
root@arm:~# echo 'PWHO''XGYQMN'
PWHOXGYQMN
root@arm:~# MARKER='NWPP''PGMZVY' run 'echo 1180000 1180000 > /sys/kernel/mva_tesst/regulators/buck2_set'
NWPPPGMZVYNWPPPGMZVY 0
root@arm:~# echo 'UHPF''ULEPTC'
UHPFULEPTC
root@arm:~# MARKER='GNYM''FZFKJV' run 'i2cget -y -f 2 0x4b 0x10'
GNYMFZFKJV0x30
GNYMFZFKJV 0
root@arm:~# echo 'UGOY''TULLJC'
UGOYTULLJC
root@arm:~# MARKER='ZAWW''UMSZKG' run 'echo 1190000 1190000 > /sys/kernel/mva_tesst/regulators/buck2_set'
ZAWWUMSZKGZAWWUMSZKG 0
root@arm:~# echo 'YHKT''ZYFPTO'
YHKTZYFPTO
root@arm:~# MARKER='BOBA''YBAAFK' run 'i2cget -y -f 2 0x4b 0x10'
BOBAYBAAFK0x31
BOBAYBAAFK 0
root@arm:~# echo 'FBBZ''COHHSA'
FBBZCOHHSA
root@arm:~# MARKER='SPST''WCCTGG' run 'echo 1200000 1200000 > /sys/kernel/mva_tesst/regulators/buck2_set'
SPSTWCCTGGSPSTWCCTGG 0
root@arm:~# echo 'AVTW''TQKANH'
AVTWTQKANH
root@arm:~# MARKER='HWBZ''AKZOWG' run 'i2cget -y -f 2 0x4b 0x10'
HWBZAKZOWG0x32
HWBZAKZOWG 0
root@arm:~# echo 'BJVV''WYUKBK'
BJVVWYUKBK
root@arm:~# MARKER='GVMV''OXJOTA' run 'echo 1210000 1210000 > /sys/kernel/mva_tesst/regulators/buck2_set'
GVMVOXJOTAGVMVOXJOTA 0
root@arm:~# echo 'BCZL''GAVWBT'
BCZLGAVWBT
root@arm:~# MARKER='CTQN''ZSZPTB' run 'i2cget -y -f 2 0x4b 0x10'
CTQNZSZPTB0x33
CTQNZSZPTB 0
root@arm:~# echo 'TJCJ''TMKCLS'
TJCJTMKCLS
root@arm:~# MARKER='UKVZ''EXVOXV' run 'echo 1220000 1220000 > /sys/kernel/mva_tesst/regulators/buck2_set'
UKVZEXVOXVUKVZEXVOXV 0
root@arm:~# echo 'MGQF''BUTLWO'
MGQFBUTLWO
root@arm:~# MARKER='KNKQ''NQAKAC' run 'i2cget -y -f 2 0x4b 0x10'
KNKQNQAKAC0x34
KNKQNQAKAC 0
root@arm:~# echo 'JLWZ''CAWBKB'
JLWZCAWBKB
root@arm:~# MARKER='NPMF''QZGTPT' run 'echo 1230000 1230000 > /sys/kernel/mva_tesst/regulators/buck2_set'
NPMFQZGTPTNPMFQZGTPT 0
root@arm:~# echo 'XHFO''EXFKZO'
XHFOEXFKZO
root@arm:~# MARKER='UQYJ''JJCWUZ' run 'i2cget -y -f 2 0x4b 0x10'
UQYJJJCWUZ0x35
UQYJJJCWUZ 0
root@arm:~# echo 'FGXY''OXSCFP'
FGXYOXSCFP
root@arm:~# MARKER='LFHU''TULYVL' run 'echo 1240000 1240000 > /sys/kernel/mva_tesst/regulators/buck2_set'
LFHUTULYVLLFHUTULYVL 0
root@arm:~# echo 'QFCA''WWNENJ'
QFCAWWNENJ
root@arm:~# MARKER='SUJU''MVKLHF' run 'i2cget -y -f 2 0x4b 0x10'
SUJUMVKLHF0x36
SUJUMVKLHF 0
root@arm:~# echo 'XXNZ''XLPVMC'
XXNZXLPVMC
root@arm:~# MARKER='MXHM''FPFWKF' run 'echo 1250000 1250000 > /sys/kernel/mva_tesst/regulators/buck2_set'
MXHMFPFWKFMXHMFPFWKF 0
root@arm:~# echo 'UZBP''QZLPQA'
UZBPQZLPQA
root@arm:~# MARKER='GOXH''SVAFBQ' run 'i2cget -y -f 2 0x4b 0x10'
GOXHSVAFBQ0x37
GOXHSVAFBQ 0
root@arm:~# echo 'UCKG''HHGXZP'
UCKGHHGXZP
root@arm:~# MARKER='WKJJ''FXTQKY' run 'echo 1260000 1260000 > /sys/kernel/mva_tesst/regulators/buck2_set'
WKJJFXTQKYWKJJFXTQKY 0
root@arm:~# echo 'XQQJ''NFZKHA'
XQQJNFZKHA
root@arm:~# MARKER='ALSY''OUFBCS' run 'i2cget -y -f 2 0x4b 0x10'
ALSYOUFBCS0x38
ALSYOUFBCS 0
root@arm:~# echo 'LKVL''CNWWYM'
LKVLCNWWYM
root@arm:~# MARKER='OVZL''OACGSA' run 'echo 1270000 1270000 > /sys/kernel/mva_tesst/regulators/buck2_set'
OVZLOACGSAOVZLOACGSA 0
root@arm:~# echo 'NWMX''OZLFSL'
NWMXOZLFSL
root@arm:~# MARKER='BNYE''TVMEWQ' run 'i2cget -y -f 2 0x4b 0x10'
BNYETVMEWQ0x39
BNYETVMEWQ 0
root@arm:~# echo 'GXOT''QJCNJY'
GXOTQJCNJY
root@arm:~# MARKER='TTNN''BKTGHS' run 'echo 1280000 1280000 > /sys/kernel/mva_tesst/regulators/buck2_set'
TTNNBKTGHSTTNNBKTGHS 0
root@arm:~# echo 'GAKK''MPLVCP'
GAKKMPLVCP
root@arm:~# MARKER='TLHQ''CUSYEW' run 'i2cget -y -f 2 0x4b 0x10'
TLHQCUSYEW0x3a
TLHQCUSYEW 0
root@arm:~# echo 'WLSV''LTQLWG'
WLSVLTQLWG
root@arm:~# MARKER='PGMG''ZKEGWP' run 'echo 1290000 1290000 > /sys/kernel/mva_tesst/regulators/buck2_set'
PGMGZKEGWPPGMGZKEGWP 0
root@arm:~# echo 'CMGK''ZWKXJU'
CMGKZWKXJU
root@arm:~# MARKER='VNJA''YWFCLZ' run 'i2cget -y -f 2 0x4b 0x10'
VNJAYWFCLZ0x3b
VNJAYWFCLZ 0
root@arm:~# echo 'QEHC''KNNYSZ'
QEHCKNNYSZ
root@arm:~# MARKER='CPNX''FOCBKZ' run 'echo 1300000 1300000 > /sys/kernel/mva_tesst/regulators/buck2_set'
CPNXFOCBKZCPNXFOCBKZ 0
root@arm:~# echo 'BAUX''MLFSAG'
BAUXMLFSAG
root@arm:~# MARKER='VCKB''JBGYWT' run 'i2cget -y -f 2 0x4b 0x10'
VCKBJBGYWT0x3c
VCKBJBGYWT 0
root@arm:~# echo 'KKBH''EXUWZY'
KKBHEXUWZY
root@arm:~# MARKER='QWUG''PXBKTT' run 'grep -r -l rohm,bd71837 /proc/device-tree  | sed '"'"'s![^/]*$!!'"'"''
QWUGPXBKTT/proc/device-tree/ocp/interconnect@48000000/segment@100000/target-module@9c000/i2c@0/pmic@4b/
QWUGPXBKTT 0
root@arm:~# echo 'OFGT''MBSPJA'
OFGTMBSPJA
root@arm:~# MARKER='VNWE''XPVJOG' run 'test -f /proc/device-tree/ocp/interconnectt\@48000000/segment\@100000/target-module\@9c000/i2c\@0/pmic\@4b/regulators/BUCK33/rohm,no-regulator-enable-control ;echo $?'
VNWEXPVJOG0
VNWEXPVJOG 0
root@arm:~# echo 'BEOX''QAHMMV'
BEOXQAHMMV
root@arm:~# MARKER='TUYS''UMGYAX' run 'echo 700000 700000 > /sys/kernel/mva_test//regulators/buck3_set'
TUYSUMGYAXTUYSUMGYAX 0
root@arm:~# echo 'YJXW''QEQMMX'
YJXWQEQMMX
root@arm:~# MARKER='EZSC''JTQXKO' run 'i2cget -y -f 2 0x4b 0x12'
EZSCJTQXKO0x00
EZSCJTQXKO 0
root@arm:~# echo 'VSFX''FQMHJF'
VSFXFQMHJF
root@arm:~# MARKER='USFP''BWJGQL' run 'echo 710000 710000 > /sys/kernel/mva_test//regulators/buck3_set'
USFPBWJGQLUSFPBWJGQL 0
root@arm:~# echo 'BCVS''KSMBTA'
BCVSKSMBTA
root@arm:~# MARKER='BFXH''JFQVHZ' run 'i2cget -y -f 2 0x4b 0x12'
BFXHJFQVHZ0x01
BFXHJFQVHZ 0
root@arm:~# echo 'SVWK''PPOUZZ'
SVWKPPOUZZ
root@arm:~# MARKER='MCGV''XQTAPJ' run 'echo 720000 720000 > /sys/kernel/mva_test//regulators/buck3_set'
MCGVXQTAPJMCGVXQTAPJ 0
root@arm:~# echo 'HXEZ''PYKJWX'
HXEZPYKJWX
root@arm:~# MARKER='FXGL''JQKUOX' run 'i2cget -y -f 2 0x4b 0x12'
FXGLJQKUOX0x02
FXGLJQKUOX 0
root@arm:~# echo 'NOBU''SOENQM'
NOBUSOENQM
root@arm:~# MARKER='ZUVL''QMSTMY' run 'echo 730000 730000 > /sys/kernel/mva_test//regulators/buck3_set'
ZUVLQMSTMYZUVLQMSTMY 0
root@arm:~# echo 'BHYT''GBNCWW'
BHYTGBNCWW
root@arm:~# MARKER='CNQT''PJGWUV' run 'i2cget -y -f 2 0x4b 0x12'
CNQTPJGWUV0x03
CNQTPJGWUV 0
root@arm:~# echo 'WLAH''TSZUQY'
WLAHTSZUQY
root@arm:~# MARKER='EGZU''EVYMVH' run 'echo 740000 740000 > /sys/kernel/mva_test//regulators/buck3_set'
EGZUEVYMVHEGZUEVYMVH 0
root@arm:~# echo 'SWXZ''TKYEWG'
SWXZTKYEWG
root@arm:~# MARKER='GYUX''GYPKSP' run 'i2cget -y -f 2 0x4b 0x12'
GYUXGYPKSP0x04
GYUXGYPKSP 0
root@arm:~# echo 'JCCL''LEJBJO'
JCCLLEJBJO
root@arm:~# MARKER='NSUQ''LQONAB' run 'echo 750000 750000 > /sys/kernel/mva_test//regulators/buck3_set'
NSUQLQONABNSUQLQONAB 0
root@arm:~# echo 'HMPB''HWUATY'
HMPBHWUATY
root@arm:~# MARKER='VGPA''JPJUSS' run 'i2cget -y -f 2 0x4b 0x12'
VGPAJPJUSS0x05
VGPAJPJUSS 0
root@arm:~# echo 'EOQL''VLTWVA'
EOQLVLTWVA
root@arm:~# MARKER='HCLA''QNJVSY' run 'echo 760000 760000 > /sys/kernel/mva_test//regulators/buck3_set'
HCLAQNJVSYHCLAQNJVSY 0
root@arm:~# echo 'LGCJ''ZJPXLL'
LGCJZJPXLL
root@arm:~# MARKER='QJEU''BAJOUH' run 'i2cget -y -f 2 0x4b 0x12'
QJEUBAJOUH0x06
QJEUBAJOUH 0
root@arm:~# echo 'QGUQ''WHONPX'
QGUQWHONPX
root@arm:~# MARKER='ZCXB''QWOXWQ' run 'echo 770000 770000 > /sys/kernel/mva_test//regulators/buck3_set'
ZCXBQWOXWQZCXBQWOXWQ 0
root@arm:~# echo 'QSTW''AKKVBU'
QSTWAKKVBU
root@arm:~# MARKER='TNWF''KHCXVS' run 'i2cget -y -f 2 0x4b 0x12'
TNWFKHCXVS0x07
TNWFKHCXVS 0
root@arm:~# echo 'FZWP''SZELEX'
FZWPSZELEX
root@arm:~# MARKER='BBKM''BWJTNG' run 'echo 780000 780000 > /sys/kernel/mva_test//regulators/buck3_set'
BBKMBWJTNGBBKMBWJTNG 0
root@arm:~# echo 'BOOW''VGLPXC'
BOOWVGLPXC
root@arm:~# MARKER='JMMT''AWGLCM' run 'i2cget -y -f 2 0x4b 0x12'
JMMTAWGLCM0x08
JMMTAWGLCM 0
root@arm:~# echo 'MOVJ''VOKPZY'
MOVJVOKPZY
root@arm:~# MARKER='JPWZ''FMVBBB' run 'echo 790000 790000 > /sys/kernel/mva_test//regulators/buck3_set'
JPWZFMVBBBJPWZFMVBBB 0
root@arm:~# echo 'MBSV''BFBGOY'
MBSVBFBGOY
root@arm:~# MARKER='BETX''FZKPAW' run 'i2cget -y -f 2 0x4b 0x12'
BETXFZKPAW0x09
BETXFZKPAW 0
root@arm:~# echo 'TZEZ''BPASNE'
TZEZBPASNE
root@arm:~# MARKER='ZWEP''KAJWYF' run 'echo 800000 800000 > /sys/kernel/mva_test//regulators/buck3_set'
ZWEPKAJWYFZWEPKAJWYF 0
root@arm:~# echo 'WVEO''MZOOAF'
WVEOMZOOAF
root@arm:~# MARKER='GAEX''LNSEJQ' run 'i2cget -y -f 2 0x4b 0x12'
GAEXLNSEJQ0x0a
GAEXLNSEJQ 0
root@arm:~# echo 'ACOB''TOGNHB'
ACOBTOGNHB
root@arm:~# MARKER='JYEU''LOSFUH' run 'echo 810000 810000 > /sys/kernel/mva_test//regulators/buck3_set'
JYEULOSFUHJYEULOSFUH 0
root@arm:~# echo 'LJEF''QMSYSL'
LJEFQMSYSL
root@arm:~# MARKER='QXTN''XNJYBH' run 'i2cget -y -f 2 0x4b 0x12'
QXTNXNJYBH0x0b
QXTNXNJYBH 0
root@arm:~# echo 'KGMF''OHYUWQ'
KGMFOHYUWQ
root@arm:~# MARKER='HCXL''SKTSPZ' run 'echo 820000 820000 > /sys/kernel/mva_test//regulators/buck3_set'
HCXLSKTSPZHCXLSKTSPZ 0
root@arm:~# echo 'KMAZ''JKTSZJ'
KMAZJKTSZJ
root@arm:~# MARKER='GLJE''UXQVVB' run 'i2cget -y -f 2 0x4b 0x12'
GLJEUXQVVB0x0c
GLJEUXQVVB 0
root@arm:~# echo 'TLMV''FPEKFJ'
TLMVFPEKFJ
root@arm:~# MARKER='CAEV''KYZMET' run 'echo 830000 830000 > /sys/kernel/mva_test//regulators/buck3_set'
CAEVKYZMETCAEVKYZMET 0
root@arm:~# echo 'QNHV''LAQKAZ'
QNHVLAQKAZ
root@arm:~# MARKER='GJJC''HSVMOH' run 'i2cget -y -f 2 0x4b 0x12'
GJJCHSVMOH0x0d
GJJCHSVMOH 0
root@arm:~# echo 'FVSL''MWBJWK'
FVSLMWBJWK
root@arm:~# MARKER='TJVK''PMNWPT' run 'echo 840000 840000 > /sys/kernel/mva_test//regulators/buck3_set'
TJVKPMNWPTTJVKPMNWPT 0
root@arm:~# echo 'NAKF''EAOXAU'
NAKFEAOXAU
root@arm:~# MARKER='QEAG''MPBAPQ' run 'i2cget -y -f 2 0x4b 0x12'
QEAGMPBAPQ0x0e
QEAGMPBAPQ 0
root@arm:~# echo 'PPBP''OGJHFQ'
PPBPOGJHFQ
root@arm:~# MARKER='PVYJ''KENPTZ' run 'echo 850000 850000 > /sys/kernel/mva_test//regulators/buck3_set'
PVYJKENPTZPVYJKENPTZ 0
root@arm:~# echo 'HKTH''AAQENG'
HKTHAAQENG
root@arm:~# MARKER='OUYT''PZMYOS' run 'i2cget -y -f 2 0x4b 0x12'
OUYTPZMYOS0x0f
OUYTPZMYOS 0
root@arm:~# echo 'TCEX''FZSJUX'
TCEXFZSJUX
root@arm:~# MARKER='FLQV''PJUOJY' run 'echo 860000 860000 > /sys/kernel/mva_test//regulators/buck3_set'
FLQVPJUOJYFLQVPJUOJY 0
root@arm:~# echo 'PBZP''LUXESX'
PBZPLUXESX
root@arm:~# MARKER='YUFE''UWLTJX' run 'i2cget -y -f 2 0x4b 0x12'
YUFEUWLTJX0x10
YUFEUWLTJX 0
root@arm:~# echo 'YUSO''KFUCVS'
YUSOKFUCVS
root@arm:~# MARKER='BCOQ''KUEWEW' run 'echo 870000 870000 > /sys/kernel/mva_test//regulators/buck3_set'
BCOQKUEWEWBCOQKUEWEW 0
root@arm:~# echo 'JKLJ''NNNUUG'
JKLJNNNUUG
root@arm:~# MARKER='QGAX''BPLLNT' run 'i2cget -y -f 2 0x4b 0x12'
QGAXBPLLNT0x11
QGAXBPLLNT 0
root@arm:~# echo 'HLBT''PVXBPU'
HLBTPVXBPU
root@arm:~# MARKER='LMUM''FYVKJL' run 'echo 880000 880000 > /sys/kernel/mva_test//regulators/buck3_set'
LMUMFYVKJLLMUMFYVKJL 0
root@arm:~# echo 'KZYW''FQFPGG'
KZYWFQFPGG
root@arm:~# MARKER='NPPG''ENSQUF' run 'i2cget -y -f 2 0x4b 0x12'
NPPGENSQUF0x12
NPPGENSQUF 0
root@arm:~# echo 'FNLM''SZTWVX'
FNLMSZTWVX
root@arm:~# MARKER='WPBJ''ELHZEB' run 'echo 890000 890000 > /sys/kernel/mva_test//regulators/buck3_set'
WPBJELHZEBWPBJELHZEB 0
root@arm:~# echo 'AGTB''HENZCB'
AGTBHENZCB
root@arm:~# MARKER='JZFT''MSZBFG' run 'i2cget -y -f 2 0x4b 0x12'
JZFTMSZBFG0x13
JZFTMSZBFG 0
root@arm:~# echo 'LAHU''JGWUXA'
LAHUJGWUXA
root@arm:~# MARKER='LXBS''EBOJPY' run 'echo 900000 900000 > /sys/kernel/mva_test//regulators/buck3_set'
LXBSEBOJPYLXBSEBOJPY 0
root@arm:~# echo 'PYHY''JWXULK'
PYHYJWXULK
root@arm:~# MARKER='ZVZQ''YSMQCB' run 'i2cget -y -f 2 0x4b 0x12'
ZVZQYSMQCB0x14
ZVZQYSMQCB 0
root@arm:~# echo 'WFEL''YLHVBH'
WFELYLHVBH
root@arm:~# MARKER='ZKNF''TFUVLL' run 'echo 910000 910000 > /sys/kernel/mva_test//regulators/buck3_set'
ZKNFTFUVLLZKNFTFUVLL 0
root@arm:~# echo 'YYVN''ZVYMQJ'
YYVNZVYMQJ
root@arm:~# MARKER='NECX''FFFTLX' run 'i2cget -y -f 2 0x4b 0x12'
NECXFFFTLX0x15
NECXFFFTLX 0
root@arm:~# echo 'QNTT''XTSWAQ'
QNTTXTSWAQ
root@arm:~# MARKER='SHTB''OYGWWK' run 'echo 920000 920000 > /sys/kernel/mva_test//regulators/buck3_set'
SHTBOYGWWKSHTBOYGWWK 0
root@arm:~# echo 'EGNF''NYLJXH'
EGNFNYLJXH
root@arm:~# MARKER='GYCM''EHCKNP' run 'i2cget -y -f 2 0x4b 0x12'
GYCMEHCKNP0x16
GYCMEHCKNP 0
root@arm:~# echo 'KBLX''STAHPP'
KBLXSTAHPP
root@arm:~# MARKER='CJCF''ZZGVTF' run 'echo 930000 930000 > /sys/kernel/mva_test//regulators/buck3_set'
CJCFZZGVTFCJCFZZGVTF 0
root@arm:~# echo 'LQZJ''LHEHPH'
LQZJLHEHPH
root@arm:~# MARKER='LYEO''HETSFE' run 'i2cget -y -f 2 0x4b 0x12'
LYEOHETSFE0x17
LYEOHETSFE 0
root@arm:~# echo 'FVJM''FVAJEG'
FVJMFVAJEG
root@arm:~# MARKER='VBXC''ZZGSAM' run 'echo 940000 940000 > /sys/kernel/mva_test//regulators/buck3_set'
VBXCZZGSAMVBXCZZGSAM 0
root@arm:~# echo 'BQZT''SJOUYO'
BQZTSJOUYO
root@arm:~# MARKER='EWPT''TZXXGL' run 'i2cget -y -f 2 0x4b 0x12'
EWPTTZXXGL0x18
EWPTTZXXGL 0
root@arm:~# echo 'QLCK''WALQNN'
QLCKWALQNN
root@arm:~# MARKER='NAUY''QFCTKK' run 'echo 950000 950000 > /sys/kernel/mva_test//regulators/buck3_set'
NAUYQFCTKKNAUYQFCTKK 0
root@arm:~# echo 'OTCW''JXLYTP'
OTCWJXLYTP
root@arm:~# MARKER='OEJA''JOWZPC' run 'i2cget -y -f 2 0x4b 0x12'
OEJAJOWZPC0x19
OEJAJOWZPC 0
root@arm:~# echo 'LKBW''NSVVGF'
LKBWNSVVGF
root@arm:~# MARKER='KYHS''GYJONW' run 'echo 960000 960000 > /sys/kernel/mva_test//regulators/buck3_set'
KYHSGYJONWKYHSGYJONW 0
root@arm:~# echo 'CFMG''GLTAGV'
CFMGGLTAGV
root@arm:~# MARKER='FMPQ''WEOZMG' run 'i2cget -y -f 2 0x4b 0x12'
FMPQWEOZMG0x1a
FMPQWEOZMG 0
root@arm:~# echo 'OMFO''BLKAWY'
OMFOBLKAWY
root@arm:~# MARKER='BKHY''PJVTFG' run 'echo 970000 970000 > /sys/kernel/mva_test//regulators/buck3_set'
BKHYPJVTFGBKHYPJVTFG 0
root@arm:~# echo 'HPNM''PUQJMB'
HPNMPUQJMB
root@arm:~# MARKER='TWLL''BFFOQS' run 'i2cget -y -f 2 0x4b 0x12'
TWLLBFFOQS0x1b
TWLLBFFOQS 0
root@arm:~# echo 'VPOL''AKJTQZ'
VPOLAKJTQZ
root@arm:~# MARKER='OWAJ''GCNAMV' run 'echo 980000 980000 > /sys/kernel/mva_test//regulators/buck3_set'
OWAJGCNAMVOWAJGCNAMV 0
root@arm:~# echo 'UQXS''ECGOMW'
UQXSECGOMW
root@arm:~# MARKER='TSPT''SJQQHL' run 'i2cget -y -f 2 0x4b 0x12'
TSPTSJQQHL0x1c
TSPTSJQQHL 0
root@arm:~# echo 'MGAY''SLXQYO'
MGAYSLXQYO
root@arm:~# MARKER='OGQX''KOJBYE' run 'echo 990000 990000 > /sys/kernel/mva_test//regulators/buck3_set'
OGQXKOJBYEOGQXKOJBYE 0
root@arm:~# echo 'WOSF''NPUOPF'
WOSFNPUOPF
root@arm:~# MARKER='EXVE''SBTQSH' run 'i2cget -y -f 2 0x4b 0x12'
EXVESBTQSH0x1d
EXVESBTQSH 0
root@arm:~# echo 'MPFP''FVAUOF'
MPFPFVAUOF
root@arm:~# MARKER='PVGW''YOSVNV' run 'echo 1000000 1000000 > /sys/kernel/mva_tesst/regulators/buck3_set'
PVGWYOSVNVPVGWYOSVNV 0
root@arm:~# echo 'AZTZ''YCJLAZ'
AZTZYCJLAZ
root@arm:~# MARKER='KEEE''GXOFQM' run 'i2cget -y -f 2 0x4b 0x12'
KEEEGXOFQM0x1e
KEEEGXOFQM 0
root@arm:~# echo 'TONX''PZVWYA'
TONXPZVWYA
root@arm:~# MARKER='MNNK''SQXUJV' run 'echo 1010000 1010000 > /sys/kernel/mva_tesst/regulators/buck3_set'
MNNKSQXUJVMNNKSQXUJV 0
root@arm:~# echo 'XBMX''AHHKBL'
XBMXAHHKBL
root@arm:~# MARKER='XESQ''SETFZG' run 'i2cget -y -f 2 0x4b 0x12'
XESQSETFZG0x1f
XESQSETFZG 0
root@arm:~# echo 'GXHF''YYHTZB'
GXHFYYHTZB
root@arm:~# MARKER='FQAB''STQXVT' run 'echo 1020000 1020000 > /sys/kernel/mva_tesst/regulators/buck3_set'
FQABSTQXVTFQABSTQXVT 0
root@arm:~# echo 'PMAB''NLWOZQ'
PMABNLWOZQ
root@arm:~# MARKER='MCBM''NAZYOW' run 'i2cget -y -f 2 0x4b 0x12'
MCBMNAZYOW0x20
MCBMNAZYOW 0
root@arm:~# echo 'USOJ''HEWUZG'
USOJHEWUZG
root@arm:~# MARKER='KGSY''SKSCMF' run 'echo 1030000 1030000 > /sys/kernel/mva_tesst/regulators/buck3_set'
KGSYSKSCMFKGSYSKSCMF 0
root@arm:~# echo 'PXPT''EOXSJB'
PXPTEOXSJB
root@arm:~# MARKER='GXXL''ATXAWB' run 'i2cget -y -f 2 0x4b 0x12'
GXXLATXAWB0x21
GXXLATXAWB 0
root@arm:~# echo 'OJVA''WGSGGV'
OJVAWGSGGV
root@arm:~# MARKER='JVZA''ABWVNN' run 'echo 1040000 1040000 > /sys/kernel/mva_tesst/regulators/buck3_set'
JVZAABWVNNJVZAABWVNN 0
root@arm:~# echo 'XJGW''EFWMSY'
XJGWEFWMSY
root@arm:~# MARKER='KWGK''HSULNX' run 'i2cget -y -f 2 0x4b 0x12'
KWGKHSULNX0x22
KWGKHSULNX 0
root@arm:~# echo 'TQEN''OMCEPB'
TQENOMCEPB
root@arm:~# MARKER='WUWP''KUZQNQ' run 'echo 1050000 1050000 > /sys/kernel/mva_tesst/regulators/buck3_set'
WUWPKUZQNQWUWPKUZQNQ 0
root@arm:~# echo 'GSBA''HOYHLE'
GSBAHOYHLE
root@arm:~# MARKER='WWHX''XYJQFX' run 'i2cget -y -f 2 0x4b 0x12'
WWHXXYJQFX0x23
WWHXXYJQFX 0
root@arm:~# echo 'CUSU''XVAYKO'
CUSUXVAYKO
root@arm:~# MARKER='FYPC''BPTCYM' run 'echo 1060000 1060000 > /sys/kernel/mva_tesst/regulators/buck3_set'
FYPCBPTCYMFYPCBPTCYM 0
root@arm:~# echo 'FXEK''MKHNGT'
FXEKMKHNGT
root@arm:~# MARKER='VZUB''VXYMAO' run 'i2cget -y -f 2 0x4b 0x12'
VZUBVXYMAO0x24
VZUBVXYMAO 0
root@arm:~# echo 'QTVG''HSZKSA'
QTVGHSZKSA
root@arm:~# MARKER='UXQK''MFFAVY' run 'echo 1070000 1070000 > /sys/kernel/mva_tesst/regulators/buck3_set'
UXQKMFFAVYUXQKMFFAVY 0
root@arm:~# echo 'SZSN''YOWNTE'
SZSNYOWNTE
root@arm:~# MARKER='FPQC''UJSBAU' run 'i2cget -y -f 2 0x4b 0x12'
FPQCUJSBAU0x25
FPQCUJSBAU 0
root@arm:~# echo 'JYLB''KPCTEY'
JYLBKPCTEY
root@arm:~# MARKER='CXJO''HBBTMW' run 'echo 1080000 1080000 > /sys/kernel/mva_tesst/regulators/buck3_set'
CXJOHBBTMWCXJOHBBTMW 0
root@arm:~# echo 'WFEY''GFJGGH'
WFEYGFJGGH
root@arm:~# MARKER='OLUW''EMFPAG' run 'i2cget -y -f 2 0x4b 0x12'
OLUWEMFPAG0x26
OLUWEMFPAG 0
root@arm:~# echo 'OJEA''VFZOJU'
OJEAVFZOJU
root@arm:~# MARKER='WQKS''HXUPAC' run 'echo 1090000 1090000 > /sys/kernel/mva_tesst/regulators/buck3_set'
WQKSHXUPACWQKSHXUPAC 0
root@arm:~# echo 'HHYA''BNYPMH'
HHYABNYPMH
root@arm:~# MARKER='ATQW''QTJAOK' run 'i2cget -y -f 2 0x4b 0x12'
ATQWQTJAOK0x27
ATQWQTJAOK 0
root@arm:~# echo 'LYPO''BBBYVG'
LYPOBBBYVG
root@arm:~# MARKER='VEFU''GKXZWC' run 'echo 1100000 1100000 > /sys/kernel/mva_tesst/regulators/buck3_set'
VEFUGKXZWCVEFUGKXZWC 0
root@arm:~# echo 'KPKY''ULFNCJ'
KPKYULFNCJ
root@arm:~# MARKER='OCEA''TOXHCX' run 'i2cget -y -f 2 0x4b 0x12'
OCEATOXHCX0x28
OCEATOXHCX 0
root@arm:~# echo 'LFZO''AWLFXT'
LFZOAWLFXT
root@arm:~# MARKER='UPOA''KMTYWZ' run 'echo 1110000 1110000 > /sys/kernel/mva_tesst/regulators/buck3_set'
UPOAKMTYWZUPOAKMTYWZ 0
root@arm:~# echo 'QVCA''MMWSLT'
QVCAMMWSLT
root@arm:~# MARKER='EYYH''JALZHU' run 'i2cget -y -f 2 0x4b 0x12'
EYYHJALZHU0x29
EYYHJALZHU 0
root@arm:~# echo 'EPCE''YHCWXP'
EPCEYHCWXP
root@arm:~# MARKER='XQQA''MUKWQK' run 'echo 1120000 1120000 > /sys/kernel/mva_tesst/regulators/buck3_set'
XQQAMUKWQKXQQAMUKWQK 0
root@arm:~# echo 'WZLP''GGSGCM'
WZLPGGSGCM
root@arm:~# MARKER='ZZUA''PHNUHW' run 'i2cget -y -f 2 0x4b 0x12'
ZZUAPHNUHW0x2a
ZZUAPHNUHW 0
root@arm:~# echo 'OHSU''YGTVTS'
OHSUYGTVTS
root@arm:~# MARKER='NULP''FUYKSW' run 'echo 1130000 1130000 > /sys/kernel/mva_tesst/regulators/buck3_set'
NULPFUYKSWNULPFUYKSW 0
root@arm:~# echo 'ONHW''SXYBYK'
ONHWSXYBYK
root@arm:~# MARKER='AHKO''SQNSBV' run 'i2cget -y -f 2 0x4b 0x12'
AHKOSQNSBV0x2b
AHKOSQNSBV 0
root@arm:~# echo 'KCJE''YMVWNM'
KCJEYMVWNM
root@arm:~# MARKER='UPEW''VXYAFF' run 'echo 1140000 1140000 > /sys/kernel/mva_tesst/regulators/buck3_set'
UPEWVXYAFFUPEWVXYAFF 0
root@arm:~# echo 'FUSX''BJHTPU'
FUSXBJHTPU
root@arm:~# MARKER='KAYF''SCUZZY' run 'i2cget -y -f 2 0x4b 0x12'
KAYFSCUZZY0x2c
KAYFSCUZZY 0
root@arm:~# echo 'CEXQ''AUCLXS'
CEXQAUCLXS
root@arm:~# MARKER='CLHQ''WJYOAA' run 'echo 1150000 1150000 > /sys/kernel/mva_tesst/regulators/buck3_set'
CLHQWJYOAACLHQWJYOAA 0
root@arm:~# echo 'EGNU''WUQMUV'
EGNUWUQMUV
root@arm:~# MARKER='JOCH''LQLZKT' run 'i2cget -y -f 2 0x4b 0x12'
JOCHLQLZKT0x2d
JOCHLQLZKT 0
root@arm:~# echo 'UMMV''BTCQUB'
UMMVBTCQUB
root@arm:~# MARKER='PUOO''QSQEXQ' run 'echo 1160000 1160000 > /sys/kernel/mva_tesst/regulators/buck3_set'
PUOOQSQEXQPUOOQSQEXQ 0
root@arm:~# echo 'ECYJ''ZHQXJP'
ECYJZHQXJP
root@arm:~# MARKER='FYES''MAKJWM' run 'i2cget -y -f 2 0x4b 0x12'
FYESMAKJWM0x2e
FYESMAKJWM 0
root@arm:~# echo 'EUUK''SWHKXY'
EUUKSWHKXY
root@arm:~# MARKER='LTEV''PLFPHP' run 'echo 1170000 1170000 > /sys/kernel/mva_tesst/regulators/buck3_set'
LTEVPLFPHPLTEVPLFPHP 0
root@arm:~# echo 'FGKM''BVTOVA'
FGKMBVTOVA
root@arm:~# MARKER='EAGA''YCSPWC' run 'i2cget -y -f 2 0x4b 0x12'
EAGAYCSPWC0x2f
EAGAYCSPWC 0
root@arm:~# echo 'EWZM''HOTAFB'
EWZMHOTAFB
root@arm:~# MARKER='KFFY''HFVUZN' run 'echo 1180000 1180000 > /sys/kernel/mva_tesst/regulators/buck3_set'
KFFYHFVUZNKFFYHFVUZN 0
root@arm:~# echo 'OQXT''KUXHTG'
OQXTKUXHTG
root@arm:~# MARKER='FFLO''QEKASA' run 'i2cget -y -f 2 0x4b 0x12'
FFLOQEKASA0x30
FFLOQEKASA 0
root@arm:~# echo 'CZTF''GXPUQV'
CZTFGXPUQV
root@arm:~# MARKER='XECM''HTPSXS' run 'echo 1190000 1190000 > /sys/kernel/mva_tesst/regulators/buck3_set'
XECMHTPSXSXECMHTPSXS 0
root@arm:~# echo 'UXXY''BFYVNW'
UXXYBFYVNW
root@arm:~# MARKER='KMNE''VZXHEQ' run 'i2cget -y -f 2 0x4b 0x12'
KMNEVZXHEQ0x31
KMNEVZXHEQ 0
root@arm:~# echo 'QZLE''GWBVOJ'
QZLEGWBVOJ
root@arm:~# MARKER='JHML''XWZENK' run 'echo 1200000 1200000 > /sys/kernel/mva_tesst/regulators/buck3_set'
JHMLXWZENKJHMLXWZENK 0
root@arm:~# echo 'NVYY''YHOQMO'
NVYYYHOQMO
root@arm:~# MARKER='UXSL''EWGJGL' run 'i2cget -y -f 2 0x4b 0x12'
UXSLEWGJGL0x32
UXSLEWGJGL 0
root@arm:~# echo 'YJCZ''SHZVZK'
YJCZSHZVZK
root@arm:~# MARKER='TSOH''UOMLAZ' run 'echo 1210000 1210000 > /sys/kernel/mva_tesst/regulators/buck3_set'
TSOHUOMLAZTSOHUOMLAZ 0
root@arm:~# echo 'CHTT''CXWKKO'
CHTTCXWKKO
root@arm:~# MARKER='HOXT''TNGLTZ' run 'i2cget -y -f 2 0x4b 0x12'
HOXTTNGLTZ0x33
HOXTTNGLTZ 0
root@arm:~# echo 'OOPJ''KZYOZF'
OOPJKZYOZF
root@arm:~# MARKER='BCGO''XNYZGP' run 'echo 1220000 1220000 > /sys/kernel/mva_tesst/regulators/buck3_set'
BCGOXNYZGPBCGOXNYZGP 0
root@arm:~# echo 'BWZU''TEOGTF'
BWZUTEOGTF
root@arm:~# MARKER='YNOM''YXHAFX' run 'i2cget -y -f 2 0x4b 0x12'
YNOMYXHAFX0x34
YNOMYXHAFX 0
root@arm:~# echo 'NHZA''EAFTWY'
NHZAEAFTWY
root@arm:~# MARKER='QXZM''WUXWJZ' run 'echo 1230000 1230000 > /sys/kernel/mva_tesst/regulators/buck3_set'
QXZMWUXWJZQXZMWUXWJZ 0
root@arm:~# echo 'TOAL''SVOEGL'
TOALSVOEGL
root@arm:~# MARKER='LYSO''OUBXPL' run 'i2cget -y -f 2 0x4b 0x12'
LYSOOUBXPL0x35
LYSOOUBXPL 0
root@arm:~# echo 'VATS''LTZBEX'
VATSLTZBEX
root@arm:~# MARKER='WSOK''MECXGJ' run 'echo 1240000 1240000 > /sys/kernel/mva_tesst/regulators/buck3_set'
WSOKMECXGJWSOKMECXGJ 0
root@arm:~# echo 'LTXF''JTNBBB'
LTXFJTNBBB
root@arm:~# MARKER='BCMB''KLCFCB' run 'i2cget -y -f 2 0x4b 0x12'
BCMBKLCFCB0x36
BCMBKLCFCB 0
root@arm:~# echo 'BQFT''KCXXVL'
BQFTKCXXVL
root@arm:~# MARKER='UFVC''VPUFCO' run 'echo 1250000 1250000 > /sys/kernel/mva_tesst/regulators/buck3_set'
UFVCVPUFCOUFVCVPUFCO 0
root@arm:~# echo 'QNSV''PMPJUX'
QNSVPMPJUX
root@arm:~# MARKER='BUXF''ZTJJOB' run 'i2cget -y -f 2 0x4b 0x12'
BUXFZTJJOB0x37
BUXFZTJJOB 0
root@arm:~# echo 'WNSA''YYGEWB'
WNSAYYGEWB
root@arm:~# MARKER='UQEE''TJWHXH' run 'echo 1260000 1260000 > /sys/kernel/mva_tesst/regulators/buck3_set'
UQEETJWHXHUQEETJWHXH 0
root@arm:~# echo 'KVHG''BZKZAO'
KVHGBZKZAO
root@arm:~# MARKER='ZAWY''QLYCOT' run 'i2cget -y -f 2 0x4b 0x12'
ZAWYQLYCOT0x38
ZAWYQLYCOT 0
root@arm:~# echo 'QLWE''BZFYNS'
QLWEBZFYNS
root@arm:~# MARKER='FWKE''QESMST' run 'echo 1270000 1270000 > /sys/kernel/mva_tesst/regulators/buck3_set'
FWKEQESMSTFWKEQESMST 0
root@arm:~# echo 'XZKW''TAHEGW'
XZKWTAHEGW
root@arm:~# MARKER='MLKJ''CYLVCB' run 'i2cget -y -f 2 0x4b 0x12'
MLKJCYLVCB0x39
MLKJCYLVCB 0
root@arm:~# echo 'QPKE''EUQAPO'
QPKEEUQAPO
root@arm:~# MARKER='QMBU''VYEQVV' run 'echo 1280000 1280000 > /sys/kernel/mva_tesst/regulators/buck3_set'
QMBUVYEQVVQMBUVYEQVV 0
root@arm:~# echo 'XSUC''OVBKTY'
XSUCOVBKTY
root@arm:~# MARKER='SOMC''UVJGAJ' run 'i2cget -y -f 2 0x4b 0x12'
SOMCUVJGAJ0x3a
SOMCUVJGAJ 0
root@arm:~# echo 'LJSS''VYAPEC'
LJSSVYAPEC
root@arm:~# MARKER='NYVL''ZJWBGS' run 'echo 1290000 1290000 > /sys/kernel/mva_tesst/regulators/buck3_set'
NYVLZJWBGSNYVLZJWBGS 0
root@arm:~# echo 'YBMW''ZHSLPY'
YBMWZHSLPY
root@arm:~# MARKER='XOTN''LFYVXO' run 'i2cget -y -f 2 0x4b 0x12'
XOTNLFYVXO0x3b
XOTNLFYVXO 0
root@arm:~# echo 'ECYN''UZTULY'
ECYNUZTULY
root@arm:~# MARKER='FQHM''VQFKFO' run 'echo 1300000 1300000 > /sys/kernel/mva_tesst/regulators/buck3_set'
FQHMVQFKFOFQHMVQFKFO 0
root@arm:~# echo 'XHCB''KQNQNG'
XHCBKQNQNG
root@arm:~# MARKER='YPCK''XJQUXE' run 'i2cget -y -f 2 0x4b 0x12'
YPCKXJQUXE0x3c
YPCKXJQUXE 0
root@arm:~# echo 'UZMA''QKLOQP'
UZMAQKLOQP
root@arm:~# MARKER='ETNF''HXUOHM' run 'grep -r -l rohm,bd71837 /proc/device-tree  | sed '"'"'s![^/]*$!!'"'"''
ETNFHXUOHM/proc/device-tree/ocp/interconnect@48000000/segment@100000/target-module@9c000/i2c@0/pmic@4b/
ETNFHXUOHM 0
root@arm:~# echo 'LVLN''BOKJEX'
LVLNBOKJEX
root@arm:~# MARKER='NTMW''PSPNTW' run 'test -f /proc/device-tree/ocp/interconnectt\@48000000/segment\@100000/target-module\@9c000/i2c\@0/pmic\@4b/regulators/BUCK44/rohm,no-regulator-enable-control ;echo $?'
NTMWPSPNTW1
NTMWPSPNTW 0
root@arm:~# echo 'HAXQ''ULTPGK'
HAXQULTPGK
root@arm:~# MARKER='CJTC''GHLKXT' run 'i2cget -y -f 2 0x4b 0x8'
CJTCGHLKXT0xc6
CJTCGHLKXT 0
root@arm:~# echo 'OWTY''JYJVNU'
OWTYJYJVNU
root@arm:~# MARKER='MAMX''EWELZP' run 'echo 700000 700000 > /sys/kernel/mva_test//regulators/buck4_set'
MAMXEWELZPMAMXEWELZP 0
root@arm:~# echo 'YJKK''VWUYLP'
YJKKVWUYLP
root@arm:~# MARKER='ZUJW''MBQCAK' run 'i2cget -y -f 2 0x4b 0x13'
ZUJWMBQCAK0x00
ZUJWMBQCAK 0
root@arm:~# echo 'XVWB''EYOBUM'
XVWBEYOBUM
root@arm:~# MARKER='WNNZ''TXJGTA' run 'echo 710000 710000 > /sys/kernel/mva_test//regulators/buck4_set'
WNNZTXJGTAWNNZTXJGTA 0
root@arm:~# echo 'JJHE''VULJEY'
JJHEVULJEY
root@arm:~# MARKER='JCMV''UUSTHK' run 'i2cget -y -f 2 0x4b 0x13'
JCMVUUSTHK0x01
JCMVUUSTHK 0
root@arm:~# echo 'QUSJ''CUYEYT'
QUSJCUYEYT
root@arm:~# MARKER='OKUZ''AVHTOT' run 'echo 720000 720000 > /sys/kernel/mva_test//regulators/buck4_set'
OKUZAVHTOTOKUZAVHTOT 0
root@arm:~# echo 'OQTH''QOTHFS'
OQTHQOTHFS
root@arm:~# MARKER='ACVO''NYFYYZ' run 'i2cget -y -f 2 0x4b 0x13'
ACVONYFYYZ0x02
ACVONYFYYZ 0
root@arm:~# echo 'NYOT''CHASQE'
NYOTCHASQE
root@arm:~# MARKER='UEGU''XZLTFF' run 'echo 730000 730000 > /sys/kernel/mva_test//regulators/buck4_set'
UEGUXZLTFFUEGUXZLTFF 0
root@arm:~# echo 'UQPC''PWLQFZ'
UQPCPWLQFZ
root@arm:~# MARKER='TZKJ''WPJCWY' run 'i2cget -y -f 2 0x4b 0x13'
TZKJWPJCWY0x03
TZKJWPJCWY 0
root@arm:~# echo 'ANYE''TFLEZF'
ANYETFLEZF
root@arm:~# MARKER='HCSM''HNQKBV' run 'echo 740000 740000 > /sys/kernel/mva_test//regulators/buck4_set'
HCSMHNQKBVHCSMHNQKBV 0
root@arm:~# echo 'HCJH''NOZPSF'
HCJHNOZPSF
root@arm:~# MARKER='JOGF''AYOFSP' run 'i2cget -y -f 2 0x4b 0x13'
JOGFAYOFSP0x04
JOGFAYOFSP 0
root@arm:~# echo 'WPZY''XLQLCU'
WPZYXLQLCU
root@arm:~# MARKER='EOUE''JGKTVP' run 'echo 750000 750000 > /sys/kernel/mva_test//regulators/buck4_set'
EOUEJGKTVPEOUEJGKTVP 0
root@arm:~# echo 'KQZU''FFMJCQ'
KQZUFFMJCQ
root@arm:~# MARKER='QAYH''OVGNMY' run 'i2cget -y -f 2 0x4b 0x13'
QAYHOVGNMY0x05
QAYHOVGNMY 0
root@arm:~# echo 'MAOW''QNHTBW'
MAOWQNHTBW
root@arm:~# MARKER='NGUU''EAOMVG' run 'echo 760000 760000 > /sys/kernel/mva_test//regulators/buck4_set'
NGUUEAOMVGNGUUEAOMVG 0
root@arm:~# echo 'VCSX''XMANKK'
VCSXXMANKK
root@arm:~# MARKER='QGWP''PAWZJL' run 'i2cget -y -f 2 0x4b 0x13'
QGWPPAWZJL0x06
QGWPPAWZJL 0
root@arm:~# echo 'HQAW''LJAVQP'
HQAWLJAVQP
root@arm:~# MARKER='VFUB''TAMCOU' run 'echo 770000 770000 > /sys/kernel/mva_test//regulators/buck4_set'
VFUBTAMCOUVFUBTAMCOU 0
root@arm:~# echo 'ZFPC''AWALOA'
ZFPCAWALOA
root@arm:~# MARKER='BUFO''WYWMSN' run 'i2cget -y -f 2 0x4b 0x13'
BUFOWYWMSN0x07
BUFOWYWMSN 0
root@arm:~# echo 'OYJG''ABQFUE'
OYJGABQFUE
root@arm:~# MARKER='ZLOX''STPCUW' run 'echo 780000 780000 > /sys/kernel/mva_test//regulators/buck4_set'
ZLOXSTPCUWZLOXSTPCUW 0
root@arm:~# echo 'XXUZ''LMZNAA'
XXUZLMZNAA
root@arm:~# MARKER='XCEE''VOKHQX' run 'i2cget -y -f 2 0x4b 0x13'
XCEEVOKHQX0x08
XCEEVOKHQX 0
root@arm:~# echo 'HCTN''NQLPXT'
HCTNNQLPXT
root@arm:~# MARKER='HAOW''OPSNEV' run 'echo 790000 790000 > /sys/kernel/mva_test//regulators/buck4_set'
HAOWOPSNEVHAOWOPSNEV 0
root@arm:~# echo 'QMLW''WXWSYB'
QMLWWXWSYB
root@arm:~# MARKER='UGUK''JKQNLA' run 'i2cget -y -f 2 0x4b 0x13'
UGUKJKQNLA0x09
UGUKJKQNLA 0
root@arm:~# echo 'TVGN''PBGQKM'
TVGNPBGQKM
root@arm:~# MARKER='AZXV''FTPUUF' run 'echo 800000 800000 > /sys/kernel/mva_test//regulators/buck4_set'
AZXVFTPUUFAZXVFTPUUF 0
root@arm:~# echo 'AOPW''HVGFLS'
AOPWHVGFLS
root@arm:~# MARKER='EOXE''OYPTKE' run 'i2cget -y -f 2 0x4b 0x13'
EOXEOYPTKE0x0a
EOXEOYPTKE 0
root@arm:~# echo 'GJHM''BXCNJA'
GJHMBXCNJA
root@arm:~# MARKER='ULOP''SEMMKK' run 'echo 810000 810000 > /sys/kernel/mva_test//regulators/buck4_set'
ULOPSEMMKKULOPSEMMKK 0
root@arm:~# echo 'HUVZ''YAGYZL'
HUVZYAGYZL
root@arm:~# MARKER='YAAY''TOPEHL' run 'i2cget -y -f 2 0x4b 0x13'
YAAYTOPEHL0x0b
YAAYTOPEHL 0
root@arm:~# echo 'TKWY''BGMOJJ'
TKWYBGMOJJ
root@arm:~# MARKER='TGQG''POVOTX' run 'echo 820000 820000 > /sys/kernel/mva_test//regulators/buck4_set'
TGQGPOVOTXTGQGPOVOTX 0
root@arm:~# echo 'JQJT''ZZYEEC'
JQJTZZYEEC
root@arm:~# MARKER='SFHL''KTHANY' run 'i2cget -y -f 2 0x4b 0x13'
SFHLKTHANY0x0c
SFHLKTHANY 0
root@arm:~# echo 'CNKJ''MNABJK'
CNKJMNABJK
root@arm:~# MARKER='ZXEO''WNOSFN' run 'echo 830000 830000 > /sys/kernel/mva_test//regulators/buck4_set'
ZXEOWNOSFNZXEOWNOSFN 0
root@arm:~# echo 'WBQA''SKWNTE'
WBQASKWNTE
root@arm:~# MARKER='YVJK''BAAYCM' run 'i2cget -y -f 2 0x4b 0x13'
YVJKBAAYCM0x0d
YVJKBAAYCM 0
root@arm:~# echo 'TTUH''YKSKNT'
TTUHYKSKNT
root@arm:~# MARKER='YEFV''GHOQOX' run 'echo 840000 840000 > /sys/kernel/mva_test//regulators/buck4_set'
YEFVGHOQOXYEFVGHOQOX 0
root@arm:~# echo 'MMQC''NLWTTS'
MMQCNLWTTS
root@arm:~# MARKER='XMAS''HWBLVO' run 'i2cget -y -f 2 0x4b 0x13'
XMASHWBLVO0x0e
XMASHWBLVO 0
root@arm:~# echo 'STWG''BASZON'
STWGBASZON
root@arm:~# MARKER='VXNC''CCKWEZ' run 'echo 850000 850000 > /sys/kernel/mva_test//regulators/buck4_set'
VXNCCCKWEZVXNCCCKWEZ 0
root@arm:~# echo 'GXOJ''LYGEKF'
GXOJLYGEKF
root@arm:~# MARKER='ECHN''FHWPTA' run 'i2cget -y -f 2 0x4b 0x13'
ECHNFHWPTA0x0f
ECHNFHWPTA 0
root@arm:~# echo 'OOSK''OHJMWS'
OOSKOHJMWS
root@arm:~# MARKER='YNFP''PPTASX' run 'echo 860000 860000 > /sys/kernel/mva_test//regulators/buck4_set'
YNFPPPTASXYNFPPPTASX 0
root@arm:~# echo 'ABVO''YEHMST'
ABVOYEHMST
root@arm:~# MARKER='VNAW''ZJWFSG' run 'i2cget -y -f 2 0x4b 0x13'
VNAWZJWFSG0x10
VNAWZJWFSG 0
root@arm:~# echo 'PZKL''FPQLKQ'
PZKLFPQLKQ
root@arm:~# MARKER='JHVP''JYZQMT' run 'echo 870000 870000 > /sys/kernel/mva_test//regulators/buck4_set'
JHVPJYZQMTJHVPJYZQMT 0
root@arm:~# echo 'EBNQ''KOXYSX'
EBNQKOXYSX
root@arm:~# MARKER='QSVQ''NKOWWX' run 'i2cget -y -f 2 0x4b 0x13'
QSVQNKOWWX0x11
QSVQNKOWWX 0
root@arm:~# echo 'YBKJ''BVBXCO'
YBKJBVBXCO
root@arm:~# MARKER='TVLT''NNFSCF' run 'echo 880000 880000 > /sys/kernel/mva_test//regulators/buck4_set'
TVLTNNFSCFTVLTNNFSCF 0
root@arm:~# echo 'YZEY''LJKYAY'
YZEYLJKYAY
root@arm:~# MARKER='GNNU''AZTPWP' run 'i2cget -y -f 2 0x4b 0x13'
GNNUAZTPWP0x12
GNNUAZTPWP 0
root@arm:~# echo 'FKZY''MAWYEN'
FKZYMAWYEN
root@arm:~# MARKER='LJNU''AUAJBT' run 'echo 890000 890000 > /sys/kernel/mva_test//regulators/buck4_set'
LJNUAUAJBTLJNUAUAJBT 0
root@arm:~# echo 'GUSX''HKBVXM'
GUSXHKBVXM
root@arm:~# MARKER='GYAN''YFSMQY' run 'i2cget -y -f 2 0x4b 0x13'
GYANYFSMQY0x13
GYANYFSMQY 0
root@arm:~# echo 'FABX''LVVOFW'
FABXLVVOFW
root@arm:~# MARKER='HEOA''GNOYHB' run 'echo 900000 900000 > /sys/kernel/mva_test//regulators/buck4_set'
HEOAGNOYHBHEOAGNOYHB 0
root@arm:~# echo 'VEQZ''MMXMQH'
VEQZMMXMQH
root@arm:~# MARKER='PKMN''YKLNBK' run 'i2cget -y -f 2 0x4b 0x13'
PKMNYKLNBK0x14
PKMNYKLNBK 0
root@arm:~# echo 'CMYG''SKLTSU'
CMYGSKLTSU
root@arm:~# MARKER='OTAW''FHVQQE' run 'echo 910000 910000 > /sys/kernel/mva_test//regulators/buck4_set'
OTAWFHVQQEOTAWFHVQQE 0
root@arm:~# echo 'KETS''XTJQLL'
KETSXTJQLL
root@arm:~# MARKER='HJJP''GBWTJJ' run 'i2cget -y -f 2 0x4b 0x13'
HJJPGBWTJJ0x15
HJJPGBWTJJ 0
root@arm:~# echo 'SLGH''GKMQZM'
SLGHGKMQZM
root@arm:~# MARKER='QBAX''EJFJKL' run 'echo 920000 920000 > /sys/kernel/mva_test//regulators/buck4_set'
QBAXEJFJKLQBAXEJFJKL 0
root@arm:~# echo 'COHB''ASSSMH'
COHBASSSMH
root@arm:~# MARKER='XLKO''TBZVJW' run 'i2cget -y -f 2 0x4b 0x13'
XLKOTBZVJW0x16
XLKOTBZVJW 0
root@arm:~# echo 'UJYW''ANXXNN'
UJYWANXXNN
root@arm:~# MARKER='XEVG''PUEONU' run 'echo 930000 930000 > /sys/kernel/mva_test//regulators/buck4_set'
XEVGPUEONUXEVGPUEONU 0
root@arm:~# echo 'JTYG''OSSXOF'
JTYGOSSXOF
root@arm:~# MARKER='UJQH''KSYLMM' run 'i2cget -y -f 2 0x4b 0x13'
UJQHKSYLMM0x17
UJQHKSYLMM 0
root@arm:~# echo 'KABW''NXWWLO'
KABWNXWWLO
