Labgrid Console Logfile for main
Logfile started at 2025-08-25 12:19:04.634652
=== Log starts here ===

root@arm:~# run() { echo -n "$MARKER"; sh -c "$@"; echo "$MARKER $?"; }
root@arm:~# echo 'FNQF''AZBZQY'
FNQFAZBZQY
root@arm:~# MARKER='CEKN''YNNUQF' run 'grep -r -l rohm,bd71837 /proc/device-tree  | sed '"'"'s![^/]*$!!'"'"''
CEKNYNNUQF/proc/device-tree/ocp/interconnect@48000000/segment@100000/target-module@9c000/i2c@0/pmic@4b/
CEKNYNNUQF 0
root@arm:~# echo 'VHFJ''WLOJUY'
VHFJWLOJUY
root@arm:~# MARKER='WOVA''EMLYGZ' run 'test -f /proc/device-tree/ocp/interconnectt\@48000000/segment\@100000/target-module\@9c000/i2c\@0/pmic\@4b/regulators/BUCK11/rohm,no-regulator-enable-control ;echo $?'
WOVAEMLYGZ1
WOVAEMLYGZ 0
root@arm:~# echo 'KNXG''XLWYUE'
KNXGXLWYUE
root@arm:~# MARKER='SZQE''WGTWXU' run 'echo 1 > /sys/kernel/mva_test/regulators/bbuck1_en'
SZQEWGTWXUSZQEWGTWXU 0
root@arm:~# echo 'SHAM''TLKCCL'
SHAMTLKCCL
root@arm:~# MARKER='HHMB''MPNMWW' run 'i2cget -y -f 2 0x4b 0x5'
HHMBMPNMWW0x03
HHMBMPNMWW 0
root@arm:~# echo 'CWLJ''YTEYZG'
CWLJYTEYZG
root@arm:~# MARKER='JLZB''WPQZGO' run 'grep -r -l rohm,bd71837 /proc/device-tree  | sed '"'"'s![^/]*$!!'"'"''
JLZBWPQZGO/proc/device-tree/ocp/interconnect@48000000/segment@100000/target-module@9c000/i2c@0/pmic@4b/
JLZBWPQZGO 0
root@arm:~# echo 'FHTW''SASFAN'
FHTWSASFAN
root@arm:~# MARKER='HWHX''ATMEEC' run 'test -f /proc/device-tree/ocp/interconnectt\@48000000/segment\@100000/target-module\@9c000/i2c\@0/pmic\@4b/regulators/BUCK11/rohm,no-regulator-enable-control ;echo $?'
HWHXATMEEC1
HWHXATMEEC 0
root@arm:~# echo 'PNGY''PFGXPL'
PNGYPFGXPL
root@arm:~# MARKER='VFSJ''KHSGMP' run 'grep -r -l rohm,bd71837 /proc/device-tree  | sed '"'"'s![^/]*$!!'"'"''
VFSJKHSGMP/proc/device-tree/ocp/interconnect@48000000/segment@100000/target-module@9c000/i2c@0/pmic@4b/
VFSJKHSGMP 0
root@arm:~# echo 'OOUQ''LOXUFB'
OOUQLOXUFB
root@arm:~# MARKER='NLME''PJYBHC' run 'test -f /proc/device-tree/ocp/interconnectt\@48000000/segment\@100000/target-module\@9c000/i2c\@0/pmic\@4b/regulators/BUCK11/regulator-always-on ;echo $?'
NLMEPJYBHC1
NLMEPJYBHC 0
root@arm:~# echo 'MOPH''HBFWMW'
MOPHHBFWMW
root@arm:~# MARKER='FOOS''BAYMFE' run 'echo 0 > /sys/kernel/mva_test/regulators/bbuck1_en'
FOOSBAYMFEFOOSBAYMFE 0
root@arm:~# echo 'XLCB''STBBJW'
XLCBSTBBJW
root@arm:~# MARKER='UGBB''ZZSKZK' run 'i2cget -y -f 2 0x4b 0x5'
UGBBZZSKZK0x02
UGBBZZSKZK 0
root@arm:~# echo 'CLEF''FVOQYW'
CLEFFVOQYW
root@arm:~# MARKER='ULYQ''SENVZA' run 'grep -r -l rohm,bd71837 /proc/device-tree  | sed '"'"'s![^/]*$!!'"'"''
ULYQSENVZA/proc/device-tree/ocp/interconnect@48000000/segment@100000/target-module@9c000/i2c@0/pmic@4b/
ULYQSENVZA 0
root@arm:~# echo 'AXTW''BPOKOG'
AXTWBPOKOG
root@arm:~# MARKER='FXPM''ZQQQBV' run 'test -f /proc/device-tree/ocp/interconnectt\@48000000/segment\@100000/target-module\@9c000/i2c\@0/pmic\@4b/regulators/BUCK22/rohm,no-regulator-enable-control ;echo $?'
FXPMZQQQBV1
FXPMZQQQBV 0
root@arm:~# echo 'BTLN''XSYFNE'
BTLNXSYFNE
root@arm:~# MARKER='YKJA''VCXXOA' run 'echo 1 > /sys/kernel/mva_test/regulators/bbuck2_en'
YKJAVCXXOAYKJAVCXXOA 0
root@arm:~# echo 'KKEX''CLMVUW'
KKEXCLMVUW
root@arm:~# MARKER='KAJK''XSWJKZ' run 'i2cget -y -f 2 0x4b 0x6'
KAJKXSWJKZ0x43
KAJKXSWJKZ 0
root@arm:~# echo 'BFPB''WKAPHQ'
BFPBWKAPHQ
root@arm:~# MARKER='NAZS''TNANLG' run 'grep -r -l rohm,bd71837 /proc/device-tree  | sed '"'"'s![^/]*$!!'"'"''
NAZSTNANLG/proc/device-tree/ocp/interconnect@48000000/segment@100000/target-module@9c000/i2c@0/pmic@4b/
NAZSTNANLG 0
root@arm:~# echo 'CPMX''QBBLVK'
CPMXQBBLVK
root@arm:~# MARKER='CEUL''MJACMM' run 'test -f /proc/device-tree/ocp/interconnectt\@48000000/segment\@100000/target-module\@9c000/i2c\@0/pmic\@4b/regulators/BUCK 2/rohm,no-regulator-enable-control ;echo $?'
CEULMJACMM1
CEULMJACMM 0
root@arm:~# echo 'BOBG''CONSLW'
BOBGCONSLW
root@arm:~# MARKER='AAGQ''GCUZAP' run 'grep -r -l rohm,bd71837 /proc/device-tree  | sed '"'"'s![^/]*$!!'"'"''
AAGQGCUZAP/proc/device-tree/ocp/interconnect@48000000/segment@100000/target-module@9c000/i2c@0/pmic@4b/
AAGQGCUZAP 0
root@arm:~# echo 'MCXN''TEHAMA'
MCXNTEHAMA
root@arm:~# MARKER='UMYJ''BJGFTO' run 'test -f /proc/device-tree/ocp/interconnectt\@48000000/segment\@100000/target-module\@9c000/i2c\@0/pmic\@4b/regulators/BUCK22/regulator-always-on ;echo $?'
UMYJBJGFTO0
UMYJBJGFTO 0
root@arm:~# echo 'AULK''UNHCMQ'
AULKUNHCMQ
root@arm:~# MARKER='BCAH''OZCESA' run 'grep -r -l rohm,bd71837 /proc/device-tree  | sed '"'"'s![^/]*$!!'"'"''
BCAHOZCESA/proc/device-tree/ocp/interconnect@48000000/segment@100000/target-module@9c000/i2c@0/pmic@4b/
BCAHOZCESA 0
root@arm:~# echo 'TZPK''UTQPPF'
TZPKUTQPPF
root@arm:~# MARKER='CFWL''UYFNOM' run 'test -f /proc/device-tree/ocp/interconnectt\@48000000/segment\@100000/target-module\@9c000/i2c\@0/pmic\@4b/regulators/BUCK33/rohm,no-regulator-enable-control ;echo $?'
CFWLUYFNOM0
CFWLUYFNOM 0
root@arm:~# echo 'SVFX''LVZASU'
SVFXLVZASU
root@arm:~# MARKER='LUFZ''ESLZKZ' run 'grep -r -l rohm,bd71837 /proc/device-tree  | sed '"'"'s![^/]*$!!'"'"''
LUFZESLZKZ/proc/device-tree/ocp/interconnect@48000000/segment@100000/target-module@9c000/i2c@0/pmic@4b/
LUFZESLZKZ 0
root@arm:~# echo 'LMPX''PAHMTP'
LMPXPAHMTP
root@arm:~# MARKER='SEJW''BNXHPN' run 'test -f /proc/device-tree/ocp/interconnectt\@48000000/segment\@100000/target-module\@9c000/i2c\@0/pmic\@4b/regulators/BUCK33/rohm,no-regulator-enable-control ;echo $?'
SEJWBNXHPN0
SEJWBNXHPN 0
root@arm:~# echo 'WNAB''GWZGVC'
WNABGWZGVC
root@arm:~# MARKER='WQTK''GXQKWB' run 'grep -r -l rohm,bd71837 /proc/device-tree  | sed '"'"'s![^/]*$!!'"'"''
WQTKGXQKWB/proc/device-tree/ocp/interconnect@48000000/segment@100000/target-module@9c000/i2c@0/pmic@4b/
WQTKGXQKWB 0
root@arm:~# echo 'LWWH''EKWUSO'
LWWHEKWUSO
root@arm:~# MARKER='MUFW''QGPJTS' run 'test -f /proc/device-tree/ocp/interconnectt\@48000000/segment\@100000/target-module\@9c000/i2c\@0/pmic\@4b/regulators/BUCK44/rohm,no-regulator-enable-control ;echo $?'
MUFWQGPJTS1
MUFWQGPJTS 0
root@arm:~# echo 'PAAN''BHZAUV'
PAANBHZAUV
root@arm:~# MARKER='BOTW''EKMECL' run 'echo 1 > /sys/kernel/mva_test/regulators/bbuck4_en'
BOTWEKMECLBOTWEKMECL 0
root@arm:~# echo 'FSLN''TEEFNJ'
FSLNTEEFNJ
root@arm:~# MARKER='YWXC''KLOATB' run 'i2cget -y -f 2 0x4b 0x8'
YWXCKLOATB0xc7
YWXCKLOATB 0
root@arm:~# echo 'BHJC''WZTSLC'
BHJCWZTSLC
root@arm:~# MARKER='NTXM''ZBYPMA' run 'grep -r -l rohm,bd71837 /proc/device-tree  | sed '"'"'s![^/]*$!!'"'"''
NTXMZBYPMA/proc/device-tree/ocp/interconnect@48000000/segment@100000/target-module@9c000/i2c@0/pmic@4b/
NTXMZBYPMA 0
root@arm:~# echo 'KLXK''EWNUNV'
KLXKEWNUNV
root@arm:~# MARKER='QJOZ''HPLOQF' run 'test -f /proc/device-tree/ocp/interconnectt\@48000000/segment\@100000/target-module\@9c000/i2c\@0/pmic\@4b/regulators/BUCK44/rohm,no-regulator-enable-control ;echo $?'
QJOZHPLOQF1
QJOZHPLOQF 0
root@arm:~# echo 'WOWO''UZQYPZ'
WOWOUZQYPZ
root@arm:~# MARKER='YMLT''SHYHGH' run 'grep -r -l rohm,bd71837 /proc/device-tree  | sed '"'"'s![^/]*$!!'"'"''
YMLTSHYHGH/proc/device-tree/ocp/interconnect@48000000/segment@100000/target-module@9c000/i2c@0/pmic@4b/
YMLTSHYHGH 0
root@arm:~# echo 'SCVN''FWUKQO'
SCVNFWUKQO
root@arm:~# MARKER='HOOQ''JKQCKP' run 'test -f /proc/device-tree/ocp/interconnectt\@48000000/segment\@100000/target-module\@9c000/i2c\@0/pmic\@4b/regulators/BUCK44/regulator-always-on ;echo $?'
HOOQJKQCKP1
HOOQJKQCKP 0
root@arm:~# echo 'KLTJ''JYLNNY'
KLTJJYLNNY
root@arm:~# MARKER='TNXL''WWMVKW' run 'echo 0 > /sys/kernel/mva_test/regulators/bbuck4_en'
TNXLWWMVKWTNXLWWMVKW 0
root@arm:~# echo 'MHXE''BVHUFT'
MHXEBVHUFT
root@arm:~# MARKER='KKCY''KVJZFF' run 'i2cget -y -f 2 0x4b 0x8'
KKCYKVJZFF0xc6
KKCYKVJZFF 0
root@arm:~# echo 'WALQ''KQTHAV'
WALQKQTHAV
root@arm:~# MARKER='YEMJ''PKNBHG' run 'grep -r -l rohm,bd71837 /proc/device-tree  | sed '"'"'s![^/]*$!!'"'"''
YEMJPKNBHG/proc/device-tree/ocp/interconnect@48000000/segment@100000/target-module@9c000/i2c@0/pmic@4b/
YEMJPKNBHG 0
root@arm:~# echo 'AFCQ''APZELE'
AFCQAPZELE
root@arm:~# MARKER='WJQB''CWQTQC' run 'test -f /proc/device-tree/ocp/interconnectt\@48000000/segment\@100000/target-module\@9c000/i2c\@0/pmic\@4b/regulators/BUCK55/rohm,no-regulator-enable-control ;echo $?'
WJQBCWQTQC1
WJQBCWQTQC 0
root@arm:~# echo 'UFOU''AYNKST'
UFOUAYNKST
root@arm:~# MARKER='AHGQ''VTTSPH' run 'echo 1 > /sys/kernel/mva_test/regulators/bbuck5_en'
AHGQVTTSPHAHGQVTTSPH 0
root@arm:~# echo 'VOCJ''BCPFOA'
VOCJBCPFOA
root@arm:~# MARKER='ZKSO''EMTTET' run 'i2cget -y -f 2 0x4b 0x9'
ZKSOEMTTET0x03
ZKSOEMTTET 0
root@arm:~# echo 'FFWG''BCSJKP'
FFWGBCSJKP
root@arm:~# MARKER='AJKN''QLOSUJ' run 'grep -r -l rohm,bd71837 /proc/device-tree  | sed '"'"'s![^/]*$!!'"'"''
AJKNQLOSUJ/proc/device-tree/ocp/interconnect@48000000/segment@100000/target-module@9c000/i2c@0/pmic@4b/
AJKNQLOSUJ 0
root@arm:~# echo 'FNUV''AWNKZL'
FNUVAWNKZL
root@arm:~# MARKER='ONEL''COKOFQ' run 'test -f /proc/device-tree/ocp/interconnectt\@48000000/segment\@100000/target-module\@9c000/i2c\@0/pmic\@4b/regulators/BUCK55/rohm,no-regulator-enable-control ;echo $?'
ONELCOKOFQ1
ONELCOKOFQ 0
root@arm:~# echo 'LLAZ''NCFYFU'
LLAZNCFYFU
root@arm:~# MARKER='WLFL''VEACPS' run 'grep -r -l rohm,bd71837 /proc/device-tree  | sed '"'"'s![^/]*$!!'"'"''
WLFLVEACPS/proc/device-tree/ocp/interconnect@48000000/segment@100000/target-module@9c000/i2c@0/pmic@4b/
WLFLVEACPS 0
root@arm:~# echo 'VCCU''CXSNOA'
VCCUCXSNOA
root@arm:~# MARKER='YAUU''MEJJXQ' run 'test -f /proc/device-tree/ocp/interconnectt\@48000000/segment\@100000/target-module\@9c000/i2c\@0/pmic\@4b/regulators/BUCK55/regulator-always-on ;echo $?'
YAUUMEJJXQ1
YAUUMEJJXQ 0
root@arm:~# echo 'XCYV''FFYAEE'
XCYVFFYAEE
root@arm:~# MARKER='SHOK''VWVONF' run 'echo 0 > /sys/kernel/mva_test/regulators/bbuck5_en'
SHOKVWVONFSHOKVWVONF 0
root@arm:~# echo 'YZXO''FFVPAF'
YZXOFFVPAF
root@arm:~# MARKER='FGFL''YJFEKN' run 'i2cget -y -f 2 0x4b 0x9'
FGFLYJFEKN0x02
FGFLYJFEKN 0
root@arm:~# echo 'FCAA''VVNTAE'
FCAAVVNTAE
root@arm:~# MARKER='LLUO''JALSCJ' run 'grep -r -l rohm,bd71837 /proc/device-tree  | sed '"'"'s![^/]*$!!'"'"''
LLUOJALSCJ/proc/device-tree/ocp/interconnect@48000000/segment@100000/target-module@9c000/i2c@0/pmic@4b/
LLUOJALSCJ 0
root@arm:~# echo 'UBVU''PAMNWP'
UBVUPAMNWP
root@arm:~# MARKER='VEXO''XKWQCH' run 'test -f /proc/device-tree/ocp/interconnectt\@48000000/segment\@100000/target-module\@9c000/i2c\@0/pmic\@4b/regulators/BUCK66/rohm,no-regulator-enable-control ;echo $?'
VEXOXKWQCH1
VEXOXKWQCH 0
root@arm:~# echo 'VEYL''UCKSAC'
VEYLUCKSAC
root@arm:~# MARKER='HBSW''CQQCQM' run 'echo 1 > /sys/kernel/mva_test/regulators/bbuck6_en'
HBSWCQQCQMHBSWCQQCQM 0
root@arm:~# echo 'CJBE''LPXUXJ'
CJBELPXUXJ
root@arm:~# MARKER='NJMB''YWXKKB' run 'i2cget -y -f 2 0x4b 0xa'
NJMBYWXKKB0x03
NJMBYWXKKB 0
root@arm:~# echo 'BFFA''MNMVWZ'
BFFAMNMVWZ
root@arm:~# MARKER='BVEC''MJCTNM' run 'grep -r -l rohm,bd71837 /proc/device-tree  | sed '"'"'s![^/]*$!!'"'"''
BVECMJCTNM/proc/device-tree/ocp/interconnect@48000000/segment@100000/target-module@9c000/i2c@0/pmic@4b/
BVECMJCTNM 0
root@arm:~# echo 'KLOH''EKOJWG'
KLOHEKOJWG
root@arm:~# MARKER='EOEZ''EKBJTS' run 'test -f /proc/device-tree/ocp/interconnectt\@48000000/segment\@100000/target-module\@9c000/i2c\@0/pmic\@4b/regulators/BUCK66/rohm,no-regulator-enable-control ;echo $?'
EOEZEKBJTS1
EOEZEKBJTS 0
root@arm:~# echo 'EHZA''JEMMNF'
EHZAJEMMNF
root@arm:~# MARKER='MUSZ''ZJMEFH' run 'grep -r -l rohm,bd71837 /proc/device-tree  | sed '"'"'s![^/]*$!!'"'"''
MUSZZJMEFH/proc/device-tree/ocp/interconnect@48000000/segment@100000/target-module@9c000/i2c@0/pmic@4b/
MUSZZJMEFH 0
root@arm:~# echo 'GBXU''NKUTFW'
GBXUNKUTFW
root@arm:~# MARKER='VSAN''UXBXFC' run 'test -f /proc/device-tree/ocp/interconnectt\@48000000/segment\@100000/target-module\@9c000/i2c\@0/pmic\@4b/regulators/BUCK66/regulator-always-on ;echo $?'
VSANUXBXFC1
VSANUXBXFC 0
root@arm:~# echo 'KEXW''BKYBPU'
KEXWBKYBPU
root@arm:~# MARKER='PUAC''WTHZQW' run 'echo 0 > /sys/kernel/mva_test/regulators/bbuck6_en'
PUACWTHZQWPUACWTHZQW 0
root@arm:~# echo 'JSWY''EQJPQK'
JSWYEQJPQK
root@arm:~# MARKER='YAOF''XFQPCX' run 'i2cget -y -f 2 0x4b 0xa'
YAOFXFQPCX0x02
YAOFXFQPCX 0
root@arm:~# echo 'SZVN''OXTCNV'
SZVNOXTCNV
root@arm:~# MARKER='PFNW''FMESJM' run 'grep -r -l rohm,bd71837 /proc/device-tree  | sed '"'"'s![^/]*$!!'"'"''
PFNWFMESJM/proc/device-tree/ocp/interconnect@48000000/segment@100000/target-module@9c000/i2c@0/pmic@4b/
PFNWFMESJM 0
root@arm:~# echo 'LMWO''KZVEJO'
LMWOKZVEJO
root@arm:~# MARKER='HCKA''WPWWBV' run 'test -f /proc/device-tree/ocp/interconnectt\@48000000/segment\@100000/target-module\@9c000/i2c\@0/pmic\@4b/regulators/BUCK 7/rohm,no-regulator-enable-control ;echo $?'
HCKAWPWWBV1
HCKAWPWWBV 0
root@arm:~# echo 'YUNM''TTYAEW'
YUNMTTYAEW
root@arm:~# MARKER='NKEX''TAOYOT' run 'echo 1 > /sys/kernel/mva_test/regulators/bbuck7_en'
NKEXTAOYOTNKEXTAOYOT 0
root@arm:~# echo 'KQUJ''MQBTOZ'
KQUJMQBTOZ
root@arm:~# MARKER='ZNJX''PBMFQF' run 'i2cget -y -f 2 0x4b 0xb'
ZNJXPBMFQF0x03
ZNJXPBMFQF 0
root@arm:~# echo 'YYWL''EGKTPX'
YYWLEGKTPX
root@arm:~# MARKER='NCNM''OTKGZB' run 'grep -r -l rohm,bd71837 /proc/device-tree  | sed '"'"'s![^/]*$!!'"'"''
NCNMOTKGZB/proc/device-tree/ocp/interconnect@48000000/segment@100000/target-module@9c000/i2c@0/pmic@4b/
NCNMOTKGZB 0
root@arm:~# echo 'UQCV''CZAHHA'
UQCVCZAHHA
root@arm:~# MARKER='BJST''SVEYQG' run 'test -f /proc/device-tree/ocp/interconnectt\@48000000/segment\@100000/target-module\@9c000/i2c\@0/pmic\@4b/regulators/BUCK77/rohm,no-regulator-enable-control ;echo $?'
BJSTSVEYQG1
BJSTSVEYQG 0
root@arm:~# echo 'KXJO''AXZYFC'
KXJOAXZYFC
root@arm:~# MARKER='KMVE''CHHFQH' run 'grep -r -l rohm,bd71837 /proc/device-tree  | sed '"'"'s![^/]*$!!'"'"''
KMVECHHFQH/proc/device-tree/ocp/interconnect@48000000/segment@100000/target-module@9c000/i2c@0/pmic@4b/
KMVECHHFQH 0
root@arm:~# echo 'LAQK''TKYUXX'
LAQKTKYUXX
root@arm:~# MARKER='ZXZQ''KNHFZH' run 'test -f /proc/device-tree/ocp/interconnectt\@48000000/segment\@100000/target-module\@9c000/i2c\@0/pmic\@4b/regulators/BUCK77/regulator-always-on ;echo $?'
ZXZQKNHFZH1
ZXZQKNHFZH 0
root@arm:~# echo 'BBSF''BJKFYQ'
BBSFBJKFYQ
root@arm:~# MARKER='UFNM''ENXMKP' run 'echo 0 > /sys/kernel/mva_test/regulators/bbuck7_en'
UFNMENXMKPUFNMENXMKP 0
root@arm:~# echo 'TGAM''ZQCZQX'
TGAMZQCZQX
root@arm:~# MARKER='BFHS''AKTUOW' run 'i2cget -y -f 2 0x4b 0xb'
BFHSAKTUOW0x02
BFHSAKTUOW 0
root@arm:~# echo 'VPPX''HEWFQQ'
VPPXHEWFQQ
root@arm:~# MARKER='LYVA''GUOLFU' run 'grep -r -l rohm,bd71837 /proc/device-tree  | sed '"'"'s![^/]*$!!'"'"''
LYVAGUOLFU/proc/device-tree/ocp/interconnect@48000000/segment@100000/target-module@9c000/i2c@0/pmic@4b/
LYVAGUOLFU 0
root@arm:~# echo 'GZLT''KLLEGY'
GZLTKLLEGY
root@arm:~# MARKER='WPPN''KXVETU' run 'test -f /proc/device-tree/ocp/interconnectt\@48000000/segment\@100000/target-module\@9c000/i2c\@0/pmic\@4b/regulators/BUCK88/rohm,no-regulator-enable-control ;echo $?'
WPPNKXVETU1
WPPNKXVETU 0
root@arm:~# echo 'OHPN''CCWOSQ'
OHPNCCWOSQ
root@arm:~# MARKER='ANHV''QOCHBA' run 'echo 1 > /sys/kernel/mva_test/regulators/bbuck8_en'
ANHVQOCHBAANHVQOCHBA 0
root@arm:~# echo 'ZQAW''MOPWOC'
ZQAWMOPWOC
root@arm:~# MARKER='KJGL''SOZVJT' run 'i2cget -y -f 2 0x4b 0xc'
KJGLSOZVJT0x03
KJGLSOZVJT 0
root@arm:~# echo 'YSLQ''OGNPJS'
YSLQOGNPJS
root@arm:~# MARKER='NVWS''BXCONG' run 'grep -r -l rohm,bd71837 /proc/device-tree  | sed '"'"'s![^/]*$!!'"'"''
NVWSBXCONG/proc/device-tree/ocp/interconnect@48000000/segment@100000/target-module@9c000/i2c@0/pmic@4b/
NVWSBXCONG 0
root@arm:~# echo 'PUYW''EGZFVP'
PUYWEGZFVP
root@arm:~# MARKER='BHSO''GFJVXQ' run 'test -f /proc/device-tree/ocp/interconnectt\@48000000/segment\@100000/target-module\@9c000/i2c\@0/pmic\@4b/regulators/BUCK88/rohm,no-regulator-enable-control ;echo $?'
BHSOGFJVXQ1
BHSOGFJVXQ 0
root@arm:~# echo 'LPFP''JMQHQV'
LPFPJMQHQV
root@arm:~# MARKER='ZWWV''SLBFXO' run 'grep -r -l rohm,bd71837 /proc/device-tree  | sed '"'"'s![^/]*$!!'"'"''
ZWWVSLBFXO/proc/device-tree/ocp/interconnect@48000000/segment@100000/target-module@9c000/i2c@0/pmic@4b/
ZWWVSLBFXO 0
root@arm:~# echo 'UEYU''WKZFAH'
UEYUWKZFAH
root@arm:~# MARKER='NCNP''QYNHPJ' run 'test -f /proc/device-tree/ocp/interconnectt\@48000000/segment\@100000/target-module\@9c000/i2c\@0/pmic\@4b/regulators/BUCK88/regulator-always-on ;echo $?'
NCNPQYNHPJ1
NCNPQYNHPJ 0
root@arm:~# echo 'YPCW''GJXFNZ'
YPCWGJXFNZ
root@arm:~# MARKER='NPPG''MJSBMJ' run 'echo 0 > /sys/kernel/mva_test/regulators/bbuck8_en'
NPPGMJSBMJNPPGMJSBMJ 0
root@arm:~# echo 'JSJY''XCPFOM'
JSJYXCPFOM
root@arm:~# MARKER='VVGA''AKMPMY' run 'i2cget -y -f 2 0x4b 0xc'
VVGAAKMPMY0x02
VVGAAKMPMY 0
root@arm:~# echo 'JONY''ECHMJU'
JONYECHMJU
root@arm:~# MARKER='QKAT''QTPUKM' run 'grep -r -l rohm,bd71837 /proc/device-tree  | sed '"'"'s![^/]*$!!'"'"''
QKATQTPUKM/proc/device-tree/ocp/interconnect@48000000/segment@100000/target-module@9c000/i2c@0/pmic@4b/
QKATQTPUKM 0
root@arm:~# echo 'GGHX''PJTPYH'
GGHXPJTPYH
root@arm:~# MARKER='ACXE''OSOYEC' run 'test -f /proc/device-tree/ocp/interconnectt\@48000000/segment\@100000/target-module\@9c000/i2c\@0/pmic\@4b/regulators/LDO1//rohm,no-regulator-enable-control ;echo $?'
ACXEOSOYEC1
ACXEOSOYEC 0
root@arm:~# echo 'OPCL''WEJTHN'
OPCLWEJTHN
root@arm:~# MARKER='MONE''TWGEJM' run 'echo 1 > /sys/kernel/mva_test/regulators/bbuck9_en'
MONETWGEJMMONETWGEJM 0
root@arm:~# echo 'VGXX''HYAPUZ'
VGXXHYAPUZ
root@arm:~# MARKER='AFCU''TVCGZY' run 'i2cget -y -f 2 0x4b 0x18'
AFCUTVCGZY0xc3
AFCUTVCGZY 0
root@arm:~# echo 'PQWC''UJEKLY'
PQWCUJEKLY
root@arm:~# MARKER='BAJF''ZYGTYS' run 'grep -r -l rohm,bd71837 /proc/device-tree  | sed '"'"'s![^/]*$!!'"'"''
BAJFZYGTYS/proc/device-tree/ocp/interconnect@48000000/segment@100000/target-module@9c000/i2c@0/pmic@4b/
BAJFZYGTYS 0
root@arm:~# echo 'AZQF''PBZUXS'
AZQFPBZUXS
root@arm:~# MARKER='AOXA''JWVYZF' run 'test -f /proc/device-tree/ocp/interconnectt\@48000000/segment\@100000/target-module\@9c000/i2c\@0/pmic\@4b/regulators/LDO1//rohm,no-regulator-enable-control ;echo $?'
AOXAJWVYZF1
AOXAJWVYZF 0
root@arm:~# echo 'LOAJ''GLFSUP'
LOAJGLFSUP
root@arm:~# MARKER='XWZL''MGXVGX' run 'grep -r -l rohm,bd71837 /proc/device-tree  | sed '"'"'s![^/]*$!!'"'"''
XWZLMGXVGX/proc/device-tree/ocp/interconnect@48000000/segment@100000/target-module@9c000/i2c@0/pmic@4b/
XWZLMGXVGX 0
root@arm:~# echo 'POLH''FMFGLW'
POLHFMFGLW
root@arm:~# MARKER='OBKA''EVZOSC' run 'test -f /proc/device-tree/ocp/interconnectt\@48000000/segment\@100000/target-module\@9c000/i2c\@0/pmic\@4b/regulators/LDO1//regulator-always-on ;echo $?'
OBKAEVZOSC1
OBKAEVZOSC 0
root@arm:~# echo 'CQCF''AYQYNT'
CQCFAYQYNT
root@arm:~# MARKER='TMLO''KMNHCW' run 'echo 0 > /sys/kernel/mva_test/regulators/bbuck9_en'
TMLOKMNHCWTMLOKMNHCW 0
root@arm:~# echo 'YGTB''GBVKFO'
YGTBGBVKFO
root@arm:~# MARKER='MXYY''JOGTHL' run 'i2cget -y -f 2 0x4b 0x18'
MXYYJOGTHL0x83
MXYYJOGTHL 0
root@arm:~# echo 'LWLE''SXQYFC'
LWLESXQYFC
root@arm:~# MARKER='ASLU''MTWTPZ' run 'grep -r -l rohm,bd71837 /proc/device-tree  | sed '"'"'s![^/]*$!!'"'"''
ASLUMTWTPZ/proc/device-tree/ocp/interconnect@48000000/segment@100000/target-module@9c000/i2c@0/pmic@4b/
ASLUMTWTPZ 0
root@arm:~# echo 'NWEX''HLUUQW'
NWEXHLUUQW
root@arm:~# MARKER='EKTV''CPOWPE' run 'test -f /proc/device-tree/ocp/interconnectt\@48000000/segment\@100000/target-module\@9c000/i2c\@0/pmic\@4b/regulators/LDO2//rohm,no-regulator-enable-control ;echo $?'
EKTVCPOWPE1
EKTVCPOWPE 0
root@arm:~# echo 'KYKA''KFBTPG'
KYKAKFBTPG
root@arm:~# MARKER='GGHZ''JZJWSN' run 'echo 1 > /sys/kernel/mva_test/regulators/bbuck10_en'
GGHZJZJWSNGGHZJZJWSN 0
root@arm:~# echo 'LHCB''LVYZNM'
LHCBLVYZNM
root@arm:~# MARKER='CKUW''MZWLZE' run 'i2cget -y -f 2 0x4b 0x19'
CKUWMZWLZE0xc0
CKUWMZWLZE 0
root@arm:~# echo 'SPXZ''TCJFNT'
SPXZTCJFNT
root@arm:~# MARKER='FLJX''UBHPXW' run 'grep -r -l rohm,bd71837 /proc/device-tree  | sed '"'"'s![^/]*$!!'"'"''
FLJXUBHPXW/proc/device-tree/ocp/interconnect@48000000/segment@100000/target-module@9c000/i2c@0/pmic@4b/
FLJXUBHPXW 0
root@arm:~# echo 'OEVY''YGLHUB'
OEVYYGLHUB
root@arm:~# MARKER='YXUJ''BOQTXF' run 'test -f /proc/device-tree/ocp/interconnectt\@48000000/segment\@100000/target-module\@9c000/i2c\@0/pmic\@4b/regulators/LDO2//rohm,no-regulator-enable-control ;echo $?'
YXUJBOQTXF1
YXUJBOQTXF 0
root@arm:~# echo 'BHJE''XZHAAK'
BHJEXZHAAK
root@arm:~# MARKER='SSSH''ZGPCHO' run 'grep -r -l rohm,bd71837 /proc/device-tree  | sed '"'"'s![^/]*$!!'"'"''
SSSHZGPCHO/proc/device-tree/ocp/interconnect@48000000/segment@100000/target-module@9c000/i2c@0/pmic@4b/
SSSHZGPCHO 0
root@arm:~# echo 'QGTT''GWGOWE'
QGTTGWGOWE
root@arm:~# MARKER='KOOU''LUELMX' run 'test -f /proc/device-tree/ocp/interconnectt\@48000000/segment\@100000/target-module\@9c000/i2c\@0/pmic\@4b/regulators/LDO2//regulator-always-on ;echo $?'
KOOULUELMX1
KOOULUELMX 0
root@arm:~# echo 'LKEV''CJEZYT'
LKEVCJEZYT
root@arm:~# MARKER='HWCP''WJOLZP' run 'echo 0 > /sys/kernel/mva_test/regulators/bbuck10_en'
HWCPWJOLZPHWCPWJOLZP 0
root@arm:~# echo 'GNZV''SAUBWG'
GNZVSAUBWG
root@arm:~# MARKER='VLBO''NAGGHX' run 'i2cget -y -f 2 0x4b 0x19'
VLBONAGGHX0x80
VLBONAGGHX 0
root@arm:~# echo 'HZHV''HHEKMA'
HZHVHHEKMA
root@arm:~# MARKER='NVPU''UULWOX' run 'grep -r -l rohm,bd71837 /proc/device-tree  | sed '"'"'s![^/]*$!!'"'"''
NVPUUULWOX/proc/device-tree/ocp/interconnect@48000000/segment@100000/target-module@9c000/i2c@0/pmic@4b/
NVPUUULWOX 0
root@arm:~# echo 'YXBY''QNQJZP'
YXBYQNQJZP
root@arm:~# MARKER='HBXK''SOCUUA' run 'test -f /proc/device-tree/ocp/interconnectt\@48000000/segment\@100000/target-module\@9c000/i2c\@0/pmic\@4b/regulators/LDO3//rohm,no-regulator-enable-control ;echo $?'
HBXKSOCUUA1
HBXKSOCUUA 0
root@arm:~# echo 'MMZV''MYUSSL'
MMZVMYUSSL
root@arm:~# MARKER='JNSE''SKNSZA' run 'echo 1 > /sys/kernel/mva_test/regulators/bbuck11_en'
JNSESKNSZAJNSESKNSZA 0
root@arm:~# echo 'GEHZ''WFAXQT'
GEHZWFAXQT
root@arm:~# MARKER='PWLM''OEEULQ' run 'i2cget -y -f 2 0x4b 0x1a'
PWLMOEEULQ0xc0
PWLMOEEULQ 0
root@arm:~# echo 'FAMB''NCQMTY'
FAMBNCQMTY
root@arm:~# MARKER='PCNS''OFQMFX' run 'grep -r -l rohm,bd71837 /proc/device-tree  | sed '"'"'s![^/]*$!!'"'"''
PCNSOFQMFX/proc/device-tree/ocp/interconnect@48000000/segment@100000/target-module@9c000/i2c@0/pmic@4b/
PCNSOFQMFX 0
root@arm:~# echo 'PSBX''VKLXUL'
PSBXVKLXUL
root@arm:~# MARKER='PVLW''GOATVT' run 'test -f /proc/device-tree/ocp/interconnectt\@48000000/segment\@100000/target-module\@9c000/i2c\@0/pmic\@4b/regulators/LDO3//rohm,no-regulator-enable-control ;echo $?'
PVLWGOATVT1
PVLWGOATVT 0
root@arm:~# echo 'FEOS''AGMSUO'
FEOSAGMSUO
root@arm:~# MARKER='MXZH''QMFZNU' run 'grep -r -l rohm,bd71837 /proc/device-tree  | sed '"'"'s![^/]*$!!'"'"''
MXZHQMFZNU/proc/device-tree/ocp/interconnect@48000000/segment@100000/target-module@9c000/i2c@0/pmic@4b/
MXZHQMFZNU 0
root@arm:~# echo 'GFEC''XFVUEA'
GFECXFVUEA
root@arm:~# MARKER='OVCH''VPBMAE' run 'test -f /proc/device-tree/ocp/interconnectt\@48000000/segment\@100000/target-module\@9c000/i2c\@0/pmic\@4b/regulators/LDO3//regulator-always-on ;echo $?'
OVCHVPBMAE1
OVCHVPBMAE 0
root@arm:~# echo 'SMOZ''LVNTVN'
SMOZLVNTVN
root@arm:~# MARKER='OVOK''OEWGKL' run 'echo 0 > /sys/kernel/mva_test/regulators/bbuck11_en'
OVOKOEWGKLOVOKOEWGKL 0
root@arm:~# echo 'KFKQ''LEOJJN'
KFKQLEOJJN
root@arm:~# MARKER='TPQT''EVQSBF' run 'i2cget -y -f 2 0x4b 0x1a'
TPQTEVQSBF0x80
TPQTEVQSBF 0
root@arm:~# echo 'OAOZ''CSMWML'
OAOZCSMWML
root@arm:~# MARKER='EKKT''GFYXJW' run 'grep -r -l rohm,bd71837 /proc/device-tree  | sed '"'"'s![^/]*$!!'"'"''
EKKTGFYXJW/proc/device-tree/ocp/interconnect@48000000/segment@100000/target-module@9c000/i2c@0/pmic@4b/
EKKTGFYXJW 0
root@arm:~# echo 'VTTT''ZKUCQF'
VTTTZKUCQF
root@arm:~# MARKER='FYGC''GPUWCF' run 'test -f /proc/device-tree/ocp/interconnectt\@48000000/segment\@100000/target-module\@9c000/i2c\@0/pmic\@4b/regulators/LDO4//rohm,no-regulator-enable-control ;echo $?'
FYGCGPUWCF1
FYGCGPUWCF 0
root@arm:~# echo 'UTJG''STATTQ'
UTJGSTATTQ
root@arm:~# MARKER='TCWN''OSZZSC' run 'echo 1 > /sys/kernel/mva_test/regulators/bbuck12_en'
TCWNOSZZSCTCWNOSZZSC 0
root@arm:~# echo 'YWLZ''WVMHEK'
YWLZWVMHEK
root@arm:~# MARKER='SPSA''GZJFLO' run 'i2cget -y -f 2 0x4b 0x1b'
SPSAGZJFLO0xc0
SPSAGZJFLO 0
root@arm:~# echo 'AFSX''WBMEAT'
AFSXWBMEAT
root@arm:~# MARKER='NJBX''PXQKFU' run 'grep -r -l rohm,bd71837 /proc/device-tree  | sed '"'"'s![^/]*$!!'"'"''
NJBXPXQKFU/proc/device-tree/ocp/interconnect@48000000/segment@100000/target-module@9c000/i2c@0/pmic@4b/
NJBXPXQKFU 0
root@arm:~# echo 'YVAL''XEVGLU'
YVALXEVGLU
root@arm:~# MARKER='CAXT''CYUMPU' run 'test -f /proc/device-tree/ocp/interconnectt\@48000000/segment\@100000/target-module\@9c000/i2c\@0/pmic\@4b/regulators/LDO4//rohm,no-regulator-enable-control ;echo $?'
CAXTCYUMPU1
CAXTCYUMPU 0
root@arm:~# echo 'YAWQ''GGJJTQ'
YAWQGGJJTQ
root@arm:~# MARKER='BKMP''HSAYLJ' run 'grep -r -l rohm,bd71837 /proc/device-tree  | sed '"'"'s![^/]*$!!'"'"''
BKMPHSAYLJ/proc/device-tree/ocp/interconnect@48000000/segment@100000/target-module@9c000/i2c@0/pmic@4b/
BKMPHSAYLJ 0
root@arm:~# echo 'UWGC''WWTXNX'
UWGCWWTXNX
root@arm:~# MARKER='TKPN''WHXXXF' run 'test -f /proc/device-tree/ocp/interconnectt\@48000000/segment\@100000/target-module\@9c000/i2c\@0/pmic\@4b/regulators/LDO4//regulator-always-on ;echo $?'
TKPNWHXXXF1
TKPNWHXXXF 0
root@arm:~# echo 'GCNG''WPQPJU'
GCNGWPQPJU
root@arm:~# MARKER='VEVC''GTKOPO' run 'echo 0 > /sys/kernel/mva_test/regulators/bbuck12_en'
VEVCGTKOPOVEVCGTKOPO 0
root@arm:~# echo 'JUMZ''WLOFPV'
JUMZWLOFPV
root@arm:~# MARKER='VOTO''XCLYMP' run 'i2cget -y -f 2 0x4b 0x1b'
VOTOXCLYMP0x80
VOTOXCLYMP 0
root@arm:~# echo 'ZLNX''NKCQQB'
ZLNXNKCQQB
root@arm:~# MARKER='XXJY''SACTMJ' run 'grep -r -l rohm,bd71837 /proc/device-tree  | sed '"'"'s![^/]*$!!'"'"''
XXJYSACTMJ/proc/device-tree/ocp/interconnect@48000000/segment@100000/target-module@9c000/i2c@0/pmic@4b/
XXJYSACTMJ 0
root@arm:~# echo 'QJOJ''XMZHZL'
QJOJXMZHZL
root@arm:~# MARKER='OFNE''CXANCA' run 'test -f /proc/device-tree/ocp/interconnectt\@48000000/segment\@100000/target-module\@9c000/i2c\@0/pmic\@4b/regulators/LDO5//rohm,no-regulator-enable-control ;echo $?'
OFNECXANCA0
OFNECXANCA 0
root@arm:~# echo 'NQTK''VXXFZM'
NQTKVXXFZM
root@arm:~# MARKER='WUNE''ZUYOTP' run 'grep -r -l rohm,bd71837 /proc/device-tree  | sed '"'"'s![^/]*$!!'"'"''
WUNEZUYOTP/proc/device-tree/ocp/interconnect@48000000/segment@100000/target-module@9c000/i2c@0/pmic@4b/
WUNEZUYOTP 0
root@arm:~# echo 'ZULP''AFQPSN'
ZULPAFQPSN
root@arm:~# MARKER='CSUC''BYAJCB' run 'test -f /proc/device-tree/ocp/interconnectt\@48000000/segment\@100000/target-module\@9c000/i2c\@0/pmic\@4b/regulators/LDO5//rohm,no-regulator-enable-control ;echo $?'
CSUCBYAJCB0
CSUCBYAJCB 0
root@arm:~# echo 'TACQ''MHUWNN'
TACQMHUWNN
root@arm:~# MARKER='JJYT''HUTFWG' run 'grep -r -l rohm,bd71837 /proc/device-tree  | sed '"'"'s![^/]*$!!'"'"''
JJYTHUTFWG/proc/device-tree/ocp/interconnect@48000000/segment@100000/target-module@9c000/i2c@0/pmic@4b/
JJYTHUTFWG 0
root@arm:~# echo 'BENY''YHNFVE'
BENYYHNFVE
root@arm:~# MARKER='KPLG''OMOFZC' run 'test -f /proc/device-tree/ocp/interconnectt\@48000000/segment\@100000/target-module\@9c000/i2c\@0/pmic\@4b/regulators/LDO6//rohm,no-regulator-enable-control ;echo $?'
KPLGOMOFZC1
KPLGOMOFZC 0
root@arm:~# echo 'NCQO''CBHKEX'
NCQOCBHKEX
root@arm:~# MARKER='YMCC''HONBHG' run 'echo 1 > /sys/kernel/mva_test/regulators/bbuck14_en'
YMCCHONBHGYMCCHONBHG 0
root@arm:~# echo 'EUMO''GHHUEA'
EUMOGHHUEA
root@arm:~# MARKER='ACCP''EWWXNH' run 'i2cget -y -f 2 0x4b 0x1d'
ACCPEWWXNH0xc0
ACCPEWWXNH 0
root@arm:~# echo 'NYMZ''PQWXCH'
NYMZPQWXCH
root@arm:~# MARKER='LKCY''JFESSG' run 'grep -r -l rohm,bd71837 /proc/device-tree  | sed '"'"'s![^/]*$!!'"'"''
LKCYJFESSG/proc/device-tree/ocp/interconnect@48000000/segment@100000/target-module@9c000/i2c@0/pmic@4b/
LKCYJFESSG 0
root@arm:~# echo 'OHPP''QFQXHM'
OHPPQFQXHM
root@arm:~# MARKER='UAAA''HKMLGJ' run 'test -f /proc/device-tree/ocp/interconnectt\@48000000/segment\@100000/target-module\@9c000/i2c\@0/pmic\@4b/regulators/LDO6//rohm,no-regulator-enable-control ;echo $?'
UAAAHKMLGJ1
UAAAHKMLGJ 0
root@arm:~# echo 'TJTF''CQHSAY'
TJTFCQHSAY
root@arm:~# MARKER='QPOQ''UCLJGK' run 'grep -r -l rohm,bd71837 /proc/device-tree  | sed '"'"'s![^/]*$!!'"'"''
QPOQUCLJGK/proc/device-tree/ocp/interconnect@48000000/segment@100000/target-module@9c000/i2c@0/pmic@4b/
QPOQUCLJGK 0
root@arm:~# echo 'QGKV''VNNUMX'
QGKVVNNUMX
root@arm:~# MARKER='BBVM''QWVUXX' run 'test -f /proc/device-tree/ocp/interconnectt\@48000000/segment\@100000/target-module\@9c000/i2c\@0/pmic\@4b/regulators/LDO6//regulator-always-on ;echo $?'
BBVMQWVUXX1
BBVMQWVUXX 0
root@arm:~# echo 'GCWK''BPLQLQ'
GCWKBPLQLQ
root@arm:~# MARKER='KJEB''MJYAVP' run 'echo 0 > /sys/kernel/mva_test/regulators/bbuck14_en'
KJEBMJYAVPKJEBMJYAVP 0
root@arm:~# echo 'KQNU''LUXNGG'
KQNULUXNGG
root@arm:~# MARKER='AUON''NWSFHW' run 'i2cget -y -f 2 0x4b 0x1d'
AUONNWSFHW0x80
AUONNWSFHW 0
root@arm:~# echo 'AZVL''ZHNATZ'
AZVLZHNATZ
root@arm:~# MARKER='FNOC''QUGGOK' run 'grep -r -l rohm,bd71837 /proc/device-tree  | sed '"'"'s![^/]*$!!'"'"''
FNOCQUGGOK/proc/device-tree/ocp/interconnect@48000000/segment@100000/target-module@9c000/i2c@0/pmic@4b/
FNOCQUGGOK 0
root@arm:~# echo 'NNZW''JTXVVF'
NNZWJTXVVF
root@arm:~# MARKER='ZPFN''UWFCXE' run 'test -f /proc/device-tree/ocp/interconnectt\@48000000/segment\@100000/target-module\@9c000/i2c\@0/pmic\@4b/regulators/LDO7//rohm,no-regulator-enable-control ;echo $?'
ZPFNUWFCXE1
ZPFNUWFCXE 0
root@arm:~# echo 'SSKJ''QEKVKB'
SSKJQEKVKB
root@arm:~# MARKER='HKHO''KWGNGB' run 'echo 1 > /sys/kernel/mva_test/regulators/bbuck15_en'
HKHOKWGNGBHKHOKWGNGB 0
root@arm:~# echo 'MOLC''XUONQA'
MOLCXUONQA
root@arm:~# MARKER='FSQN''YXQXWA' run 'i2cget -y -f 2 0x4b 0x1e'
FSQNYXQXWA0xcf
FSQNYXQXWA 0
root@arm:~# echo 'KKOQ''TTZLSL'
KKOQTTZLSL
root@arm:~# MARKER='LKHO''PCMNAN' run 'grep -r -l rohm,bd71837 /proc/device-tree  | sed '"'"'s![^/]*$!!'"'"''
LKHOPCMNAN/proc/device-tree/ocp/interconnect@48000000/segment@100000/target-module@9c000/i2c@0/pmic@4b/
LKHOPCMNAN 0
root@arm:~# echo 'CBVH''TYFBKE'
CBVHTYFBKE
root@arm:~# MARKER='HGNV''NJUSFC' run 'test -f /proc/device-tree/ocp/interconnectt\@48000000/segment\@100000/target-module\@9c000/i2c\@0/pmic\@4b/regulators/LDO7//rohm,no-regulator-enable-control ;echo $?'
HGNVNJUSFC1
HGNVNJUSFC 0
root@arm:~# echo 'JEPP''NNFSLC'
JEPPNNFSLC
root@arm:~# MARKER='ELYC''FQEYPT' run 'grep -r -l rohm,bd71837 /proc/device-tree  | sed '"'"'s![^/]*$!!'"'"''
ELYCFQEYPT/proc/device-tree/ocp/interconnect@48000000/segment@100000/target-module@9c000/i2c@0/pmic@4b/
ELYCFQEYPT 0
root@arm:~# echo 'VKLS''LGCCPN'
VKLSLGCCPN
root@arm:~# MARKER='WWEO''TLYQYH' run 'test -f /proc/device-tree/ocp/interconnectt\@48000000/segment\@100000/target-module\@9c000/i2c\@0/pmic\@4b/regulators/LDO7//regulator-always-on ;echo $?'
WWEOTLYQYH1
WWEOTLYQYH 0
root@arm:~# echo 'EKLL''CKVZGW'
EKLLCKVZGW
root@arm:~# MARKER='AMEG''XVWECS' run 'echo 0 > /sys/kernel/mva_test/regulators/bbuck15_en'
AMEGXVWECSAMEGXVWECS 0
root@arm:~# echo 'JLBC''QGCXWH'
JLBCQGCXWH
root@arm:~# MARKER='GFPM''WWTNXS' run 'i2cget -y -f 2 0x4b 0x1e'
GFPMWWTNXS0x8f
GFPMWWTNXS 0
root@arm:~# Labgrid Console Logfile for main
Logfile started at 2025-08-25 12:19:39.239225
=== Log starts here ===

root@arm:~# run() { echo -n "$MARKER"; sh -c "$@"; echo "$MARKER $?"; }
root@arm:~# echo 'AHXO''EZKQMM'
AHXOEZKQMM
root@arm:~# MARKER='MQWH''EPVTBJ' run 'grep -r -l rohm,bd71837 /proc/device-tree  | sed '"'"'s![^/]*$!!'"'"''
MQWHEPVTBJ/proc/device-tree/ocp/interconnect@48000000/segment@100000/target-module@9c000/i2c@0/pmic@4b/
MQWHEPVTBJ 0
root@arm:~# echo 'YKSF''WKNPXE'
YKSFWKNPXE
root@arm:~# MARKER='LQKU''PVCVOF' run 'test -f /proc/device-tree/ocp/interconnectt\@48000000/segment\@100000/target-module\@9c000/i2c\@0/pmic\@4b/regulators/BUCK11/rohm,no-regulator-enable-control ;echo $?'
LQKUPVCVOF1
LQKUPVCVOF 0
root@arm:~# echo 'SEZF''XSNQGA'
SEZFXSNQGA
root@arm:~# MARKER='GNTV''TZONFK' run 'i2cget -y -f 2 0x4b 0x5'
GNTVTZONFK0x02
GNTVTZONFK 0
root@arm:~# echo 'LKHY''PCZQNU'
LKHYPCZQNU
root@arm:~# MARKER='OZJS''XHAOKV' run 'echo 700000 700000 > /sys/kernel/mva_test//regulators/buck1_set'
OZJSXHAOKVOZJSXHAOKV 0
root@arm:~# echo 'LHPK''YSTJYP'
LHPKYSTJYP
root@arm:~# MARKER='BZMH''OLEZNH' run 'i2cget -y -f 2 0x4b 0xd'
BZMHOLEZNH0x00
BZMHOLEZNH 0
root@arm:~# echo 'KHSA''WPWANV'
KHSAWPWANV
root@arm:~# MARKER='QHGM''NXAWZM' run 'echo 710000 710000 > /sys/kernel/mva_test//regulators/buck1_set'
QHGMNXAWZMQHGMNXAWZM 0
root@arm:~# echo 'JBMF''KZMUQZ'
JBMFKZMUQZ
root@arm:~# MARKER='QQYC''YCPTAQ' run 'i2cget -y -f 2 0x4b 0xd'
QQYCYCPTAQ0x01
QQYCYCPTAQ 0
root@arm:~# echo 'UNBA''TFHGEY'
UNBATFHGEY
root@arm:~# MARKER='GPGJ''FZBAZM' run 'echo 720000 720000 > /sys/kernel/mva_test//regulators/buck1_set'
GPGJFZBAZMGPGJFZBAZM 0
root@arm:~# echo 'LBCY''OLTSEH'
LBCYOLTSEH
root@arm:~# MARKER='PEJF''OLKCCN' run 'i2cget -y -f 2 0x4b 0xd'
PEJFOLKCCN0x02
PEJFOLKCCN 0
root@arm:~# echo 'SXVA''TGCZLC'
SXVATGCZLC
root@arm:~# MARKER='NFHQ''KUBUOF' run 'echo 730000 730000 > /sys/kernel/mva_test//regulators/buck1_set'
NFHQKUBUOFNFHQKUBUOF 0
root@arm:~# echo 'QMHO''PYGHBZ'
QMHOPYGHBZ
root@arm:~# MARKER='XOTN''VMXNBM' run 'i2cget -y -f 2 0x4b 0xd'
XOTNVMXNBM0x03
XOTNVMXNBM 0
root@arm:~# echo 'QNMK''GAGEBN'
QNMKGAGEBN
root@arm:~# MARKER='XUUS''WLLQHF' run 'echo 740000 740000 > /sys/kernel/mva_test//regulators/buck1_set'
XUUSWLLQHFXUUSWLLQHF 0
root@arm:~# echo 'MYEM''WWAVJG'
MYEMWWAVJG
root@arm:~# MARKER='TTKJ''FEBSTQ' run 'i2cget -y -f 2 0x4b 0xd'
TTKJFEBSTQ0x04
TTKJFEBSTQ 0
root@arm:~# echo 'KPXK''OJNVMB'
KPXKOJNVMB
root@arm:~# MARKER='JYXP''HZWWTM' run 'echo 750000 750000 > /sys/kernel/mva_test//regulators/buck1_set'
JYXPHZWWTMJYXPHZWWTM 0
root@arm:~# echo 'PAFJ''ZKWTJX'
PAFJZKWTJX
root@arm:~# MARKER='SVNV''SNXXEW' run 'i2cget -y -f 2 0x4b 0xd'
SVNVSNXXEW0x05
SVNVSNXXEW 0
root@arm:~# echo 'LYTY''GLGZKP'
LYTYGLGZKP
root@arm:~# MARKER='NJNP''FSFENL' run 'echo 760000 760000 > /sys/kernel/mva_test//regulators/buck1_set'
NJNPFSFENLNJNPFSFENL 0
root@arm:~# echo 'XMPH''HUYMNQ'
XMPHHUYMNQ
root@arm:~# MARKER='BGVK''CKBFGX' run 'i2cget -y -f 2 0x4b 0xd'
BGVKCKBFGX0x06
BGVKCKBFGX 0
root@arm:~# echo 'OKOT''KKVWTO'
OKOTKKVWTO
root@arm:~# MARKER='LXCE''CYBMLF' run 'echo 770000 770000 > /sys/kernel/mva_test//regulators/buck1_set'
LXCECYBMLFLXCECYBMLF 0
root@arm:~# echo 'GCCO''QNPGGJ'
GCCOQNPGGJ
root@arm:~# MARKER='VOUS''FASXUC' run 'i2cget -y -f 2 0x4b 0xd'
VOUSFASXUC0x07
VOUSFASXUC 0
root@arm:~# echo 'XVWW''AFVCYG'
XVWWAFVCYG
root@arm:~# MARKER='TGEQ''BLYMQZ' run 'echo 780000 780000 > /sys/kernel/mva_test//regulators/buck1_set'
TGEQBLYMQZTGEQBLYMQZ 0
root@arm:~# echo 'LVCA''JFXVSY'
LVCAJFXVSY
root@arm:~# MARKER='HAHY''AVWOJW' run 'i2cget -y -f 2 0x4b 0xd'
HAHYAVWOJW0x08
HAHYAVWOJW 0
root@arm:~# echo 'BCSG''EXMLYZ'
BCSGEXMLYZ
root@arm:~# MARKER='EAOJ''ETNOFS' run 'echo 790000 790000 > /sys/kernel/mva_test//regulators/buck1_set'
EAOJETNOFSEAOJETNOFS 0
root@arm:~# echo 'LTTY''NUSJZN'
LTTYNUSJZN
root@arm:~# MARKER='NQOZ''LWWLCE' run 'i2cget -y -f 2 0x4b 0xd'
NQOZLWWLCE0x09
NQOZLWWLCE 0
root@arm:~# echo 'XMEW''QNYJEL'
XMEWQNYJEL
root@arm:~# MARKER='XMCN''SLEZGL' run 'echo 800000 800000 > /sys/kernel/mva_test//regulators/buck1_set'
XMCNSLEZGLXMCNSLEZGL 0
root@arm:~# echo 'ASOV''QPLQNF'
ASOVQPLQNF
root@arm:~# MARKER='WZFY''KNQLMC' run 'i2cget -y -f 2 0x4b 0xd'
WZFYKNQLMC0x0a
WZFYKNQLMC 0
root@arm:~# echo 'MWUY''YGZBNJ'
MWUYYGZBNJ
root@arm:~# MARKER='PNKA''MKMAHG' run 'echo 810000 810000 > /sys/kernel/mva_test//regulators/buck1_set'
PNKAMKMAHGPNKAMKMAHG 0
root@arm:~# echo 'GCBP''FKNVLC'
GCBPFKNVLC
root@arm:~# MARKER='EUWO''LVPZZF' run 'i2cget -y -f 2 0x4b 0xd'
EUWOLVPZZF0x0b
EUWOLVPZZF 0
root@arm:~# echo 'LKXM''EXSCLZ'
LKXMEXSCLZ
root@arm:~# MARKER='FPFH''WKOWJJ' run 'echo 820000 820000 > /sys/kernel/mva_test//regulators/buck1_set'
FPFHWKOWJJFPFHWKOWJJ 0
root@arm:~# echo 'XVYL''FGVYEL'
XVYLFGVYEL
root@arm:~# MARKER='GZSE''APVXJK' run 'i2cget -y -f 2 0x4b 0xd'
GZSEAPVXJK0x0c
GZSEAPVXJK 0
root@arm:~# echo 'FANU''EKLKES'
FANUEKLKES
root@arm:~# MARKER='AUTT''XKYKOL' run 'echo 830000 830000 > /sys/kernel/mva_test//regulators/buck1_set'
AUTTXKYKOLAUTTXKYKOL 0
root@arm:~# echo 'ZTPJ''VBOCNF'
ZTPJVBOCNF
root@arm:~# MARKER='VAEG''PBNWFE' run 'i2cget -y -f 2 0x4b 0xd'
VAEGPBNWFE0x0d
VAEGPBNWFE 0
root@arm:~# echo 'XKLZ''POHSOT'
XKLZPOHSOT
root@arm:~# MARKER='YLMJ''JJFPNO' run 'echo 840000 840000 > /sys/kernel/mva_test//regulators/buck1_set'
YLMJJJFPNOYLMJJJFPNO 0
root@arm:~# echo 'SNBB''FCOCSV'
SNBBFCOCSV
root@arm:~# MARKER='VVEP''BLHJPF' run 'i2cget -y -f 2 0x4b 0xd'
VVEPBLHJPF0x0e
VVEPBLHJPF 0
root@arm:~# echo 'JXCZ''NWLCET'
JXCZNWLCET
root@arm:~# MARKER='CMGL''SVFGZK' run 'echo 850000 850000 > /sys/kernel/mva_test//regulators/buck1_set'
CMGLSVFGZKCMGLSVFGZK 0
root@arm:~# echo 'HGJK''BHKBTV'
HGJKBHKBTV
root@arm:~# MARKER='XUSY''WAGNGJ' run 'i2cget -y -f 2 0x4b 0xd'
XUSYWAGNGJ0x0f
XUSYWAGNGJ 0
root@arm:~# echo 'LKOU''ZPLQTE'
LKOUZPLQTE
root@arm:~# MARKER='YZXF''LMQXKY' run 'echo 860000 860000 > /sys/kernel/mva_test//regulators/buck1_set'
YZXFLMQXKYYZXFLMQXKY 0
root@arm:~# echo 'MKCF''ZBYOYZ'
MKCFZBYOYZ
root@arm:~# MARKER='UHZG''NSHMZV' run 'i2cget -y -f 2 0x4b 0xd'
UHZGNSHMZV0x10
UHZGNSHMZV 0
root@arm:~# echo 'EAHQ''ACUQLK'
EAHQACUQLK
root@arm:~# MARKER='BLFT''NNHJNX' run 'echo 870000 870000 > /sys/kernel/mva_test//regulators/buck1_set'
BLFTNNHJNXBLFTNNHJNX 0
root@arm:~# echo 'FWNH''WKGFAY'
FWNHWKGFAY
root@arm:~# MARKER='JXLH''CKXNAY' run 'i2cget -y -f 2 0x4b 0xd'
JXLHCKXNAY0x11
JXLHCKXNAY 0
root@arm:~# echo 'TMPE''FHVMFK'
TMPEFHVMFK
root@arm:~# MARKER='KCWJ''XQTVLX' run 'echo 880000 880000 > /sys/kernel/mva_test//regulators/buck1_set'
KCWJXQTVLXKCWJXQTVLX 0
root@arm:~# echo 'XZOB''OUNKOY'
XZOBOUNKOY
root@arm:~# MARKER='ZCHY''LMEMNW' run 'i2cget -y -f 2 0x4b 0xd'
ZCHYLMEMNW0x12
ZCHYLMEMNW 0
root@arm:~# echo 'NUUJ''YCJMCJ'
NUUJYCJMCJ
root@arm:~# MARKER='GNFY''GKKYJV' run 'echo 890000 890000 > /sys/kernel/mva_test//regulators/buck1_set'
GNFYGKKYJVGNFYGKKYJV 0
root@arm:~# echo 'WLHY''UOKHWJ'
WLHYUOKHWJ
root@arm:~# MARKER='ZTPY''BJOKWK' run 'i2cget -y -f 2 0x4b 0xd'
ZTPYBJOKWK0x13
ZTPYBJOKWK 0
root@arm:~# echo 'OAHK''VEZQFS'
OAHKVEZQFS
root@arm:~# MARKER='HJZY''NWATTK' run 'echo 900000 900000 > /sys/kernel/mva_test//regulators/buck1_set'
HJZYNWATTKHJZYNWATTK 0
root@arm:~# echo 'XAKU''FKUFMQ'
XAKUFKUFMQ
root@arm:~# MARKER='TMCJ''YEAAGC' run 'i2cget -y -f 2 0x4b 0xd'
TMCJYEAAGC0x14
TMCJYEAAGC 0
root@arm:~# echo 'UNTE''VCYAZO'
UNTEVCYAZO
root@arm:~# MARKER='WYWM''TOCHHB' run 'echo 910000 910000 > /sys/kernel/mva_test//regulators/buck1_set'
WYWMTOCHHBWYWMTOCHHB 0
root@arm:~# echo 'BKNA''ESPGFY'
BKNAESPGFY
root@arm:~# MARKER='PMLN''NPYXKH' run 'i2cget -y -f 2 0x4b 0xd'
PMLNNPYXKH0x15
PMLNNPYXKH 0
root@arm:~# echo 'MPEN''JPFENJ'
MPENJPFENJ
root@arm:~# MARKER='GEWS''FXSYWW' run 'echo 920000 920000 > /sys/kernel/mva_test//regulators/buck1_set'
GEWSFXSYWWGEWSFXSYWW 0
root@arm:~# echo 'GBPV''USQOWU'
GBPVUSQOWU
root@arm:~# MARKER='CHLN''PWQBZY' run 'i2cget -y -f 2 0x4b 0xd'
CHLNPWQBZY0x16
CHLNPWQBZY 0
root@arm:~# echo 'CQCV''ZPABQF'
CQCVZPABQF
root@arm:~# MARKER='KSEB''FOFEBW' run 'echo 930000 930000 > /sys/kernel/mva_test//regulators/buck1_set'
KSEBFOFEBWKSEBFOFEBW 0
root@arm:~# echo 'QYOG''XGPTUO'
QYOGXGPTUO
root@arm:~# MARKER='ZUJV''OJPZKB' run 'i2cget -y -f 2 0x4b 0xd'
ZUJVOJPZKB0x17
ZUJVOJPZKB 0
root@arm:~# echo 'YOPU''FFYTSP'
YOPUFFYTSP
root@arm:~# MARKER='PZCX''XUOKNO' run 'echo 940000 940000 > /sys/kernel/mva_test//regulators/buck1_set'
PZCXXUOKNOPZCXXUOKNO 0
root@arm:~# echo 'UVUO''WWVUWX'
UVUOWWVUWX
root@arm:~# MARKER='ONCT''UXHFYN' run 'i2cget -y -f 2 0x4b 0xd'
ONCTUXHFYN0x18
ONCTUXHFYN 0
root@arm:~# echo 'GKYN''THQZOG'
GKYNTHQZOG
root@arm:~# MARKER='JVZM''QTAOUV' run 'echo 950000 950000 > /sys/kernel/mva_test//regulators/buck1_set'
JVZMQTAOUVJVZMQTAOUV 0
root@arm:~# echo 'GEAJ''CCQHNK'
GEAJCCQHNK
root@arm:~# MARKER='OAUN''VSUEXB' run 'i2cget -y -f 2 0x4b 0xd'
OAUNVSUEXB0x19
OAUNVSUEXB 0
root@arm:~# echo 'NAKO''NCVGXB'
NAKONCVGXB
root@arm:~# MARKER='OEVA''COXBOZ' run 'echo 960000 960000 > /sys/kernel/mva_test//regulators/buck1_set'
OEVACOXBOZOEVACOXBOZ 0
root@arm:~# echo 'XYGC''QAAEJZ'
XYGCQAAEJZ
root@arm:~# MARKER='QAFE''CNBASV' run 'i2cget -y -f 2 0x4b 0xd'
QAFECNBASV0x1a
QAFECNBASV 0
root@arm:~# echo 'KUYO''GWNLKY'
KUYOGWNLKY
root@arm:~# MARKER='WLBC''GFPGPO' run 'echo 970000 970000 > /sys/kernel/mva_test//regulators/buck1_set'
WLBCGFPGPOWLBCGFPGPO 0
root@arm:~# echo 'KYGF''NPXOQO'
KYGFNPXOQO
root@arm:~# MARKER='EJEH''LYHWCH' run 'i2cget -y -f 2 0x4b 0xd'
EJEHLYHWCH0x1b
EJEHLYHWCH 0
root@arm:~# echo 'ZKBH''OFFCXO'
ZKBHOFFCXO
root@arm:~# MARKER='MWJA''QPFMAH' run 'echo 980000 980000 > /sys/kernel/mva_test//regulators/buck1_set'
MWJAQPFMAHMWJAQPFMAH 0
root@arm:~# echo 'OOQO''OGHAJZ'
OOQOOGHAJZ
root@arm:~# MARKER='BVYS''VJGLWB' run 'i2cget -y -f 2 0x4b 0xd'
BVYSVJGLWB0x1c
BVYSVJGLWB 0
root@arm:~# echo 'OZFK''BOMBTV'
OZFKBOMBTV
root@arm:~# MARKER='FEJW''JVTGFS' run 'echo 990000 990000 > /sys/kernel/mva_test//regulators/buck1_set'
FEJWJVTGFSFEJWJVTGFS 0
root@arm:~# echo 'CPSM''ZMJSEG'
CPSMZMJSEG
root@arm:~# MARKER='NCAX''MVHCUU' run 'i2cget -y -f 2 0x4b 0xd'
NCAXMVHCUU0x1d
NCAXMVHCUU 0
root@arm:~# echo 'JVOE''VGHSSS'
JVOEVGHSSS
root@arm:~# MARKER='GUHW''NHPTHK' run 'echo 1000000 1000000 > /sys/kernel/mva_tesst/regulators/buck1_set'
GUHWNHPTHKGUHWNHPTHK 0
root@arm:~# echo 'FTLZ''EYWECN'
FTLZEYWECN
root@arm:~# MARKER='HCBN''MXVAEP' run 'i2cget -y -f 2 0x4b 0xd'
HCBNMXVAEP0x1e
HCBNMXVAEP 0
root@arm:~# echo 'EZNC''UELHNP'
EZNCUELHNP
root@arm:~# MARKER='WAMB''OOKHNP' run 'echo 1010000 1010000 > /sys/kernel/mva_tesst/regulators/buck1_set'
WAMBOOKHNPWAMBOOKHNP 0
root@arm:~# echo 'AWOH''BYJCCY'
AWOHBYJCCY
root@arm:~# MARKER='FOHZ''JZUKBU' run 'i2cget -y -f 2 0x4b 0xd'
FOHZJZUKBU0x1f
FOHZJZUKBU 0
root@arm:~# echo 'PLOQ''FNFTSU'
PLOQFNFTSU
root@arm:~# MARKER='UJCZ''PAJHBL' run 'echo 1020000 1020000 > /sys/kernel/mva_tesst/regulators/buck1_set'
UJCZPAJHBLUJCZPAJHBL 0
root@arm:~# echo 'HQHW''OKYLXK'
HQHWOKYLXK
root@arm:~# MARKER='QYGG''WBEEFC' run 'i2cget -y -f 2 0x4b 0xd'
QYGGWBEEFC0x20
QYGGWBEEFC 0
root@arm:~# echo 'GBHH''PCQXPK'
GBHHPCQXPK
root@arm:~# MARKER='TACJ''NUGZNL' run 'echo 1030000 1030000 > /sys/kernel/mva_tesst/regulators/buck1_set'
TACJNUGZNLTACJNUGZNL 0
root@arm:~# echo 'QTOL''FPKPAH'
QTOLFPKPAH
root@arm:~# MARKER='CZLM''GOPYOZ' run 'i2cget -y -f 2 0x4b 0xd'
CZLMGOPYOZ0x21
CZLMGOPYOZ 0
root@arm:~# echo 'EJOW''QYMOSH'
EJOWQYMOSH
root@arm:~# MARKER='HAYF''WYZMTX' run 'echo 1040000 1040000 > /sys/kernel/mva_tesst/regulators/buck1_set'
HAYFWYZMTXHAYFWYZMTX 0
root@arm:~# echo 'PLAZ''QBXVBW'
PLAZQBXVBW
root@arm:~# MARKER='CKVQ''KHECSN' run 'i2cget -y -f 2 0x4b 0xd'
CKVQKHECSN0x22
CKVQKHECSN 0
root@arm:~# echo 'BFLK''LNACBU'
BFLKLNACBU
root@arm:~# MARKER='ELHM''VLNHTG' run 'echo 1050000 1050000 > /sys/kernel/mva_tesst/regulators/buck1_set'
ELHMVLNHTGELHMVLNHTG 0
root@arm:~# echo 'FSTQ''ZYXHGM'
FSTQZYXHGM
root@arm:~# MARKER='XNHZ''PQPJFL' run 'i2cget -y -f 2 0x4b 0xd'
XNHZPQPJFL0x23
XNHZPQPJFL 0
root@arm:~# echo 'JGCK''BHLXSJ'
JGCKBHLXSJ
root@arm:~# MARKER='TAGS''TYZYKG' run 'echo 1060000 1060000 > /sys/kernel/mva_tesst/regulators/buck1_set'
TAGSTYZYKGTAGSTYZYKG 0
root@arm:~# echo 'TNGB''BXPNTA'
TNGBBXPNTA
root@arm:~# MARKER='LOWB''HTXOWL' run 'i2cget -y -f 2 0x4b 0xd'
LOWBHTXOWL0x24
LOWBHTXOWL 0
root@arm:~# echo 'LNXM''KOLJKS'
LNXMKOLJKS
root@arm:~# MARKER='ALKK''LVQCLX' run 'echo 1070000 1070000 > /sys/kernel/mva_tesst/regulators/buck1_set'
ALKKLVQCLXALKKLVQCLX 0
root@arm:~# echo 'CEAV''EOLMXX'
CEAVEOLMXX
root@arm:~# MARKER='MZPF''QVWNMH' run 'i2cget -y -f 2 0x4b 0xd'
MZPFQVWNMH0x25
MZPFQVWNMH 0
root@arm:~# echo 'LQKZ''UGGNTQ'
LQKZUGGNTQ
root@arm:~# MARKER='HGWF''GFKKFF' run 'echo 1080000 1080000 > /sys/kernel/mva_tesst/regulators/buck1_set'
HGWFGFKKFFHGWFGFKKFF 0
root@arm:~# echo 'YEVU''AOAQAG'
YEVUAOAQAG
root@arm:~# MARKER='HBSX''TVCMJT' run 'i2cget -y -f 2 0x4b 0xd'
HBSXTVCMJT0x26
HBSXTVCMJT 0
root@arm:~# echo 'PZZT''BNMJZM'
PZZTBNMJZM
root@arm:~# MARKER='QPQO''MGZVUN' run 'echo 1090000 1090000 > /sys/kernel/mva_tesst/regulators/buck1_set'
QPQOMGZVUNQPQOMGZVUN 0
root@arm:~# echo 'MZHU''SZQUJW'
MZHUSZQUJW
root@arm:~# MARKER='LPHB''TGLZOH' run 'i2cget -y -f 2 0x4b 0xd'
LPHBTGLZOH0x27
LPHBTGLZOH 0
root@arm:~# echo 'HKEZ''EWUGCG'
HKEZEWUGCG
root@arm:~# MARKER='TWCC''NHNZBC' run 'echo 1100000 1100000 > /sys/kernel/mva_tesst/regulators/buck1_set'
TWCCNHNZBCTWCCNHNZBC 0
root@arm:~# echo 'XFYY''NCJBMB'
XFYYNCJBMB
root@arm:~# MARKER='KULE''VUKGYW' run 'i2cget -y -f 2 0x4b 0xd'
KULEVUKGYW0x28
KULEVUKGYW 0
root@arm:~# echo 'MWZE''GJKWUU'
MWZEGJKWUU
root@arm:~# MARKER='AOAQ''KTKWQO' run 'echo 1110000 1110000 > /sys/kernel/mva_tesst/regulators/buck1_set'
AOAQKTKWQOAOAQKTKWQO 0
root@arm:~# echo 'NAOH''OXVCMO'
NAOHOXVCMO
root@arm:~# MARKER='ECWA''FQBPNX' run 'i2cget -y -f 2 0x4b 0xd'
ECWAFQBPNX0x29
ECWAFQBPNX 0
root@arm:~# echo 'YHEY''LTMYFL'
YHEYLTMYFL
root@arm:~# MARKER='JAUA''VGPBKQ' run 'echo 1120000 1120000 > /sys/kernel/mva_tesst/regulators/buck1_set'
JAUAVGPBKQJAUAVGPBKQ 0
root@arm:~# echo 'UPEC''XPVOYG'
UPECXPVOYG
root@arm:~# MARKER='XLVN''XHYNGW' run 'i2cget -y -f 2 0x4b 0xd'
XLVNXHYNGW0x2a
XLVNXHYNGW 0
root@arm:~# echo 'WSWP''MFMULQ'
WSWPMFMULQ
root@arm:~# MARKER='OWZJ''WJKMAK' run 'echo 1130000 1130000 > /sys/kernel/mva_tesst/regulators/buck1_set'
OWZJWJKMAKOWZJWJKMAK 0
root@arm:~# echo 'ZMZE''HEKYCX'
ZMZEHEKYCX
root@arm:~# MARKER='WSNK''HOMNBM' run 'i2cget -y -f 2 0x4b 0xd'
WSNKHOMNBM0x2b
WSNKHOMNBM 0
root@arm:~# echo 'OVTG''WWXHTA'
OVTGWWXHTA
root@arm:~# MARKER='VCZH''NKSMLE' run 'echo 1140000 1140000 > /sys/kernel/mva_tesst/regulators/buck1_set'
VCZHNKSMLEVCZHNKSMLE 0
root@arm:~# echo 'WQUE''KWKMMH'
WQUEKWKMMH
root@arm:~# MARKER='YVXS''PTGFZN' run 'i2cget -y -f 2 0x4b 0xd'
YVXSPTGFZN0x2c
YVXSPTGFZN 0
root@arm:~# echo 'TLBZ''AHLPHL'
TLBZAHLPHL
root@arm:~# MARKER='XQNZ''BEEHMM' run 'echo 1150000 1150000 > /sys/kernel/mva_tesst/regulators/buck1_set'
XQNZBEEHMMXQNZBEEHMM 0
root@arm:~# echo 'XNMJ''KMLJFE'
XNMJKMLJFE
root@arm:~# MARKER='WGJC''MNYZLF' run 'i2cget -y -f 2 0x4b 0xd'
WGJCMNYZLF0x2d
WGJCMNYZLF 0
root@arm:~# echo 'LAPG''NAYBUX'
LAPGNAYBUX
root@arm:~# MARKER='THQM''OFTKVG' run 'echo 1160000 1160000 > /sys/kernel/mva_tesst/regulators/buck1_set'
THQMOFTKVGTHQMOFTKVG 0
root@arm:~# echo 'ZELQ''QSSWPC'
ZELQQSSWPC
root@arm:~# MARKER='XMUA''XXYBSJ' run 'i2cget -y -f 2 0x4b 0xd'
XMUAXXYBSJ0x2e
XMUAXXYBSJ 0
root@arm:~# echo 'SCHC''XHPQGZ'
SCHCXHPQGZ
root@arm:~# MARKER='EZTV''XFOSJT' run 'echo 1170000 1170000 > /sys/kernel/mva_tesst/regulators/buck1_set'
EZTVXFOSJTEZTVXFOSJT 0
root@arm:~# echo 'MPUH''JTKYFS'
MPUHJTKYFS
root@arm:~# MARKER='LXTN''EHMBFX' run 'i2cget -y -f 2 0x4b 0xd'
LXTNEHMBFX0x2f
LXTNEHMBFX 0
root@arm:~# echo 'ETKY''VMHZYX'
ETKYVMHZYX
root@arm:~# MARKER='PYYC''BGYUWB' run 'echo 1180000 1180000 > /sys/kernel/mva_tesst/regulators/buck1_set'
PYYCBGYUWBPYYCBGYUWB 0
root@arm:~# echo 'NXJB''XOOXNC'
NXJBXOOXNC
root@arm:~# MARKER='PQNH''AASMOH' run 'i2cget -y -f 2 0x4b 0xd'
PQNHAASMOH0x30
PQNHAASMOH 0
root@arm:~# echo 'TKUC''YMTCZQ'
TKUCYMTCZQ
root@arm:~# MARKER='ZPWM''JLQTKQ' run 'echo 1190000 1190000 > /sys/kernel/mva_tesst/regulators/buck1_set'
ZPWMJLQTKQZPWMJLQTKQ 0
root@arm:~# echo 'HFOC''GAQFGT'
HFOCGAQFGT
root@arm:~# MARKER='HPVV''ZOMHOJ' run 'i2cget -y -f 2 0x4b 0xd'
HPVVZOMHOJ0x31
HPVVZOMHOJ 0
root@arm:~# echo 'AZJP''LVGLLK'
AZJPLVGLLK
root@arm:~# MARKER='ECJQ''GSBUML' run 'echo 1200000 1200000 > /sys/kernel/mva_tesst/regulators/buck1_set'
ECJQGSBUMLECJQGSBUML 0
root@arm:~# echo 'UBMO''MKULOX'
UBMOMKULOX
root@arm:~# MARKER='JKNL''ENYWWN' run 'i2cget -y -f 2 0x4b 0xd'
JKNLENYWWN0x32
JKNLENYWWN 0
root@arm:~# echo 'TNVL''CNBWSH'
TNVLCNBWSH
root@arm:~# MARKER='FNQC''TNUKZX' run 'echo 1210000 1210000 > /sys/kernel/mva_tesst/regulators/buck1_set'
FNQCTNUKZXFNQCTNUKZX 0
root@arm:~# echo 'BTSW''MYUQVA'
BTSWMYUQVA
root@arm:~# MARKER='OUWK''BPZUBW' run 'i2cget -y -f 2 0x4b 0xd'
OUWKBPZUBW0x33
OUWKBPZUBW 0
root@arm:~# echo 'HSTE''YLUTHV'
HSTEYLUTHV
root@arm:~# MARKER='TYFN''EVNMOF' run 'echo 1220000 1220000 > /sys/kernel/mva_tesst/regulators/buck1_set'
TYFNEVNMOFTYFNEVNMOF 0
root@arm:~# echo 'MUPW''JGAOUN'
MUPWJGAOUN
root@arm:~# MARKER='HLUV''LKTGJE' run 'i2cget -y -f 2 0x4b 0xd'
HLUVLKTGJE0x34
HLUVLKTGJE 0
root@arm:~# echo 'JGNG''LVTLPZ'
JGNGLVTLPZ
root@arm:~# MARKER='CNVX''FFPJNK' run 'echo 1230000 1230000 > /sys/kernel/mva_tesst/regulators/buck1_set'
CNVXFFPJNKCNVXFFPJNK 0
root@arm:~# echo 'ZPZB''KNQPLL'
ZPZBKNQPLL
root@arm:~# MARKER='GKOB''WOZVSX' run 'i2cget -y -f 2 0x4b 0xd'
GKOBWOZVSX0x35
GKOBWOZVSX 0
root@arm:~# echo 'ZCMY''ETHOGK'
ZCMYETHOGK
root@arm:~# MARKER='MGQU''HQCQUV' run 'echo 1240000 1240000 > /sys/kernel/mva_tesst/regulators/buck1_set'
MGQUHQCQUVMGQUHQCQUV 0
root@arm:~# echo 'UAAV''OOFALY'
UAAVOOFALY
root@arm:~# MARKER='YPFN''BEEWGZ' run 'i2cget -y -f 2 0x4b 0xd'
YPFNBEEWGZ0x36
YPFNBEEWGZ 0
root@arm:~# echo 'HLKY''AGPCWG'
HLKYAGPCWG
root@arm:~# MARKER='WMWE''EOEHJO' run 'echo 1250000 1250000 > /sys/kernel/mva_tesst/regulators/buck1_set'
WMWEEOEHJOWMWEEOEHJO 0
root@arm:~# echo 'TUBX''ENGTPA'
TUBXENGTPA
root@arm:~# MARKER='OXXF''HZVTEM' run 'i2cget -y -f 2 0x4b 0xd'
OXXFHZVTEM0x37
OXXFHZVTEM 0
root@arm:~# echo 'CCUZ''FYLHXM'
CCUZFYLHXM
root@arm:~# MARKER='WHZL''KTQENS' run 'echo 1260000 1260000 > /sys/kernel/mva_tesst/regulators/buck1_set'
WHZLKTQENSWHZLKTQENS 0
root@arm:~# echo 'GGEU''NQNOCO'
GGEUNQNOCO
root@arm:~# MARKER='HSBL''YPYWUT' run 'i2cget -y -f 2 0x4b 0xd'
HSBLYPYWUT0x38
HSBLYPYWUT 0
root@arm:~# echo 'OJJA''ZVSOWM'
OJJAZVSOWM
root@arm:~# MARKER='BPJM''ZSCYSK' run 'echo 1270000 1270000 > /sys/kernel/mva_tesst/regulators/buck1_set'
BPJMZSCYSKBPJMZSCYSK 0
root@arm:~# echo 'LMVN''JOANPZ'
LMVNJOANPZ
root@arm:~# MARKER='PYAC''ZMZJYL' run 'i2cget -y -f 2 0x4b 0xd'
PYACZMZJYL0x39
PYACZMZJYL 0
root@arm:~# echo 'HCNM''ZNSPAJ'
HCNMZNSPAJ
root@arm:~# MARKER='NGJJ''NQMGQK' run 'echo 1280000 1280000 > /sys/kernel/mva_tesst/regulators/buck1_set'
NGJJNQMGQKNGJJNQMGQK 0
root@arm:~# echo 'SPXB''NOZXCZ'
SPXBNOZXCZ
root@arm:~# MARKER='YEAF''PVLLTB' run 'i2cget -y -f 2 0x4b 0xd'
YEAFPVLLTB0x3a
YEAFPVLLTB 0
root@arm:~# echo 'HXBK''XQNUEY'
HXBKXQNUEY
root@arm:~# MARKER='CGOJ''ZYHWHU' run 'echo 1290000 1290000 > /sys/kernel/mva_tesst/regulators/buck1_set'
CGOJZYHWHUCGOJZYHWHU 0
root@arm:~# echo 'EQYK''KOPXFA'
EQYKKOPXFA
root@arm:~# MARKER='KUZG''PJZUUF' run 'i2cget -y -f 2 0x4b 0xd'
KUZGPJZUUF0x3b
KUZGPJZUUF 0
root@arm:~# echo 'AFCK''UFFGQH'
AFCKUFFGQH
root@arm:~# MARKER='FZPE''SLSGFN' run 'echo 1300000 1300000 > /sys/kernel/mva_tesst/regulators/buck1_set'
FZPESLSGFNFZPESLSGFN 0
root@arm:~# echo 'FVVM''AONOBH'
FVVMAONOBH
root@arm:~# MARKER='NTCL''NEOQZB' run 'i2cget -y -f 2 0x4b 0xd'
NTCLNEOQZB0x3c
NTCLNEOQZB 0
root@arm:~# echo 'GNCO''WJTVXE'
GNCOWJTVXE
root@arm:~# MARKER='FLGN''ZGVCHF' run 'grep -r -l rohm,bd71837 /proc/device-tree  | sed '"'"'s![^/]*$!!'"'"''
FLGNZGVCHF/proc/device-tree/ocp/interconnect@48000000/segment@100000/target-module@9c000/i2c@0/pmic@4b/
FLGNZGVCHF 0
root@arm:~# echo 'KLYS''XOPFHB'
KLYSXOPFHB
root@arm:~# MARKER='WZBX''EFCQFK' run 'test -f /proc/device-tree/ocp/interconnectt\@48000000/segment\@100000/target-module\@9c000/i2c\@0/pmic\@4b/regulators/BUCK22/rohm,no-regulator-enable-control ;echo $?'
WZBXEFCQFK1
WZBXEFCQFK 0
root@arm:~# echo 'NZTP''KTPLVG'
NZTPKTPLVG
root@arm:~# MARKER='TNBP''GGXXBC' run 'i2cget -y -f 2 0x4b 0x6'
TNBPGGXXBC0x43
TNBPGGXXBC 0
root@arm:~# echo 'SJVE''GHOOLV'
SJVEGHOOLV
root@arm:~# MARKER='PTBS''TSVBWM' run 'echo 700000 700000 > /sys/kernel/mva_test//regulators/buck2_set'
PTBSTSVBWMPTBSTSVBWM 0
root@arm:~# echo 'YOLN''KUONXY'
YOLNKUONXY
root@arm:~# MARKER='NGKH''XMWVGW' run 'i2cget -y -f 2 0x4b 0x10'
NGKHXMWVGW0x00
NGKHXMWVGW 0
root@arm:~# echo 'CCKC''EZJLUS'
CCKCEZJLUS
root@arm:~# MARKER='SCCS''NBMSQB' run 'echo 710000 710000 > /sys/kernel/mva_test//regulators/buck2_set'
SCCSNBMSQBSCCSNBMSQB 0
root@arm:~# echo 'XNFM''UAPBQY'
XNFMUAPBQY
root@arm:~# MARKER='XBMQ''FLBSBW' run 'i2cget -y -f 2 0x4b 0x10'
XBMQFLBSBW0x01
XBMQFLBSBW 0
root@arm:~# echo 'EKQE''TQZOVZ'
EKQETQZOVZ
root@arm:~# MARKER='QPMS''PAZWXL' run 'echo 720000 720000 > /sys/kernel/mva_test//regulators/buck2_set'
QPMSPAZWXLQPMSPAZWXL 0
root@arm:~# echo 'FULV''GYEWCZ'
FULVGYEWCZ
root@arm:~# MARKER='WOXP''FQHYBE' run 'i2cget -y -f 2 0x4b 0x10'
WOXPFQHYBE0x02
WOXPFQHYBE 0
root@arm:~# echo 'XVHC''KLMNUX'
XVHCKLMNUX
root@arm:~# MARKER='QEXH''TAUXBU' run 'echo 730000 730000 > /sys/kernel/mva_test//regulators/buck2_set'
QEXHTAUXBUQEXHTAUXBU 0
root@arm:~# echo 'XWGW''JFEYTJ'
XWGWJFEYTJ
root@arm:~# MARKER='CGSK''XKFYEQ' run 'i2cget -y -f 2 0x4b 0x10'
CGSKXKFYEQ0x03
CGSKXKFYEQ 0
root@arm:~# echo 'GZVE''MMUGMF'
GZVEMMUGMF
root@arm:~# MARKER='SPVV''HSLWBB' run 'echo 740000 740000 > /sys/kernel/mva_test//regulators/buck2_set'
SPVVHSLWBBSPVVHSLWBB 0
root@arm:~# echo 'SVWF''CVTPVE'
SVWFCVTPVE
root@arm:~# MARKER='JLKQ''NYMUEV' run 'i2cget -y -f 2 0x4b 0x10'
JLKQNYMUEV0x04
JLKQNYMUEV 0
root@arm:~# echo 'SVEV''HFQLLA'
SVEVHFQLLA
root@arm:~# MARKER='VYTA''ZWFVZT' run 'echo 750000 750000 > /sys/kernel/mva_test//regulators/buck2_set'
VYTAZWFVZTVYTAZWFVZT 0
root@arm:~# echo 'WGJO''EWBPXM'
WGJOEWBPXM
root@arm:~# MARKER='GVCT''PKPVLC' run 'i2cget -y -f 2 0x4b 0x10'
GVCTPKPVLC0x05
GVCTPKPVLC 0
root@arm:~# echo 'ETGS''GFCVYU'
ETGSGFCVYU
root@arm:~# MARKER='OFZC''YAOUVH' run 'echo 760000 760000 > /sys/kernel/mva_test//regulators/buck2_set'
OFZCYAOUVHOFZCYAOUVH 0
root@arm:~# echo 'ALWS''XVVKHT'
ALWSXVVKHT
root@arm:~# MARKER='PGQK''FAWWZB' run 'i2cget -y -f 2 0x4b 0x10'
PGQKFAWWZB0x06
PGQKFAWWZB 0
root@arm:~# echo 'CCYX''CSCACG'
CCYXCSCACG
root@arm:~# MARKER='EATZ''HPZJJY' run 'echo 770000 770000 > /sys/kernel/mva_test//regulators/buck2_set'
EATZHPZJJYEATZHPZJJY 0
root@arm:~# echo 'WVWS''NSJUPH'
WVWSNSJUPH
root@arm:~# MARKER='WOKQ''QTXXAO' run 'i2cget -y -f 2 0x4b 0x10'
WOKQQTXXAO0x07
WOKQQTXXAO 0
root@arm:~# echo 'CWKE''AUWBGX'
CWKEAUWBGX
root@arm:~# MARKER='EQHH''ZKLLSM' run 'echo 780000 780000 > /sys/kernel/mva_test//regulators/buck2_set'
EQHHZKLLSMEQHHZKLLSM 0
root@arm:~# echo 'CCFZ''HMCQYF'
CCFZHMCQYF
root@arm:~# MARKER='ZUCK''CMQYCL' run 'i2cget -y -f 2 0x4b 0x10'
ZUCKCMQYCL0x08
ZUCKCMQYCL 0
root@arm:~# echo 'ENBU''BTNZNC'
ENBUBTNZNC
root@arm:~# MARKER='KFLB''LPZNQP' run 'echo 790000 790000 > /sys/kernel/mva_test//regulators/buck2_set'
KFLBLPZNQPKFLBLPZNQP 0
root@arm:~# echo 'YNKG''OCCABV'
YNKGOCCABV
root@arm:~# MARKER='ZMUW''LFALZV' run 'i2cget -y -f 2 0x4b 0x10'
ZMUWLFALZV0x09
ZMUWLFALZV 0
root@arm:~# echo 'HPQE''VVJPAH'
HPQEVVJPAH
root@arm:~# MARKER='ELFL''CEXPYW' run 'echo 800000 800000 > /sys/kernel/mva_test//regulators/buck2_set'
ELFLCEXPYWELFLCEXPYW 0
root@arm:~# echo 'PMXO''GPBXMF'
PMXOGPBXMF
root@arm:~# MARKER='NHNK''HHUCMN' run 'i2cget -y -f 2 0x4b 0x10'
NHNKHHUCMN0x0a
NHNKHHUCMN 0
root@arm:~# echo 'WYBB''QJCKWQ'
WYBBQJCKWQ
root@arm:~# MARKER='FKJV''SSXAPU' run 'echo 810000 810000 > /sys/kernel/mva_test//regulators/buck2_set'
FKJVSSXAPUFKJVSSXAPU 0
root@arm:~# echo 'TEBL''MWBJBG'
TEBLMWBJBG
root@arm:~# MARKER='LMZX''PEHMQV' run 'i2cget -y -f 2 0x4b 0x10'
LMZXPEHMQV0x0b
LMZXPEHMQV 0
root@arm:~# echo 'ZEZV''WKXBYH'
ZEZVWKXBYH
root@arm:~# MARKER='PEGW''OGPHVP' run 'echo 820000 820000 > /sys/kernel/mva_test//regulators/buck2_set'
PEGWOGPHVPPEGWOGPHVP 0
root@arm:~# echo 'PSTZ''WGOFPU'
PSTZWGOFPU
root@arm:~# MARKER='YTAP''BPSMYY' run 'i2cget -y -f 2 0x4b 0x10'
YTAPBPSMYY0x0c
YTAPBPSMYY 0
root@arm:~# echo 'WSPV''TUNHHN'
WSPVTUNHHN
root@arm:~# MARKER='TSTQ''ZGYAEF' run 'echo 830000 830000 > /sys/kernel/mva_test//regulators/buck2_set'
TSTQZGYAEFTSTQZGYAEF 0
root@arm:~# echo 'CXSP''HOOHMN'
CXSPHOOHMN
root@arm:~# MARKER='EUEQ''VGSKJY' run 'i2cget -y -f 2 0x4b 0x10'
EUEQVGSKJY0x0d
EUEQVGSKJY 0
root@arm:~# echo 'VLMG''OOFQNE'
VLMGOOFQNE
root@arm:~# MARKER='POCV''EJOBCV' run 'echo 840000 840000 > /sys/kernel/mva_test//regulators/buck2_set'
POCVEJOBCVPOCVEJOBCV 0
root@arm:~# echo 'ZKYB''VPHLAJ'
ZKYBVPHLAJ
root@arm:~# MARKER='NWFK''UXUEBK' run 'i2cget -y -f 2 0x4b 0x10'
NWFKUXUEBK0x0e
NWFKUXUEBK 0
root@arm:~# echo 'YCZX''EUMUSK'
YCZXEUMUSK
root@arm:~# MARKER='NWLG''YFEBGF' run 'echo 850000 850000 > /sys/kernel/mva_test//regulators/buck2_set'
NWLGYFEBGFNWLGYFEBGF 0
root@arm:~# echo 'MEEP''PWWQLQ'
MEEPPWWQLQ
root@arm:~# MARKER='KKXH''NOLNAX' run 'i2cget -y -f 2 0x4b 0x10'
KKXHNOLNAX0x0f
KKXHNOLNAX 0
root@arm:~# echo 'ZNWW''BTNKKC'
ZNWWBTNKKC
root@arm:~# MARKER='YQWV''KMPZNX' run 'echo 860000 860000 > /sys/kernel/mva_test//regulators/buck2_set'
YQWVKMPZNXYQWVKMPZNX 0
root@arm:~# echo 'KTKA''YOTAOH'
KTKAYOTAOH
root@arm:~# MARKER='VTHZ''KGLQUU' run 'i2cget -y -f 2 0x4b 0x10'
VTHZKGLQUU0x10
VTHZKGLQUU 0
root@arm:~# echo 'GTWU''BHQUBU'
GTWUBHQUBU
root@arm:~# MARKER='PPQA''CTEQGM' run 'echo 870000 870000 > /sys/kernel/mva_test//regulators/buck2_set'
PPQACTEQGMPPQACTEQGM 0
root@arm:~# echo 'VNWX''GKJZBT'
VNWXGKJZBT
root@arm:~# MARKER='YMFM''NZQLQP' run 'i2cget -y -f 2 0x4b 0x10'
YMFMNZQLQP0x11
YMFMNZQLQP 0
root@arm:~# echo 'LKYG''FVBQMU'
LKYGFVBQMU
root@arm:~# MARKER='EEQA''SOWJSG' run 'echo 880000 880000 > /sys/kernel/mva_test//regulators/buck2_set'
EEQASOWJSGEEQASOWJSG 0
root@arm:~# echo 'VCLN''TXPEEC'
VCLNTXPEEC
root@arm:~# MARKER='COOZ''CAUSGK' run 'i2cget -y -f 2 0x4b 0x10'
COOZCAUSGK0x12
COOZCAUSGK 0
root@arm:~# echo 'BQSK''NJKPJE'
BQSKNJKPJE
root@arm:~# MARKER='GTJZ''JKWSPU' run 'echo 890000 890000 > /sys/kernel/mva_test//regulators/buck2_set'
GTJZJKWSPUGTJZJKWSPU 0
root@arm:~# echo 'QZKS''MCJEAB'
QZKSMCJEAB
root@arm:~# MARKER='ZAOE''XKVQVB' run 'i2cget -y -f 2 0x4b 0x10'
ZAOEXKVQVB0x13
ZAOEXKVQVB 0
root@arm:~# echo 'STBA''PHUUYC'
STBAPHUUYC
root@arm:~# MARKER='VHVQ''NQABWN' run 'echo 900000 900000 > /sys/kernel/mva_test//regulators/buck2_set'
VHVQNQABWNVHVQNQABWN 0
root@arm:~# echo 'FEOK''VNMMMK'
FEOKVNMMMK
root@arm:~# MARKER='BUHU''LOBNEB' run 'i2cget -y -f 2 0x4b 0x10'
BUHULOBNEB0x14
BUHULOBNEB 0
root@arm:~# echo 'EGYG''CLMAJK'
EGYGCLMAJK
root@arm:~# MARKER='QMOZ''NYZQOF' run 'echo 910000 910000 > /sys/kernel/mva_test//regulators/buck2_set'
QMOZNYZQOFQMOZNYZQOF 0
root@arm:~# echo 'THAW''WGBEOX'
THAWWGBEOX
root@arm:~# MARKER='SEZX''YKZWEM' run 'i2cget -y -f 2 0x4b 0x10'
SEZXYKZWEM0x15
SEZXYKZWEM 0
root@arm:~# echo 'UQUM''FVSAWP'
UQUMFVSAWP
root@arm:~# MARKER='ZHSF''LFBBQJ' run 'echo 920000 920000 > /sys/kernel/mva_test//regulators/buck2_set'
ZHSFLFBBQJZHSFLFBBQJ 0
root@arm:~# echo 'OMMV''SKTLWO'
OMMVSKTLWO
root@arm:~# MARKER='TLSU''FVBNPM' run 'i2cget -y -f 2 0x4b 0x10'
TLSUFVBNPM0x16
TLSUFVBNPM 0
root@arm:~# echo 'MTQW''SVFWUH'
MTQWSVFWUH
root@arm:~# MARKER='VUHK''FGSZHQ' run 'echo 930000 930000 > /sys/kernel/mva_test//regulators/buck2_set'
VUHKFGSZHQVUHKFGSZHQ 0
root@arm:~# echo 'CYUB''SJECWH'
CYUBSJECWH
root@arm:~# MARKER='JMTE''FEXATJ' run 'i2cget -y -f 2 0x4b 0x10'
JMTEFEXATJ0x17
JMTEFEXATJ 0
root@arm:~# echo 'LOSX''NWVWVJ'
LOSXNWVWVJ
root@arm:~# MARKER='UNON''FZENYE' run 'echo 940000 940000 > /sys/kernel/mva_test//regulators/buck2_set'
UNONFZENYEUNONFZENYE 0
root@arm:~# echo 'ZVAF''BJBMWJ'
ZVAFBJBMWJ
root@arm:~# MARKER='ZQZH''ESZKXA' run 'i2cget -y -f 2 0x4b 0x10'
ZQZHESZKXA0x18
ZQZHESZKXA 0
root@arm:~# echo 'PONX''WQCSYC'
PONXWQCSYC
root@arm:~# MARKER='SYPX''GTKCZC' run 'echo 950000 950000 > /sys/kernel/mva_test//regulators/buck2_set'
SYPXGTKCZCSYPXGTKCZC 0
root@arm:~# echo 'YMUS''LYUOZH'
YMUSLYUOZH
root@arm:~# MARKER='BVOH''SPATXM' run 'i2cget -y -f 2 0x4b 0x10'
BVOHSPATXM0x19
BVOHSPATXM 0
root@arm:~# echo 'VUFX''PMHNCC'
VUFXPMHNCC
root@arm:~# MARKER='HAVN''CWTLGX' run 'echo 960000 960000 > /sys/kernel/mva_test//regulators/buck2_set'
HAVNCWTLGXHAVNCWTLGX 0
root@arm:~# echo 'NEYX''TGELYZ'
NEYXTGELYZ
root@arm:~# MARKER='OHQW''XTYGTB' run 'i2cget -y -f 2 0x4b 0x10'
OHQWXTYGTB0x1a
OHQWXTYGTB 0
root@arm:~# echo 'TPWA''YJFPMB'
TPWAYJFPMB
root@arm:~# MARKER='VBBO''HKFWBL' run 'echo 970000 970000 > /sys/kernel/mva_test//regulators/buck2_set'
VBBOHKFWBLVBBOHKFWBL 0
root@arm:~# echo 'MAUK''ELMAUH'
MAUKELMAUH
root@arm:~# MARKER='FZTH''LEQWXF' run 'i2cget -y -f 2 0x4b 0x10'
FZTHLEQWXF0x1b
FZTHLEQWXF 0
root@arm:~# echo 'SASJ''GTTNTP'
SASJGTTNTP
root@arm:~# MARKER='OCYU''ONSVEV' run 'echo 980000 980000 > /sys/kernel/mva_test//regulators/buck2_set'
OCYUONSVEVOCYUONSVEV 0
root@arm:~# echo 'WBTA''KJWZEZ'
WBTAKJWZEZ
root@arm:~# MARKER='GCOY''TEJQSS' run 'i2cget -y -f 2 0x4b 0x10'
GCOYTEJQSS0x1c
GCOYTEJQSS 0
root@arm:~# echo 'WPVS''QEVMUY'
WPVSQEVMUY
root@arm:~# MARKER='TQHY''TNXJQK' run 'echo 990000 990000 > /sys/kernel/mva_test//regulators/buck2_set'
TQHYTNXJQKTQHYTNXJQK 0
root@arm:~# echo 'UWPU''TSHQZL'
UWPUTSHQZL
root@arm:~# MARKER='THGK''YBVKTY' run 'i2cget -y -f 2 0x4b 0x10'
THGKYBVKTY0x1d
THGKYBVKTY 0
root@arm:~# echo 'EWZC''GCBPSU'
EWZCGCBPSU
root@arm:~# MARKER='KGFF''GAWNNB' run 'echo 1000000 1000000 > /sys/kernel/mva_tesst/regulators/buck2_set'
KGFFGAWNNBKGFFGAWNNB 0
root@arm:~# echo 'JTPL''VXCATJ'
JTPLVXCATJ
root@arm:~# MARKER='WKML''BBNAAE' run 'i2cget -y -f 2 0x4b 0x10'
WKMLBBNAAE0x1e
WKMLBBNAAE 0
root@arm:~# echo 'PQOQ''XFMFTS'
PQOQXFMFTS
root@arm:~# MARKER='SLQS''MNKVKL' run 'echo 1010000 1010000 > /sys/kernel/mva_tesst/regulators/buck2_set'
SLQSMNKVKLSLQSMNKVKL 0
root@arm:~# echo 'OOLY''BUQAXS'
OOLYBUQAXS
root@arm:~# MARKER='HHEU''XWCKGL' run 'i2cget -y -f 2 0x4b 0x10'
HHEUXWCKGL0x1f
HHEUXWCKGL 0
root@arm:~# echo 'WGWY''VQSZNX'
WGWYVQSZNX
root@arm:~# MARKER='YAPF''NUCPBZ' run 'echo 1020000 1020000 > /sys/kernel/mva_tesst/regulators/buck2_set'
YAPFNUCPBZYAPFNUCPBZ 0
root@arm:~# echo 'FMAB''XSWVHJ'
FMABXSWVHJ
root@arm:~# MARKER='TLZP''MGBVQU' run 'i2cget -y -f 2 0x4b 0x10'
TLZPMGBVQU0x20
TLZPMGBVQU 0
root@arm:~# echo 'KXXX''YXASNJ'
KXXXYXASNJ
root@arm:~# MARKER='TXHB''XMNWHF' run 'echo 1030000 1030000 > /sys/kernel/mva_tesst/regulators/buck2_set'
TXHBXMNWHFTXHBXMNWHF 0
root@arm:~# echo 'XXHW''ZEWCLA'
XXHWZEWCLA
root@arm:~# MARKER='QCPC''FPQYCP' run 'i2cget -y -f 2 0x4b 0x10'
QCPCFPQYCP0x21
QCPCFPQYCP 0
root@arm:~# echo 'JPLF''LVCPGN'
JPLFLVCPGN
root@arm:~# MARKER='LTKJ''NWAVBM' run 'echo 1040000 1040000 > /sys/kernel/mva_tesst/regulators/buck2_set'
LTKJNWAVBMLTKJNWAVBM 0
root@arm:~# echo 'FAWN''JUMFON'
FAWNJUMFON
root@arm:~# MARKER='ZSZQ''YPQAUL' run 'i2cget -y -f 2 0x4b 0x10'
ZSZQYPQAUL0x22
ZSZQYPQAUL 0
root@arm:~# echo 'GAUT''JQZPVZ'
GAUTJQZPVZ
root@arm:~# MARKER='GCNW''LOENQA' run 'echo 1050000 1050000 > /sys/kernel/mva_tesst/regulators/buck2_set'
GCNWLOENQAGCNWLOENQA 0
root@arm:~# echo 'JXJG''XZVKBU'
JXJGXZVKBU
root@arm:~# MARKER='SMPE''WNAHVS' run 'i2cget -y -f 2 0x4b 0x10'
SMPEWNAHVS0x23
SMPEWNAHVS 0
root@arm:~# echo 'VMOO''YNAHFV'
VMOOYNAHFV
root@arm:~# MARKER='VVPS''GFXNEO' run 'echo 1060000 1060000 > /sys/kernel/mva_tesst/regulators/buck2_set'
VVPSGFXNEOVVPSGFXNEO 0
root@arm:~# echo 'PESU''WUTTHU'
PESUWUTTHU
root@arm:~# MARKER='LPWN''QZKYAT' run 'i2cget -y -f 2 0x4b 0x10'
LPWNQZKYAT0x24
LPWNQZKYAT 0
root@arm:~# echo 'JCYB''ZNOLWZ'
JCYBZNOLWZ
root@arm:~# MARKER='XGOY''WHKPTW' run 'echo 1070000 1070000 > /sys/kernel/mva_tesst/regulators/buck2_set'
XGOYWHKPTWXGOYWHKPTW 0
root@arm:~# echo 'TLOF''FUTGUA'
TLOFFUTGUA
root@arm:~# MARKER='FEVC''XNFNWJ' run 'i2cget -y -f 2 0x4b 0x10'
FEVCXNFNWJ0x25
FEVCXNFNWJ 0
root@arm:~# echo 'CJNA''EFSBKW'
CJNAEFSBKW
root@arm:~# MARKER='ASML''BKJCBX' run 'echo 1080000 1080000 > /sys/kernel/mva_tesst/regulators/buck2_set'
ASMLBKJCBXASMLBKJCBX 0
root@arm:~# echo 'ZWGL''PAFMKX'
ZWGLPAFMKX
root@arm:~# MARKER='PJTO''UJCXAJ' run 'i2cget -y -f 2 0x4b 0x10'
PJTOUJCXAJ0x26
PJTOUJCXAJ 0
root@arm:~# echo 'TNJH''JXQAVK'
TNJHJXQAVK
root@arm:~# MARKER='ZONL''EWEMQO' run 'echo 1090000 1090000 > /sys/kernel/mva_tesst/regulators/buck2_set'
ZONLEWEMQOZONLEWEMQO 0
root@arm:~# echo 'HHFA''NXPLKC'
HHFANXPLKC
root@arm:~# MARKER='QTPV''QGWCFQ' run 'i2cget -y -f 2 0x4b 0x10'
QTPVQGWCFQ0x27
QTPVQGWCFQ 0
root@arm:~# echo 'UZWY''UBUQMV'
UZWYUBUQMV
root@arm:~# MARKER='JYAM''PTNLZW' run 'echo 1100000 1100000 > /sys/kernel/mva_tesst/regulators/buck2_set'
JYAMPTNLZWJYAMPTNLZW 0
root@arm:~# echo 'HMCW''HMYWSC'
HMCWHMYWSC
root@arm:~# MARKER='MCBC''XLQYJS' run 'i2cget -y -f 2 0x4b 0x10'
MCBCXLQYJS0x28
MCBCXLQYJS 0
root@arm:~# echo 'OVAA''JUMOWL'
OVAAJUMOWL
root@arm:~# MARKER='BPTJ''KAVSUV' run 'echo 1110000 1110000 > /sys/kernel/mva_tesst/regulators/buck2_set'
BPTJKAVSUVBPTJKAVSUV 0
root@arm:~# echo 'UBWN''VMAKBG'
UBWNVMAKBG
root@arm:~# MARKER='XAHY''ACUXUV' run 'i2cget -y -f 2 0x4b 0x10'
XAHYACUXUV0x29
XAHYACUXUV 0
root@arm:~# echo 'GGHM''XFCJPA'
GGHMXFCJPA
root@arm:~# MARKER='QVGQ''PTGYBE' run 'echo 1120000 1120000 > /sys/kernel/mva_tesst/regulators/buck2_set'
QVGQPTGYBEQVGQPTGYBE 0
root@arm:~# echo 'MMFZ''OQPQGS'
MMFZOQPQGS
root@arm:~# MARKER='AFQL''WHLOAB' run 'i2cget -y -f 2 0x4b 0x10'
AFQLWHLOAB0x2a
AFQLWHLOAB 0
root@arm:~# echo 'BGQQ''AABJBF'
BGQQAABJBF
root@arm:~# MARKER='ESVM''PNVVJC' run 'echo 1130000 1130000 > /sys/kernel/mva_tesst/regulators/buck2_set'
ESVMPNVVJCESVMPNVVJC 0
root@arm:~# echo 'BEGT''CBBQOZ'
BEGTCBBQOZ
root@arm:~# MARKER='PMMQ''SBWMZO' run 'i2cget -y -f 2 0x4b 0x10'
PMMQSBWMZO0x2b
PMMQSBWMZO 0
root@arm:~# echo 'XWGK''MVZHKT'
XWGKMVZHKT
root@arm:~# MARKER='CGJV''SSKVSY' run 'echo 1140000 1140000 > /sys/kernel/mva_tesst/regulators/buck2_set'
CGJVSSKVSYCGJVSSKVSY 0
root@arm:~# echo 'VSQC''QXVVLX'
VSQCQXVVLX
root@arm:~# MARKER='PLOY''NWKTOK' run 'i2cget -y -f 2 0x4b 0x10'
PLOYNWKTOK0x2c
PLOYNWKTOK 0
root@arm:~# echo 'AWXA''UVLVKN'
AWXAUVLVKN
root@arm:~# MARKER='WVFW''PMCGEB' run 'echo 1150000 1150000 > /sys/kernel/mva_tesst/regulators/buck2_set'
WVFWPMCGEBWVFWPMCGEB 0
root@arm:~# echo 'JMKZ''ATMAYG'
JMKZATMAYG
root@arm:~# MARKER='MUFB''VUYZSY' run 'i2cget -y -f 2 0x4b 0x10'
MUFBVUYZSY0x2d
MUFBVUYZSY 0
root@arm:~# echo 'TSVL''KJNLMG'
TSVLKJNLMG
root@arm:~# MARKER='PCHQ''ZWFSYC' run 'echo 1160000 1160000 > /sys/kernel/mva_tesst/regulators/buck2_set'
PCHQZWFSYCPCHQZWFSYC 0
root@arm:~# echo 'BNEW''ECEBHX'
BNEWECEBHX
root@arm:~# MARKER='KASA''CHPEAE' run 'i2cget -y -f 2 0x4b 0x10'
KASACHPEAE0x2e
KASACHPEAE 0
root@arm:~# echo 'XKFG''OMQVNA'
XKFGOMQVNA
root@arm:~# MARKER='KVBN''PTCOQV' run 'echo 1170000 1170000 > /sys/kernel/mva_tesst/regulators/buck2_set'
KVBNPTCOQVKVBNPTCOQV 0
root@arm:~# echo 'WSLH''KTNQZY'
WSLHKTNQZY
root@arm:~# MARKER='QXSM''USHHEB' run 'i2cget -y -f 2 0x4b 0x10'
QXSMUSHHEB0x2f
QXSMUSHHEB 0
root@arm:~# echo 'WHGX''AZAVGA'
WHGXAZAVGA
root@arm:~# MARKER='NCQU''VBBJCZ' run 'echo 1180000 1180000 > /sys/kernel/mva_tesst/regulators/buck2_set'
NCQUVBBJCZNCQUVBBJCZ 0
root@arm:~# echo 'GAWX''HZVXVW'
GAWXHZVXVW
root@arm:~# MARKER='YGTL''FLXTTQ' run 'i2cget -y -f 2 0x4b 0x10'
YGTLFLXTTQ0x30
YGTLFLXTTQ 0
root@arm:~# echo 'MSFA''MSYGYQ'
MSFAMSYGYQ
root@arm:~# MARKER='ZVXN''YBGXAZ' run 'echo 1190000 1190000 > /sys/kernel/mva_tesst/regulators/buck2_set'
ZVXNYBGXAZZVXNYBGXAZ 0
root@arm:~# echo 'XEWV''THHXFM'
XEWVTHHXFM
root@arm:~# MARKER='OXPB''UYHPXX' run 'i2cget -y -f 2 0x4b 0x10'
OXPBUYHPXX0x31
OXPBUYHPXX 0
root@arm:~# echo 'OFVC''LQFKTS'
OFVCLQFKTS
root@arm:~# MARKER='BJMU''KXBFHJ' run 'echo 1200000 1200000 > /sys/kernel/mva_tesst/regulators/buck2_set'
BJMUKXBFHJBJMUKXBFHJ 0
root@arm:~# echo 'OVVY''BOCJNG'
OVVYBOCJNG
root@arm:~# MARKER='FCLK''YTPYHT' run 'i2cget -y -f 2 0x4b 0x10'
FCLKYTPYHT0x32
FCLKYTPYHT 0
root@arm:~# echo 'ZGGO''PYTWXS'
ZGGOPYTWXS
root@arm:~# MARKER='FPUP''TWTLAX' run 'echo 1210000 1210000 > /sys/kernel/mva_tesst/regulators/buck2_set'
FPUPTWTLAXFPUPTWTLAX 0
root@arm:~# echo 'PNQP''JVZLCL'
PNQPJVZLCL
root@arm:~# MARKER='YZYP''LLSHGV' run 'i2cget -y -f 2 0x4b 0x10'
YZYPLLSHGV0x33
YZYPLLSHGV 0
root@arm:~# echo 'MFVA''JWCBPQ'
MFVAJWCBPQ
root@arm:~# MARKER='AXWT''FKNFQF' run 'echo 1220000 1220000 > /sys/kernel/mva_tesst/regulators/buck2_set'
AXWTFKNFQFAXWTFKNFQF 0
root@arm:~# echo 'FCVF''QGLGCZ'
FCVFQGLGCZ
root@arm:~# MARKER='TSLV''XEKYSX' run 'i2cget -y -f 2 0x4b 0x10'
TSLVXEKYSX0x34
TSLVXEKYSX 0
root@arm:~# echo 'BUKO''HZKYET'
BUKOHZKYET
root@arm:~# MARKER='XYFN''ZZUNNE' run 'echo 1230000 1230000 > /sys/kernel/mva_tesst/regulators/buck2_set'
XYFNZZUNNEXYFNZZUNNE 0
root@arm:~# echo 'PKLG''XEBHLM'
PKLGXEBHLM
root@arm:~# MARKER='GXQV''VTNBYA' run 'i2cget -y -f 2 0x4b 0x10'
GXQVVTNBYA0x35
GXQVVTNBYA 0
root@arm:~# echo 'PHCV''CJOTFB'
PHCVCJOTFB
root@arm:~# MARKER='ZPSE''WGXCVJ' run 'echo 1240000 1240000 > /sys/kernel/mva_tesst/regulators/buck2_set'
ZPSEWGXCVJZPSEWGXCVJ 0
root@arm:~# echo 'TBXF''EZWOEJ'
TBXFEZWOEJ
root@arm:~# MARKER='AEAY''CPBFTX' run 'i2cget -y -f 2 0x4b 0x10'
AEAYCPBFTX0x36
AEAYCPBFTX 0
root@arm:~# echo 'UVKG''OQEGHG'
UVKGOQEGHG
root@arm:~# MARKER='SHKC''GPNNZV' run 'echo 1250000 1250000 > /sys/kernel/mva_tesst/regulators/buck2_set'
SHKCGPNNZVSHKCGPNNZV 0
root@arm:~# echo 'JWWH''JKJQGJ'
JWWHJKJQGJ
root@arm:~# MARKER='TKYT''COMVNK' run 'i2cget -y -f 2 0x4b 0x10'
TKYTCOMVNK0x37
TKYTCOMVNK 0
root@arm:~# echo 'TCAH''VXJQYL'
TCAHVXJQYL
root@arm:~# MARKER='OBCK''AMBECZ' run 'echo 1260000 1260000 > /sys/kernel/mva_tesst/regulators/buck2_set'
OBCKAMBECZOBCKAMBECZ 0
root@arm:~# echo 'VPLE''MKCBNU'
VPLEMKCBNU
root@arm:~# MARKER='CFBS''HAVENC' run 'i2cget -y -f 2 0x4b 0x10'
CFBSHAVENC0x38
CFBSHAVENC 0
root@arm:~# echo 'XLXQ''LHJZCJ'
XLXQLHJZCJ
root@arm:~# MARKER='XVZP''BQAEKF' run 'echo 1270000 1270000 > /sys/kernel/mva_tesst/regulators/buck2_set'
XVZPBQAEKFXVZPBQAEKF 0
root@arm:~# echo 'BMVT''OSUQEH'
BMVTOSUQEH
root@arm:~# MARKER='CHJO''SFGJGO' run 'i2cget -y -f 2 0x4b 0x10'
CHJOSFGJGO0x39
CHJOSFGJGO 0
root@arm:~# echo 'YZLN''JHTKVF'
YZLNJHTKVF
root@arm:~# MARKER='NFVY''KKHQKW' run 'echo 1280000 1280000 > /sys/kernel/mva_tesst/regulators/buck2_set'
NFVYKKHQKWNFVYKKHQKW 0
root@arm:~# echo 'NTXT''LJZTBK'
NTXTLJZTBK
root@arm:~# MARKER='YTXH''CBSLEZ' run 'i2cget -y -f 2 0x4b 0x10'
YTXHCBSLEZ0x3a
YTXHCBSLEZ 0
root@arm:~# echo 'JGUX''PECCSW'
JGUXPECCSW
root@arm:~# MARKER='WQXH''CTPTNJ' run 'echo 1290000 1290000 > /sys/kernel/mva_tesst/regulators/buck2_set'
WQXHCTPTNJWQXHCTPTNJ 0
root@arm:~# echo 'GBYG''HETWTG'
GBYGHETWTG
root@arm:~# MARKER='MWKT''MQABSJ' run 'i2cget -y -f 2 0x4b 0x10'
MWKTMQABSJ0x3b
MWKTMQABSJ 0
root@arm:~# echo 'XPAM''SSFSWQ'
XPAMSSFSWQ
root@arm:~# MARKER='MFZC''KUVHUP' run 'echo 1300000 1300000 > /sys/kernel/mva_tesst/regulators/buck2_set'
MFZCKUVHUPMFZCKUVHUP 0
root@arm:~# echo 'TQKT''LPWSVP'
TQKTLPWSVP
root@arm:~# MARKER='YPEK''BMTPLG' run 'i2cget -y -f 2 0x4b 0x10'
YPEKBMTPLG0x3c
YPEKBMTPLG 0
root@arm:~# echo 'XUQG''FSAMCK'
XUQGFSAMCK
root@arm:~# MARKER='ECCN''HBZCUM' run 'grep -r -l rohm,bd71837 /proc/device-tree  | sed '"'"'s![^/]*$!!'"'"''
ECCNHBZCUM/proc/device-tree/ocp/interconnect@48000000/segment@100000/target-module@9c000/i2c@0/pmic@4b/
ECCNHBZCUM 0
root@arm:~# echo 'ZBLC''VGYYJG'
ZBLCVGYYJG
root@arm:~# MARKER='NEYL''TEYHHT' run 'test -f /proc/device-tree/ocp/interconnectt\@48000000/segment\@100000/target-module\@9c000/i2c\@0/pmic\@4b/regulators/BUCK33/rohm,no-regulator-enable-control ;echo $?'
NEYLTEYHHT0
NEYLTEYHHT 0
root@arm:~# echo 'FVSP''JATQXC'
FVSPJATQXC
root@arm:~# MARKER='NVPF''KJZYHF' run 'echo 700000 700000 > /sys/kernel/mva_test//regulators/buck3_set'
NVPFKJZYHFNVPFKJZYHF 0
root@arm:~# echo 'KMPX''MKXVCX'
KMPXMKXVCX
root@arm:~# MARKER='WJYJ''EHLCFG' run 'i2cget -y -f 2 0x4b 0x12'
WJYJEHLCFG0x00
WJYJEHLCFG 0
root@arm:~# echo 'VPWB''SBXKEW'
VPWBSBXKEW
root@arm:~# MARKER='EFZM''UVVNVU' run 'echo 710000 710000 > /sys/kernel/mva_test//regulators/buck3_set'
EFZMUVVNVUEFZMUVVNVU 0
root@arm:~# echo 'MFHQ''JBOLNS'
MFHQJBOLNS
root@arm:~# MARKER='VFMU''FWEOPE' run 'i2cget -y -f 2 0x4b 0x12'
VFMUFWEOPE0x01
VFMUFWEOPE 0
root@arm:~# echo 'LPOL''GEALTB'
LPOLGEALTB
root@arm:~# MARKER='OESV''YAWZNZ' run 'echo 720000 720000 > /sys/kernel/mva_test//regulators/buck3_set'
OESVYAWZNZOESVYAWZNZ 0
root@arm:~# echo 'BJPM''KVGFAU'
BJPMKVGFAU
root@arm:~# MARKER='TUJG''HQZOSN' run 'i2cget -y -f 2 0x4b 0x12'
TUJGHQZOSN0x02
TUJGHQZOSN 0
root@arm:~# echo 'CMXG''LSWLPL'
CMXGLSWLPL
root@arm:~# MARKER='AZLA''JAMWNK' run 'echo 730000 730000 > /sys/kernel/mva_test//regulators/buck3_set'
AZLAJAMWNKAZLAJAMWNK 0
root@arm:~# echo 'GOHG''MHQJAK'
GOHGMHQJAK
root@arm:~# MARKER='AOZG''TOJLYC' run 'i2cget -y -f 2 0x4b 0x12'
AOZGTOJLYC0x03
AOZGTOJLYC 0
root@arm:~# echo 'PXSX''BBUCSM'
PXSXBBUCSM
root@arm:~# MARKER='AJFU''JBLXTS' run 'echo 740000 740000 > /sys/kernel/mva_test//regulators/buck3_set'
AJFUJBLXTSAJFUJBLXTS 0
root@arm:~# echo 'BTVX''PBMMHN'
BTVXPBMMHN
root@arm:~# MARKER='SZUG''WOUTTX' run 'i2cget -y -f 2 0x4b 0x12'
SZUGWOUTTX0x04
SZUGWOUTTX 0
root@arm:~# echo 'BPKW''YCALBV'
BPKWYCALBV
root@arm:~# MARKER='CSPX''LVMEJP' run 'echo 750000 750000 > /sys/kernel/mva_test//regulators/buck3_set'
CSPXLVMEJPCSPXLVMEJP 0
root@arm:~# echo 'AYFY''CJYFGX'
AYFYCJYFGX
root@arm:~# MARKER='YYHM''MUHABP' run 'i2cget -y -f 2 0x4b 0x12'
YYHMMUHABP0x05
YYHMMUHABP 0
root@arm:~# echo 'HAWA''YCTZOQ'
HAWAYCTZOQ
root@arm:~# MARKER='KUHC''VXLYUC' run 'echo 760000 760000 > /sys/kernel/mva_test//regulators/buck3_set'
KUHCVXLYUCKUHCVXLYUC 0
root@arm:~# echo 'JSNN''BEKSSQ'
JSNNBEKSSQ
root@arm:~# MARKER='XFLL''VWHPNS' run 'i2cget -y -f 2 0x4b 0x12'
XFLLVWHPNS0x06
XFLLVWHPNS 0
root@arm:~# echo 'QYXB''CTGMAG'
QYXBCTGMAG
root@arm:~# MARKER='UAAU''YKQBHM' run 'echo 770000 770000 > /sys/kernel/mva_test//regulators/buck3_set'
UAAUYKQBHMUAAUYKQBHM 0
root@arm:~# echo 'QSXZ''GGCXQT'
QSXZGGCXQT
root@arm:~# MARKER='PNET''HSPXTB' run 'i2cget -y -f 2 0x4b 0x12'
PNETHSPXTB0x07
PNETHSPXTB 0
root@arm:~# echo 'LQVU''SSCUKK'
LQVUSSCUKK
root@arm:~# MARKER='BGAS''UGWJAM' run 'echo 780000 780000 > /sys/kernel/mva_test//regulators/buck3_set'
BGASUGWJAMBGASUGWJAM 0
root@arm:~# echo 'OAPW''CVVGYQ'
OAPWCVVGYQ
root@arm:~# MARKER='ESWY''GMOLQS' run 'i2cget -y -f 2 0x4b 0x12'
ESWYGMOLQS0x08
ESWYGMOLQS 0
root@arm:~# echo 'FMOK''KWBNXS'
FMOKKWBNXS
root@arm:~# MARKER='JQOX''STBKBF' run 'echo 790000 790000 > /sys/kernel/mva_test//regulators/buck3_set'
JQOXSTBKBFJQOXSTBKBF 0
root@arm:~# echo 'YLHN''GEHYTG'
YLHNGEHYTG
root@arm:~# MARKER='BZGA''JWPCFS' run 'i2cget -y -f 2 0x4b 0x12'
BZGAJWPCFS0x09
BZGAJWPCFS 0
root@arm:~# echo 'WOPL''GWHXXU'
WOPLGWHXXU
root@arm:~# MARKER='WYEG''UYZMHJ' run 'echo 800000 800000 > /sys/kernel/mva_test//regulators/buck3_set'
WYEGUYZMHJWYEGUYZMHJ 0
root@arm:~# echo 'OKSP''YUMSLW'
OKSPYUMSLW
root@arm:~# MARKER='AQUP''GZYWZL' run 'i2cget -y -f 2 0x4b 0x12'
AQUPGZYWZL0x0a
AQUPGZYWZL 0
root@arm:~# echo 'GXFV''EAYUUW'
GXFVEAYUUW
root@arm:~# MARKER='GAZC''BMZXGV' run 'echo 810000 810000 > /sys/kernel/mva_test//regulators/buck3_set'
GAZCBMZXGVGAZCBMZXGV 0
root@arm:~# echo 'ZBSP''JBFATC'
ZBSPJBFATC
root@arm:~# MARKER='CUPV''CTMSVF' run 'i2cget -y -f 2 0x4b 0x12'
CUPVCTMSVF0x0b
CUPVCTMSVF 0
root@arm:~# echo 'XYJY''XTHTQC'
XYJYXTHTQC
root@arm:~# MARKER='MLXW''KPPEMY' run 'echo 820000 820000 > /sys/kernel/mva_test//regulators/buck3_set'
MLXWKPPEMYMLXWKPPEMY 0
root@arm:~# echo 'TJSS''OXLZFG'
TJSSOXLZFG
root@arm:~# MARKER='WOEX''THOTCS' run 'i2cget -y -f 2 0x4b 0x12'
WOEXTHOTCS0x0c
WOEXTHOTCS 0
root@arm:~# echo 'FEZE''PXCNFU'
FEZEPXCNFU
root@arm:~# MARKER='JFCY''XNHTOG' run 'echo 830000 830000 > /sys/kernel/mva_test//regulators/buck3_set'
JFCYXNHTOGJFCYXNHTOG 0
root@arm:~# echo 'JMXH''YFLOPN'
JMXHYFLOPN
root@arm:~# MARKER='MGCB''LQQHGU' run 'i2cget -y -f 2 0x4b 0x12'
MGCBLQQHGU0x0d
MGCBLQQHGU 0
root@arm:~# echo 'XAJX''EHGANF'
XAJXEHGANF
root@arm:~# MARKER='STPJ''YNSLML' run 'echo 840000 840000 > /sys/kernel/mva_test//regulators/buck3_set'
STPJYNSLMLSTPJYNSLML 0
root@arm:~# echo 'VCPE''NFGUES'
VCPENFGUES
root@arm:~# MARKER='OZMU''MTOMVG' run 'i2cget -y -f 2 0x4b 0x12'
OZMUMTOMVG0x0e
OZMUMTOMVG 0
root@arm:~# echo 'CNSY''TCOBCK'
CNSYTCOBCK
root@arm:~# MARKER='BNTN''YYZEPO' run 'echo 850000 850000 > /sys/kernel/mva_test//regulators/buck3_set'
BNTNYYZEPOBNTNYYZEPO 0
root@arm:~# echo 'ZENP''HJHAFE'
ZENPHJHAFE
root@arm:~# MARKER='TSOV''LXTHMZ' run 'i2cget -y -f 2 0x4b 0x12'
TSOVLXTHMZ0x0f
TSOVLXTHMZ 0
root@arm:~# echo 'ATNE''TCUTOU'
ATNETCUTOU
root@arm:~# MARKER='BVYL''SJVOXJ' run 'echo 860000 860000 > /sys/kernel/mva_test//regulators/buck3_set'
BVYLSJVOXJBVYLSJVOXJ 0
root@arm:~# echo 'BSEK''TKCENX'
BSEKTKCENX
root@arm:~# MARKER='EWSM''ZMYGQL' run 'i2cget -y -f 2 0x4b 0x12'
EWSMZMYGQL0x10
EWSMZMYGQL 0
root@arm:~# echo 'TZEK''UNNLKJ'
TZEKUNNLKJ
root@arm:~# MARKER='MZOH''MPAFZA' run 'echo 870000 870000 > /sys/kernel/mva_test//regulators/buck3_set'
MZOHMPAFZAMZOHMPAFZA 0
root@arm:~# echo 'OWMM''YVJXLB'
OWMMYVJXLB
root@arm:~# MARKER='YXQE''OTAMPK' run 'i2cget -y -f 2 0x4b 0x12'
YXQEOTAMPK0x11
YXQEOTAMPK 0
root@arm:~# echo 'PECJ''GMJYHA'
PECJGMJYHA
root@arm:~# MARKER='TASY''CNAZHB' run 'echo 880000 880000 > /sys/kernel/mva_test//regulators/buck3_set'
TASYCNAZHBTASYCNAZHB 0
root@arm:~# echo 'HQJO''GTYUBA'
HQJOGTYUBA
root@arm:~# MARKER='EKGZ''AAEKNE' run 'i2cget -y -f 2 0x4b 0x12'
EKGZAAEKNE0x12
EKGZAAEKNE 0
root@arm:~# echo 'ATMP''ZBZSJX'
ATMPZBZSJX
root@arm:~# MARKER='YJYS''KMNXYU' run 'echo 890000 890000 > /sys/kernel/mva_test//regulators/buck3_set'
YJYSKMNXYUYJYSKMNXYU 0
root@arm:~# echo 'CHZE''YBPXKY'
CHZEYBPXKY
root@arm:~# MARKER='WWNZ''OLXNYC' run 'i2cget -y -f 2 0x4b 0x12'
WWNZOLXNYC0x13
WWNZOLXNYC 0
root@arm:~# echo 'KMNE''LSNNGV'
KMNELSNNGV
root@arm:~# MARKER='LGNX''SNXLHF' run 'echo 900000 900000 > /sys/kernel/mva_test//regulators/buck3_set'
LGNXSNXLHFLGNXSNXLHF 0
root@arm:~# echo 'GVOY''NFEWKK'
GVOYNFEWKK
root@arm:~# MARKER='UHJB''TQHVMP' run 'i2cget -y -f 2 0x4b 0x12'
UHJBTQHVMP0x14
UHJBTQHVMP 0
root@arm:~# echo 'UHMN''SXCLQA'
UHMNSXCLQA
root@arm:~# MARKER='JEHQ''XSEMML' run 'echo 910000 910000 > /sys/kernel/mva_test//regulators/buck3_set'
JEHQXSEMMLJEHQXSEMML 0
root@arm:~# echo 'BSAN''JQXXNU'
BSANJQXXNU
root@arm:~# MARKER='SYYZ''VOTEEG' run 'i2cget -y -f 2 0x4b 0x12'
SYYZVOTEEG0x15
SYYZVOTEEG 0
root@arm:~# echo 'AHMZ''CAHSTG'
AHMZCAHSTG
root@arm:~# MARKER='ATZU''QTJOAJ' run 'echo 920000 920000 > /sys/kernel/mva_test//regulators/buck3_set'
ATZUQTJOAJATZUQTJOAJ 0
root@arm:~# echo 'UGSZ''NPCGOB'
UGSZNPCGOB
root@arm:~# MARKER='AOWA''SEBXQG' run 'i2cget -y -f 2 0x4b 0x12'
AOWASEBXQG0x16
AOWASEBXQG 0
root@arm:~# echo 'YVGP''BPBUOG'
YVGPBPBUOG
root@arm:~# MARKER='FOJT''YFNTTE' run 'echo 930000 930000 > /sys/kernel/mva_test//regulators/buck3_set'
FOJTYFNTTEFOJTYFNTTE 0
root@arm:~# echo 'BQLZ''PZAAJZ'
BQLZPZAAJZ
root@arm:~# MARKER='VYBE''HABQPA' run 'i2cget -y -f 2 0x4b 0x12'
VYBEHABQPA0x17
VYBEHABQPA 0
root@arm:~# echo 'QOTO''UVUHBF'
QOTOUVUHBF
root@arm:~# MARKER='HQEW''BNLHCA' run 'echo 940000 940000 > /sys/kernel/mva_test//regulators/buck3_set'
HQEWBNLHCAHQEWBNLHCA 0
root@arm:~# echo 'HNCY''UFJPQC'
HNCYUFJPQC
root@arm:~# MARKER='MAYY''TTMPQG' run 'i2cget -y -f 2 0x4b 0x12'
MAYYTTMPQG0x18
MAYYTTMPQG 0
root@arm:~# echo 'FSGY''QVFNAC'
FSGYQVFNAC
root@arm:~# MARKER='UJQA''EEAPGP' run 'echo 950000 950000 > /sys/kernel/mva_test//regulators/buck3_set'
UJQAEEAPGPUJQAEEAPGP 0
root@arm:~# echo 'CGEY''EFCMVL'
CGEYEFCMVL
root@arm:~# MARKER='TMYP''FVFXKH' run 'i2cget -y -f 2 0x4b 0x12'
TMYPFVFXKH0x19
TMYPFVFXKH 0
root@arm:~# echo 'CEUF''ZCKBAK'
CEUFZCKBAK
root@arm:~# MARKER='JVOS''FWNLUO' run 'echo 960000 960000 > /sys/kernel/mva_test//regulators/buck3_set'
JVOSFWNLUOJVOSFWNLUO 0
root@arm:~# echo 'GFOP''XLPXJH'
GFOPXLPXJH
root@arm:~# MARKER='FCZX''ALJVGC' run 'i2cget -y -f 2 0x4b 0x12'
FCZXALJVGC0x1a
FCZXALJVGC 0
root@arm:~# echo 'EGNC''EHOOOB'
EGNCEHOOOB
root@arm:~# MARKER='PZAH''YQNTEZ' run 'echo 970000 970000 > /sys/kernel/mva_test//regulators/buck3_set'
PZAHYQNTEZPZAHYQNTEZ 0
root@arm:~# echo 'NGVF''XVALYC'
NGVFXVALYC
root@arm:~# MARKER='MAUV''CXHVNE' run 'i2cget -y -f 2 0x4b 0x12'
MAUVCXHVNE0x1b
MAUVCXHVNE 0
root@arm:~# echo 'BUEA''EQCZMH'
BUEAEQCZMH
root@arm:~# MARKER='UZBA''WBBJHA' run 'echo 980000 980000 > /sys/kernel/mva_test//regulators/buck3_set'
UZBAWBBJHAUZBAWBBJHA 0
root@arm:~# echo 'HOBY''QOMVON'
HOBYQOMVON
root@arm:~# MARKER='QGGG''JXAHFC' run 'i2cget -y -f 2 0x4b 0x12'
QGGGJXAHFC0x1c
QGGGJXAHFC 0
root@arm:~# echo 'MWKL''SSBOTF'
MWKLSSBOTF
root@arm:~# MARKER='SSWE''XQFHEZ' run 'echo 990000 990000 > /sys/kernel/mva_test//regulators/buck3_set'
SSWEXQFHEZSSWEXQFHEZ 0
root@arm:~# echo 'BTFA''HQXQJW'
BTFAHQXQJW
root@arm:~# MARKER='WHGF''QHWUEB' run 'i2cget -y -f 2 0x4b 0x12'
WHGFQHWUEB0x1d
WHGFQHWUEB 0
root@arm:~# echo 'MAPL''FNUQPM'
MAPLFNUQPM
root@arm:~# MARKER='PBHH''CFSOUW' run 'echo 1000000 1000000 > /sys/kernel/mva_tesst/regulators/buck3_set'
PBHHCFSOUWPBHHCFSOUW 0
root@arm:~# echo 'HQSW''XBZCKQ'
HQSWXBZCKQ
root@arm:~# MARKER='LHOS''TWYLSO' run 'i2cget -y -f 2 0x4b 0x12'
LHOSTWYLSO0x1e
LHOSTWYLSO 0
root@arm:~# echo 'WVVT''PXNCMV'
WVVTPXNCMV
root@arm:~# MARKER='LOPP''NUMZKZ' run 'echo 1010000 1010000 > /sys/kernel/mva_tesst/regulators/buck3_set'
LOPPNUMZKZLOPPNUMZKZ 0
root@arm:~# echo 'NFSP''PCBZJO'
NFSPPCBZJO
root@arm:~# MARKER='BUHV''QVLLKJ' run 'i2cget -y -f 2 0x4b 0x12'
BUHVQVLLKJ0x1f
BUHVQVLLKJ 0
root@arm:~# echo 'QFYK''MTMMUK'
QFYKMTMMUK
root@arm:~# MARKER='SUHX''VMGSQK' run 'echo 1020000 1020000 > /sys/kernel/mva_tesst/regulators/buck3_set'
SUHXVMGSQKSUHXVMGSQK 0
root@arm:~# echo 'ULFH''ZVVWOU'
ULFHZVVWOU
root@arm:~# MARKER='UBNJ''UNWLAS' run 'i2cget -y -f 2 0x4b 0x12'
UBNJUNWLAS0x20
UBNJUNWLAS 0
root@arm:~# echo 'PZQA''ZCNZPF'
PZQAZCNZPF
root@arm:~# MARKER='JNTT''TZLYZM' run 'echo 1030000 1030000 > /sys/kernel/mva_tesst/regulators/buck3_set'
JNTTTZLYZMJNTTTZLYZM 0
root@arm:~# echo 'BVJO''MFHUML'
BVJOMFHUML
root@arm:~# MARKER='UZWH''PFHPSC' run 'i2cget -y -f 2 0x4b 0x12'
UZWHPFHPSC0x21
UZWHPFHPSC 0
root@arm:~# echo 'AHYC''XAZFLJ'
AHYCXAZFLJ
root@arm:~# MARKER='YNSN''KLMBGC' run 'echo 1040000 1040000 > /sys/kernel/mva_tesst/regulators/buck3_set'
YNSNKLMBGCYNSNKLMBGC 0
root@arm:~# echo 'KGYT''PHSAXT'
KGYTPHSAXT
root@arm:~# MARKER='VGAW''JJVQFB' run 'i2cget -y -f 2 0x4b 0x12'
VGAWJJVQFB0x22
VGAWJJVQFB 0
root@arm:~# echo 'FXQS''JKMQMZ'
FXQSJKMQMZ
root@arm:~# MARKER='NOUL''THXQVW' run 'echo 1050000 1050000 > /sys/kernel/mva_tesst/regulators/buck3_set'
NOULTHXQVWNOULTHXQVW 0
root@arm:~# echo 'YFEF''FFXTAF'
YFEFFFXTAF
root@arm:~# MARKER='CVLQ''GSXSVX' run 'i2cget -y -f 2 0x4b 0x12'
CVLQGSXSVX0x23
CVLQGSXSVX 0
root@arm:~# echo 'GPAF''YOUTCE'
GPAFYOUTCE
root@arm:~# MARKER='WBCM''PPLLNP' run 'echo 1060000 1060000 > /sys/kernel/mva_tesst/regulators/buck3_set'
WBCMPPLLNPWBCMPPLLNP 0
root@arm:~# echo 'YTZP''NXPYPZ'
YTZPNXPYPZ
root@arm:~# MARKER='USFE''YPQYOV' run 'i2cget -y -f 2 0x4b 0x12'
USFEYPQYOV0x24
USFEYPQYOV 0
root@arm:~# echo 'OLFE''XVHXKV'
OLFEXVHXKV
root@arm:~# MARKER='PJFU''UKWHLE' run 'echo 1070000 1070000 > /sys/kernel/mva_tesst/regulators/buck3_set'
PJFUUKWHLEPJFUUKWHLE 0
root@arm:~# echo 'JUKV''AYFUHW'
JUKVAYFUHW
root@arm:~# MARKER='JOFQ''XMWEKB' run 'i2cget -y -f 2 0x4b 0x12'
JOFQXMWEKB0x25
JOFQXMWEKB 0
root@arm:~# echo 'FTLQ''GNXPYL'
FTLQGNXPYL
root@arm:~# MARKER='UOQO''AXPLFS' run 'echo 1080000 1080000 > /sys/kernel/mva_tesst/regulators/buck3_set'
UOQOAXPLFSUOQOAXPLFS 0
root@arm:~# echo 'SNWE''OPMQAG'
SNWEOPMQAG
root@arm:~# MARKER='QLQX''OPZVXU' run 'i2cget -y -f 2 0x4b 0x12'
QLQXOPZVXU0x26
QLQXOPZVXU 0
root@arm:~# echo 'PXLA''YJHFNO'
PXLAYJHFNO
root@arm:~# MARKER='NNQF''VLUHNN' run 'echo 1090000 1090000 > /sys/kernel/mva_tesst/regulators/buck3_set'
NNQFVLUHNNNNQFVLUHNN 0
root@arm:~# echo 'ZXBT''ATKVOC'
ZXBTATKVOC
root@arm:~# MARKER='UFVV''AMENQX' run 'i2cget -y -f 2 0x4b 0x12'
UFVVAMENQX0x27
UFVVAMENQX 0
root@arm:~# echo 'SLSO''EEOWMC'
SLSOEEOWMC
root@arm:~# MARKER='EEWB''NCSANX' run 'echo 1100000 1100000 > /sys/kernel/mva_tesst/regulators/buck3_set'
EEWBNCSANXEEWBNCSANX 0
root@arm:~# echo 'ABHF''SXOCKB'
ABHFSXOCKB
root@arm:~# MARKER='HSNQ''MKECVE' run 'i2cget -y -f 2 0x4b 0x12'
HSNQMKECVE0x28
HSNQMKECVE 0
root@arm:~# echo 'ZBZT''GGGKBB'
ZBZTGGGKBB
root@arm:~# MARKER='YLJM''XAYAJA' run 'echo 1110000 1110000 > /sys/kernel/mva_tesst/regulators/buck3_set'
YLJMXAYAJAYLJMXAYAJA 0
root@arm:~# echo 'KLFW''TAEZAH'
KLFWTAEZAH
root@arm:~# MARKER='OAWC''MUTZHO' run 'i2cget -y -f 2 0x4b 0x12'
OAWCMUTZHO0x29
OAWCMUTZHO 0
root@arm:~# echo 'WUWV''VCOFOH'
WUWVVCOFOH
root@arm:~# MARKER='EKJW''MMSLUL' run 'echo 1120000 1120000 > /sys/kernel/mva_tesst/regulators/buck3_set'
EKJWMMSLULEKJWMMSLUL 0
root@arm:~# echo 'YMON''FOXSQY'
YMONFOXSQY
root@arm:~# MARKER='PLHP''PBJXYZ' run 'i2cget -y -f 2 0x4b 0x12'
PLHPPBJXYZ0x2a
PLHPPBJXYZ 0
root@arm:~# echo 'KBXL''YJMOBY'
KBXLYJMOBY
root@arm:~# MARKER='HULC''BJOHAP' run 'echo 1130000 1130000 > /sys/kernel/mva_tesst/regulators/buck3_set'
HULCBJOHAPHULCBJOHAP 0
root@arm:~# echo 'PFEW''FFWCFY'
PFEWFFWCFY
root@arm:~# MARKER='LWMT''AHNKKZ' run 'i2cget -y -f 2 0x4b 0x12'
LWMTAHNKKZ0x2b
LWMTAHNKKZ 0
root@arm:~# echo 'TACW''KJLOTF'
TACWKJLOTF
root@arm:~# MARKER='ZZFS''GNENGO' run 'echo 1140000 1140000 > /sys/kernel/mva_tesst/regulators/buck3_set'
ZZFSGNENGOZZFSGNENGO 0
root@arm:~# echo 'HHAW''KXQGBJ'
HHAWKXQGBJ
root@arm:~# MARKER='AUVV''VATAYN' run 'i2cget -y -f 2 0x4b 0x12'
AUVVVATAYN0x2c
AUVVVATAYN 0
root@arm:~# echo 'YQWZ''ASMGJY'
YQWZASMGJY
root@arm:~# MARKER='EMMV''TLPTMF' run 'echo 1150000 1150000 > /sys/kernel/mva_tesst/regulators/buck3_set'
EMMVTLPTMFEMMVTLPTMF 0
root@arm:~# echo 'QMOH''VYWKLW'
QMOHVYWKLW
root@arm:~# MARKER='XFGB''LELKNK' run 'i2cget -y -f 2 0x4b 0x12'
XFGBLELKNK0x2d
XFGBLELKNK 0
root@arm:~# echo 'VTFC''NGSWPM'
VTFCNGSWPM
root@arm:~# MARKER='HOKV''FPNSPN' run 'echo 1160000 1160000 > /sys/kernel/mva_tesst/regulators/buck3_set'
HOKVFPNSPNHOKVFPNSPN 0
root@arm:~# echo 'YCQT''VNOYAL'
YCQTVNOYAL
root@arm:~# MARKER='WCQV''ZBLBJL' run 'i2cget -y -f 2 0x4b 0x12'
WCQVZBLBJL0x2e
WCQVZBLBJL 0
root@arm:~# echo 'PBMG''GSSUBL'
PBMGGSSUBL
root@arm:~# MARKER='GBOT''HPENEN' run 'echo 1170000 1170000 > /sys/kernel/mva_tesst/regulators/buck3_set'
GBOTHPENENGBOTHPENEN 0
root@arm:~# echo 'OKEO''VPYYZM'
OKEOVPYYZM
root@arm:~# MARKER='PUEV''PWVHVW' run 'i2cget -y -f 2 0x4b 0x12'
PUEVPWVHVW0x2f
PUEVPWVHVW 0
root@arm:~# echo 'MFHA''BHKHLN'
MFHABHKHLN
root@arm:~# MARKER='QGHF''YWTVCH' run 'echo 1180000 1180000 > /sys/kernel/mva_tesst/regulators/buck3_set'
QGHFYWTVCHQGHFYWTVCH 0
root@arm:~# echo 'KBCP''QJTMVE'
KBCPQJTMVE
root@arm:~# MARKER='VGUW''JPJVGV' run 'i2cget -y -f 2 0x4b 0x12'
VGUWJPJVGV0x30
VGUWJPJVGV 0
root@arm:~# echo 'LCHL''OQYOVL'
LCHLOQYOVL
root@arm:~# MARKER='AFVH''KEWVBZ' run 'echo 1190000 1190000 > /sys/kernel/mva_tesst/regulators/buck3_set'
AFVHKEWVBZAFVHKEWVBZ 0
root@arm:~# echo 'YHOV''ECVJMW'
YHOVECVJMW
root@arm:~# MARKER='AFMB''BAZEXJ' run 'i2cget -y -f 2 0x4b 0x12'
AFMBBAZEXJ0x31
AFMBBAZEXJ 0
root@arm:~# echo 'QUNP''VJMGCF'
QUNPVJMGCF
root@arm:~# MARKER='CHHM''EOHVQG' run 'echo 1200000 1200000 > /sys/kernel/mva_tesst/regulators/buck3_set'
CHHMEOHVQGCHHMEOHVQG 0
root@arm:~# echo 'TNVN''GFOYXQ'
TNVNGFOYXQ
root@arm:~# MARKER='HASL''CBLOQP' run 'i2cget -y -f 2 0x4b 0x12'
HASLCBLOQP0x32
HASLCBLOQP 0
root@arm:~# echo 'BLJG''QFKHBP'
BLJGQFKHBP
root@arm:~# MARKER='JLUX''ZMWFYG' run 'echo 1210000 1210000 > /sys/kernel/mva_tesst/regulators/buck3_set'
JLUXZMWFYGJLUXZMWFYG 0
root@arm:~# echo 'NKKX''GFVYNB'
NKKXGFVYNB
root@arm:~# MARKER='ZNYH''NXKOMB' run 'i2cget -y -f 2 0x4b 0x12'
ZNYHNXKOMB0x33
ZNYHNXKOMB 0
root@arm:~# echo 'XLWF''GGGTKZ'
XLWFGGGTKZ
root@arm:~# MARKER='AUPF''AAAKJO' run 'echo 1220000 1220000 > /sys/kernel/mva_tesst/regulators/buck3_set'
AUPFAAAKJOAUPFAAAKJO 0
root@arm:~# echo 'MCNN''FFZKFQ'
MCNNFFZKFQ
root@arm:~# MARKER='VUEB''HKWSTC' run 'i2cget -y -f 2 0x4b 0x12'
VUEBHKWSTC0x34
VUEBHKWSTC 0
root@arm:~# echo 'YTWT''OJWJUA'
YTWTOJWJUA
root@arm:~# MARKER='SQPH''VKHNSS' run 'echo 1230000 1230000 > /sys/kernel/mva_tesst/regulators/buck3_set'
SQPHVKHNSSSQPHVKHNSS 0
root@arm:~# echo 'QHHU''PTVJHV'
QHHUPTVJHV
root@arm:~# MARKER='KQUA''VKASHC' run 'i2cget -y -f 2 0x4b 0x12'
KQUAVKASHC0x35
KQUAVKASHC 0
root@arm:~# echo 'EALN''ZSCFLZ'
EALNZSCFLZ
root@arm:~# MARKER='AFHC''VWHJUT' run 'echo 1240000 1240000 > /sys/kernel/mva_tesst/regulators/buck3_set'
AFHCVWHJUTAFHCVWHJUT 0
root@arm:~# echo 'KPTW''JKHXTP'
KPTWJKHXTP
root@arm:~# MARKER='FVCV''CEZLBE' run 'i2cget -y -f 2 0x4b 0x12'
FVCVCEZLBE0x36
FVCVCEZLBE 0
root@arm:~# echo 'XPBN''JYQYMB'
XPBNJYQYMB
root@arm:~# MARKER='QPNN''BQNMVQ' run 'echo 1250000 1250000 > /sys/kernel/mva_tesst/regulators/buck3_set'
QPNNBQNMVQQPNNBQNMVQ 0
root@arm:~# echo 'ZWCM''VXMJQG'
ZWCMVXMJQG
root@arm:~# MARKER='QBGA''KTLVNG' run 'i2cget -y -f 2 0x4b 0x12'
QBGAKTLVNG0x37
QBGAKTLVNG 0
root@arm:~# echo 'ATZN''XBVHBC'
ATZNXBVHBC
root@arm:~# MARKER='GJJS''NEAEBW' run 'echo 1260000 1260000 > /sys/kernel/mva_tesst/regulators/buck3_set'
GJJSNEAEBWGJJSNEAEBW 0
root@arm:~# echo 'ELEJ''EFCJZP'
ELEJEFCJZP
root@arm:~# MARKER='TSYG''JXATEU' run 'i2cget -y -f 2 0x4b 0x12'
TSYGJXATEU0x38
TSYGJXATEU 0
root@arm:~# echo 'ZYEK''SVEFFU'
ZYEKSVEFFU
root@arm:~# MARKER='GMQP''ZPZJUS' run 'echo 1270000 1270000 > /sys/kernel/mva_tesst/regulators/buck3_set'
GMQPZPZJUSGMQPZPZJUS 0
root@arm:~# echo 'EHPB''JLUWZL'
EHPBJLUWZL
root@arm:~# MARKER='NVAA''ZXGBOE' run 'i2cget -y -f 2 0x4b 0x12'
NVAAZXGBOE0x39
NVAAZXGBOE 0
root@arm:~# echo 'FYKQ''HMPEAM'
FYKQHMPEAM
root@arm:~# MARKER='GKTQ''HAVAGA' run 'echo 1280000 1280000 > /sys/kernel/mva_tesst/regulators/buck3_set'
GKTQHAVAGAGKTQHAVAGA 0
root@arm:~# echo 'WVSQ''LUWXPB'
WVSQLUWXPB
root@arm:~# MARKER='YLME''WEXBMB' run 'i2cget -y -f 2 0x4b 0x12'
YLMEWEXBMB0x3a
YLMEWEXBMB 0
root@arm:~# echo 'ZUWT''ETLZMN'
ZUWTETLZMN
root@arm:~# MARKER='BEQX''NETBOP' run 'echo 1290000 1290000 > /sys/kernel/mva_tesst/regulators/buck3_set'
BEQXNETBOPBEQXNETBOP 0
root@arm:~# echo 'EMJT''CZJMUW'
EMJTCZJMUW
root@arm:~# MARKER='GQGE''ALCVLY' run 'i2cget -y -f 2 0x4b 0x12'
GQGEALCVLY0x3b
GQGEALCVLY 0
root@arm:~# echo 'FCFX''HKZMJE'
FCFXHKZMJE
root@arm:~# MARKER='VMKG''VFGHCU' run 'echo 1300000 1300000 > /sys/kernel/mva_tesst/regulators/buck3_set'
VMKGVFGHCUVMKGVFGHCU 0
root@arm:~# echo 'MBCN''LGBVTS'
MBCNLGBVTS
root@arm:~# MARKER='PQEP''CNFJLY' run 'i2cget -y -f 2 0x4b 0x12'
PQEPCNFJLY0x3c
PQEPCNFJLY 0
root@arm:~# echo 'CNNL''PMULUS'
CNNLPMULUS
root@arm:~# MARKER='OZZB''KGAEHN' run 'grep -r -l rohm,bd71837 /proc/device-tree  | sed '"'"'s![^/]*$!!'"'"''
OZZBKGAEHN/proc/device-tree/ocp/interconnect@48000000/segment@100000/target-module@9c000/i2c@0/pmic@4b/
OZZBKGAEHN 0
root@arm:~# echo 'EQKO''AHYUJO'
EQKOAHYUJO
root@arm:~# MARKER='NMSQ''GCQESU' run 'test -f /proc/device-tree/ocp/interconnectt\@48000000/segment\@100000/target-module\@9c000/i2c\@0/pmic\@4b/regulators/BUCK44/rohm,no-regulator-enable-control ;echo $?'
NMSQGCQESU1
NMSQGCQESU 0
root@arm:~# echo 'NCUU''NTGYQM'
NCUUNTGYQM
root@arm:~# MARKER='PXQX''LMMYWM' run 'i2cget -y -f 2 0x4b 0x8'
PXQXLMMYWM0xc6
PXQXLMMYWM 0
root@arm:~# echo 'LEKM''FLPBCG'
LEKMFLPBCG
root@arm:~# MARKER='TELZ''LJZLYC' run 'echo 700000 700000 > /sys/kernel/mva_test//regulators/buck4_set'
TELZLJZLYCTELZLJZLYC 0
root@arm:~# echo 'OMUM''JCWYJG'
OMUMJCWYJG
root@arm:~# MARKER='BZKO''WKQPTY' run 'i2cget -y -f 2 0x4b 0x13'
BZKOWKQPTY0x00
BZKOWKQPTY 0
root@arm:~# echo 'CCMF''MCHJCA'
CCMFMCHJCA
root@arm:~# MARKER='BYBG''GESCXV' run 'echo 710000 710000 > /sys/kernel/mva_test//regulators/buck4_set'
BYBGGESCXVBYBGGESCXV 0
root@arm:~# echo 'GUOJ''FZZCSZ'
GUOJFZZCSZ
root@arm:~# MARKER='ULMS''QLUBUF' run 'i2cget -y -f 2 0x4b 0x13'
ULMSQLUBUF0x01
ULMSQLUBUF 0
root@arm:~# echo 'HSQG''GJNQPB'
HSQGGJNQPB
root@arm:~# MARKER='QBGM''BVTGSP' run 'echo 720000 720000 > /sys/kernel/mva_test//regulators/buck4_set'
QBGMBVTGSPQBGMBVTGSP 0
root@arm:~# echo 'XLEC''VWJGAT'
XLECVWJGAT
root@arm:~# MARKER='SPPC''GGQECE' run 'i2cget -y -f 2 0x4b 0x13'
SPPCGGQECE0x02
SPPCGGQECE 0
root@arm:~# echo 'PBCK''TYBUHE'
PBCKTYBUHE
root@arm:~# MARKER='SYWL''EHMQBA' run 'echo 730000 730000 > /sys/kernel/mva_test//regulators/buck4_set'
SYWLEHMQBASYWLEHMQBA 0
root@arm:~# echo 'SLTC''STOBYW'
SLTCSTOBYW
root@arm:~# MARKER='LMAY''VESTGX' run 'i2cget -y -f 2 0x4b 0x13'
LMAYVESTGX0x03
LMAYVESTGX 0
root@arm:~# echo 'NPKW''EPGSXJ'
NPKWEPGSXJ
root@arm:~# MARKER='PPJX''UYPSWC' run 'echo 740000 740000 > /sys/kernel/mva_test//regulators/buck4_set'
PPJXUYPSWCPPJXUYPSWC 0
root@arm:~# echo 'NYKB''PLXNYN'
NYKBPLXNYN
root@arm:~# MARKER='WQMH''TOZBTE' run 'i2cget -y -f 2 0x4b 0x13'
WQMHTOZBTE0x04
WQMHTOZBTE 0
root@arm:~# echo 'JEJP''SJGZVS'
JEJPSJGZVS
root@arm:~# MARKER='WNOG''YMFWNB' run 'echo 750000 750000 > /sys/kernel/mva_test//regulators/buck4_set'
WNOGYMFWNBWNOGYMFWNB 0
root@arm:~# echo 'TXVC''EXOYOX'
TXVCEXOYOX
root@arm:~# MARKER='LZFB''NFMOZA' run 'i2cget -y -f 2 0x4b 0x13'
LZFBNFMOZA0x05
LZFBNFMOZA 0
root@arm:~# echo 'XLSJ''VQQHSP'
XLSJVQQHSP
root@arm:~# MARKER='NWTQ''KXZSNQ' run 'echo 760000 760000 > /sys/kernel/mva_test//regulators/buck4_set'
NWTQKXZSNQNWTQKXZSNQ 0
root@arm:~# echo 'WUQE''UCKKJT'
WUQEUCKKJT
root@arm:~# MARKER='AAVX''TQGFVZ' run 'i2cget -y -f 2 0x4b 0x13'
AAVXTQGFVZ0x06
AAVXTQGFVZ 0
root@arm:~# echo 'PATC''BBYLZO'
PATCBBYLZO
root@arm:~# MARKER='FKXE''FXEFHT' run 'echo 770000 770000 > /sys/kernel/mva_test//regulators/buck4_set'
FKXEFXEFHTFKXEFXEFHT 0
root@arm:~# echo 'ENGE''CHPFYB'
ENGECHPFYB
root@arm:~# MARKER='JMYH''YQLHBE' run 'i2cget -y -f 2 0x4b 0x13'
JMYHYQLHBE0x07
JMYHYQLHBE 0
root@arm:~# echo 'LZQM''JBHBNS'
LZQMJBHBNS
root@arm:~# MARKER='EXCH''QOGGBC' run 'echo 780000 780000 > /sys/kernel/mva_test//regulators/buck4_set'
EXCHQOGGBCEXCHQOGGBC 0
root@arm:~# echo 'JCQP''SJOZPB'
JCQPSJOZPB
root@arm:~# MARKER='UFOG''YUOJVX' run 'i2cget -y -f 2 0x4b 0x13'
UFOGYUOJVX0x08
UFOGYUOJVX 0
root@arm:~# echo 'TJTO''FEAXXG'
TJTOFEAXXG
root@arm:~# MARKER='QVVK''KAAJNA' run 'echo 790000 790000 > /sys/kernel/mva_test//regulators/buck4_set'
QVVKKAAJNAQVVKKAAJNA 0
root@arm:~# echo 'SYLF''NKPGVM'
SYLFNKPGVM
root@arm:~# MARKER='PHHE''BUKNNE' run 'i2cget -y -f 2 0x4b 0x13'
PHHEBUKNNE0x09
PHHEBUKNNE 0
root@arm:~# echo 'EQKK''OFFCEM'
EQKKOFFCEM
root@arm:~# MARKER='GHYG''JQAFYT' run 'echo 800000 800000 > /sys/kernel/mva_test//regulators/buck4_set'
GHYGJQAFYTGHYGJQAFYT 0
root@arm:~# echo 'LOHW''UASHGE'
LOHWUASHGE
root@arm:~# MARKER='SUMU''CCSOFG' run 'i2cget -y -f 2 0x4b 0x13'
SUMUCCSOFG0x0a
SUMUCCSOFG 0
root@arm:~# echo 'WVEM''AYNJYQ'
WVEMAYNJYQ
root@arm:~# MARKER='BLBA''LQYYBX' run 'echo 810000 810000 > /sys/kernel/mva_test//regulators/buck4_set'
BLBALQYYBXBLBALQYYBX 0
root@arm:~# echo 'EEOE''WWXXYX'
EEOEWWXXYX
root@arm:~# MARKER='PCVN''UCEPSV' run 'i2cget -y -f 2 0x4b 0x13'
PCVNUCEPSV0x0b
PCVNUCEPSV 0
root@arm:~# echo 'WJNV''LAPGSV'
WJNVLAPGSV
root@arm:~# MARKER='LXXH''QLEFAV' run 'echo 820000 820000 > /sys/kernel/mva_test//regulators/buck4_set'
LXXHQLEFAVLXXHQLEFAV 0
root@arm:~# echo 'BAOZ''UBVXJH'
BAOZUBVXJH
root@arm:~# MARKER='FOPX''LMACMV' run 'i2cget -y -f 2 0x4b 0x13'
FOPXLMACMV0x0c
FOPXLMACMV 0
root@arm:~# echo 'BHFT''GGVZVS'
BHFTGGVZVS
root@arm:~# MARKER='KKEB''LVVOXE' run 'echo 830000 830000 > /sys/kernel/mva_test//regulators/buck4_set'
KKEBLVVOXEKKEBLVVOXE 0
root@arm:~# echo 'OZQF''LZFYUL'
OZQFLZFYUL
root@arm:~# MARKER='XBOW''PPYLCH' run 'i2cget -y -f 2 0x4b 0x13'
XBOWPPYLCH0x0d
XBOWPPYLCH 0
root@arm:~# echo 'BLMA''FTGUXF'
BLMAFTGUXF
root@arm:~# MARKER='YBTF''LTTQUM' run 'echo 840000 840000 > /sys/kernel/mva_test//regulators/buck4_set'
YBTFLTTQUMYBTFLTTQUM 0
root@arm:~# echo 'GWEY''FLGCSE'
GWEYFLGCSE
root@arm:~# MARKER='FPJW''VACKFY' run 'i2cget -y -f 2 0x4b 0x13'
FPJWVACKFY0x0e
FPJWVACKFY 0
root@arm:~# echo 'NCGH''YGLAUX'
NCGHYGLAUX
root@arm:~# MARKER='GCWC''VGKUBE' run 'echo 850000 850000 > /sys/kernel/mva_test//regulators/buck4_set'
GCWCVGKUBEGCWCVGKUBE 0
root@arm:~# echo 'HFHU''LXOGGS'
HFHULXOGGS
root@arm:~# MARKER='HQME''SSLWHL' run 'i2cget -y -f 2 0x4b 0x13'
HQMESSLWHL0x0f
HQMESSLWHL 0
root@arm:~# echo 'CFPN''XMEVWJ'
CFPNXMEVWJ
root@arm:~# MARKER='MPLF''CEKUCH' run 'echo 860000 860000 > /sys/kernel/mva_test//regulators/buck4_set'
MPLFCEKUCHMPLFCEKUCH 0
root@arm:~# echo 'OLNN''FXMOWS'
OLNNFXMOWS
root@arm:~# MARKER='GBPQ''HUYJAM' run 'i2cget -y -f 2 0x4b 0x13'
GBPQHUYJAM0x10
GBPQHUYJAM 0
root@arm:~# echo 'YYJJ''FSVZWS'
YYJJFSVZWS
root@arm:~# MARKER='FECB''BJNTVB' run 'echo 870000 870000 > /sys/kernel/mva_test//regulators/buck4_set'
FECBBJNTVBFECBBJNTVB 0
root@arm:~# echo 'HUQQ''WYUQFK'
HUQQWYUQFK
root@arm:~# MARKER='SJPT''FLBKJQ' run 'i2cget -y -f 2 0x4b 0x13'
SJPTFLBKJQ0x11
SJPTFLBKJQ 0
root@arm:~# echo 'STTG''LQHTQW'
STTGLQHTQW
root@arm:~# MARKER='TVHE''XLPZGG' run 'echo 880000 880000 > /sys/kernel/mva_test//regulators/buck4_set'
TVHEXLPZGGTVHEXLPZGG 0
root@arm:~# echo 'XXNX''JHZSTX'
XXNXJHZSTX
root@arm:~# MARKER='WBJL''WFUAPP' run 'i2cget -y -f 2 0x4b 0x13'
WBJLWFUAPP0x12
WBJLWFUAPP 0
root@arm:~# echo 'TPKP''XTOPAO'
TPKPXTOPAO
root@arm:~# MARKER='HJXE''AEYYBC' run 'echo 890000 890000 > /sys/kernel/mva_test//regulators/buck4_set'
HJXEAEYYBCHJXEAEYYBC 0
root@arm:~# echo 'FXLA''EXEJBM'
FXLAEXEJBM
root@arm:~# MARKER='AJGB''TZZYBJ' run 'i2cget -y -f 2 0x4b 0x13'
AJGBTZZYBJ0x13
AJGBTZZYBJ 0
root@arm:~# echo 'UNSN''SXGSVU'
UNSNSXGSVU
root@arm:~# MARKER='PCPP''PCOSNA' run 'echo 900000 900000 > /sys/kernel/mva_test//regulators/buck4_set'
PCPPPCOSNAPCPPPCOSNA 0
root@arm:~# echo 'WSSV''KJHVAK'
WSSVKJHVAK
root@arm:~# MARKER='CYKH''AGJOGJ' run 'i2cget -y -f 2 0x4b 0x13'
CYKHAGJOGJ0x14
CYKHAGJOGJ 0
root@arm:~# echo 'YTUH''GWHKWW'
YTUHGWHKWW
root@arm:~# MARKER='LCAC''PAZJHV' run 'echo 910000 910000 > /sys/kernel/mva_test//regulators/buck4_set'
LCACPAZJHVLCACPAZJHV 0
root@arm:~# echo 'BCFW''STNAFM'
BCFWSTNAFM
root@arm:~# MARKER='HBTG''WMEFTB' run 'i2cget -y -f 2 0x4b 0x13'
HBTGWMEFTB0x15
HBTGWMEFTB 0
root@arm:~# echo 'KOCW''JPUXLK'
KOCWJPUXLK
root@arm:~# MARKER='KVXG''HYAZXJ' run 'echo 920000 920000 > /sys/kernel/mva_test//regulators/buck4_set'
KVXGHYAZXJKVXGHYAZXJ 0
root@arm:~# echo 'PYVG''BUPZVT'
PYVGBUPZVT
root@arm:~# MARKER='TZEG''UBYOYJ' run 'i2cget -y -f 2 0x4b 0x13'
TZEGUBYOYJ0x16
TZEGUBYOYJ 0
root@arm:~# echo 'FLAA''MLZAPL'
FLAAMLZAPL
root@arm:~# MARKER='ATZF''FOALFF' run 'echo 930000 930000 > /sys/kernel/mva_test//regulators/buck4_set'
ATZFFOALFFATZFFOALFF 0
root@arm:~# echo 'PYWV''HEGZHQ'
PYWVHEGZHQ
root@arm:~# MARKER='QXFS''YSLUQJ' run 'i2cget -y -f 2 0x4b 0x13'
QXFSYSLUQJ0x17
QXFSYSLUQJ 0
root@arm:~# echo 'BPPV''OYXZQJ'
BPPVOYXZQJ
