Labgrid Console Logfile for main
Logfile started at 2025-09-25 13:25:51.246825
=== Log starts here ===

root@arm:~# run() { echo -n "$MARKER"; sh -c "$@"; echo "$MARKER $?"; }
root@arm:~# echo 'FGMG''PCTTFF'
FGMGPCTTFF
root@arm:~# MARKER='LGKH''PNCXVS' run 'grep -r -l rohm,bd71847 /proc/device-tree  | sed '"'"'s![^/]*$!!'"'"''
LGKHPNCXVS/proc/device-tree/ocp/interconnect@48000000/segment@0/target-module@2a000/i2c@0/pmic@4b/
LGKHPNCXVS 0
root@arm:~# echo 'PJFE''SUHGXZ'
PJFESUHGXZ
root@arm:~# MARKER='AXBN''CQOESO' run 'test -f /proc/device-tree/ocp/interconnectt\@48000000/segment\@0/target-module\@2a000/i2c\@0/pmic\@4b/regulators/BUCK1/rohmm,no-regulator-enable-control ;echo $?'
AXBNCQOESO1
AXBNCQOESO 0
root@arm:~# echo 'GKBW''QTCGZU'
GKBWQTCGZU
root@arm:~# MARKER='YPXO''EAWZET' run 'echo 1 > /sys/kernel/mva_test/regulators/bbuck1_en'
YPXOEAWZETYPXOEAWZET 0
root@arm:~# echo 'WGET''FAPGAV'
WGETFAPGAV
root@arm:~# MARKER='UVHJ''CBTNTG' run 'i2cget -y -f 1 0x4b 0x5'
UVHJCBTNTG0x03
UVHJCBTNTG 0
root@arm:~# echo 'PTCV''EUUHQP'
PTCVEUUHQP
root@arm:~# MARKER='UKEL''ZGULWL' run 'grep -r -l rohm,bd71847 /proc/device-tree  | sed '"'"'s![^/]*$!!'"'"''
UKELZGULWL/proc/device-tree/ocp/interconnect@48000000/segment@0/target-module@2a000/i2c@0/pmic@4b/
UKELZGULWL 0
root@arm:~# echo 'KFMW''WMOEEO'
KFMWWMOEEO
root@arm:~# MARKER='YQWY''FAHPQO' run 'test -f /proc/device-tree/ocp/interconnectt\@48000000/segment\@0/target-module\@2a000/i2c\@0/pmic\@4b/regulators/BUCK1/rohmm,no-regulator-enable-control ;echo $?'
YQWYFAHPQO1
YQWYFAHPQO 0
root@arm:~# echo 'GGXJ''OHGUZO'
GGXJOHGUZO
root@arm:~# MARKER='MWHY''TJVHJM' run 'grep -r -l rohm,bd71847 /proc/device-tree  | sed '"'"'s![^/]*$!!'"'"''
MWHYTJVHJM/proc/device-tree/ocp/interconnect@48000000/segment@0/target-module@2a000/i2c@0/pmic@4b/
MWHYTJVHJM 0
root@arm:~# echo 'BPVB''THUWGU'
BPVBTHUWGU
root@arm:~# MARKER='XUCL''THEVJT' run 'test -f /proc/device-tree/ocp/interconnectt\@48000000/segment\@0/target-module\@2a000/i2c\@0/pmic\@4b/regulators/BUCK1/reguulator-always-on ;echo $?'
XUCLTHEVJT1
XUCLTHEVJT 0
root@arm:~# echo 'SXWO''UCYUPV'
SXWOUCYUPV
root@arm:~# MARKER='QEEX''GKTXZM' run 'echo 0 > /sys/kernel/mva_test/regulators/bbuck1_en'
QEEXGKTXZMQEEXGKTXZM 0
root@arm:~# echo 'ONJY''TPWYLY'
ONJYTPWYLY
root@arm:~# MARKER='YYWN''YGCJPJ' run 'i2cget -y -f 1 0x4b 0x5'
YYWNYGCJPJ0x02
YYWNYGCJPJ 0
root@arm:~# echo 'VHWX''UAXFAZ'
VHWXUAXFAZ
root@arm:~# MARKER='HEJK''XGOCBS' run 'grep -r -l rohm,bd71847 /proc/device-tree  | sed '"'"'s![^/]*$!!'"'"''
HEJKXGOCBS/proc/device-tree/ocp/interconnect@48000000/segment@0/target-module@2a000/i2c@0/pmic@4b/
HEJKXGOCBS 0
root@arm:~# echo 'YAVE''SOWOYK'
YAVESOWOYK
root@arm:~# MARKER='CSSY''SBQWOS' run 'test -f /proc/device-tree/ocp/interconnectt\@48000000/segment\@0/target-module\@2a000/i2c\@0/pmic\@4b/regulators/BUCK2/rohmm,no-regulator-enable-control ;echo $?'
CSSYSBQWOS1
CSSYSBQWOS 0
root@arm:~# echo 'LMNA''ZCUCJN'
LMNAZCUCJN
root@arm:~# MARKER='OHBM''TTVKAF' run 'echo 1 > /sys/kernel/mva_test/regulators/bbuck2_en'
OHBMTTVKAFOHBMTTVKAF 0
root@arm:~# echo 'BTTX''QWXCUV'
BTTXQWXCUV
root@arm:~# MARKER='MSHX''VAGFAQ' run 'i2cget -y -f 1 0x4b 0x6'
MSHXVAGFAQ0x43
MSHXVAGFAQ 0
root@arm:~# echo 'JHUC''USTNFG'
JHUCUSTNFG
root@arm:~# MARKER='VMVP''JAYLJQ' run 'grep -r -l rohm,bd71847 /proc/device-tree  | sed '"'"'s![^/]*$!!'"'"''
VMVPJAYLJQ/proc/device-tree/ocp/interconnect@48000000/segment@0/target-module@2a000/i2c@0/pmic@4b/
VMVPJAYLJQ 0
root@arm:~# echo 'PEGF''JVCKSX'
PEGFJVCKSX
root@arm:~# MARKER='AMCA''VUMYPH' run 'test -f /proc/device-tree/ocp/interconnectt\@48000000/segment\@0/target-module\@2a000/i2c\@0/pmic\@4b/regulators/BUCK2/rohmm,no-regulator-enable-control ;echo $?'
AMCAVUMYPH1
AMCAVUMYPH 0
root@arm:~# echo 'CUGL''MNPHPT'
CUGLMNPHPT
root@arm:~# MARKER='HXFV''FZXPYS' run 'grep -r -l rohm,bd71847 /proc/device-tree  | sed '"'"'s![^/]*$!!'"'"''
HXFVFZXPYS/proc/device-tree/ocp/interconnect@48000000/segment@0/target-module@2a000/i2c@0/pmic@4b/
HXFVFZXPYS 0
root@arm:~# echo 'ZXPP''XNCQOS'
ZXPPXNCQOS
root@arm:~# MARKER='ZTOX''PUKJXG' run 'test -f /proc/device-tree/ocp/interconnectt\@48000000/segment\@0/target-module\@2a000/i2c\@0/pmic\@4b/regulators/BUCK2/reguulator-always-on ;echo $?'
ZTOXPUKJXG0
ZTOXPUKJXG 0
root@arm:~# echo 'EHNX''SYQMFH'
EHNXSYQMFH
root@arm:~# MARKER='ZPUZ''GNYMXQ' run 'grep -r -l rohm,bd71847 /proc/device-tree  | sed '"'"'s![^/]*$!!'"'"''
ZPUZGNYMXQ/proc/device-tree/ocp/interconnect@48000000/segment@0/target-module@2a000/i2c@0/pmic@4b/
ZPUZGNYMXQ 0
root@arm:~# echo 'KFOK''SLVKTF'
KFOKSLVKTF
root@arm:~# MARKER='OWXT''LNPKFP' run 'test -f /proc/device-tree/ocp/interconnectt\@48000000/segment\@0/target-module\@2a000/i2c\@0/pmic\@4b/regulators/BUCK3/rohmm,no-regulator-enable-control ;echo $?'
OWXTLNPKFP0
OWXTLNPKFP 0
root@arm:~# echo 'MZVL''UYAJBC'
MZVLUYAJBC
root@arm:~# MARKER='AKUQ''JWXBHJ' run 'grep -r -l rohm,bd71847 /proc/device-tree  | sed '"'"'s![^/]*$!!'"'"''
AKUQJWXBHJ/proc/device-tree/ocp/interconnect@48000000/segment@0/target-module@2a000/i2c@0/pmic@4b/
AKUQJWXBHJ 0
root@arm:~# echo 'BYTX''VOYHMV'
BYTXVOYHMV
root@arm:~# MARKER='LHEW''MOFCJB' run 'test -f /proc/device-tree/ocp/interconnectt\@48000000/segment\@0/target-module\@2a000/i2c\@0/pmic\@4b/regulators/BUCK3/rohmm,no-regulator-enable-control ;echo $?'
LHEWMOFCJB0
LHEWMOFCJB 0
root@arm:~# echo 'TZMJ''FSHLWG'
TZMJFSHLWG
root@arm:~# MARKER='JQVO''KJBGZU' run 'grep -r -l rohm,bd71847 /proc/device-tree  | sed '"'"'s![^/]*$!!'"'"''
JQVOKJBGZU/proc/device-tree/ocp/interconnect@48000000/segment@0/target-module@2a000/i2c@0/pmic@4b/
JQVOKJBGZU 0
root@arm:~# echo 'MSGB''HGYABP'
MSGBHGYABP
root@arm:~# MARKER='APPP''WBGSOZ' run 'test -f /proc/device-tree/ocp/interconnectt\@48000000/segment\@0/target-module\@2a000/i2c\@0/pmic\@4b/regulators/BUCK4/rohmm,no-regulator-enable-control ;echo $?'
APPPWBGSOZ1
APPPWBGSOZ 0
root@arm:~# echo 'QTST''XQAECY'
QTSTXQAECY
root@arm:~# MARKER='MTUL''NKHJKK' run 'echo 1 > /sys/kernel/mva_test/regulators/bbuck4_en'
MTULNKHJKKMTULNKHJKK 0
root@arm:~# echo 'QQVN''FVUFLO'
QQVNFVUFLO
root@arm:~# MARKER='QLPK''OUCPXY' run 'i2cget -y -f 1 0x4b 0xa'
QLPKOUCPXY0x03
QLPKOUCPXY 0
root@arm:~# echo 'VHWW''YYGEXS'
VHWWYYGEXS
root@arm:~# MARKER='FTGP''SMKAFP' run 'grep -r -l rohm,bd71847 /proc/device-tree  | sed '"'"'s![^/]*$!!'"'"''
FTGPSMKAFP/proc/device-tree/ocp/interconnect@48000000/segment@0/target-module@2a000/i2c@0/pmic@4b/
FTGPSMKAFP 0
root@arm:~# echo 'HHSL''QTGCBC'
HHSLQTGCBC
root@arm:~# MARKER='VZBH''MLBACF' run 'test -f /proc/device-tree/ocp/interconnectt\@48000000/segment\@0/target-module\@2a000/i2c\@0/pmic\@4b/regulators/BUCK4/rohmm,no-regulator-enable-control ;echo $?'
VZBHMLBACF1
VZBHMLBACF 0
root@arm:~# echo 'UCVZ''HHATCV'
UCVZHHATCV
root@arm:~# MARKER='OWHS''QJQWJP' run 'grep -r -l rohm,bd71847 /proc/device-tree  | sed '"'"'s![^/]*$!!'"'"''
OWHSQJQWJP/proc/device-tree/ocp/interconnect@48000000/segment@0/target-module@2a000/i2c@0/pmic@4b/
OWHSQJQWJP 0
root@arm:~# echo 'VXPV''XGONYJ'
VXPVXGONYJ
root@arm:~# MARKER='EJFF''OOHUUG' run 'test -f /proc/device-tree/ocp/interconnectt\@48000000/segment\@0/target-module\@2a000/i2c\@0/pmic\@4b/regulators/BUCK4/reguulator-always-on ;echo $?'
EJFFOOHUUG1
EJFFOOHUUG 0
root@arm:~# echo 'YZQN''BAZFOS'
YZQNBAZFOS
root@arm:~# MARKER='GZZA''OQKLKE' run 'echo 0 > /sys/kernel/mva_test/regulators/bbuck4_en'
GZZAOQKLKEGZZAOQKLKE 0
root@arm:~# echo 'APLT''LUCCYW'
APLTLUCCYW
root@arm:~# MARKER='UYSB''NJMPFJ' run 'i2cget -y -f 1 0x4b 0xa'
UYSBNJMPFJ0x02
UYSBNJMPFJ 0
root@arm:~# echo 'EKKU''SMELBX'
EKKUSMELBX
root@arm:~# MARKER='KYYK''QYQOGJ' run 'grep -r -l rohm,bd71847 /proc/device-tree  | sed '"'"'s![^/]*$!!'"'"''
KYYKQYQOGJ/proc/device-tree/ocp/interconnect@48000000/segment@0/target-module@2a000/i2c@0/pmic@4b/
KYYKQYQOGJ 0
root@arm:~# echo 'FFUM''EJJVNN'
FFUMEJJVNN
root@arm:~# MARKER='KMHC''HBPTQS' run 'test -f /proc/device-tree/ocp/interconnectt\@48000000/segment\@0/target-module\@2a000/i2c\@0/pmic\@4b/regulators/BUCK5/rohmm,no-regulator-enable-control ;echo $?'
KMHCHBPTQS1
KMHCHBPTQS 0
root@arm:~# echo 'OCKS''VCXFXL'
OCKSVCXFXL
root@arm:~# MARKER='CPHT''AZCBPN' run 'echo 1 > /sys/kernel/mva_test/regulators/bbuck5_en'
CPHTAZCBPNCPHTAZCBPN 0
root@arm:~# echo 'JZPK''SVQTOV'
JZPKSVQTOV
root@arm:~# MARKER='QFPE''EYFFHC' run 'i2cget -y -f 1 0x4b 0xb'
QFPEEYFFHC0x03
QFPEEYFFHC 0
root@arm:~# echo 'LNXP''TBMTCZ'
LNXPTBMTCZ
root@arm:~# MARKER='OPXH''FJMPQS' run 'grep -r -l rohm,bd71847 /proc/device-tree  | sed '"'"'s![^/]*$!!'"'"''
OPXHFJMPQS/proc/device-tree/ocp/interconnect@48000000/segment@0/target-module@2a000/i2c@0/pmic@4b/
OPXHFJMPQS 0
root@arm:~# echo 'MSJQ''ZPTHGQ'
MSJQZPTHGQ
root@arm:~# MARKER='KVKH''NCMFYF' run 'test -f /proc/device-tree/ocp/interconnectt\@48000000/segment\@0/target-module\@2a000/i2c\@0/pmic\@4b/regulators/BUCK5/rohmm,no-regulator-enable-control ;echo $?'
KVKHNCMFYF1
KVKHNCMFYF 0
root@arm:~# echo 'GZJE''LWCMJY'
GZJELWCMJY
root@arm:~# MARKER='BHGO''FBSAKN' run 'grep -r -l rohm,bd71847 /proc/device-tree  | sed '"'"'s![^/]*$!!'"'"''
BHGOFBSAKN/proc/device-tree/ocp/interconnect@48000000/segment@0/target-module@2a000/i2c@0/pmic@4b/
BHGOFBSAKN 0
root@arm:~# echo 'VBHG''OKMBCG'
VBHGOKMBCG
root@arm:~# MARKER='CGAN''VCVWKP' run 'test -f /proc/device-tree/ocp/interconnectt\@48000000/segment\@0/target-module\@2a000/i2c\@0/pmic\@4b/regulators/BUCK5/reg ulator-always-on ;echo $?'
CGANVCVWKP1
CGANVCVWKP 0
root@arm:~# echo 'YMTL''EZFSYG'
YMTLEZFSYG
root@arm:~# MARKER='VNAT''XNNHCC' run 'echo 0 > /sys/kernel/mva_test/regulators/bbuck5_en'
VNATXNNHCCVNATXNNHCC 0
root@arm:~# echo 'XWFV''CBFZPL'
XWFVCBFZPL
root@arm:~# MARKER='ASLK''ASQLMK' run 'i2cget -y -f 1 0x4b 0xb'
ASLKASQLMK0x02
ASLKASQLMK 0
root@arm:~# echo 'WMST''UZAPAZ'
WMSTUZAPAZ
root@arm:~# MARKER='NWTH''AWJSYG' run 'grep -r -l rohm,bd71847 /proc/device-tree  | sed '"'"'s![^/]*$!!'"'"''
NWTHAWJSYG/proc/device-tree/ocp/interconnect@48000000/segment@0/target-module@2a000/i2c@0/pmic@4b/
NWTHAWJSYG 0
root@arm:~# echo 'ZOVJ''AXFHAN'
ZOVJAXFHAN
root@arm:~# MARKER='EVXW''JHVFBN' run 'test -f /proc/device-tree/ocp/interconnectt\@48000000/segment\@0/target-module\@2a000/i2c\@0/pmic\@4b/regulators/BUCK6/rohmm,no-regulator-enable-control ;echo $?'
EVXWJHVFBN1
EVXWJHVFBN 0
root@arm:~# echo 'WNLN''NBUSNA'
WNLNNBUSNA
root@arm:~# MARKER='TVWB''TNVOSV' run 'echo 1 > /sys/kernel/mva_test/regulators/bbuck6_en'
TVWBTNVOSVTVWBTNVOSV 0
root@arm:~# echo 'EQWW''ESAHGN'
EQWWESAHGN
root@arm:~# MARKER='JCUU''WMLJQE' run 'i2cget -y -f 1 0x4b 0xc'
JCUUWMLJQE0x03
JCUUWMLJQE 0
root@arm:~# echo 'NYXM''UEWFSL'
NYXMUEWFSL
root@arm:~# MARKER='WAZU''PHNSOE' run 'grep -r -l rohm,bd71847 /proc/device-tree  | sed '"'"'s![^/]*$!!'"'"''
WAZUPHNSOE/proc/device-tree/ocp/interconnect@48000000/segment@0/target-module@2a000/i2c@0/pmic@4b/
WAZUPHNSOE 0
root@arm:~# echo 'GAXP''PGPNQP'
GAXPPGPNQP
root@arm:~# MARKER='HSKQ''SYWXCU' run 'test -f /proc/device-tree/ocp/interconnectt\@48000000/segment\@0/target-module\@2a000/i2c\@0/pmic\@4b/regulators/BUCK6/rohmm,no-regulator-enable-control ;echo $?'
HSKQSYWXCU1
HSKQSYWXCU 0
root@arm:~# echo 'NGBJ''HYSUJA'
NGBJHYSUJA
root@arm:~# MARKER='FCVJ''KXEATG' run 'grep -r -l rohm,bd71847 /proc/device-tree  | sed '"'"'s![^/]*$!!'"'"''
FCVJKXEATG/proc/device-tree/ocp/interconnect@48000000/segment@0/target-module@2a000/i2c@0/pmic@4b/
FCVJKXEATG 0
root@arm:~# echo 'OTYL''CGOFXG'
OTYLCGOFXG
root@arm:~# MARKER='MMQT''EWPSOQ' run 'test -f /proc/device-tree/ocp/interconnectt\@48000000/segment\@0/target-module\@2a000/i2c\@0/pmic\@4b/regulators/BUCK6/reg ulator-always-on ;echo $?'
MMQTEWPSOQ1
MMQTEWPSOQ 0
root@arm:~# echo 'VCJC''CGLYWT'
VCJCCGLYWT
root@arm:~# MARKER='KJZV''HUTUGW' run 'echo 0 > /sys/kernel/mva_test/regulators/bbuck6_en'
KJZVHUTUGWKJZVHUTUGW 0
root@arm:~# echo 'ZMVS''ZMFLNG'
ZMVSZMFLNG
root@arm:~# MARKER='LOLP''YXWZVU' run 'i2cget -y -f 1 0x4b 0xc'
LOLPYXWZVU0x02
LOLPYXWZVU 0
root@arm:~# echo 'BCMH''JZCBWH'
BCMHJZCBWH
root@arm:~# MARKER='TXXO''CUQGQE' run 'grep -r -l rohm,bd71847 /proc/device-tree  | sed '"'"'s![^/]*$!!'"'"''
TXXOCUQGQE/proc/device-tree/ocp/interconnect@48000000/segment@0/target-module@2a000/i2c@0/pmic@4b/
TXXOCUQGQE 0
root@arm:~# echo 'UHQH''LYVSOF'
UHQHLYVSOF
root@arm:~# MARKER='XGNC''GYGUQV' run 'test -f /proc/device-tree/ocp/interconnectt\@48000000/segment\@0/target-module\@2a000/i2c\@0/pmic\@4b/regulators/LDO1/rohm,,no-regulator-enable-control ;echo $?'
XGNCGYGUQV1
XGNCGYGUQV 0
root@arm:~# echo 'QCTC''XLTTFK'
QCTCXLTTFK
root@arm:~# MARKER='FALF''LXGXJZ' run 'echo 1 > /sys/kernel/mva_test/regulators/bbuck7_en'
FALFLXGXJZFALFLXGXJZ 0
root@arm:~# echo 'TMWK''WUBZQU'
TMWKWUBZQU
root@arm:~# MARKER='MXUP''EBNOGC' run 'i2cget -y -f 1 0x4b 0x18'
MXUPEBNOGC0xe2
MXUPEBNOGC 0
root@arm:~# echo 'VNBQ''LWCCPC'
VNBQLWCCPC
root@arm:~# MARKER='SYPZ''HXAWYA' run 'grep -r -l rohm,bd71847 /proc/device-tree  | sed '"'"'s![^/]*$!!'"'"''
SYPZHXAWYA/proc/device-tree/ocp/interconnect@48000000/segment@0/target-module@2a000/i2c@0/pmic@4b/
SYPZHXAWYA 0
root@arm:~# echo 'XSWY''CFPQKV'
XSWYCFPQKV
root@arm:~# MARKER='TMAX''ZFNMNG' run 'test -f /proc/device-tree/ocp/interconnectt\@48000000/segment\@0/target-module\@2a000/i2c\@0/pmic\@4b/regulators/LDO1/rohm,,no-regulator-enable-control ;echo $?'
TMAXZFNMNG1
TMAXZFNMNG 0
root@arm:~# echo 'CSFX''QHTSUM'
CSFXQHTSUM
root@arm:~# MARKER='AEHX''YOHSGC' run 'grep -r -l rohm,bd71847 /proc/device-tree  | sed '"'"'s![^/]*$!!'"'"''
AEHXYOHSGC/proc/device-tree/ocp/interconnect@48000000/segment@0/target-module@2a000/i2c@0/pmic@4b/
AEHXYOHSGC 0
root@arm:~# echo 'UBFQ''PJVZTJ'
UBFQPJVZTJ
root@arm:~# MARKER='BVJY''AQTOKC' run 'test -f /proc/device-tree/ocp/interconnectt\@48000000/segment\@0/target-module\@2a000/i2c\@0/pmic\@4b/regulators/LDO1/regullator-always-on ;echo $?'
BVJYAQTOKC1
BVJYAQTOKC 0
root@arm:~# echo 'TFHP''SVLNQY'
TFHPSVLNQY
root@arm:~# MARKER='VGWF''MLEYKW' run 'echo 0 > /sys/kernel/mva_test/regulators/bbuck7_en'
VGWFMLEYKWVGWFMLEYKW 0
root@arm:~# echo 'TJQY''QYOMTQ'
TJQYQYOMTQ
root@arm:~# MARKER='BQEB''ZBMFVB' run 'i2cget -y -f 1 0x4b 0x18'
BQEBZBMFVB0xa2
BQEBZBMFVB 0
root@arm:~# echo 'TUOL''YCJFYS'
TUOLYCJFYS
root@arm:~# MARKER='MPXK''CFNGLH' run 'grep -r -l rohm,bd71847 /proc/device-tree  | sed '"'"'s![^/]*$!!'"'"''
MPXKCFNGLH/proc/device-tree/ocp/interconnect@48000000/segment@0/target-module@2a000/i2c@0/pmic@4b/
MPXKCFNGLH 0
root@arm:~# echo 'VXLL''QLSWTK'
VXLLQLSWTK
root@arm:~# MARKER='LAWM''OUVXVZ' run 'test -f /proc/device-tree/ocp/interconnectt\@48000000/segment\@0/target-module\@2a000/i2c\@0/pmic\@4b/regulators/LDO2/rohm,,no-regulator-enable-control ;echo $?'
LAWMOUVXVZ1
LAWMOUVXVZ 0
root@arm:~# echo 'BMXC''UHWPMK'
BMXCUHWPMK
root@arm:~# MARKER='LYKE''TQKSMC' run 'echo 1 > /sys/kernel/mva_test/regulators/bbuck8_en'
LYKETQKSMCLYKETQKSMC 0
root@arm:~# echo 'GUTL''OJFJJY'
GUTLOJFJJY
root@arm:~# MARKER='AAJB''GZKUAU' run 'i2cget -y -f 1 0x4b 0x19'
AAJBGZKUAU0xe0
AAJBGZKUAU 0
root@arm:~# echo 'OTOY''BHQBUA'
OTOYBHQBUA
root@arm:~# MARKER='PTEA''OGBYMG' run 'grep -r -l rohm,bd71847 /proc/device-tree  | sed '"'"'s![^/]*$!!'"'"''
PTEAOGBYMG/proc/device-tree/ocp/interconnect@48000000/segment@0/target-module@2a000/i2c@0/pmic@4b/
PTEAOGBYMG 0
root@arm:~# echo 'NLNQ''AJWGLY'
NLNQAJWGLY
root@arm:~# MARKER='YHMG''SGJCPG' run 'test -f /proc/device-tree/ocp/interconnectt\@48000000/segment\@0/target-module\@2a000/i2c\@0/pmic\@4b/regulators/LDO2/rohm,,no-regulator-enable-control ;echo $?'
YHMGSGJCPG1
YHMGSGJCPG 0
root@arm:~# echo 'MEOZ''GMSGEW'
MEOZGMSGEW
root@arm:~# MARKER='YJNX''ZZUSXC' run 'grep -r -l rohm,bd71847 /proc/device-tree  | sed '"'"'s![^/]*$!!'"'"''
YJNXZZUSXC/proc/device-tree/ocp/interconnect@48000000/segment@0/target-module@2a000/i2c@0/pmic@4b/
YJNXZZUSXC 0
root@arm:~# echo 'CLUP''VSSSQO'
CLUPVSSSQO
root@arm:~# MARKER='CNFJ''JGGGVJ' run 'test -f /proc/device-tree/ocp/interconnectt\@48000000/segment\@0/target-module\@2a000/i2c\@0/pmic\@4b/regulators/LDO2/regullator-always-on ;echo $?'
CNFJJGGGVJ1
CNFJJGGGVJ 0
root@arm:~# echo 'ZHLG''AFSXML'
ZHLGAFSXML
root@arm:~# MARKER='VCTZ''JNKBPU' run 'echo 0 > /sys/kernel/mva_test/regulators/bbuck8_en'
VCTZJNKBPUVCTZJNKBPU 0
root@arm:~# echo 'UGPX''YUNBQM'
UGPXYUNBQM
root@arm:~# MARKER='XKJF''JKGUCA' run 'i2cget -y -f 1 0x4b 0x19'
XKJFJKGUCA0xa0
XKJFJKGUCA 0
root@arm:~# echo 'VFKJ''UOWZCX'
VFKJUOWZCX
root@arm:~# MARKER='CJUM''UNGQLN' run 'grep -r -l rohm,bd71847 /proc/device-tree  | sed '"'"'s![^/]*$!!'"'"''
CJUMUNGQLN/proc/device-tree/ocp/interconnect@48000000/segment@0/target-module@2a000/i2c@0/pmic@4b/
CJUMUNGQLN 0
root@arm:~# echo 'PMOY''LJEJZS'
PMOYLJEJZS
root@arm:~# MARKER='VMEN''OSSLTV' run 'test -f /proc/device-tree/ocp/interconnectt\@48000000/segment\@0/target-module\@2a000/i2c\@0/pmic\@4b/regulators/LDO3/rohm,,no-regulator-enable-control ;echo $?'
VMENOSSLTV1
VMENOSSLTV 0
root@arm:~# echo 'XBOF''XQHSHN'
XBOFXQHSHN
root@arm:~# MARKER='YCSA''BZNTTC' run 'echo 1 > /sys/kernel/mva_test/regulators/bbuck9_en'
YCSABZNTTCYCSABZNTTC 0
root@arm:~# echo 'SOZL''KGHZVS'
SOZLKGHZVS
root@arm:~# MARKER='YOEV''AFPTGQ' run 'i2cget -y -f 1 0x4b 0x1a'
YOEVAFPTGQ0xc0
YOEVAFPTGQ 0
root@arm:~# echo 'UPUX''FEANWM'
UPUXFEANWM
root@arm:~# MARKER='ONGM''XFSZTE' run 'grep -r -l rohm,bd71847 /proc/device-tree  | sed '"'"'s![^/]*$!!'"'"''
ONGMXFSZTE/proc/device-tree/ocp/interconnect@48000000/segment@0/target-module@2a000/i2c@0/pmic@4b/
ONGMXFSZTE 0
root@arm:~# echo 'CJHA''XXGFPU'
CJHAXXGFPU
root@arm:~# MARKER='ZYWC''JWBNYB' run 'test -f /proc/device-tree/ocp/interconnectt\@48000000/segment\@0/target-module\@2a000/i2c\@0/pmic\@4b/regulators/LDO3/rohm,,no-regulator-enable-control ;echo $?'
ZYWCJWBNYB1
ZYWCJWBNYB 0
root@arm:~# echo 'QOLN''KHOCSQ'
QOLNKHOCSQ
root@arm:~# MARKER='NEAS''FLQTKE' run 'grep -r -l rohm,bd71847 /proc/device-tree  | sed '"'"'s![^/]*$!!'"'"''
NEASFLQTKE/proc/device-tree/ocp/interconnect@48000000/segment@0/target-module@2a000/i2c@0/pmic@4b/
NEASFLQTKE 0
root@arm:~# echo 'FMKW''BLPETX'
FMKWBLPETX
root@arm:~# MARKER='AYOA''JWQPSM' run 'test -f /proc/device-tree/ocp/interconnectt\@48000000/segment\@0/target-module\@2a000/i2c\@0/pmic\@4b/regulators/LDO3/regullator-always-on ;echo $?'
AYOAJWQPSM1
AYOAJWQPSM 0
root@arm:~# echo 'UZJV''CAKWFC'
UZJVCAKWFC
root@arm:~# MARKER='XLGB''VOMNMZ' run 'echo 0 > /sys/kernel/mva_test/regulators/bbuck9_en'
XLGBVOMNMZXLGBVOMNMZ 0
root@arm:~# echo 'SAAL''FAMZBA'
SAALFAMZBA
root@arm:~# MARKER='ZSMG''XEVQJO' run 'i2cget -y -f 1 0x4b 0x1a'
ZSMGXEVQJO0x80
ZSMGXEVQJO 0
root@arm:~# echo 'AESS''XFBQCC'
AESSXFBQCC
root@arm:~# MARKER='BYBT''WQGEFZ' run 'grep -r -l rohm,bd71847 /proc/device-tree  | sed '"'"'s![^/]*$!!'"'"''
BYBTWQGEFZ/proc/device-tree/ocp/interconnect@48000000/segment@0/target-module@2a000/i2c@0/pmic@4b/
BYBTWQGEFZ 0
root@arm:~# echo 'JTMM''BZXJUQ'
JTMMBZXJUQ
root@arm:~# MARKER='BLVF''QJPEYX' run 'test -f /proc/device-tree/ocp/interconnectt\@48000000/segment\@0/target-module\@2a000/i2c\@0/pmic\@4b/regulators/LDO4/rohm,,no-regulator-enable-control ;echo $?'
BLVFQJPEYX1
BLVFQJPEYX 0
root@arm:~# echo 'LWVO''NVVSFC'
LWVONVVSFC
root@arm:~# MARKER='KNSO''OXBBHF' run 'echo 1 > /sys/kernel/mva_test/regulators/bbuck10_en'
KNSOOXBBHFKNSOOXBBHF 0
root@arm:~# echo 'KHTG''BXWOGO'
KHTGBXWOGO
root@arm:~# MARKER='PEMS''WXTTLV' run 'i2cget -y -f 1 0x4b 0x1b'
PEMSWXTTLV0xc0
PEMSWXTTLV 0
root@arm:~# echo 'LTZP''SSAQME'
LTZPSSAQME
root@arm:~# MARKER='ZNCJ''NAPMVU' run 'grep -r -l rohm,bd71847 /proc/device-tree  | sed '"'"'s![^/]*$!!'"'"''
ZNCJNAPMVU/proc/device-tree/ocp/interconnect@48000000/segment@0/target-module@2a000/i2c@0/pmic@4b/
ZNCJNAPMVU 0
root@arm:~# echo 'ZACL''LZEVTT'
ZACLLZEVTT
root@arm:~# MARKER='VTHG''AEAXBG' run 'test -f /proc/device-tree/ocp/interconnectt\@48000000/segment\@0/target-module\@2a000/i2c\@0/pmic\@4b/regulators/LDO4/rohm,,no-regulator-enable-control ;echo $?'
VTHGAEAXBG1
VTHGAEAXBG 0
root@arm:~# echo 'UEBM''NCEEON'
UEBMNCEEON
root@arm:~# MARKER='BEXY''LCEWUJ' run 'grep -r -l rohm,bd71847 /proc/device-tree  | sed '"'"'s![^/]*$!!'"'"''
BEXYLCEWUJ/proc/device-tree/ocp/interconnect@48000000/segment@0/target-module@2a000/i2c@0/pmic@4b/
BEXYLCEWUJ 0
root@arm:~# echo 'EBZK''ZYHHOC'
EBZKZYHHOC
root@arm:~# MARKER='TXJY''VSUZVT' run 'test -f /proc/device-tree/ocp/interconnectt\@48000000/segment\@0/target-module\@2a000/i2c\@0/pmic\@4b/regulators/LDO4/regullator-always-on ;echo $?'
TXJYVSUZVT1
TXJYVSUZVT 0
root@arm:~# echo 'FKZW''ZNTGGL'
FKZWZNTGGL
root@arm:~# MARKER='EWYP''WTANOH' run 'echo 0 > /sys/kernel/mva_test/regulators/bbuck10_en'
EWYPWTANOHEWYPWTANOH 0
root@arm:~# echo 'ZYBJ''BZGASN'
ZYBJBZGASN
root@arm:~# MARKER='OZSG''YEBACZ' run 'i2cget -y -f 1 0x4b 0x1b'
OZSGYEBACZ0x80
OZSGYEBACZ 0
root@arm:~# echo 'SYAT''NHTTSA'
SYATNHTTSA
root@arm:~# MARKER='VZTY''LKAWQT' run 'grep -r -l rohm,bd71847 /proc/device-tree  | sed '"'"'s![^/]*$!!'"'"''
VZTYLKAWQT/proc/device-tree/ocp/interconnect@48000000/segment@0/target-module@2a000/i2c@0/pmic@4b/
VZTYLKAWQT 0
root@arm:~# echo 'QMXT''QXGXWL'
QMXTQXGXWL
root@arm:~# MARKER='WMKF''GNTGEG' run 'test -f /proc/device-tree/ocp/interconnectt\@48000000/segment\@0/target-module\@2a000/i2c\@0/pmic\@4b/regulators/LDO5/rohm,,no-regulator-enable-control ;echo $?'
WMKFGNTGEG0
WMKFGNTGEG 0
root@arm:~# echo 'QUML''ZCGXAP'
QUMLZCGXAP
root@arm:~# MARKER='OVJZ''YGWBQW' run 'grep -r -l rohm,bd71847 /proc/device-tree  | sed '"'"'s![^/]*$!!'"'"''
OVJZYGWBQW/proc/device-tree/ocp/interconnect@48000000/segment@0/target-module@2a000/i2c@0/pmic@4b/
OVJZYGWBQW 0
root@arm:~# echo 'PKWB''EEBSKU'
PKWBEEBSKU
root@arm:~# MARKER='AUWT''NZQXOB' run 'test -f /proc/device-tree/ocp/interconnectt\@48000000/segment\@0/target-module\@2a000/i2c\@0/pmic\@4b/regulators/LDO5/rohm,,no-regulator-enable-control ;echo $?'
AUWTNZQXOB0
AUWTNZQXOB 0
root@arm:~# echo 'SOVQ''PAXJQV'
SOVQPAXJQV
root@arm:~# MARKER='VVYX''VCGGXW' run 'grep -r -l rohm,bd71847 /proc/device-tree  | sed '"'"'s![^/]*$!!'"'"''
VVYXVCGGXW/proc/device-tree/ocp/interconnect@48000000/segment@0/target-module@2a000/i2c@0/pmic@4b/
VVYXVCGGXW 0
root@arm:~# echo 'MVHS''BGMLQH'
MVHSBGMLQH
root@arm:~# MARKER='KHTS''ZXQWZL' run 'test -f /proc/device-tree/ocp/interconnectt\@48000000/segment\@0/target-module\@2a000/i2c\@0/pmic\@4b/regulators/LDO6/rohm,,no-regulator-enable-control ;echo $?'
KHTSZXQWZL1
KHTSZXQWZL 0
root@arm:~# echo 'HVJJ''LACUPL'
HVJJLACUPL
root@arm:~# MARKER='OCTS''GTSKJQ' run 'echo 1 > /sys/kernel/mva_test/regulators/bbuck12_en'
OCTSGTSKJQOCTSGTSKJQ 0
root@arm:~# echo 'UKSJ''SCGLVH'
UKSJSCGLVH
root@arm:~# MARKER='CAYL''OMQVEL' run 'i2cget -y -f 1 0x4b 0x1d'
CAYLOMQVEL0xc3
CAYLOMQVEL 0
root@arm:~# echo 'KMZJ''VOVBQQ'
KMZJVOVBQQ
root@arm:~# MARKER='COXZ''EZXXCH' run 'grep -r -l rohm,bd71847 /proc/device-tree  | sed '"'"'s![^/]*$!!'"'"''
COXZEZXXCH/proc/device-tree/ocp/interconnect@48000000/segment@0/target-module@2a000/i2c@0/pmic@4b/
COXZEZXXCH 0
root@arm:~# echo 'TJBS''JYTNCT'
TJBSJYTNCT
root@arm:~# MARKER='FLEC''QXQPSF' run 'test -f /proc/device-tree/ocp/interconnectt\@48000000/segment\@0/target-module\@2a000/i2c\@0/pmic\@4b/regulators/LDO6/rohm,,no-regulator-enable-control ;echo $?'
FLECQXQPSF1
FLECQXQPSF 0
root@arm:~# echo 'YJKH''EGYABX'
YJKHEGYABX
root@arm:~# MARKER='JNLK''YCFWPX' run 'grep -r -l rohm,bd71847 /proc/device-tree  | sed '"'"'s![^/]*$!!'"'"''
JNLKYCFWPX/proc/device-tree/ocp/interconnect@48000000/segment@0/target-module@2a000/i2c@0/pmic@4b/
JNLKYCFWPX 0
root@arm:~# echo 'GKUC''VXFFZQ'
GKUCVXFFZQ
root@arm:~# MARKER='JMPX''WOBHJS' run 'test -f /proc/device-tree/ocp/interconnectt\@48000000/segment\@0/target-module\@2a000/i2c\@0/pmic\@4b/regulators/LDO6/regullator-always-on ;echo $?'
JMPXWOBHJS1
JMPXWOBHJS 0
root@arm:~# echo 'CTST''PXZXGZ'
CTSTPXZXGZ
root@arm:~# MARKER='PMNQ''BTSMVB' run 'echo 0 > /sys/kernel/mva_test/regulators/bbuck12_en'
PMNQBTSMVBPMNQBTSMVB 0
root@arm:~# echo 'EHWL''OGMMLS'
EHWLOGMMLS
root@arm:~# MARKER='GCKJ''NOYZJZ' run 'i2cget -y -f 1 0x4b 0x1d'
GCKJNOYZJZ0x83
GCKJNOYZJZ 0
root@arm:~# Labgrid Console Logfile for main
Logfile started at 2025-09-25 13:26:24.159019
=== Log starts here ===

root@arm:~# run() { echo -n "$MARKER"; sh -c "$@"; echo "$MARKER $?"; }
root@arm:~# echo 'HJFV''LJQGQY'
HJFVLJQGQY
root@arm:~# MARKER='EJHW''YQSXLM' run 'grep -r -l rohm,bd71847 /proc/device-tree  | sed '"'"'s![^/]*$!!'"'"''
EJHWYQSXLM/proc/device-tree/ocp/interconnect@48000000/segment@0/target-module@2a000/i2c@0/pmic@4b/
EJHWYQSXLM 0
root@arm:~# echo 'WCTS''GLPLYC'
WCTSGLPLYC
root@arm:~# MARKER='COHK''OALXGX' run 'test -f /proc/device-tree/ocp/interconnectt\@48000000/segment\@0/target-module\@2a000/i2c\@0/pmic\@4b/regulators/BUCK1/rohmm,no-regulator-enable-control ;echo $?'
COHKOALXGX1
COHKOALXGX 0
root@arm:~# echo 'VJJT''JNPAVZ'
VJJTJNPAVZ
root@arm:~# MARKER='MYFY''EBBNGC' run 'i2cget -y -f 1 0x4b 0x5'
MYFYEBBNGC0x02
MYFYEBBNGC 0
root@arm:~# echo 'YXGM''BGWCMU'
YXGMBGWCMU
root@arm:~# MARKER='PCYN''CVMZTQ' run 'echo 700000 700000 > /sys/kernel/mva_test//regulators/buck1_set'
PCYNCVMZTQPCYNCVMZTQ 0
root@arm:~# echo 'YBKT''QVNAGE'
YBKTQVNAGE
root@arm:~# MARKER='EEFM''JLTZXQ' run 'i2cget -y -f 1 0x4b 0xd'
EEFMJLTZXQ0x00
EEFMJLTZXQ 0
root@arm:~# echo 'KWEM''FSMUJV'
KWEMFSMUJV
root@arm:~# MARKER='CPHJ''KEBJYP' run 'echo 710000 710000 > /sys/kernel/mva_test//regulators/buck1_set'
CPHJKEBJYPCPHJKEBJYP 0
root@arm:~# echo 'BOHG''CNMNNF'
BOHGCNMNNF
root@arm:~# MARKER='YZNF''LSJUTS' run 'i2cget -y -f 1 0x4b 0xd'
YZNFLSJUTS0x01
YZNFLSJUTS 0
root@arm:~# echo 'BFTW''JJCHKC'
BFTWJJCHKC
root@arm:~# MARKER='ULNT''EZCJYG' run 'echo 720000 720000 > /sys/kernel/mva_test//regulators/buck1_set'
ULNTEZCJYGULNTEZCJYG 0
root@arm:~# echo 'MLAM''WXCXTY'
MLAMWXCXTY
root@arm:~# MARKER='AOXF''KCNWQG' run 'i2cget -y -f 1 0x4b 0xd'
AOXFKCNWQG0x02
AOXFKCNWQG 0
root@arm:~# echo 'AJCS''CZMJTN'
AJCSCZMJTN
root@arm:~# MARKER='MUJZ''EXYKCJ' run 'echo 730000 730000 > /sys/kernel/mva_test//regulators/buck1_set'
MUJZEXYKCJMUJZEXYKCJ 0
root@arm:~# echo 'QWPE''VJKGOO'
QWPEVJKGOO
root@arm:~# MARKER='NPGK''GUUZLQ' run 'i2cget -y -f 1 0x4b 0xd'
NPGKGUUZLQ0x03
NPGKGUUZLQ 0
root@arm:~# echo 'ASLN''STEGHL'
ASLNSTEGHL
root@arm:~# MARKER='JPBW''XSNCNF' run 'echo 740000 740000 > /sys/kernel/mva_test//regulators/buck1_set'
JPBWXSNCNFJPBWXSNCNF 0
root@arm:~# echo 'XBGA''ZBNQMP'
XBGAZBNQMP
root@arm:~# MARKER='CEXX''ZSLCON' run 'i2cget -y -f 1 0x4b 0xd'
CEXXZSLCON0x04
CEXXZSLCON 0
root@arm:~# echo 'ACNB''KBZNXJ'
ACNBKBZNXJ
root@arm:~# MARKER='FHCG''AXVLEE' run 'echo 750000 750000 > /sys/kernel/mva_test//regulators/buck1_set'
FHCGAXVLEEFHCGAXVLEE 0
root@arm:~# echo 'USJW''SHZTJG'
USJWSHZTJG
root@arm:~# MARKER='UPJG''NVLAGK' run 'i2cget -y -f 1 0x4b 0xd'
UPJGNVLAGK0x05
UPJGNVLAGK 0
root@arm:~# echo 'AXXZ''OLVCNN'
AXXZOLVCNN
root@arm:~# MARKER='WKBV''XQWBQY' run 'echo 760000 760000 > /sys/kernel/mva_test//regulators/buck1_set'
WKBVXQWBQYWKBVXQWBQY 0
root@arm:~# echo 'FVCG''BBGTTV'
FVCGBBGTTV
root@arm:~# MARKER='CLVK''JSMBZJ' run 'i2cget -y -f 1 0x4b 0xd'
CLVKJSMBZJ0x06
CLVKJSMBZJ 0
root@arm:~# echo 'AZLA''BJOHLG'
AZLABJOHLG
root@arm:~# MARKER='CKVU''PUQLSW' run 'echo 770000 770000 > /sys/kernel/mva_test//regulators/buck1_set'
CKVUPUQLSWCKVUPUQLSW 0
root@arm:~# echo 'WFGH''OCQMLX'
WFGHOCQMLX
root@arm:~# MARKER='SNOJ''ABWAKO' run 'i2cget -y -f 1 0x4b 0xd'
SNOJABWAKO0x07
SNOJABWAKO 0
root@arm:~# echo 'FFQK''EEQLXB'
FFQKEEQLXB
root@arm:~# MARKER='TTZE''GNAOPT' run 'echo 780000 780000 > /sys/kernel/mva_test//regulators/buck1_set'
TTZEGNAOPTTTZEGNAOPT 0
root@arm:~# echo 'OATX''EHKQUV'
OATXEHKQUV
root@arm:~# MARKER='LBOW''BPPBWA' run 'i2cget -y -f 1 0x4b 0xd'
LBOWBPPBWA0x08
LBOWBPPBWA 0
root@arm:~# echo 'PTFG''BGOONY'
PTFGBGOONY
root@arm:~# MARKER='JCAC''FCCXGH' run 'echo 790000 790000 > /sys/kernel/mva_test//regulators/buck1_set'
JCACFCCXGHJCACFCCXGH 0
root@arm:~# echo 'NZKL''SJHAUT'
NZKLSJHAUT
root@arm:~# MARKER='GSWJ''MBVYUQ' run 'i2cget -y -f 1 0x4b 0xd'
GSWJMBVYUQ0x09
GSWJMBVYUQ 0
root@arm:~# echo 'SOVG''YELBKZ'
SOVGYELBKZ
root@arm:~# MARKER='QLAW''OGTKCU' run 'echo 800000 800000 > /sys/kernel/mva_test//regulators/buck1_set'
QLAWOGTKCUQLAWOGTKCU 0
root@arm:~# echo 'YWZK''WEBXAF'
YWZKWEBXAF
root@arm:~# MARKER='OQWE''TSVUPB' run 'i2cget -y -f 1 0x4b 0xd'
OQWETSVUPB0x0a
OQWETSVUPB 0
root@arm:~# echo 'BSTK''GJSKKF'
BSTKGJSKKF
root@arm:~# MARKER='TQVS''LPQJCP' run 'echo 810000 810000 > /sys/kernel/mva_test//regulators/buck1_set'
TQVSLPQJCPTQVSLPQJCP 0
root@arm:~# echo 'YCWG''LSBFZZ'
YCWGLSBFZZ
root@arm:~# MARKER='HWTC''QVHPNJ' run 'i2cget -y -f 1 0x4b 0xd'
HWTCQVHPNJ0x0b
HWTCQVHPNJ 0
root@arm:~# echo 'TNHU''TWMQMV'
TNHUTWMQMV
root@arm:~# MARKER='AVKW''AONJEG' run 'echo 820000 820000 > /sys/kernel/mva_test//regulators/buck1_set'
AVKWAONJEGAVKWAONJEG 0
root@arm:~# echo 'TXGS''SLPKQF'
TXGSSLPKQF
root@arm:~# MARKER='MUPQ''SKLBAA' run 'i2cget -y -f 1 0x4b 0xd'
MUPQSKLBAA0x0c
MUPQSKLBAA 0
root@arm:~# echo 'PKWB''BTEQTF'
PKWBBTEQTF
root@arm:~# MARKER='KPUP''OGSAOZ' run 'echo 830000 830000 > /sys/kernel/mva_test//regulators/buck1_set'
KPUPOGSAOZKPUPOGSAOZ 0
root@arm:~# echo 'KUYW''PEHMBM'
KUYWPEHMBM
root@arm:~# MARKER='QUSA''LLKTHH' run 'i2cget -y -f 1 0x4b 0xd'
QUSALLKTHH0x0d
QUSALLKTHH 0
root@arm:~# echo 'TXGM''GQWMBV'
TXGMGQWMBV
root@arm:~# MARKER='AQYM''YHPEXG' run 'echo 840000 840000 > /sys/kernel/mva_test//regulators/buck1_set'
AQYMYHPEXGAQYMYHPEXG 0
root@arm:~# echo 'GUVG''OQQHMH'
GUVGOQQHMH
root@arm:~# MARKER='VJSP''MLGZQJ' run 'i2cget -y -f 1 0x4b 0xd'
VJSPMLGZQJ0x0e
VJSPMLGZQJ 0
root@arm:~# echo 'CTQU''XBWVWW'
CTQUXBWVWW
root@arm:~# MARKER='JATJ''GNLXEN' run 'echo 850000 850000 > /sys/kernel/mva_test//regulators/buck1_set'
JATJGNLXENJATJGNLXEN 0
root@arm:~# echo 'LPQM''BVFKFJ'
LPQMBVFKFJ
root@arm:~# MARKER='XTOW''VPQFBS' run 'i2cget -y -f 1 0x4b 0xd'
XTOWVPQFBS0x0f
XTOWVPQFBS 0
root@arm:~# echo 'PLOM''GUFQHQ'
PLOMGUFQHQ
root@arm:~# MARKER='TKYZ''PTYECE' run 'echo 860000 860000 > /sys/kernel/mva_test//regulators/buck1_set'
TKYZPTYECETKYZPTYECE 0
root@arm:~# echo 'QEZG''XLVVYG'
QEZGXLVVYG
root@arm:~# MARKER='LHMJ''PTWVZT' run 'i2cget -y -f 1 0x4b 0xd'
LHMJPTWVZT0x10
LHMJPTWVZT 0
root@arm:~# echo 'OOGN''EFABWQ'
OOGNEFABWQ
root@arm:~# MARKER='HKFE''LVZZST' run 'echo 870000 870000 > /sys/kernel/mva_test//regulators/buck1_set'
HKFELVZZSTHKFELVZZST 0
root@arm:~# echo 'XOBZ''BXCJKN'
XOBZBXCJKN
root@arm:~# MARKER='BQPS''CLYSPS' run 'i2cget -y -f 1 0x4b 0xd'
BQPSCLYSPS0x11
BQPSCLYSPS 0
root@arm:~# echo 'QHZB''ZEWFBP'
QHZBZEWFBP
root@arm:~# MARKER='XVHA''BQEQGU' run 'echo 880000 880000 > /sys/kernel/mva_test//regulators/buck1_set'
XVHABQEQGUXVHABQEQGU 0
root@arm:~# echo 'MSEK''QOOXYT'
MSEKQOOXYT
root@arm:~# MARKER='XSNA''EBKUGQ' run 'i2cget -y -f 1 0x4b 0xd'
XSNAEBKUGQ0x12
XSNAEBKUGQ 0
root@arm:~# echo 'FZYG''YWSGFA'
FZYGYWSGFA
root@arm:~# MARKER='FVPY''JVBMWF' run 'echo 890000 890000 > /sys/kernel/mva_test//regulators/buck1_set'
FVPYJVBMWFFVPYJVBMWF 0
root@arm:~# echo 'NSEC''KXNATQ'
NSECKXNATQ
root@arm:~# MARKER='YZPS''NTVYBO' run 'i2cget -y -f 1 0x4b 0xd'
YZPSNTVYBO0x13
YZPSNTVYBO 0
root@arm:~# echo 'GTJU''QQZNWB'
GTJUQQZNWB
root@arm:~# MARKER='MNGG''QPWTGV' run 'echo 900000 900000 > /sys/kernel/mva_test//regulators/buck1_set'
MNGGQPWTGVMNGGQPWTGV 0
root@arm:~# echo 'ZWVV''OSNSGJ'
ZWVVOSNSGJ
root@arm:~# MARKER='GNZH''ULAAAU' run 'i2cget -y -f 1 0x4b 0xd'
GNZHULAAAU0x14
GNZHULAAAU 0
root@arm:~# echo 'UZYH''YVETXX'
UZYHYVETXX
root@arm:~# MARKER='YFJY''ZLQGKT' run 'echo 910000 910000 > /sys/kernel/mva_test//regulators/buck1_set'
YFJYZLQGKTYFJYZLQGKT 0
root@arm:~# echo 'OSPY''HQCLZS'
OSPYHQCLZS
root@arm:~# MARKER='TAHU''USSGWG' run 'i2cget -y -f 1 0x4b 0xd'
TAHUUSSGWG0x15
TAHUUSSGWG 0
root@arm:~# echo 'UTNN''TVSUWA'
UTNNTVSUWA
root@arm:~# MARKER='ZYPY''PFYJSW' run 'echo 920000 920000 > /sys/kernel/mva_test//regulators/buck1_set'
ZYPYPFYJSWZYPYPFYJSW 0
root@arm:~# echo 'ZWSC''AKQKUA'
ZWSCAKQKUA
root@arm:~# MARKER='NNGS''WJZJSJ' run 'i2cget -y -f 1 0x4b 0xd'
NNGSWJZJSJ0x16
NNGSWJZJSJ 0
root@arm:~# echo 'KVWZ''SCZUYN'
KVWZSCZUYN
root@arm:~# MARKER='VXXW''GEVGYV' run 'echo 930000 930000 > /sys/kernel/mva_test//regulators/buck1_set'
VXXWGEVGYVVXXWGEVGYV 0
root@arm:~# echo 'FXHG''VPYTZT'
FXHGVPYTZT
root@arm:~# MARKER='QCXQ''PHLCAZ' run 'i2cget -y -f 1 0x4b 0xd'
QCXQPHLCAZ0x17
QCXQPHLCAZ 0
root@arm:~# echo 'YTJQ''TVGKGJ'
YTJQTVGKGJ
root@arm:~# MARKER='QJKW''GUKUCV' run 'echo 940000 940000 > /sys/kernel/mva_test//regulators/buck1_set'
QJKWGUKUCVQJKWGUKUCV 0
root@arm:~# echo 'NYKE''PCJSOU'
NYKEPCJSOU
root@arm:~# MARKER='ONHY''JNXNFN' run 'i2cget -y -f 1 0x4b 0xd'
ONHYJNXNFN0x18
ONHYJNXNFN 0
root@arm:~# echo 'JHFS''AZLHHT'
JHFSAZLHHT
root@arm:~# MARKER='APUH''HMKAFW' run 'echo 950000 950000 > /sys/kernel/mva_test//regulators/buck1_set'
APUHHMKAFWAPUHHMKAFW 0
root@arm:~# echo 'LJLH''AJUHHM'
LJLHAJUHHM
root@arm:~# MARKER='LKOL''LZHOON' run 'i2cget -y -f 1 0x4b 0xd'
LKOLLZHOON0x19
LKOLLZHOON 0
root@arm:~# echo 'ABCU''CWWGXK'
ABCUCWWGXK
root@arm:~# MARKER='NCZP''SNLCXB' run 'echo 960000 960000 > /sys/kernel/mva_test//regulators/buck1_set'
NCZPSNLCXBNCZPSNLCXB 0
root@arm:~# echo 'LJUQ''FTLTKJ'
LJUQFTLTKJ
root@arm:~# MARKER='XUCZ''AYGGJA' run 'i2cget -y -f 1 0x4b 0xd'
XUCZAYGGJA0x1a
XUCZAYGGJA 0
root@arm:~# echo 'WPBY''GBXOJM'
WPBYGBXOJM
root@arm:~# MARKER='HSJO''ZHJHNZ' run 'echo 970000 970000 > /sys/kernel/mva_test//regulators/buck1_set'
HSJOZHJHNZHSJOZHJHNZ 0
root@arm:~# echo 'TTGL''KWVCZW'
TTGLKWVCZW
root@arm:~# MARKER='EVHT''TPAEUY' run 'i2cget -y -f 1 0x4b 0xd'
EVHTTPAEUY0x1b
EVHTTPAEUY 0
root@arm:~# echo 'YUAW''FXBTCA'
YUAWFXBTCA
root@arm:~# MARKER='MOPX''MSWTUX' run 'echo 980000 980000 > /sys/kernel/mva_test//regulators/buck1_set'
MOPXMSWTUXMOPXMSWTUX 0
root@arm:~# echo 'FQZC''LOXTLG'
FQZCLOXTLG
root@arm:~# MARKER='VZOV''YBFMBJ' run 'i2cget -y -f 1 0x4b 0xd'
VZOVYBFMBJ0x1c
VZOVYBFMBJ 0
root@arm:~# echo 'TPXV''NPUEHJ'
TPXVNPUEHJ
root@arm:~# MARKER='TZHL''AVAHCG' run 'echo 990000 990000 > /sys/kernel/mva_test//regulators/buck1_set'
TZHLAVAHCGTZHLAVAHCG 0
root@arm:~# echo 'FXJZ''SJLBCM'
FXJZSJLBCM
root@arm:~# MARKER='VGEZ''AJGFVO' run 'i2cget -y -f 1 0x4b 0xd'
VGEZAJGFVO0x1d
VGEZAJGFVO 0
root@arm:~# echo 'SMYU''OQXOVW'
SMYUOQXOVW
root@arm:~# MARKER='KOPE''BVELXY' run 'echo 1000000 1000000 > /sys/kernel/mva_tesst/regulators/buck1_set'
KOPEBVELXYKOPEBVELXY 0
root@arm:~# echo 'GSTW''ZMCBYS'
GSTWZMCBYS
root@arm:~# MARKER='CVJY''CNJVZZ' run 'i2cget -y -f 1 0x4b 0xd'
CVJYCNJVZZ0x1e
CVJYCNJVZZ 0
root@arm:~# echo 'CYXH''TNSGTK'
CYXHTNSGTK
root@arm:~# MARKER='NLFM''NLVKNM' run 'echo 1010000 1010000 > /sys/kernel/mva_tesst/regulators/buck1_set'
NLFMNLVKNMNLFMNLVKNM 0
root@arm:~# echo 'YGJJ''AFKSSL'
YGJJAFKSSL
root@arm:~# MARKER='CLGV''KWTLTA' run 'i2cget -y -f 1 0x4b 0xd'
CLGVKWTLTA0x1f
CLGVKWTLTA 0
root@arm:~# echo 'CZHE''FBTOSQ'
CZHEFBTOSQ
root@arm:~# MARKER='NQOY''HBMYJB' run 'echo 1020000 1020000 > /sys/kernel/mva_tesst/regulators/buck1_set'
NQOYHBMYJBNQOYHBMYJB 0
root@arm:~# echo 'WWZT''JTFEYA'
WWZTJTFEYA
root@arm:~# MARKER='SHGJ''VVCSEG' run 'i2cget -y -f 1 0x4b 0xd'
SHGJVVCSEG0x20
SHGJVVCSEG 0
root@arm:~# echo 'FJJQ''KETXON'
FJJQKETXON
root@arm:~# MARKER='UBTQ''PESZUN' run 'echo 1030000 1030000 > /sys/kernel/mva_tesst/regulators/buck1_set'
UBTQPESZUNUBTQPESZUN 0
root@arm:~# echo 'OJPE''SPWPVZ'
OJPESPWPVZ
root@arm:~# MARKER='LXPT''JUJGUB' run 'i2cget -y -f 1 0x4b 0xd'
LXPTJUJGUB0x21
LXPTJUJGUB 0
root@arm:~# echo 'BXHW''GUCAUW'
BXHWGUCAUW
root@arm:~# MARKER='FEUC''JESWKS' run 'echo 1040000 1040000 > /sys/kernel/mva_tesst/regulators/buck1_set'
FEUCJESWKSFEUCJESWKS 0
root@arm:~# echo 'ZNNH''HOGPEY'
ZNNHHOGPEY
root@arm:~# MARKER='PCYM''XLXFXL' run 'i2cget -y -f 1 0x4b 0xd'
PCYMXLXFXL0x22
PCYMXLXFXL 0
root@arm:~# echo 'PXZH''GKZPWY'
PXZHGKZPWY
root@arm:~# MARKER='VKCZ''OFBKAB' run 'echo 1050000 1050000 > /sys/kernel/mva_tesst/regulators/buck1_set'
VKCZOFBKABVKCZOFBKAB 0
root@arm:~# echo 'OQBT''LJKBSB'
OQBTLJKBSB
root@arm:~# MARKER='UPGM''MXMXWB' run 'i2cget -y -f 1 0x4b 0xd'
UPGMMXMXWB0x23
UPGMMXMXWB 0
root@arm:~# echo 'FQPV''JNKZLE'
FQPVJNKZLE
root@arm:~# MARKER='UEJB''QYLSTE' run 'echo 1060000 1060000 > /sys/kernel/mva_tesst/regulators/buck1_set'
UEJBQYLSTEUEJBQYLSTE 0
root@arm:~# echo 'ZBOO''TOMTWL'
ZBOOTOMTWL
root@arm:~# MARKER='OHXN''KNLQJE' run 'i2cget -y -f 1 0x4b 0xd'
OHXNKNLQJE0x24
OHXNKNLQJE 0
root@arm:~# echo 'PEJF''QAPYBX'
PEJFQAPYBX
root@arm:~# MARKER='XPCT''HBTPVG' run 'echo 1070000 1070000 > /sys/kernel/mva_tesst/regulators/buck1_set'
XPCTHBTPVGXPCTHBTPVG 0
root@arm:~# echo 'KTXE''UEJWYZ'
KTXEUEJWYZ
root@arm:~# MARKER='OYGM''OOOESF' run 'i2cget -y -f 1 0x4b 0xd'
OYGMOOOESF0x25
OYGMOOOESF 0
root@arm:~# echo 'ZYMN''XBBGEX'
ZYMNXBBGEX
root@arm:~# MARKER='BVGP''VQNCTU' run 'echo 1080000 1080000 > /sys/kernel/mva_tesst/regulators/buck1_set'
BVGPVQNCTUBVGPVQNCTU 0
root@arm:~# echo 'TJTF''EMXEFN'
TJTFEMXEFN
root@arm:~# MARKER='XZNS''SCMFUF' run 'i2cget -y -f 1 0x4b 0xd'
XZNSSCMFUF0x26
XZNSSCMFUF 0
root@arm:~# echo 'LYEQ''WWLOCT'
LYEQWWLOCT
root@arm:~# MARKER='FHSL''MMWFLF' run 'echo 1090000 1090000 > /sys/kernel/mva_tesst/regulators/buck1_set'
FHSLMMWFLFFHSLMMWFLF 0
root@arm:~# echo 'PVXA''KGBHSY'
PVXAKGBHSY
root@arm:~# MARKER='SBTO''VJWKYP' run 'i2cget -y -f 1 0x4b 0xd'
SBTOVJWKYP0x27
SBTOVJWKYP 0
root@arm:~# echo 'KALT''BPLMKK'
KALTBPLMKK
root@arm:~# MARKER='AYGX''WOPGGN' run 'echo 1100000 1100000 > /sys/kernel/mva_tesst/regulators/buck1_set'
AYGXWOPGGNAYGXWOPGGN 0
root@arm:~# echo 'BYTH''EKSNNN'
BYTHEKSNNN
root@arm:~# MARKER='GLJT''PJMQFB' run 'i2cget -y -f 1 0x4b 0xd'
GLJTPJMQFB0x28
GLJTPJMQFB 0
root@arm:~# echo 'PHEB''MJYESG'
PHEBMJYESG
root@arm:~# MARKER='QAHE''FFJCKQ' run 'echo 1110000 1110000 > /sys/kernel/mva_tesst/regulators/buck1_set'
QAHEFFJCKQQAHEFFJCKQ 0
root@arm:~# echo 'MUWH''NSFHQK'
MUWHNSFHQK
root@arm:~# MARKER='FZTX''QCJWYK' run 'i2cget -y -f 1 0x4b 0xd'
FZTXQCJWYK0x29
FZTXQCJWYK 0
root@arm:~# echo 'HPTO''PYLQAK'
HPTOPYLQAK
root@arm:~# MARKER='VKEL''YEEZBW' run 'echo 1120000 1120000 > /sys/kernel/mva_tesst/regulators/buck1_set'
VKELYEEZBWVKELYEEZBW 0
root@arm:~# echo 'PLLN''JVLUMU'
PLLNJVLUMU
root@arm:~# MARKER='NTBY''LYWMUO' run 'i2cget -y -f 1 0x4b 0xd'
NTBYLYWMUO0x2a
NTBYLYWMUO 0
root@arm:~# echo 'GUFN''EQQEEX'
GUFNEQQEEX
root@arm:~# MARKER='MOAN''QXFTLW' run 'echo 1130000 1130000 > /sys/kernel/mva_tesst/regulators/buck1_set'
MOANQXFTLWMOANQXFTLW 0
root@arm:~# echo 'KPSK''KJSABZ'
KPSKKJSABZ
root@arm:~# MARKER='XXPZ''VUVZGW' run 'i2cget -y -f 1 0x4b 0xd'
XXPZVUVZGW0x2b
XXPZVUVZGW 0
root@arm:~# echo 'UMEX''MLNTKY'
UMEXMLNTKY
root@arm:~# MARKER='CPLT''CUXPOW' run 'echo 1140000 1140000 > /sys/kernel/mva_tesst/regulators/buck1_set'
CPLTCUXPOWCPLTCUXPOW 0
root@arm:~# echo 'YYQW''NMHAGN'
YYQWNMHAGN
root@arm:~# MARKER='HVSF''WCVSEY' run 'i2cget -y -f 1 0x4b 0xd'
HVSFWCVSEY0x2c
HVSFWCVSEY 0
root@arm:~# echo 'VCGC''YLKMTX'
VCGCYLKMTX
root@arm:~# MARKER='LLZG''CAABPV' run 'echo 1150000 1150000 > /sys/kernel/mva_tesst/regulators/buck1_set'
LLZGCAABPVLLZGCAABPV 0
root@arm:~# echo 'KUBW''GNXGWY'
KUBWGNXGWY
root@arm:~# MARKER='JZHE''FPAUPO' run 'i2cget -y -f 1 0x4b 0xd'
JZHEFPAUPO0x2d
JZHEFPAUPO 0
root@arm:~# echo 'QGEP''QAZLQK'
QGEPQAZLQK
root@arm:~# MARKER='JWXB''KLHQAY' run 'echo 1160000 1160000 > /sys/kernel/mva_tesst/regulators/buck1_set'
JWXBKLHQAYJWXBKLHQAY 0
root@arm:~# echo 'AWLT''BTVLWA'
AWLTBTVLWA
root@arm:~# MARKER='SNJB''GWOOTL' run 'i2cget -y -f 1 0x4b 0xd'
SNJBGWOOTL0x2e
SNJBGWOOTL 0
root@arm:~# echo 'HQCS''FXAVXZ'
HQCSFXAVXZ
root@arm:~# MARKER='QCSL''GBXUZX' run 'echo 1170000 1170000 > /sys/kernel/mva_tesst/regulators/buck1_set'
QCSLGBXUZXQCSLGBXUZX 0
root@arm:~# echo 'AXPV''XOGPTH'
AXPVXOGPTH
root@arm:~# MARKER='CYUJ''AKMXNL' run 'i2cget -y -f 1 0x4b 0xd'
CYUJAKMXNL0x2f
CYUJAKMXNL 0
root@arm:~# echo 'LNSC''PTYMNY'
LNSCPTYMNY
root@arm:~# MARKER='WPHZ''AWOCSX' run 'echo 1180000 1180000 > /sys/kernel/mva_tesst/regulators/buck1_set'
WPHZAWOCSXWPHZAWOCSX 0
root@arm:~# echo 'WUJO''PFWMYE'
WUJOPFWMYE
root@arm:~# MARKER='PSGV''MZMBNF' run 'i2cget -y -f 1 0x4b 0xd'
PSGVMZMBNF0x30
PSGVMZMBNF 0
root@arm:~# echo 'MCNY''JNXGHC'
MCNYJNXGHC
root@arm:~# MARKER='WBYK''AZWTQG' run 'echo 1190000 1190000 > /sys/kernel/mva_tesst/regulators/buck1_set'
WBYKAZWTQGWBYKAZWTQG 0
root@arm:~# echo 'NKQN''BJBGYQ'
NKQNBJBGYQ
root@arm:~# MARKER='SQQK''FBGJAY' run 'i2cget -y -f 1 0x4b 0xd'
SQQKFBGJAY0x31
SQQKFBGJAY 0
root@arm:~# echo 'XLZO''AAWBZE'
XLZOAAWBZE
root@arm:~# MARKER='STTG''CBWFFL' run 'echo 1200000 1200000 > /sys/kernel/mva_tesst/regulators/buck1_set'
STTGCBWFFLSTTGCBWFFL 0
root@arm:~# echo 'QXNH''UQEHBW'
QXNHUQEHBW
root@arm:~# MARKER='LQYT''UECTEO' run 'i2cget -y -f 1 0x4b 0xd'
LQYTUECTEO0x32
LQYTUECTEO 0
root@arm:~# echo 'SJTO''NEHHAB'
SJTONEHHAB
root@arm:~# MARKER='SVCM''ZGASNK' run 'echo 1210000 1210000 > /sys/kernel/mva_tesst/regulators/buck1_set'
SVCMZGASNKSVCMZGASNK 0
root@arm:~# echo 'BNJF''PPCVZZ'
BNJFPPCVZZ
root@arm:~# MARKER='LSJG''QBSEAX' run 'i2cget -y -f 1 0x4b 0xd'
LSJGQBSEAX0x33
LSJGQBSEAX 0
root@arm:~# echo 'LGZX''XKFXLU'
LGZXXKFXLU
root@arm:~# MARKER='NEJG''SGZOMW' run 'echo 1220000 1220000 > /sys/kernel/mva_tesst/regulators/buck1_set'
NEJGSGZOMWNEJGSGZOMW 0
root@arm:~# echo 'TFOK''MFVTWA'
TFOKMFVTWA
root@arm:~# MARKER='VYAW''NBYXMU' run 'i2cget -y -f 1 0x4b 0xd'
VYAWNBYXMU0x34
VYAWNBYXMU 0
root@arm:~# echo 'OWBN''EFANBY'
OWBNEFANBY
root@arm:~# MARKER='QWYQ''AYOGBJ' run 'echo 1230000 1230000 > /sys/kernel/mva_tesst/regulators/buck1_set'
QWYQAYOGBJQWYQAYOGBJ 0
root@arm:~# echo 'YTFO''GAQBXX'
YTFOGAQBXX
root@arm:~# MARKER='MHGJ''QZUXAV' run 'i2cget -y -f 1 0x4b 0xd'
MHGJQZUXAV0x35
MHGJQZUXAV 0
root@arm:~# echo 'NJHE''LJKJCS'
NJHELJKJCS
root@arm:~# MARKER='YXJO''FVPJMW' run 'echo 1240000 1240000 > /sys/kernel/mva_tesst/regulators/buck1_set'
YXJOFVPJMWYXJOFVPJMW 0
root@arm:~# echo 'CXJG''SGJSEA'
CXJGSGJSEA
root@arm:~# MARKER='GOBN''ZAOUEW' run 'i2cget -y -f 1 0x4b 0xd'
GOBNZAOUEW0x36
GOBNZAOUEW 0
root@arm:~# echo 'BVOG''LVVHUK'
BVOGLVVHUK
root@arm:~# MARKER='FZYE''NTWVMT' run 'echo 1250000 1250000 > /sys/kernel/mva_tesst/regulators/buck1_set'
FZYENTWVMTFZYENTWVMT 0
root@arm:~# echo 'BXSX''EKKGVZ'
BXSXEKKGVZ
root@arm:~# MARKER='WXFG''VHATVG' run 'i2cget -y -f 1 0x4b 0xd'
WXFGVHATVG0x37
WXFGVHATVG 0
root@arm:~# echo 'QVNY''ZNGYSE'
QVNYZNGYSE
root@arm:~# MARKER='FWQK''FUFUQE' run 'echo 1260000 1260000 > /sys/kernel/mva_tesst/regulators/buck1_set'
FWQKFUFUQEFWQKFUFUQE 0
root@arm:~# echo 'BAPN''YVTYNT'
BAPNYVTYNT
root@arm:~# MARKER='GABY''POLVKF' run 'i2cget -y -f 1 0x4b 0xd'
GABYPOLVKF0x38
GABYPOLVKF 0
root@arm:~# echo 'NLEG''YHLBVN'
NLEGYHLBVN
root@arm:~# MARKER='BSVL''PCYOOA' run 'echo 1270000 1270000 > /sys/kernel/mva_tesst/regulators/buck1_set'
BSVLPCYOOABSVLPCYOOA 0
root@arm:~# echo 'LVJG''MPAPWW'
LVJGMPAPWW
root@arm:~# MARKER='TQPB''VUSEAZ' run 'i2cget -y -f 1 0x4b 0xd'
TQPBVUSEAZ0x39
TQPBVUSEAZ 0
root@arm:~# echo 'BHTM''HUXAGQ'
BHTMHUXAGQ
root@arm:~# MARKER='LAVP''OYXNYE' run 'echo 1280000 1280000 > /sys/kernel/mva_tesst/regulators/buck1_set'
LAVPOYXNYELAVPOYXNYE 0
root@arm:~# echo 'KSZK''TZFXGB'
KSZKTZFXGB
root@arm:~# MARKER='BQOH''MLGWHG' run 'i2cget -y -f 1 0x4b 0xd'
BQOHMLGWHG0x3a
BQOHMLGWHG 0
root@arm:~# echo 'XAQO''XQFTCJ'
XAQOXQFTCJ
root@arm:~# MARKER='CCTJ''QWFMWZ' run 'echo 1290000 1290000 > /sys/kernel/mva_tesst/regulators/buck1_set'
CCTJQWFMWZCCTJQWFMWZ 0
root@arm:~# echo 'OFPL''PHKGXL'
OFPLPHKGXL
root@arm:~# MARKER='KYVJ''HVYPQB' run 'i2cget -y -f 1 0x4b 0xd'
KYVJHVYPQB0x3b
KYVJHVYPQB 0
root@arm:~# echo 'EEYW''YMMBNH'
EEYWYMMBNH
root@arm:~# MARKER='SULM''GCWLPH' run 'echo 1300000 1300000 > /sys/kernel/mva_tesst/regulators/buck1_set'
SULMGCWLPHSULMGCWLPH 0
root@arm:~# echo 'KTYF''GEEKKO'
KTYFGEEKKO
root@arm:~# MARKER='WKXW''EZSNEZ' run 'i2cget -y -f 1 0x4b 0xd'
WKXWEZSNEZ0x3c
WKXWEZSNEZ 0
root@arm:~# echo 'BHYM''AVQTSL'
BHYMAVQTSL
root@arm:~# MARKER='XGYE''ALUAFC' run 'grep -r -l rohm,bd71847 /proc/device-tree  | sed '"'"'s![^/]*$!!'"'"''
XGYEALUAFC/proc/device-tree/ocp/interconnect@48000000/segment@0/target-module@2a000/i2c@0/pmic@4b/
XGYEALUAFC 0
root@arm:~# echo 'KYKB''NEBAAK'
KYKBNEBAAK
root@arm:~# MARKER='LTUT''CVJGSG' run 'test -f /proc/device-tree/ocp/interconnectt\@48000000/segment\@0/target-module\@2a000/i2c\@0/pmic\@4b/regulators/BUCK2/rohmm,no-regulator-enable-control ;echo $?'
LTUTCVJGSG1
LTUTCVJGSG 0
root@arm:~# echo 'YKWO''JVZGKK'
YKWOJVZGKK
root@arm:~# MARKER='TYCF''TAOACU' run 'i2cget -y -f 1 0x4b 0x6'
TYCFTAOACU0x43
TYCFTAOACU 0
root@arm:~# echo 'VGEL''FHMBOP'
VGELFHMBOP
root@arm:~# MARKER='NNSC''LCBSWZ' run 'echo 700000 700000 > /sys/kernel/mva_test//regulators/buck2_set'
NNSCLCBSWZNNSCLCBSWZ 0
root@arm:~# echo 'BJFW''TWCUKY'
BJFWTWCUKY
root@arm:~# MARKER='SZGF''FUQAZC' run 'i2cget -y -f 1 0x4b 0x10'
SZGFFUQAZC0x00
SZGFFUQAZC 0
root@arm:~# echo 'XXWP''HBEOLO'
XXWPHBEOLO
root@arm:~# MARKER='FMUA''YYZJGV' run 'echo 710000 710000 > /sys/kernel/mva_test//regulators/buck2_set'
FMUAYYZJGVFMUAYYZJGV 0
root@arm:~# echo 'BBAO''AHTZSC'
BBAOAHTZSC
root@arm:~# MARKER='USLW''GEWPUN' run 'i2cget -y -f 1 0x4b 0x10'
USLWGEWPUN0x01
USLWGEWPUN 0
root@arm:~# echo 'ATLY''TCEYKC'
ATLYTCEYKC
root@arm:~# MARKER='XAYZ''SVCCXN' run 'echo 720000 720000 > /sys/kernel/mva_test//regulators/buck2_set'
XAYZSVCCXNXAYZSVCCXN 0
root@arm:~# echo 'QCFT''JPQGOG'
QCFTJPQGOG
root@arm:~# MARKER='SHAV''CEPBLT' run 'i2cget -y -f 1 0x4b 0x10'
SHAVCEPBLT0x02
SHAVCEPBLT 0
root@arm:~# echo 'YNTV''OMTSYT'
YNTVOMTSYT
root@arm:~# MARKER='HGZM''GLUSAZ' run 'echo 730000 730000 > /sys/kernel/mva_test//regulators/buck2_set'
HGZMGLUSAZHGZMGLUSAZ 0
root@arm:~# echo 'ABLL''HNNOTN'
ABLLHNNOTN
root@arm:~# MARKER='FJFM''XECULU' run 'i2cget -y -f 1 0x4b 0x10'
FJFMXECULU0x03
FJFMXECULU 0
root@arm:~# echo 'QKPA''FAPTJO'
QKPAFAPTJO
root@arm:~# MARKER='ZBHP''NWQMCN' run 'echo 740000 740000 > /sys/kernel/mva_test//regulators/buck2_set'
ZBHPNWQMCNZBHPNWQMCN 0
root@arm:~# echo 'ZQTQ''BGMKTF'
ZQTQBGMKTF
root@arm:~# MARKER='TWYA''UCXAPC' run 'i2cget -y -f 1 0x4b 0x10'
TWYAUCXAPC0x04
TWYAUCXAPC 0
root@arm:~# echo 'ZMTM''YPSUVZ'
ZMTMYPSUVZ
root@arm:~# MARKER='GOVK''NFLBEF' run 'echo 750000 750000 > /sys/kernel/mva_test//regulators/buck2_set'
GOVKNFLBEFGOVKNFLBEF 0
root@arm:~# echo 'ZCHT''GMSHNT'
ZCHTGMSHNT
root@arm:~# MARKER='UNKT''UMTWYC' run 'i2cget -y -f 1 0x4b 0x10'
UNKTUMTWYC0x05
UNKTUMTWYC 0
root@arm:~# echo 'TMYO''NNGNLX'
TMYONNGNLX
root@arm:~# MARKER='BZZV''NPQLKH' run 'echo 760000 760000 > /sys/kernel/mva_test//regulators/buck2_set'
BZZVNPQLKHBZZVNPQLKH 0
root@arm:~# echo 'GHOJ''KQKGQV'
GHOJKQKGQV
root@arm:~# MARKER='AOWP''TQCSXG' run 'i2cget -y -f 1 0x4b 0x10'
AOWPTQCSXG0x06
AOWPTQCSXG 0
root@arm:~# echo 'PYWQ''MEUJWK'
PYWQMEUJWK
root@arm:~# MARKER='NOSZ''LUJULJ' run 'echo 770000 770000 > /sys/kernel/mva_test//regulators/buck2_set'
NOSZLUJULJNOSZLUJULJ 0
root@arm:~# echo 'WWVH''ZSGVKX'
WWVHZSGVKX
root@arm:~# MARKER='UHEZ''OJCUBW' run 'i2cget -y -f 1 0x4b 0x10'
UHEZOJCUBW0x07
UHEZOJCUBW 0
root@arm:~# echo 'AAHB''PSBSPS'
AAHBPSBSPS
root@arm:~# MARKER='TABL''BJXVFG' run 'echo 780000 780000 > /sys/kernel/mva_test//regulators/buck2_set'
TABLBJXVFGTABLBJXVFG 0
root@arm:~# echo 'CJCH''JFZAYE'
CJCHJFZAYE
root@arm:~# MARKER='WQXO''FYKCZZ' run 'i2cget -y -f 1 0x4b 0x10'
WQXOFYKCZZ0x08
WQXOFYKCZZ 0
root@arm:~# echo 'WEHM''UKNMEJ'
WEHMUKNMEJ
root@arm:~# MARKER='YPEM''WZPBFV' run 'echo 790000 790000 > /sys/kernel/mva_test//regulators/buck2_set'
YPEMWZPBFVYPEMWZPBFV 0
root@arm:~# echo 'WOMC''NATLLH'
WOMCNATLLH
root@arm:~# MARKER='MMWT''VUNAXV' run 'i2cget -y -f 1 0x4b 0x10'
MMWTVUNAXV0x09
MMWTVUNAXV 0
root@arm:~# echo 'OPVG''PFLBCY'
OPVGPFLBCY
root@arm:~# MARKER='TSVU''FBXNFV' run 'echo 800000 800000 > /sys/kernel/mva_test//regulators/buck2_set'
TSVUFBXNFVTSVUFBXNFV 0
root@arm:~# echo 'MMCN''MVVTAZ'
MMCNMVVTAZ
root@arm:~# MARKER='ZMVM''JLCEVA' run 'i2cget -y -f 1 0x4b 0x10'
ZMVMJLCEVA0x0a
ZMVMJLCEVA 0
root@arm:~# echo 'VENK''XAGLCK'
VENKXAGLCK
root@arm:~# MARKER='BHAW''XVAUJY' run 'echo 810000 810000 > /sys/kernel/mva_test//regulators/buck2_set'
BHAWXVAUJYBHAWXVAUJY 0
root@arm:~# echo 'FZHN''SSQFEZ'
FZHNSSQFEZ
root@arm:~# MARKER='QKNP''WGPYOF' run 'i2cget -y -f 1 0x4b 0x10'
QKNPWGPYOF0x0b
QKNPWGPYOF 0
root@arm:~# echo 'NETA''QKUWYK'
NETAQKUWYK
root@arm:~# MARKER='ZAEN''MWOJSE' run 'echo 820000 820000 > /sys/kernel/mva_test//regulators/buck2_set'
ZAENMWOJSEZAENMWOJSE 0
root@arm:~# echo 'XAPS''ZOBBHA'
XAPSZOBBHA
root@arm:~# MARKER='XONA''BWYSSK' run 'i2cget -y -f 1 0x4b 0x10'
XONABWYSSK0x0c
XONABWYSSK 0
root@arm:~# echo 'QCSL''WHQGPV'
QCSLWHQGPV
root@arm:~# MARKER='PWBC''YVXVML' run 'echo 830000 830000 > /sys/kernel/mva_test//regulators/buck2_set'
PWBCYVXVMLPWBCYVXVML 0
root@arm:~# echo 'YJBY''AJKTBP'
YJBYAJKTBP
root@arm:~# MARKER='ZGSC''JOSLGK' run 'i2cget -y -f 1 0x4b 0x10'
ZGSCJOSLGK0x0d
ZGSCJOSLGK 0
root@arm:~# echo 'EJAS''LWQYPB'
EJASLWQYPB
root@arm:~# MARKER='MFVU''NUTZWA' run 'echo 840000 840000 > /sys/kernel/mva_test//regulators/buck2_set'
MFVUNUTZWAMFVUNUTZWA 0
root@arm:~# echo 'LFPQ''LMQHFS'
LFPQLMQHFS
root@arm:~# MARKER='OGCB''PKCQSK' run 'i2cget -y -f 1 0x4b 0x10'
OGCBPKCQSK0x0e
OGCBPKCQSK 0
root@arm:~# echo 'UYJG''KMHCGG'
UYJGKMHCGG
root@arm:~# MARKER='ZUGZ''KAKHSE' run 'echo 850000 850000 > /sys/kernel/mva_test//regulators/buck2_set'
ZUGZKAKHSEZUGZKAKHSE 0
root@arm:~# echo 'KPPU''OAVUQN'
KPPUOAVUQN
root@arm:~# MARKER='PUWF''QQPMCJ' run 'i2cget -y -f 1 0x4b 0x10'
PUWFQQPMCJ0x0f
PUWFQQPMCJ 0
root@arm:~# echo 'BLAW''YJNJYQ'
BLAWYJNJYQ
root@arm:~# MARKER='QFZL''LUOHWF' run 'echo 860000 860000 > /sys/kernel/mva_test//regulators/buck2_set'
QFZLLUOHWFQFZLLUOHWF 0
root@arm:~# echo 'OGAQ''GCHEZE'
OGAQGCHEZE
root@arm:~# MARKER='HATB''NNFUJT' run 'i2cget -y -f 1 0x4b 0x10'
HATBNNFUJT0x10
HATBNNFUJT 0
root@arm:~# echo 'JASZ''TJFXET'
JASZTJFXET
root@arm:~# MARKER='KOKX''BQEQCK' run 'echo 870000 870000 > /sys/kernel/mva_test//regulators/buck2_set'
KOKXBQEQCKKOKXBQEQCK 0
root@arm:~# echo 'AOOX''SCEJBU'
AOOXSCEJBU
root@arm:~# MARKER='AMNH''OOGUEQ' run 'i2cget -y -f 1 0x4b 0x10'
AMNHOOGUEQ0x11
AMNHOOGUEQ 0
root@arm:~# echo 'GOKX''HUATZQ'
GOKXHUATZQ
root@arm:~# MARKER='ANNY''QXZXKK' run 'echo 880000 880000 > /sys/kernel/mva_test//regulators/buck2_set'
ANNYQXZXKKANNYQXZXKK 0
root@arm:~# echo 'TWLV''OOGFOK'
TWLVOOGFOK
root@arm:~# MARKER='XKMB''CXJXLB' run 'i2cget -y -f 1 0x4b 0x10'
XKMBCXJXLB0x12
XKMBCXJXLB 0
root@arm:~# echo 'YTUS''YGLXYK'
YTUSYGLXYK
root@arm:~# MARKER='AUBA''PCGFSG' run 'echo 890000 890000 > /sys/kernel/mva_test//regulators/buck2_set'
AUBAPCGFSGAUBAPCGFSG 0
root@arm:~# echo 'OVEX''OKLWNP'
OVEXOKLWNP
root@arm:~# MARKER='LSHH''UZMXAY' run 'i2cget -y -f 1 0x4b 0x10'
LSHHUZMXAY0x13
LSHHUZMXAY 0
root@arm:~# echo 'UVMB''JZMYYC'
UVMBJZMYYC
root@arm:~# MARKER='SMKP''PEECYS' run 'echo 900000 900000 > /sys/kernel/mva_test//regulators/buck2_set'
SMKPPEECYSSMKPPEECYS 0
root@arm:~# echo 'HMQJ''UVTNOV'
HMQJUVTNOV
root@arm:~# MARKER='NXAP''SPJWTS' run 'i2cget -y -f 1 0x4b 0x10'
NXAPSPJWTS0x14
NXAPSPJWTS 0
root@arm:~# echo 'VLEH''SFHYQS'
VLEHSFHYQS
root@arm:~# MARKER='SSEK''YKQGMT' run 'echo 910000 910000 > /sys/kernel/mva_test//regulators/buck2_set'
SSEKYKQGMTSSEKYKQGMT 0
root@arm:~# echo 'XYEJ''JLOKHY'
XYEJJLOKHY
root@arm:~# MARKER='WBPA''GNATLS' run 'i2cget -y -f 1 0x4b 0x10'
WBPAGNATLS0x15
WBPAGNATLS 0
root@arm:~# echo 'ZCYN''AGSJOA'
ZCYNAGSJOA
root@arm:~# MARKER='JLLE''EPCYGZ' run 'echo 920000 920000 > /sys/kernel/mva_test//regulators/buck2_set'
JLLEEPCYGZJLLEEPCYGZ 0
root@arm:~# echo 'NOBU''BOLOHW'
NOBUBOLOHW
root@arm:~# MARKER='AAHW''TKKXBM' run 'i2cget -y -f 1 0x4b 0x10'
AAHWTKKXBM0x16
AAHWTKKXBM 0
root@arm:~# echo 'HZOG''UNCMGU'
HZOGUNCMGU
root@arm:~# MARKER='TBHG''EEQOZW' run 'echo 930000 930000 > /sys/kernel/mva_test//regulators/buck2_set'
TBHGEEQOZWTBHGEEQOZW 0
root@arm:~# echo 'MCZQ''NVUWVF'
MCZQNVUWVF
root@arm:~# MARKER='QOWN''WKFVEU' run 'i2cget -y -f 1 0x4b 0x10'
QOWNWKFVEU0x17
QOWNWKFVEU 0
root@arm:~# echo 'SBLL''ZBANMB'
SBLLZBANMB
root@arm:~# MARKER='JHUQ''MZVSLN' run 'echo 940000 940000 > /sys/kernel/mva_test//regulators/buck2_set'
JHUQMZVSLNJHUQMZVSLN 0
root@arm:~# echo 'PWMM''CCMMHL'
PWMMCCMMHL
root@arm:~# MARKER='SLTB''HZTUPL' run 'i2cget -y -f 1 0x4b 0x10'
SLTBHZTUPL0x18
SLTBHZTUPL 0
root@arm:~# echo 'FVWU''FCWUMW'
FVWUFCWUMW
root@arm:~# MARKER='ZUXM''QXVOXG' run 'echo 950000 950000 > /sys/kernel/mva_test//regulators/buck2_set'
ZUXMQXVOXGZUXMQXVOXG 0
root@arm:~# echo 'BYPK''TCXEPE'
BYPKTCXEPE
root@arm:~# MARKER='QNVK''JQZABO' run 'i2cget -y -f 1 0x4b 0x10'
QNVKJQZABO0x19
QNVKJQZABO 0
root@arm:~# echo 'UQCJ''ZHFAWG'
UQCJZHFAWG
root@arm:~# MARKER='JYNP''YLXLEO' run 'echo 960000 960000 > /sys/kernel/mva_test//regulators/buck2_set'
JYNPYLXLEOJYNPYLXLEO 0
root@arm:~# echo 'UOHX''UAQUWL'
UOHXUAQUWL
root@arm:~# MARKER='LHPX''VKAJPO' run 'i2cget -y -f 1 0x4b 0x10'
LHPXVKAJPO0x1a
LHPXVKAJPO 0
root@arm:~# echo 'BTCJ''UWXMBK'
BTCJUWXMBK
root@arm:~# MARKER='VBOQ''CSTMWU' run 'echo 970000 970000 > /sys/kernel/mva_test//regulators/buck2_set'
VBOQCSTMWUVBOQCSTMWU 0
root@arm:~# echo 'JXOW''BWKAEV'
JXOWBWKAEV
root@arm:~# MARKER='JUCS''HHTPUZ' run 'i2cget -y -f 1 0x4b 0x10'
JUCSHHTPUZ0x1b
JUCSHHTPUZ 0
root@arm:~# echo 'CWKJ''BMLWOJ'
CWKJBMLWOJ
root@arm:~# MARKER='MEHZ''SLFFVE' run 'echo 980000 980000 > /sys/kernel/mva_test//regulators/buck2_set'
MEHZSLFFVEMEHZSLFFVE 0
root@arm:~# echo 'CBCO''WEZKQJ'
CBCOWEZKQJ
root@arm:~# MARKER='XCBP''MNLPSV' run 'i2cget -y -f 1 0x4b 0x10'
XCBPMNLPSV0x1c
XCBPMNLPSV 0
root@arm:~# echo 'XKAZ''CZLFWU'
XKAZCZLFWU
root@arm:~# MARKER='HAVY''ZSTEWV' run 'echo 990000 990000 > /sys/kernel/mva_test//regulators/buck2_set'
HAVYZSTEWVHAVYZSTEWV 0
root@arm:~# echo 'KAMZ''BOHKMK'
KAMZBOHKMK
root@arm:~# MARKER='ONXG''QTTYPE' run 'i2cget -y -f 1 0x4b 0x10'
ONXGQTTYPE0x1d
ONXGQTTYPE 0
root@arm:~# echo 'CNMX''FYJAAL'
CNMXFYJAAL
root@arm:~# MARKER='EHZT''YGXKSF' run 'echo 1000000 1000000 > /sys/kernel/mva_tesst/regulators/buck2_set'
EHZTYGXKSFEHZTYGXKSF 0
root@arm:~# echo 'MBQF''ZLKCEO'
MBQFZLKCEO
root@arm:~# MARKER='KCMM''PMPLZS' run 'i2cget -y -f 1 0x4b 0x10'
KCMMPMPLZS0x1e
KCMMPMPLZS 0
root@arm:~# echo 'OXVU''FOTBKS'
OXVUFOTBKS
root@arm:~# MARKER='WGPC''VWUAAT' run 'echo 1010000 1010000 > /sys/kernel/mva_tesst/regulators/buck2_set'
WGPCVWUAATWGPCVWUAAT 0
root@arm:~# echo 'CYTY''TTWSNO'
CYTYTTWSNO
root@arm:~# MARKER='HSFG''MHGAVY' run 'i2cget -y -f 1 0x4b 0x10'
HSFGMHGAVY0x1f
HSFGMHGAVY 0
root@arm:~# echo 'LEQG''ENFPTU'
LEQGENFPTU
root@arm:~# MARKER='PAWC''PWBZGL' run 'echo 1020000 1020000 > /sys/kernel/mva_tesst/regulators/buck2_set'
PAWCPWBZGLPAWCPWBZGL 0
root@arm:~# echo 'TBTS''LFOOTG'
TBTSLFOOTG
root@arm:~# MARKER='PNPE''FAZBZM' run 'i2cget -y -f 1 0x4b 0x10'
PNPEFAZBZM0x20
PNPEFAZBZM 0
root@arm:~# echo 'SFLH''CYQOBB'
SFLHCYQOBB
root@arm:~# MARKER='CBOC''EGMZTT' run 'echo 1030000 1030000 > /sys/kernel/mva_tesst/regulators/buck2_set'
CBOCEGMZTTCBOCEGMZTT 0
root@arm:~# echo 'UMHZ''BUGAPX'
UMHZBUGAPX
root@arm:~# MARKER='SYFK''VGPFTE' run 'i2cget -y -f 1 0x4b 0x10'
SYFKVGPFTE0x21
SYFKVGPFTE 0
root@arm:~# echo 'CNQJ''AWFKJV'
CNQJAWFKJV
root@arm:~# MARKER='JCMW''OTYSMA' run 'echo 1040000 1040000 > /sys/kernel/mva_tesst/regulators/buck2_set'
JCMWOTYSMAJCMWOTYSMA 0
root@arm:~# echo 'EJHN''VZHCPK'
EJHNVZHCPK
root@arm:~# MARKER='NHQU''TSOVLM' run 'i2cget -y -f 1 0x4b 0x10'
NHQUTSOVLM0x22
NHQUTSOVLM 0
root@arm:~# echo 'KVGE''VWEPCU'
KVGEVWEPCU
root@arm:~# MARKER='KCKK''WSMLPS' run 'echo 1050000 1050000 > /sys/kernel/mva_tesst/regulators/buck2_set'
KCKKWSMLPSKCKKWSMLPS 0
root@arm:~# echo 'VVTF''JPZNYS'
VVTFJPZNYS
root@arm:~# MARKER='HQNA''QHYCVH' run 'i2cget -y -f 1 0x4b 0x10'
HQNAQHYCVH0x23
HQNAQHYCVH 0
root@arm:~# echo 'ANAP''XWJHTY'
ANAPXWJHTY
root@arm:~# MARKER='YALH''BFFTXQ' run 'echo 1060000 1060000 > /sys/kernel/mva_tesst/regulators/buck2_set'
YALHBFFTXQYALHBFFTXQ 0
root@arm:~# echo 'LOOJ''AQJSBB'
LOOJAQJSBB
root@arm:~# MARKER='AWXP''GXJWQO' run 'i2cget -y -f 1 0x4b 0x10'
AWXPGXJWQO0x24
AWXPGXJWQO 0
root@arm:~# echo 'FLCY''KAGSJC'
FLCYKAGSJC
root@arm:~# MARKER='AZMA''GSWOOH' run 'echo 1070000 1070000 > /sys/kernel/mva_tesst/regulators/buck2_set'
AZMAGSWOOHAZMAGSWOOH 0
root@arm:~# echo 'PZYC''SAPQXM'
PZYCSAPQXM
root@arm:~# MARKER='XLCU''NZTZPK' run 'i2cget -y -f 1 0x4b 0x10'
XLCUNZTZPK0x25
XLCUNZTZPK 0
root@arm:~# echo 'HYWF''TKBHMC'
HYWFTKBHMC
root@arm:~# MARKER='CQQS''YVAQWH' run 'echo 1080000 1080000 > /sys/kernel/mva_tesst/regulators/buck2_set'
CQQSYVAQWHCQQSYVAQWH 0
root@arm:~# echo 'PNAM''WCSKFG'
PNAMWCSKFG
root@arm:~# MARKER='CVHJ''MZSVJS' run 'i2cget -y -f 1 0x4b 0x10'
CVHJMZSVJS0x26
CVHJMZSVJS 0
root@arm:~# echo 'LQBH''NFJOJE'
LQBHNFJOJE
root@arm:~# MARKER='YWXA''SCQGSJ' run 'echo 1090000 1090000 > /sys/kernel/mva_tesst/regulators/buck2_set'
YWXASCQGSJYWXASCQGSJ 0
root@arm:~# echo 'WLHN''OAZAOQ'
WLHNOAZAOQ
root@arm:~# MARKER='QNHB''GUMSGJ' run 'i2cget -y -f 1 0x4b 0x10'
QNHBGUMSGJ0x27
QNHBGUMSGJ 0
root@arm:~# echo 'YAMW''LHJGHV'
YAMWLHJGHV
root@arm:~# MARKER='JMFY''SJZJZC' run 'echo 1100000 1100000 > /sys/kernel/mva_tesst/regulators/buck2_set'
JMFYSJZJZCJMFYSJZJZC 0
root@arm:~# echo 'GWKV''THKKUJ'
GWKVTHKKUJ
root@arm:~# MARKER='QCNA''GSQTJO' run 'i2cget -y -f 1 0x4b 0x10'
QCNAGSQTJO0x28
QCNAGSQTJO 0
root@arm:~# echo 'EVKY''UAGWXS'
EVKYUAGWXS
root@arm:~# MARKER='KYHJ''OJGSJM' run 'echo 1110000 1110000 > /sys/kernel/mva_tesst/regulators/buck2_set'
KYHJOJGSJMKYHJOJGSJM 0
root@arm:~# echo 'NHAG''CZJVMY'
NHAGCZJVMY
root@arm:~# MARKER='LXPB''UNYPMS' run 'i2cget -y -f 1 0x4b 0x10'
LXPBUNYPMS0x29
LXPBUNYPMS 0
root@arm:~# echo 'WKNS''GKXVQJ'
WKNSGKXVQJ
root@arm:~# MARKER='ECZX''ZHJHAY' run 'echo 1120000 1120000 > /sys/kernel/mva_tesst/regulators/buck2_set'
ECZXZHJHAYECZXZHJHAY 0
root@arm:~# echo 'TFYT''BVLEWO'
TFYTBVLEWO
root@arm:~# MARKER='OPNU''OOHXZH' run 'i2cget -y -f 1 0x4b 0x10'
OPNUOOHXZH0x2a
OPNUOOHXZH 0
root@arm:~# echo 'KZNL''CMOQEM'
KZNLCMOQEM
root@arm:~# MARKER='KCXZ''LUOSFL' run 'echo 1130000 1130000 > /sys/kernel/mva_tesst/regulators/buck2_set'
KCXZLUOSFLKCXZLUOSFL 0
root@arm:~# echo 'VPVC''GMMBGM'
VPVCGMMBGM
root@arm:~# MARKER='AMOC''UJPWTA' run 'i2cget -y -f 1 0x4b 0x10'
AMOCUJPWTA0x2b
AMOCUJPWTA 0
root@arm:~# echo 'YLAM''VNSWYL'
YLAMVNSWYL
root@arm:~# MARKER='PMUU''EVJXYS' run 'echo 1140000 1140000 > /sys/kernel/mva_tesst/regulators/buck2_set'
PMUUEVJXYSPMUUEVJXYS 0
root@arm:~# echo 'TKHU''SJJGVQ'
TKHUSJJGVQ
root@arm:~# MARKER='STWM''JYYYKU' run 'i2cget -y -f 1 0x4b 0x10'
STWMJYYYKU0x2c
STWMJYYYKU 0
root@arm:~# echo 'LWZY''KSCWKF'
LWZYKSCWKF
root@arm:~# MARKER='PLYJ''VXLOQK' run 'echo 1150000 1150000 > /sys/kernel/mva_tesst/regulators/buck2_set'
PLYJVXLOQKPLYJVXLOQK 0
root@arm:~# echo 'KGJL''WVGGNZ'
KGJLWVGGNZ
root@arm:~# MARKER='HBUF''THWUWX' run 'i2cget -y -f 1 0x4b 0x10'
HBUFTHWUWX0x2d
HBUFTHWUWX 0
root@arm:~# echo 'CPWK''LXJFSK'
CPWKLXJFSK
root@arm:~# MARKER='SKXN''OOTQJA' run 'echo 1160000 1160000 > /sys/kernel/mva_tesst/regulators/buck2_set'
SKXNOOTQJASKXNOOTQJA 0
root@arm:~# echo 'TWFZ''UTOOAK'
TWFZUTOOAK
root@arm:~# MARKER='SLTC''CXKNOZ' run 'i2cget -y -f 1 0x4b 0x10'
SLTCCXKNOZ0x2e
SLTCCXKNOZ 0
root@arm:~# echo 'UUAL''OEHHTQ'
UUALOEHHTQ
root@arm:~# MARKER='YHJY''KBAFCO' run 'echo 1170000 1170000 > /sys/kernel/mva_tesst/regulators/buck2_set'
YHJYKBAFCOYHJYKBAFCO 0
root@arm:~# echo 'SLVE''MBSXEV'
SLVEMBSXEV
root@arm:~# MARKER='GCCW''APSOTZ' run 'i2cget -y -f 1 0x4b 0x10'
GCCWAPSOTZ0x2f
GCCWAPSOTZ 0
root@arm:~# echo 'GQCZ''GMYWBP'
GQCZGMYWBP
root@arm:~# MARKER='KOXX''WHEBNU' run 'echo 1180000 1180000 > /sys/kernel/mva_tesst/regulators/buck2_set'
KOXXWHEBNUKOXXWHEBNU 0
root@arm:~# echo 'ANGZ''PCSYQQ'
ANGZPCSYQQ
root@arm:~# MARKER='TOSZ''FCJWFX' run 'i2cget -y -f 1 0x4b 0x10'
TOSZFCJWFX0x30
TOSZFCJWFX 0
root@arm:~# echo 'OEEF''BOAHSS'
OEEFBOAHSS
root@arm:~# MARKER='ZXFN''FOSTTQ' run 'echo 1190000 1190000 > /sys/kernel/mva_tesst/regulators/buck2_set'
ZXFNFOSTTQZXFNFOSTTQ 0
root@arm:~# echo 'PZYF''FALXKO'
PZYFFALXKO
root@arm:~# MARKER='CUHL''PVYCYP' run 'i2cget -y -f 1 0x4b 0x10'
CUHLPVYCYP0x31
CUHLPVYCYP 0
root@arm:~# echo 'QXJT''BHYPGW'
QXJTBHYPGW
root@arm:~# MARKER='WXYA''PZEVTP' run 'echo 1200000 1200000 > /sys/kernel/mva_tesst/regulators/buck2_set'
WXYAPZEVTPWXYAPZEVTP 0
root@arm:~# echo 'AQNJ''CTXYHG'
AQNJCTXYHG
root@arm:~# MARKER='HMNT''MYQLOQ' run 'i2cget -y -f 1 0x4b 0x10'
HMNTMYQLOQ0x32
HMNTMYQLOQ 0
root@arm:~# echo 'PKVK''GKBWSU'
PKVKGKBWSU
root@arm:~# MARKER='MXQE''VGPGBM' run 'echo 1210000 1210000 > /sys/kernel/mva_tesst/regulators/buck2_set'
MXQEVGPGBMMXQEVGPGBM 0
root@arm:~# echo 'EUBJ''GOUNOH'
EUBJGOUNOH
root@arm:~# MARKER='YSYX''BOFMUZ' run 'i2cget -y -f 1 0x4b 0x10'
YSYXBOFMUZ0x33
YSYXBOFMUZ 0
root@arm:~# echo 'BGJJ''HOMKZX'
BGJJHOMKZX
root@arm:~# MARKER='PNBN''QWUQSY' run 'echo 1220000 1220000 > /sys/kernel/mva_tesst/regulators/buck2_set'
PNBNQWUQSYPNBNQWUQSY 0
root@arm:~# echo 'ZMNN''HMWVYN'
ZMNNHMWVYN
root@arm:~# MARKER='VWVQ''FEZNZV' run 'i2cget -y -f 1 0x4b 0x10'
VWVQFEZNZV0x34
VWVQFEZNZV 0
root@arm:~# echo 'MMWT''TBPOUL'
MMWTTBPOUL
root@arm:~# MARKER='ECXX''JBAEOP' run 'echo 1230000 1230000 > /sys/kernel/mva_tesst/regulators/buck2_set'
ECXXJBAEOPECXXJBAEOP 0
root@arm:~# echo 'XYHC''HQPASX'
XYHCHQPASX
root@arm:~# MARKER='WHBF''XKJFLW' run 'i2cget -y -f 1 0x4b 0x10'
WHBFXKJFLW0x35
WHBFXKJFLW 0
root@arm:~# echo 'JEUS''YMZUXU'
JEUSYMZUXU
root@arm:~# MARKER='ZXEZ''LPJGWP' run 'echo 1240000 1240000 > /sys/kernel/mva_tesst/regulators/buck2_set'
ZXEZLPJGWPZXEZLPJGWP 0
root@arm:~# echo 'ZWMQ''VCCGYP'
ZWMQVCCGYP
root@arm:~# MARKER='XGPY''FCKVOB' run 'i2cget -y -f 1 0x4b 0x10'
XGPYFCKVOB0x36
XGPYFCKVOB 0
root@arm:~# echo 'BGBG''WXUZWM'
BGBGWXUZWM
root@arm:~# MARKER='TUHS''GJWLJF' run 'echo 1250000 1250000 > /sys/kernel/mva_tesst/regulators/buck2_set'
TUHSGJWLJFTUHSGJWLJF 0
root@arm:~# echo 'MJYY''QNGAUM'
MJYYQNGAUM
root@arm:~# MARKER='LFEG''KOOQZN' run 'i2cget -y -f 1 0x4b 0x10'
LFEGKOOQZN0x37
LFEGKOOQZN 0
root@arm:~# echo 'ZGWQ''AXOCFQ'
ZGWQAXOCFQ
root@arm:~# MARKER='ULHU''WMCCLH' run 'echo 1260000 1260000 > /sys/kernel/mva_tesst/regulators/buck2_set'
ULHUWMCCLHULHUWMCCLH 0
root@arm:~# echo 'JGOM''NZECQH'
JGOMNZECQH
root@arm:~# MARKER='NJYU''WHSJBS' run 'i2cget -y -f 1 0x4b 0x10'
NJYUWHSJBS0x38
NJYUWHSJBS 0
root@arm:~# echo 'GXNE''KSOPLA'
GXNEKSOPLA
root@arm:~# MARKER='MCNM''OJJBLC' run 'echo 1270000 1270000 > /sys/kernel/mva_tesst/regulators/buck2_set'
MCNMOJJBLCMCNMOJJBLC 0
root@arm:~# echo 'TCKX''KOPNFP'
TCKXKOPNFP
root@arm:~# MARKER='TZAY''JGVEBV' run 'i2cget -y -f 1 0x4b 0x10'
TZAYJGVEBV0x39
TZAYJGVEBV 0
root@arm:~# echo 'WEWG''LXKVKC'
WEWGLXKVKC
root@arm:~# MARKER='AENG''ZNSLXH' run 'echo 1280000 1280000 > /sys/kernel/mva_tesst/regulators/buck2_set'
AENGZNSLXHAENGZNSLXH 0
root@arm:~# echo 'GUUJ''MOZLQZ'
GUUJMOZLQZ
root@arm:~# MARKER='BWCN''JOOTCX' run 'i2cget -y -f 1 0x4b 0x10'
BWCNJOOTCX0x3a
BWCNJOOTCX 0
root@arm:~# echo 'VJFP''WXOMYQ'
VJFPWXOMYQ
root@arm:~# MARKER='THWE''VFJFZQ' run 'echo 1290000 1290000 > /sys/kernel/mva_tesst/regulators/buck2_set'
THWEVFJFZQTHWEVFJFZQ 0
root@arm:~# echo 'EHVX''ZGVQLT'
EHVXZGVQLT
root@arm:~# MARKER='UASY''STXSUU' run 'i2cget -y -f 1 0x4b 0x10'
UASYSTXSUU0x3b
UASYSTXSUU 0
root@arm:~# echo 'QFCL''JYOWLO'
QFCLJYOWLO
root@arm:~# MARKER='JAUC''ECHSBB' run 'echo 1300000 1300000 > /sys/kernel/mva_tesst/regulators/buck2_set'
JAUCECHSBBJAUCECHSBB 0
root@arm:~# echo 'QUOJ''SMXAHZ'
QUOJSMXAHZ
root@arm:~# MARKER='FNEX''YKTUUT' run 'i2cget -y -f 1 0x4b 0x10'
FNEXYKTUUT0x3c
FNEXYKTUUT 0
root@arm:~# echo 'NTGX''TVZANJ'
NTGXTVZANJ
root@arm:~# MARKER='WZYG''EQLKTH' run 'grep -r -l rohm,bd71847 /proc/device-tree  | sed '"'"'s![^/]*$!!'"'"''
WZYGEQLKTH/proc/device-tree/ocp/interconnect@48000000/segment@0/target-module@2a000/i2c@0/pmic@4b/
WZYGEQLKTH 0
root@arm:~# echo 'KHQH''NAYAJA'
KHQHNAYAJA
root@arm:~# MARKER='KABX''XKZAJE' run 'test -f /proc/device-tree/ocp/interconnectt\@48000000/segment\@0/target-module\@2a000/i2c\@0/pmic\@4b/regulators/BUCK3/rohmm,no-regulator-enable-control ;echo $?'
KABXXKZAJE0
KABXXKZAJE 0
root@arm:~# echo 'WGTQ''TSCWQM'
WGTQTSCWQM
root@arm:~# MARKER='HHLP''YXYYTX' run 'echo 700000 700000 > /sys/kernel/mva_test//regulators/buck3_set'
HHLPYXYYTXHHLPYXYYTX 0
root@arm:~# echo 'MHJP''HAOMLH'
MHJPHAOMLH
root@arm:~# MARKER='QMHW''NBOCAK' run 'i2cget -y -f 1 0x4b 0x14'
QMHWNBOCAK0x00
QMHWNBOCAK 0
root@arm:~# echo 'FTUQ''LCPCLG'
FTUQLCPCLG
root@arm:~# MARKER='NSSM''CMAQHP' run 'echo 800000 800000 > /sys/kernel/mva_test//regulators/buck3_set'
NSSMCMAQHPNSSMCMAQHP 0
root@arm:~# echo 'XNJJ''CLHABY'
XNJJCLHABY
root@arm:~# MARKER='TLQW''CSCGGO' run 'i2cget -y -f 1 0x4b 0x14'
TLQWCSCGGO0x01
TLQWCSCGGO 0
root@arm:~# echo 'BEQC''FHPVMX'
BEQCFHPVMX
root@arm:~# MARKER='ZSGT''QNABBU' run 'echo 900000 900000 > /sys/kernel/mva_test//regulators/buck3_set'
ZSGTQNABBUZSGTQNABBU 0
root@arm:~# echo 'XUAX''AQYPEC'
XUAXAQYPEC
root@arm:~# MARKER='JQLY''BNHFPN' run 'i2cget -y -f 1 0x4b 0x14'
JQLYBNHFPN0x02
JQLYBNHFPN 0
root@arm:~# echo 'SZMP''TCSNPL'
SZMPTCSNPL
root@arm:~# MARKER='KNJM''LGQJCF' run 'echo 1000000 1000000 > /sys/kernel/mva_tesst/regulators/buck3_set'
KNJMLGQJCFKNJMLGQJCF 0
root@arm:~# echo 'KSSX''YFQCWW'
KSSXYFQCWW
root@arm:~# MARKER='LEZE''VBSTOC' run 'i2cget -y -f 1 0x4b 0x14'
LEZEVBSTOC0x03
LEZEVBSTOC 0
root@arm:~# echo 'UUUE''ZGUNMX'
UUUEZGUNMX
root@arm:~# MARKER='VWHA''LYOWET' run 'echo 1050000 1050000 > /sys/kernel/mva_tesst/regulators/buck3_set'
VWHALYOWETVWHALYOWET 0
root@arm:~# echo 'UFWB''JXJYTP'
UFWBJXJYTP
root@arm:~# MARKER='QEQC''FTCNEZ' run 'i2cget -y -f 1 0x4b 0x14'
QEQCFTCNEZ0x04
QEQCFTCNEZ 0
root@arm:~# echo 'LGMV''OUZWXW'
LGMVOUZWXW
root@arm:~# MARKER='ANOL''OXCOBJ' run 'echo 1100000 1100000 > /sys/kernel/mva_tesst/regulators/buck3_set'
ANOLOXCOBJANOLOXCOBJ 0
root@arm:~# echo 'VAZA''CQOTZX'
VAZACQOTZX
root@arm:~# MARKER='VJEG''GHPZAL' run 'i2cget -y -f 1 0x4b 0x14'
VJEGGHPZAL0x05
VJEGGHPZAL 0
root@arm:~# echo 'PLON''QQENYP'
PLONQQENYP
root@arm:~# MARKER='PVNC''GXGQFJ' run 'echo 1200000 1200000 > /sys/kernel/mva_tesst/regulators/buck3_set'
PVNCGXGQFJPVNCGXGQFJ 0
root@arm:~# echo 'BYVS''FFWWYF'
BYVSFFWWYF
root@arm:~# MARKER='EYHY''QCVVBT' run 'i2cget -y -f 1 0x4b 0x14'
EYHYQCVVBT0x06
EYHYQCVVBT 0
root@arm:~# echo 'OVJV''ZPNGTO'
OVJVZPNGTO
root@arm:~# MARKER='FUHZ''MNOCPO' run 'echo 1350000 1350000 > /sys/kernel/mva_tesst/regulators/buck3_set'
FUHZMNOCPOFUHZMNOCPO 0
root@arm:~# echo 'HWOY''WBPBLG'
HWOYWBPBLG
root@arm:~# MARKER='MYTT''OZQMNG' run 'i2cget -y -f 1 0x4b 0x14'
MYTTOZQMNG0x07
MYTTOZQMNG 0
root@arm:~# echo 'UWHH''UWYGPO'
UWHHUWYGPO
root@arm:~# MARKER='TSCM''UWHOWZ' run 'echo 550000 550000 > /sys/kernel/mva_test//regulators/buck3_set'
TSCMUWHOWZTSCMUWHOWZ 0
root@arm:~# echo 'SWBC''MHTGUW'
SWBCMHTGUW
root@arm:~# MARKER='KBGA''SFPASJ' run 'i2cget -y -f 1 0x4b 0x14'
KBGASFPASJ0x40
KBGASFPASJ 0
root@arm:~# echo 'UUSS''AVYFZJ'
UUSSAVYFZJ
root@arm:~# MARKER='NMUP''LSLSUQ' run 'echo 600000 600000 > /sys/kernel/mva_test//regulators/buck3_set'
NMUPLSLSUQNMUPLSLSUQ 0
root@arm:~# echo 'ZKMN''JMBGQG'
ZKMNJMBGQG
root@arm:~# MARKER='OBQN''LKQNAU' run 'i2cget -y -f 1 0x4b 0x14'
OBQNLKQNAU0x41
OBQNLKQNAU 0
root@arm:~# echo 'UUTK''XBXGPX'
UUTKXBXGPX
root@arm:~# MARKER='CYGW''AHBHXZ' run 'echo 650000 650000 > /sys/kernel/mva_test//regulators/buck3_set'
CYGWAHBHXZCYGWAHBHXZ 0
root@arm:~# echo 'OOLT''QMPCHF'
OOLTQMPCHF
root@arm:~# MARKER='CSHH''NXJLHW' run 'i2cget -y -f 1 0x4b 0x14'
CSHHNXJLHW0x42
CSHHNXJLHW 0
root@arm:~# echo 'MPZS''PBYXWN'
MPZSPBYXWN
root@arm:~# MARKER='YVCB''GXACBB' run 'echo 700000 700000 > /sys/kernel/mva_test//regulators/buck3_set'
YVCBGXACBBYVCBGXACBB 0
root@arm:~# echo 'CTLB''BHMFMZ'
CTLBBHMFMZ
root@arm:~# MARKER='KEMK''OWXOTE' run 'i2cget -y -f 1 0x4b 0x14'
KEMKOWXOTE0x00
KEMKOWXOTE 0
root@arm:~# echo 'VWGO''QWECTY'
VWGOQWECTY
root@arm:~# MARKER='MGMZ''QEXAGJ' run 'echo 750000 750000 > /sys/kernel/mva_test//regulators/buck3_set'
MGMZQEXAGJMGMZQEXAGJ 0
root@arm:~# echo 'WSAJ''ECVLCG'
WSAJECVLCG
root@arm:~# MARKER='WSXL''HNZONQ' run 'i2cget -y -f 1 0x4b 0x14'
WSXLHNZONQ0x44
WSXLHNZONQ 0
root@arm:~# echo 'QFKP''HOBJKT'
QFKPHOBJKT
root@arm:~# MARKER='MKJV''FTUPBJ' run 'echo 800000 800000 > /sys/kernel/mva_test//regulators/buck3_set'
MKJVFTUPBJMKJVFTUPBJ 0
root@arm:~# echo 'KSEQ''BUTYVX'
KSEQBUTYVX
root@arm:~# MARKER='WVAU''WPQAJT' run 'i2cget -y -f 1 0x4b 0x14'
WVAUWPQAJT0x01
WVAUWPQAJT 0
root@arm:~# echo 'NZMV''WSZUWC'
NZMVWSZUWC
root@arm:~# MARKER='PPAS''QYSJJG' run 'echo 850000 850000 > /sys/kernel/mva_test//regulators/buck3_set'
PPASQYSJJGPPASQYSJJG 0
root@arm:~# echo 'GEAQ''TJSXNE'
GEAQTJSXNE
root@arm:~# MARKER='NWSV''XTQFQL' run 'i2cget -y -f 1 0x4b 0x14'
NWSVXTQFQL0x46
NWSVXTQFQL 0
root@arm:~# echo 'MJTS''JBVXJC'
MJTSJBVXJC
root@arm:~# MARKER='TUVJ''AZUJEJ' run 'echo 900000 900000 > /sys/kernel/mva_test//regulators/buck3_set'
TUVJAZUJEJTUVJAZUJEJ 0
root@arm:~# echo 'XCHF''QLXUOO'
XCHFQLXUOO
root@arm:~# MARKER='JYTU''TTXZBG' run 'i2cget -y -f 1 0x4b 0x14'
JYTUTTXZBG0x02
JYTUTTXZBG 0
root@arm:~# echo 'HXCN''THOLZE'
HXCNTHOLZE
root@arm:~# MARKER='KJSH''ZNCJYB' run 'echo 675000 675000 > /sys/kernel/mva_test//regulators/buck3_set'
KJSHZNCJYBKJSHZNCJYB 0
root@arm:~# echo 'NQPC''JKOJTW'
NQPCJKOJTW
root@arm:~# MARKER='HFSF''YFMKYK' run 'i2cget -y -f 1 0x4b 0x14'
HFSFYFMKYK0x80
HFSFYFMKYK 0
root@arm:~# echo 'WUNV''USELCN'
WUNVUSELCN
root@arm:~# MARKER='YHFN''WOBFSA' run 'echo 775000 775000 > /sys/kernel/mva_test//regulators/buck3_set'
YHFNWOBFSAYHFNWOBFSA 0
root@arm:~# echo 'ZCKP''TYGUTT'
ZCKPTYGUTT
root@arm:~# MARKER='SAXS''FXBWOZ' run 'i2cget -y -f 1 0x4b 0x14'
SAXSFXBWOZ0x81
SAXSFXBWOZ 0
root@arm:~# echo 'CTMK''WJKYUK'
CTMKWJKYUK
root@arm:~# MARKER='CWKZ''VSKEBS' run 'echo 875000 875000 > /sys/kernel/mva_test//regulators/buck3_set'
CWKZVSKEBSCWKZVSKEBS 0
root@arm:~# echo 'NEPZ''JLTEWS'
NEPZJLTEWS
root@arm:~# MARKER='BMGJ''WBKVGZ' run 'i2cget -y -f 1 0x4b 0x14'
BMGJWBKVGZ0x82
BMGJWBKVGZ 0
root@arm:~# echo 'SYUW''OYKNFJ'
SYUWOYKNFJ
root@arm:~# MARKER='WLBL''ZPCAHE' run 'echo 975000 975000 > /sys/kernel/mva_test//regulators/buck3_set'
WLBLZPCAHEWLBLZPCAHE 0
root@arm:~# echo 'FUVE''CQKVHZ'
FUVECQKVHZ
root@arm:~# MARKER='HXYQ''BLJXXG' run 'i2cget -y -f 1 0x4b 0x14'
HXYQBLJXXG0x83
HXYQBLJXXG 0
root@arm:~# echo 'LKSH''ZLMAPJ'
LKSHZLMAPJ
root@arm:~# MARKER='MTAU''NAZLWF' run 'echo 1025000 1025000 > /sys/kernel/mva_tesst/regulators/buck3_set'
MTAUNAZLWFMTAUNAZLWF 0
root@arm:~# echo 'KCSU''PCVOCX'
KCSUPCVOCX
root@arm:~# MARKER='ZCUN''LPBWEN' run 'i2cget -y -f 1 0x4b 0x14'
ZCUNLPBWEN0x84
ZCUNLPBWEN 0
root@arm:~# echo 'FLJB''KWKETU'
FLJBKWKETU
root@arm:~# MARKER='EGFC''JUPLZW' run 'echo 1075000 1075000 > /sys/kernel/mva_tesst/regulators/buck3_set'
EGFCJUPLZWEGFCJUPLZW 0
root@arm:~# echo 'JNBS''MBHQTT'
JNBSMBHQTT
root@arm:~# MARKER='MGGP''XXBVHX' run 'i2cget -y -f 1 0x4b 0x14'
MGGPXXBVHX0x85
MGGPXXBVHX 0
root@arm:~# echo 'FOKN''LMXQUW'
FOKNLMXQUW
root@arm:~# MARKER='XGPF''GOFUBF' run 'echo 1175000 1175000 > /sys/kernel/mva_tesst/regulators/buck3_set'
XGPFGOFUBFXGPFGOFUBF 0
root@arm:~# echo 'ZHBX''KPQMNH'
ZHBXKPQMNH
root@arm:~# MARKER='YEFF''BWCQYZ' run 'i2cget -y -f 1 0x4b 0x14'
YEFFBWCQYZ0x86
YEFFBWCQYZ 0
root@arm:~# echo 'CGMS''ABJOOM'
CGMSABJOOM
root@arm:~# MARKER='ELLP''XYMPGG' run 'echo 1325000 1325000 > /sys/kernel/mva_tesst/regulators/buck3_set'
ELLPXYMPGGELLPXYMPGG 0
root@arm:~# echo 'FTTS''PJYNTV'
FTTSPJYNTV
root@arm:~# MARKER='ULVK''JKZNBY' run 'i2cget -y -f 1 0x4b 0x14'
ULVKJKZNBY0x87
ULVKJKZNBY 0
root@arm:~# echo 'EHUA''UYFGPE'
EHUAUYFGPE
root@arm:~# MARKER='LYMW''XXZOGK' run 'grep -r -l rohm,bd71847 /proc/device-tree  | sed '"'"'s![^/]*$!!'"'"''
LYMWXXZOGK/proc/device-tree/ocp/interconnect@48000000/segment@0/target-module@2a000/i2c@0/pmic@4b/
LYMWXXZOGK 0
root@arm:~# echo 'GUJA''TUPPMM'
GUJATUPPMM
root@arm:~# MARKER='OGBZ''MMSTPN' run 'test -f /proc/device-tree/ocp/interconnectt\@48000000/segment\@0/target-module\@2a000/i2c\@0/pmic\@4b/regulators/BUCK4/rohmm,no-regulator-enable-control ;echo $?'
OGBZMMSTPN1
OGBZMMSTPN 0
root@arm:~# echo 'UCWU''BZFGSZ'
UCWUBZFGSZ
root@arm:~# MARKER='BLNZ''KJKFCM' run 'i2cget -y -f 1 0x4b 0xa'
BLNZKJKFCM0x02
BLNZKJKFCM 0
root@arm:~# echo 'ESJH''QNNYPX'
ESJHQNNYPX
root@arm:~# MARKER='XLXM''FBNGCV' run 'echo 3000000 3000000 > /sys/kernel/mva_tesst/regulators/buck4_set'
XLXMFBNGCVXLXMFBNGCV 0
root@arm:~# echo 'PGZP''EHQGBK'
PGZPEHQGBK
root@arm:~# MARKER='BNUP''ECPMEN' run 'i2cget -y -f 1 0x4b 0x15'
BNUPECPMEN0x00
BNUPECPMEN 0
root@arm:~# echo 'KXJJ''SOPYAU'
KXJJSOPYAU
root@arm:~# MARKER='QAWV''POXSSA' run 'echo 3100000 3100000 > /sys/kernel/mva_tesst/regulators/buck4_set'
QAWVPOXSSAQAWVPOXSSA 0
root@arm:~# echo 'GQNH''LGNVGP'
GQNHLGNVGP
root@arm:~# MARKER='BHJL''XMQOLX' run 'i2cget -y -f 1 0x4b 0x15'
BHJLXMQOLX0x01
BHJLXMQOLX 0
root@arm:~# echo 'JHCN''STSPHK'
JHCNSTSPHK
root@arm:~# MARKER='CVCE''NGFAVV' run 'echo 3200000 3200000 > /sys/kernel/mva_tesst/regulators/buck4_set'
CVCENGFAVVCVCENGFAVV 0
root@arm:~# echo 'HGCY''JMUHZP'
HGCYJMUHZP
root@arm:~# MARKER='LXLV''YXHJOH' run 'i2cget -y -f 1 0x4b 0x15'
LXLVYXHJOH0x02
LXLVYXHJOH 0
root@arm:~# echo 'HFXQ''UAENYJ'
HFXQUAENYJ
root@arm:~# MARKER='HBXQ''SEBZUC' run 'echo 3300000 3300000 > /sys/kernel/mva_tesst/regulators/buck4_set'
HBXQSEBZUCHBXQSEBZUC 0
root@arm:~# echo 'WBAN''LPAZYN'
WBANLPAZYN
root@arm:~# MARKER='UGVN''NUSUUN' run 'i2cget -y -f 1 0x4b 0x15'
UGVNNUSUUN0x03
UGVNNUSUUN 0
root@arm:~# echo 'ABUC''PZOPTH'
ABUCPZOPTH
root@arm:~# MARKER='HKSV''BLABSM' run 'echo 2600000 2600000 > /sys/kernel/mva_tesst/regulators/buck4_set'
HKSVBLABSMHKSVBLABSM 0
root@arm:~# echo 'HAPQ''PQZAEE'
HAPQPQZAEE
root@arm:~# MARKER='WPKW''GCBQHG' run 'i2cget -y -f 1 0x4b 0x15'
WPKWGCBQHG0x40
WPKWGCBQHG 0
root@arm:~# echo 'ZLLM''OMYPXM'
ZLLMOMYPXM
root@arm:~# MARKER='KWPQ''HWTXQV' run 'echo 2700000 2700000 > /sys/kernel/mva_tesst/regulators/buck4_set'
KWPQHWTXQVKWPQHWTXQV 0
root@arm:~# echo 'ZKEV''OAGEFU'
ZKEVOAGEFU
root@arm:~# MARKER='KAHN''UOYJNU' run 'i2cget -y -f 1 0x4b 0x15'
KAHNUOYJNU0x41
KAHNUOYJNU 0
root@arm:~# echo 'TGMQ''TOZBQQ'
TGMQTOZBQQ
root@arm:~# MARKER='ZNYF''EBJZBK' run 'echo 2800000 2800000 > /sys/kernel/mva_tesst/regulators/buck4_set'
ZNYFEBJZBKZNYFEBJZBK 0
root@arm:~# echo 'BUKE''CSUZZN'
BUKECSUZZN
root@arm:~# MARKER='JYTP''NEWYNO' run 'i2cget -y -f 1 0x4b 0x15'
JYTPNEWYNO0x42
JYTPNEWYNO 0
root@arm:~# echo 'UXTA''LPNVPH'
UXTALPNVPH
root@arm:~# MARKER='OXOG''OSJBVJ' run 'echo 2900000 2900000 > /sys/kernel/mva_tesst/regulators/buck4_set'
OXOGOSJBVJOXOGOSJBVJ 0
root@arm:~# echo 'VALP''JHLFAA'
VALPJHLFAA
root@arm:~# MARKER='AYFW''VZTMWU' run 'i2cget -y -f 1 0x4b 0x15'
AYFWVZTMWU0x43
AYFWVZTMWU 0
root@arm:~# echo 'GKFC''NNSBGH'
GKFCNNSBGH
root@arm:~# MARKER='TUKZ''NQBMAT' run 'grep -r -l rohm,bd71847 /proc/device-tree  | sed '"'"'s![^/]*$!!'"'"''
TUKZNQBMAT/proc/device-tree/ocp/interconnect@48000000/segment@0/target-module@2a000/i2c@0/pmic@4b/
TUKZNQBMAT 0
root@arm:~# echo 'HHUY''AUPGBK'
HHUYAUPGBK
root@arm:~# MARKER='JZSE''UXMAAH' run 'test -f /proc/device-tree/ocp/interconnectt\@48000000/segment\@0/target-module\@2a000/i2c\@0/pmic\@4b/regulators/BUCK5/rohmm,no-regulator-enable-control ;echo $?'
JZSEUXMAAH1
JZSEUXMAAH 0
root@arm:~# echo 'KFTP''ZTOPUM'
KFTPZTOPUM
root@arm:~# MARKER='QOPW''QUJUKM' run 'i2cget -y -f 1 0x4b 0xb'
QOPWQUJUKM0x02
QOPWQUJUKM 0
root@arm:~# echo 'USTE''GBSECX'
USTEGBSECX
root@arm:~# MARKER='NEPJ''TJZUZK' run 'echo 1605000 1605000 > /sys/kernel/mva_tesst/regulators/buck5_set'
NEPJTJZUZKNEPJTJZUZK 0
root@arm:~# echo 'AZJM''KSZGNN'
AZJMKSZGNN
root@arm:~# MARKER='VVAN''PTMPEB' run 'i2cget -y -f 1 0x4b 0x16'
VVANPTMPEB0x00
VVANPTMPEB 0
root@arm:~# echo 'AXXM''HMBHFO'
AXXMHMBHFO
root@arm:~# MARKER='ZVTL''WLHVHB' run 'echo 1695000 1695000 > /sys/kernel/mva_tesst/regulators/buck5_set'
ZVTLWLHVHBZVTLWLHVHB 0
root@arm:~# echo 'MFZO''PNFYEK'
MFZOPNFYEK
root@arm:~# MARKER='TZNW''HSHZEH' run 'i2cget -y -f 1 0x4b 0x16'
TZNWHSHZEH0x01
TZNWHSHZEH 0
root@arm:~# echo 'EMZC''YYLWXG'
EMZCYYLWXG
root@arm:~# MARKER='NHKB''HYFWVX' run 'echo 1755000 1755000 > /sys/kernel/mva_tesst/regulators/buck5_set'
NHKBHYFWVXNHKBHYFWVX 0
root@arm:~# echo 'OOFK''LSXCHC'
OOFKLSXCHC
root@arm:~# MARKER='YUEE''MMBLVC' run 'i2cget -y -f 1 0x4b 0x16'
YUEEMMBLVC0x02
YUEEMMBLVC 0
root@arm:~# echo 'SFAN''SQVVYP'
SFANSQVVYP
root@arm:~# MARKER='FNCN''AEWXOH' run 'echo 1800000 1800000 > /sys/kernel/mva_tesst/regulators/buck5_set'
FNCNAEWXOHFNCNAEWXOH 0
root@arm:~# echo 'UGYA''PVQQQX'
UGYAPVQQQX
root@arm:~# MARKER='EAZK''HEBTNS' run 'i2cget -y -f 1 0x4b 0x16'
EAZKHEBTNS0x03
EAZKHEBTNS 0
root@arm:~# echo 'YWWV''QTHZLA'
YWWVQTHZLA
root@arm:~# MARKER='BZXM''HLNTCX' run 'echo 1845000 1845000 > /sys/kernel/mva_tesst/regulators/buck5_set'
BZXMHLNTCXBZXMHLNTCX 0
root@arm:~# echo 'VZAM''EHFASW'
VZAMEHFASW
root@arm:~# MARKER='CBCB''VYTJQY' run 'i2cget -y -f 1 0x4b 0x16'
CBCBVYTJQY0x04
CBCBVYTJQY 0
root@arm:~# echo 'ABXH''MQSQLF'
ABXHMQSQLF
root@arm:~# MARKER='FCOE''QSHKUG' run 'echo 1905000 1905000 > /sys/kernel/mva_tesst/regulators/buck5_set'
FCOEQSHKUGFCOEQSHKUG 0
root@arm:~# echo 'HGOY''MFPLJX'
HGOYMFPLJX
root@arm:~# MARKER='QZQU''JQACGH' run 'i2cget -y -f 1 0x4b 0x16'
QZQUJQACGH0x05
QZQUJQACGH 0
root@arm:~# echo 'XPCZ''VYEKQY'
XPCZVYEKQY
root@arm:~# MARKER='LNXF''YYLEXK' run 'echo 1950000 1950000 > /sys/kernel/mva_tesst/regulators/buck5_set'
LNXFYYLEXKLNXFYYLEXK 0
root@arm:~# echo 'PHFP''WZJHBH'
PHFPWZJHBH
root@arm:~# MARKER='THQO''TMQJFE' run 'i2cget -y -f 1 0x4b 0x16'
THQOTMQJFE0x06
THQOTMQJFE 0
root@arm:~# echo 'OUSA''XFAOLE'
OUSAXFAOLE
root@arm:~# MARKER='KJSW''XSKWCV' run 'echo 1995000 1995000 > /sys/kernel/mva_tesst/regulators/buck5_set'
KJSWXSKWCVKJSWXSKWCV 0
root@arm:~# echo 'WJWF''GAYQHV'
WJWFGAYQHV
root@arm:~# MARKER='GOAK''LAWGEQ' run 'i2cget -y -f 1 0x4b 0x16'
GOAKLAWGEQ0x07
GOAKLAWGEQ 0
root@arm:~# echo 'GFWV''JUYOHZ'
GFWVJUYOHZ
root@arm:~# MARKER='BHGC''XVTOOF' run 'grep -r -l rohm,bd71847 /proc/device-tree  | sed '"'"'s![^/]*$!!'"'"''
BHGCXVTOOF/proc/device-tree/ocp/interconnect@48000000/segment@0/target-module@2a000/i2c@0/pmic@4b/
BHGCXVTOOF 0
root@arm:~# echo 'NONA''EWSZXS'
NONAEWSZXS
root@arm:~# MARKER='UJSJ''NBPSUE' run 'test -f /proc/device-tree/ocp/interconnectt\@48000000/segment\@0/target-module\@2a000/i2c\@0/pmic\@4b/regulators/BUCK6/roh m,no-regulator-enable-control ;echo $?'
UJSJNBPSUE1
UJSJNBPSUE 0
root@arm:~# echo 'MWXH''STGYOE'
MWXHSTGYOE
root@arm:~# MARKER='JHLM''TTFZQK' run 'i2cget -y -f 1 0x4b 0xc'
JHLMTTFZQK0x02
JHLMTTFZQK 0
root@arm:~# echo 'HLSC''BOQSOT'
HLSCBOQSOT
root@arm:~# MARKER='LZJO''OBNXQQ' run 'echo 800000 800000 > /sys/kernel/mva_test//regulators/buck6_set'
LZJOOBNXQQLZJOOBNXQQ 0
root@arm:~# echo 'OFNT''JOEJFE'
OFNTJOEJFE
root@arm:~# MARKER='BOAE''NQGNXF' run 'i2cget -y -f 1 0x4b 0x17'
BOAENQGNXF0x00
BOAENQGNXF 0
root@arm:~# echo 'HKCO''JKVYGO'
HKCOJKVYGO
root@arm:~# MARKER='GZTL''EGXWZE' run 'echo 810000 810000 > /sys/kernel/mva_test//regulators/buck6_set'
GZTLEGXWZEGZTLEGXWZE 0
root@arm:~# echo 'XLPC''PZFOPX'
XLPCPZFOPX
root@arm:~# MARKER='SFZN''VLPGCA' run 'i2cget -y -f 1 0x4b 0x17'
SFZNVLPGCA0x01
SFZNVLPGCA 0
root@arm:~# echo 'BBCS''WWXTJT'
BBCSWWXTJT
root@arm:~# MARKER='CSVG''ABZFAQ' run 'echo 820000 820000 > /sys/kernel/mva_test//regulators/buck6_set'
CSVGABZFAQCSVGABZFAQ 0
root@arm:~# echo 'MCGL''QFCEOO'
MCGLQFCEOO
root@arm:~# MARKER='BTCA''MZLWNF' run 'i2cget -y -f 1 0x4b 0x17'
BTCAMZLWNF0x02
BTCAMZLWNF 0
root@arm:~# echo 'ZQEN''QOCWCV'
ZQENQOCWCV
root@arm:~# MARKER='MLSO''KJAKEW' run 'echo 830000 830000 > /sys/kernel/mva_test//regulators/buck6_set'
MLSOKJAKEWMLSOKJAKEW 0
root@arm:~# echo 'MZOP''EGSGFO'
MZOPEGSGFO
root@arm:~# MARKER='KWXN''QQZSOU' run 'i2cget -y -f 1 0x4b 0x17'
KWXNQQZSOU0x03
KWXNQQZSOU 0
root@arm:~# echo 'AGHN''KCGWPZ'
AGHNKCGWPZ
root@arm:~# MARKER='WVUS''SJCSGM' run 'echo 840000 840000 > /sys/kernel/mva_test//regulators/buck6_set'
WVUSSJCSGMWVUSSJCSGM 0
root@arm:~# echo 'JVPX''WXFKLX'
JVPXWXFKLX
root@arm:~# MARKER='XMXA''GGQLBZ' run 'i2cget -y -f 1 0x4b 0x17'
XMXAGGQLBZ0x04
XMXAGGQLBZ 0
root@arm:~# echo 'LPUL''BHSBEY'
LPULBHSBEY
root@arm:~# MARKER='GSTV''QYQPQF' run 'echo 850000 850000 > /sys/kernel/mva_test//regulators/buck6_set'
GSTVQYQPQFGSTVQYQPQF 0
root@arm:~# echo 'AQWA''XJLEKT'
AQWAXJLEKT
root@arm:~# MARKER='MFNT''ZEAZNQ' run 'i2cget -y -f 1 0x4b 0x17'
MFNTZEAZNQ0x05
MFNTZEAZNQ 0
root@arm:~# echo 'SVHV''LASWFY'
SVHVLASWFY
root@arm:~# MARKER='KWXO''AQWLAA' run 'echo 860000 860000 > /sys/kernel/mva_test//regulators/buck6_set'
KWXOAQWLAAKWXOAQWLAA 0
root@arm:~# echo 'ZOZB''OBXCAO'
ZOZBOBXCAO
root@arm:~# MARKER='UGAN''SNYVVP' run 'i2cget -y -f 1 0x4b 0x17'
UGANSNYVVP0x06
UGANSNYVVP 0
root@arm:~# echo 'MOFX''GNZZEP'
MOFXGNZZEP
root@arm:~# MARKER='OUWM''YJMGKF' run 'echo 870000 870000 > /sys/kernel/mva_test//regulators/buck6_set'
OUWMYJMGKFOUWMYJMGKF 0
root@arm:~# echo 'OPZN''XLNVBT'
OPZNXLNVBT
root@arm:~# MARKER='UHQW''NWKOJN' run 'i2cget -y -f 1 0x4b 0x17'
UHQWNWKOJN0x07
UHQWNWKOJN 0
root@arm:~# echo 'JBHW''QWLKTV'
JBHWQWLKTV
root@arm:~# MARKER='YHHN''MUAKXQ' run 'echo 880000 880000 > /sys/kernel/mva_test//regulators/buck6_set'
YHHNMUAKXQYHHNMUAKXQ 0
root@arm:~# echo 'WULP''KLYCLH'
WULPKLYCLH
root@arm:~# MARKER='TSTV''TGLOEO' run 'i2cget -y -f 1 0x4b 0x17'
TSTVTGLOEO0x08
TSTVTGLOEO 0
root@arm:~# echo 'BMOA''OBKPQW'
BMOAOBKPQW
root@arm:~# MARKER='ALCH''BTKEKZ' run 'echo 890000 890000 > /sys/kernel/mva_test//regulators/buck6_set'
ALCHBTKEKZALCHBTKEKZ 0
root@arm:~# echo 'PPZL''GTVHLM'
PPZLGTVHLM
root@arm:~# MARKER='HCWB''LMZWMU' run 'i2cget -y -f 1 0x4b 0x17'
HCWBLMZWMU0x09
HCWBLMZWMU 0
root@arm:~# echo 'UVAP''CTABGE'
UVAPCTABGE
root@arm:~# MARKER='AMAJ''XTMCZW' run 'echo 900000 900000 > /sys/kernel/mva_test//regulators/buck6_set'
AMAJXTMCZWAMAJXTMCZW 0
root@arm:~# echo 'ZXUE''XXLVXX'
ZXUEXXLVXX
root@arm:~# MARKER='KHXC''OKYOWO' run 'i2cget -y -f 1 0x4b 0x17'
KHXCOKYOWO0x0a
KHXCOKYOWO 0
root@arm:~# echo 'SXQJ''AJAJTJ'
SXQJAJAJTJ
root@arm:~# MARKER='LSCK''HLCOYJ' run 'echo 910000 910000 > /sys/kernel/mva_test//regulators/buck6_set'
LSCKHLCOYJLSCKHLCOYJ 0
root@arm:~# echo 'VFZY''PFAZFK'
VFZYPFAZFK
root@arm:~# MARKER='OFWT''SKYSTO' run 'i2cget -y -f 1 0x4b 0x17'
OFWTSKYSTO0x0b
OFWTSKYSTO 0
root@arm:~# echo 'BCWQ''FYQKPP'
BCWQFYQKPP
root@arm:~# MARKER='TYZJ''ONBGOS' run 'echo 920000 920000 > /sys/kernel/mva_test//regulators/buck6_set'
TYZJONBGOSTYZJONBGOS 0
root@arm:~# echo 'GKUC''FFYNQJ'
GKUCFFYNQJ
root@arm:~# MARKER='JGEJ''BJLEUL' run 'i2cget -y -f 1 0x4b 0x17'
JGEJBJLEUL0x0c
JGEJBJLEUL 0
root@arm:~# echo 'YXBW''KHNHOK'
YXBWKHNHOK
root@arm:~# MARKER='VCUL''BLQNBB' run 'echo 930000 930000 > /sys/kernel/mva_test//regulators/buck6_set'
VCULBLQNBBVCULBLQNBB 0
root@arm:~# echo 'MNON''AWLUZK'
MNONAWLUZK
root@arm:~# MARKER='BSCN''CJNGUP' run 'i2cget -y -f 1 0x4b 0x17'
BSCNCJNGUP0x0d
BSCNCJNGUP 0
root@arm:~# echo 'FAPZ''KGWJZY'
FAPZKGWJZY
root@arm:~# MARKER='KYGE''LFSHAO' run 'echo 940000 940000 > /sys/kernel/mva_test//regulators/buck6_set'
KYGELFSHAOKYGELFSHAO 0
root@arm:~# echo 'JGGT''SSHGFU'
JGGTSSHGFU
root@arm:~# MARKER='WZVZ''VJVLKG' run 'i2cget -y -f 1 0x4b 0x17'
WZVZVJVLKG0x0e
WZVZVJVLKG 0
root@arm:~# echo 'VNXY''JAXBCZ'
VNXYJAXBCZ
root@arm:~# MARKER='ELCB''OPAHUU' run 'echo 950000 950000 > /sys/kernel/mva_test//regulators/buck6_set'
ELCBOPAHUUELCBOPAHUU 0
root@arm:~# echo 'JAWE''SPJBXU'
JAWESPJBXU
root@arm:~# MARKER='ZBFA''BQYXBZ' run 'i2cget -y -f 1 0x4b 0x17'
ZBFABQYXBZ0x0f
ZBFABQYXBZ 0
root@arm:~# echo 'PWZY''JFLLXZ'
PWZYJFLLXZ
root@arm:~# MARKER='XTCW''VUSQOM' run 'echo 960000 960000 > /sys/kernel/mva_test//regulators/buck6_set'
XTCWVUSQOMXTCWVUSQOM 0
root@arm:~# echo 'BUHT''OAOKQB'
BUHTOAOKQB
root@arm:~# MARKER='PAJF''WKSEFF' run 'i2cget -y -f 1 0x4b 0x17'
PAJFWKSEFF0x10
PAJFWKSEFF 0
root@arm:~# echo 'EUBF''USPZAE'
EUBFUSPZAE
root@arm:~# MARKER='VSGE''ZZSCKV' run 'echo 970000 970000 > /sys/kernel/mva_test//regulators/buck6_set'
VSGEZZSCKVVSGEZZSCKV 0
root@arm:~# echo 'EOYH''XKJVZP'
EOYHXKJVZP
root@arm:~# MARKER='WUVV''BGLTBY' run 'i2cget -y -f 1 0x4b 0x17'
WUVVBGLTBY0x11
WUVVBGLTBY 0
root@arm:~# echo 'PYJP''YJBCTH'
PYJPYJBCTH
root@arm:~# MARKER='LXAB''AUWAAG' run 'echo 980000 980000 > /sys/kernel/mva_test//regulators/buck6_set'
LXABAUWAAGLXABAUWAAG 0
root@arm:~# echo 'YASX''KLQLPN'
YASXKLQLPN
root@arm:~# MARKER='FVBG''VPOAJN' run 'i2cget -y -f 1 0x4b 0x17'
FVBGVPOAJN0x12
FVBGVPOAJN 0
root@arm:~# echo 'WFYA''QOVSLX'
WFYAQOVSLX
root@arm:~# MARKER='PYBB''CCGAZJ' run 'echo 990000 990000 > /sys/kernel/mva_test//regulators/buck6_set'
PYBBCCGAZJPYBBCCGAZJ 0
root@arm:~# echo 'EGCG''HOONYU'
EGCGHOONYU
root@arm:~# MARKER='EOLW''KBLUXS' run 'i2cget -y -f 1 0x4b 0x17'
EOLWKBLUXS0x13
EOLWKBLUXS 0
root@arm:~# echo 'PKOF''ZXNOKU'
PKOFZXNOKU
root@arm:~# MARKER='OHUH''CXWPYE' run 'echo 1000000 1000000 > /sys/kernel/mva_tesst/regulators/buck6_set'
OHUHCXWPYEOHUHCXWPYE 0
root@arm:~# echo 'CLKS''AWTVNQ'
CLKSAWTVNQ
root@arm:~# MARKER='GYVS''QXEJZO' run 'i2cget -y -f 1 0x4b 0x17'
GYVSQXEJZO0x14
GYVSQXEJZO 0
root@arm:~# echo 'ZFSU''VZPWZE'
ZFSUVZPWZE
root@arm:~# MARKER='YTHK''PWGFFV' run 'echo 1010000 1010000 > /sys/kernel/mva_tesst/regulators/buck6_set'
YTHKPWGFFVYTHKPWGFFV 0
root@arm:~# echo 'JQTK''NCGAXK'
JQTKNCGAXK
root@arm:~# MARKER='OYMG''QLVUPS' run 'i2cget -y -f 1 0x4b 0x17'
OYMGQLVUPS0x15
OYMGQLVUPS 0
root@arm:~# echo 'PHSG''EMZXYQ'
PHSGEMZXYQ
root@arm:~# MARKER='LYES''PMGHUX' run 'echo 1020000 1020000 > /sys/kernel/mva_tesst/regulators/buck6_set'
LYESPMGHUXLYESPMGHUX 0
root@arm:~# echo 'HQGM''YMNUUY'
HQGMYMNUUY
root@arm:~# MARKER='YZGQ''EGZBHJ' run 'i2cget -y -f 1 0x4b 0x17'
YZGQEGZBHJ0x16
YZGQEGZBHJ 0
root@arm:~# echo 'WJEN''NEZOGU'
WJENNEZOGU
root@arm:~# MARKER='XZNE''ZHAYPN' run 'echo 1030000 1030000 > /sys/kernel/mva_tesst/regulators/buck6_set'
XZNEZHAYPNXZNEZHAYPN 0
root@arm:~# echo 'ZOEF''THECOJ'
ZOEFTHECOJ
root@arm:~# MARKER='VOYS''WLOTHV' run 'i2cget -y -f 1 0x4b 0x17'
VOYSWLOTHV0x17
VOYSWLOTHV 0
root@arm:~# echo 'MVYE''VZSQWU'
MVYEVZSQWU
root@arm:~# MARKER='JNYP''TOFQES' run 'echo 1040000 1040000 > /sys/kernel/mva_tesst/regulators/buck6_set'
JNYPTOFQESJNYPTOFQES 0
root@arm:~# echo 'PLEC''VCVACG'
PLECVCVACG
root@arm:~# MARKER='TBZU''SEULKO' run 'i2cget -y -f 1 0x4b 0x17'
TBZUSEULKO0x18
TBZUSEULKO 0
root@arm:~# echo 'HWCS''EZWEVO'
HWCSEZWEVO
root@arm:~# MARKER='WQXV''LFNJGB' run 'echo 1050000 1050000 > /sys/kernel/mva_tesst/regulators/buck6_set'
WQXVLFNJGBWQXVLFNJGB 0
root@arm:~# echo 'JZTP''UHUAUH'
JZTPUHUAUH
root@arm:~# MARKER='UYEJ''SVVFVV' run 'i2cget -y -f 1 0x4b 0x17'
UYEJSVVFVV0x19
UYEJSVVFVV 0
root@arm:~# echo 'ONQB''CJVGMU'
ONQBCJVGMU
root@arm:~# MARKER='WLNO''OCKAYK' run 'echo 1060000 1060000 > /sys/kernel/mva_tesst/regulators/buck6_set'
WLNOOCKAYKWLNOOCKAYK 0
root@arm:~# echo 'KBZN''WQFJOO'
KBZNWQFJOO
root@arm:~# MARKER='ESYE''JCCVPC' run 'i2cget -y -f 1 0x4b 0x17'
ESYEJCCVPC0x1a
ESYEJCCVPC 0
root@arm:~# echo 'MTEB''BFPSAT'
MTEBBFPSAT
root@arm:~# MARKER='CBEV''CEUTLA' run 'echo 1070000 1070000 > /sys/kernel/mva_tesst/regulators/buck6_set'
CBEVCEUTLACBEVCEUTLA 0
root@arm:~# echo 'YAOY''CHLLAJ'
YAOYCHLLAJ
root@arm:~# MARKER='XMNE''TMCUXN' run 'i2cget -y -f 1 0x4b 0x17'
XMNETMCUXN0x1b
XMNETMCUXN 0
root@arm:~# echo 'TUGW''SVUBSS'
TUGWSVUBSS
root@arm:~# MARKER='ELZC''UFYYXL' run 'echo 1080000 1080000 > /sys/kernel/mva_tesst/regulators/buck6_set'
ELZCUFYYXLELZCUFYYXL 0
root@arm:~# echo 'QQAE''POCAAV'
QQAEPOCAAV
root@arm:~# MARKER='NTAW''QAYOZY' run 'i2cget -y -f 1 0x4b 0x17'
NTAWQAYOZY0x1c
NTAWQAYOZY 0
root@arm:~# echo 'SYWE''KGZYEQ'
SYWEKGZYEQ
root@arm:~# MARKER='UGSY''UNTEZB' run 'echo 1090000 1090000 > /sys/kernel/mva_tesst/regulators/buck6_set'
UGSYUNTEZBUGSYUNTEZB 0
root@arm:~# echo 'CTGL''LLAHXY'
CTGLLLAHXY
root@arm:~# MARKER='ZKPN''OLKLKW' run 'i2cget -y -f 1 0x4b 0x17'
ZKPNOLKLKW0x1d
ZKPNOLKLKW 0
root@arm:~# echo 'NJXF''TQOLVM'
NJXFTQOLVM
root@arm:~# MARKER='FETG''UQCYOG' run 'echo 1100000 1100000 > /sys/kernel/mva_tesst/regulators/buck6_set'
FETGUQCYOGFETGUQCYOG 0
root@arm:~# echo 'GTNQ''OQQLCK'
GTNQOQQLCK
root@arm:~# MARKER='ABTW''EAEBGJ' run 'i2cget -y -f 1 0x4b 0x17'
ABTWEAEBGJ0x1e
ABTWEAEBGJ 0
root@arm:~# echo 'UOLA''QWQWBA'
UOLAQWQWBA
root@arm:~# MARKER='KQTJ''YMOKJJ' run 'echo 1110000 1110000 > /sys/kernel/mva_tesst/regulators/buck6_set'
KQTJYMOKJJKQTJYMOKJJ 0
root@arm:~# echo 'ZFYN''QSGZHU'
ZFYNQSGZHU
root@arm:~# MARKER='VSUN''XNTVCL' run 'i2cget -y -f 1 0x4b 0x17'
VSUNXNTVCL0x1f
VSUNXNTVCL 0
root@arm:~# echo 'LYNG''QONYVS'
LYNGQONYVS
root@arm:~# MARKER='SYAM''CHQENV' run 'echo 1120000 1120000 > /sys/kernel/mva_tesst/regulators/buck6_set'
SYAMCHQENVSYAMCHQENV 0
root@arm:~# echo 'NUNE''LPMWWS'
NUNELPMWWS
root@arm:~# MARKER='UTLF''TWPGCS' run 'i2cget -y -f 1 0x4b 0x17'
UTLFTWPGCS0x20
UTLFTWPGCS 0
root@arm:~# echo 'JCJH''CKCBCE'
JCJHCKCBCE
root@arm:~# MARKER='HHBM''GFYTGB' run 'echo 1130000 1130000 > /sys/kernel/mva_tesst/regulators/buck6_set'
HHBMGFYTGBHHBMGFYTGB 0
root@arm:~# echo 'GFNS''EOOYWL'
GFNSEOOYWL
root@arm:~# MARKER='ZHAZ''LHYWYK' run 'i2cget -y -f 1 0x4b 0x17'
ZHAZLHYWYK0x21
ZHAZLHYWYK 0
root@arm:~# echo 'JZQT''CVTKMJ'
JZQTCVTKMJ
root@arm:~# MARKER='NGMW''HPJKEK' run 'echo 1140000 1140000 > /sys/kernel/mva_tesst/regulators/buck6_set'
NGMWHPJKEKNGMWHPJKEK 0
root@arm:~# echo 'FANV''NSVECH'
FANVNSVECH
root@arm:~# MARKER='UUNO''NBXUTO' run 'i2cget -y -f 1 0x4b 0x17'
UUNONBXUTO0x22
UUNONBXUTO 0
root@arm:~# echo 'ZEHC''UGKPLO'
ZEHCUGKPLO
root@arm:~# MARKER='QBOM''JYHCAB' run 'echo 1150000 1150000 > /sys/kernel/mva_tesst/regulators/buck6_set'
QBOMJYHCABQBOMJYHCAB 0
root@arm:~# echo 'XWGQ''SVCFKW'
XWGQSVCFKW
root@arm:~# MARKER='SVBB''YGNXGU' run 'i2cget -y -f 1 0x4b 0x17'
SVBBYGNXGU0x23
SVBBYGNXGU 0
root@arm:~# echo 'WFVS''PWFNNJ'
WFVSPWFNNJ
root@arm:~# MARKER='KCLB''HPXXQT' run 'echo 1160000 1160000 > /sys/kernel/mva_tesst/regulators/buck6_set'
KCLBHPXXQTKCLBHPXXQT 0
root@arm:~# echo 'PZCX''BHSXOM'
PZCXBHSXOM
root@arm:~# MARKER='HMKC''ECNGSW' run 'i2cget -y -f 1 0x4b 0x17'
HMKCECNGSW0x24
HMKCECNGSW 0
root@arm:~# echo 'JMVZ''BZBPXZ'
JMVZBZBPXZ
root@arm:~# MARKER='AVNW''SHLJAX' run 'echo 1170000 1170000 > /sys/kernel/mva_tesst/regulators/buck6_set'
AVNWSHLJAXAVNWSHLJAX 0
root@arm:~# echo 'KABG''MKUTZT'
KABGMKUTZT
root@arm:~# MARKER='EZWW''XWOWEU' run 'i2cget -y -f 1 0x4b 0x17'
EZWWXWOWEU0x25
EZWWXWOWEU 0
root@arm:~# echo 'WJEV''UPPYBJ'
WJEVUPPYBJ
root@arm:~# MARKER='VMOA''OUWBKJ' run 'echo 1180000 1180000 > /sys/kernel/mva_tesst/regulators/buck6_set'
VMOAOUWBKJVMOAOUWBKJ 0
root@arm:~# echo 'GXXJ''TJQLMW'
GXXJTJQLMW
root@arm:~# MARKER='KVEK''HFTVHM' run 'i2cget -y -f 1 0x4b 0x17'
KVEKHFTVHM0x26
KVEKHFTVHM 0
root@arm:~# echo 'JMYO''VAUSPA'
JMYOVAUSPA
root@arm:~# MARKER='BBQJ''HVUCEQ' run 'echo 1190000 1190000 > /sys/kernel/mva_tesst/regulators/buck6_set'
BBQJHVUCEQBBQJHVUCEQ 0
root@arm:~# echo 'NSSC''EBPZHZ'
NSSCEBPZHZ
root@arm:~# MARKER='BFPE''FSCWET' run 'i2cget -y -f 1 0x4b 0x17'
BFPEFSCWET0x27
BFPEFSCWET 0
root@arm:~# echo 'FAXJ''WAWBSX'
FAXJWAWBSX
root@arm:~# MARKER='KQMH''EFLMZM' run 'echo 1200000 1200000 > /sys/kernel/mva_tesst/regulators/buck6_set'
KQMHEFLMZMKQMHEFLMZM 0
root@arm:~# echo 'VCPO''COSMZX'
VCPOCOSMZX
root@arm:~# MARKER='BBTH''NWZHHC' run 'i2cget -y -f 1 0x4b 0x17'
BBTHNWZHHC0x28
BBTHNWZHHC 0
root@arm:~# echo 'UCFU''KZKFKM'
UCFUKZKFKM
root@arm:~# MARKER='NFHN''TQSJQK' run 'echo 1210000 1210000 > /sys/kernel/mva_tesst/regulators/buck6_set'
NFHNTQSJQKNFHNTQSJQK 0
root@arm:~# echo 'CKJV''MELOWB'
CKJVMELOWB
root@arm:~# MARKER='EVMB''UFXLGZ' run 'i2cget -y -f 1 0x4b 0x17'
EVMBUFXLGZ0x29
EVMBUFXLGZ 0
root@arm:~# echo 'GFGB''MNFTSL'
GFGBMNFTSL
root@arm:~# MARKER='NQCQ''VOJYHX' run 'echo 1220000 1220000 > /sys/kernel/mva_tesst/regulators/buck6_set'
NQCQVOJYHXNQCQVOJYHX 0
root@arm:~# echo 'ZOMF''VWZOJJ'
ZOMFVWZOJJ
root@arm:~# MARKER='XNYU''VGSLMW' run 'i2cget -y -f 1 0x4b 0x17'
XNYUVGSLMW0x2a
XNYUVGSLMW 0
root@arm:~# echo 'AFNB''CVBAYN'
AFNBCVBAYN
root@arm:~# MARKER='VGVP''AHUSVK' run 'echo 1230000 1230000 > /sys/kernel/mva_tesst/regulators/buck6_set'
VGVPAHUSVKVGVPAHUSVK 0
root@arm:~# echo 'ZNHA''WUYWTH'
ZNHAWUYWTH
root@arm:~# MARKER='PFLN''JZXYNL' run 'i2cget -y -f 1 0x4b 0x17'
PFLNJZXYNL0x2b
PFLNJZXYNL 0
root@arm:~# echo 'OJXY''XXLEQZ'
OJXYXXLEQZ
root@arm:~# MARKER='HMMG''ZKZJZH' run 'echo 1240000 1240000 > /sys/kernel/mva_tesst/regulators/buck6_set'
HMMGZKZJZHHMMGZKZJZH 0
root@arm:~# echo 'ETEE''ELPOMA'
ETEEELPOMA
root@arm:~# MARKER='AVJY''LCGPKZ' run 'i2cget -y -f 1 0x4b 0x17'
AVJYLCGPKZ0x2c
AVJYLCGPKZ 0
root@arm:~# echo 'GNOC''MXLOFX'
GNOCMXLOFX
root@arm:~# MARKER='QWOZ''TYOHBH' run 'echo 1250000 1250000 > /sys/kernel/mva_tesst/regulators/buck6_set'
QWOZTYOHBHQWOZTYOHBH 0
root@arm:~# echo 'TXBP''BPBENP'
TXBPBPBENP
root@arm:~# MARKER='PWHH''VUTOFQ' run 'i2cget -y -f 1 0x4b 0x17'
PWHHVUTOFQ0x2d
PWHHVUTOFQ 0
root@arm:~# echo 'OCLY''CKKGKC'
OCLYCKKGKC
root@arm:~# MARKER='FVSK''WMBXMY' run 'echo 1260000 1260000 > /sys/kernel/mva_tesst/regulators/buck6_set'
FVSKWMBXMYFVSKWMBXMY 0
root@arm:~# echo 'XAZC''PXYVCF'
XAZCPXYVCF
root@arm:~# MARKER='YBMB''VVBQHP' run 'i2cget -y -f 1 0x4b 0x17'
YBMBVVBQHP0x2e
YBMBVVBQHP 0
root@arm:~# echo 'ETFZ''VEXOVW'
ETFZVEXOVW
root@arm:~# MARKER='KFBF''XVTYXH' run 'echo 1270000 1270000 > /sys/kernel/mva_tesst/regulators/buck6_set'
KFBFXVTYXHKFBFXVTYXH 0
root@arm:~# echo 'GWBO''SZXVXB'
GWBOSZXVXB
root@arm:~# MARKER='EPPB''YSPUVY' run 'i2cget -y -f 1 0x4b 0x17'
EPPBYSPUVY0x2f
EPPBYSPUVY 0
root@arm:~# echo 'SKBU''PGFGNC'
SKBUPGFGNC
root@arm:~# MARKER='LXEY''NLNGYK' run 'echo 1280000 1280000 > /sys/kernel/mva_tesst/regulators/buck6_set'
LXEYNLNGYKLXEYNLNGYK 0
root@arm:~# echo 'GXYB''BNEYNY'
GXYBBNEYNY
root@arm:~# MARKER='CJAC''QXJYUA' run 'i2cget -y -f 1 0x4b 0x17'
CJACQXJYUA0x30
CJACQXJYUA 0
root@arm:~# echo 'HOVK''COGKLO'
HOVKCOGKLO
root@arm:~# MARKER='CUGE''EJNUTU' run 'echo 1290000 1290000 > /sys/kernel/mva_tesst/regulators/buck6_set'
CUGEEJNUTUCUGEEJNUTU 0
root@arm:~# echo 'TKYY''QGYTTB'
TKYYQGYTTB
root@arm:~# MARKER='JWMF''XPWWWP' run 'i2cget -y -f 1 0x4b 0x17'
JWMFXPWWWP0x31
JWMFXPWWWP 0
root@arm:~# echo 'EZMW''PXEWPC'
EZMWPXEWPC
root@arm:~# MARKER='VLMU''ZLLJWH' run 'echo 1300000 1300000 > /sys/kernel/mva_tesst/regulators/buck6_set'
VLMUZLLJWHVLMUZLLJWH 0
root@arm:~# echo 'TYLO''ZNSAWO'
TYLOZNSAWO
root@arm:~# MARKER='QBMP''GYUVBS' run 'i2cget -y -f 1 0x4b 0x17'
QBMPGYUVBS0x32
QBMPGYUVBS 0
root@arm:~# echo 'HUXC''XKYSLP'
HUXCXKYSLP
root@arm:~# MARKER='JOYH''EXVOWX' run 'echo 1310000 1310000 > /sys/kernel/mva_tesst/regulators/buck6_set'
JOYHEXVOWXJOYHEXVOWX 0
root@arm:~# echo 'FQNX''LGSHTN'
FQNXLGSHTN
root@arm:~# MARKER='GVKE''ESPPVV' run 'i2cget -y -f 1 0x4b 0x17'
GVKEESPPVV0x33
GVKEESPPVV 0
root@arm:~# echo 'MNZM''XBSNPC'
MNZMXBSNPC
root@arm:~# MARKER='KXLQ''LAAXCQ' run 'echo 1320000 1320000 > /sys/kernel/mva_tesst/regulators/buck6_set'
KXLQLAAXCQKXLQLAAXCQ 0
root@arm:~# echo 'ZTHK''TFETSW'
ZTHKTFETSW
root@arm:~# MARKER='EQTM''SOQOZQ' run 'i2cget -y -f 1 0x4b 0x17'
EQTMSOQOZQ0x34
EQTMSOQOZQ 0
root@arm:~# echo 'KKGQ''HMCTVB'
KKGQHMCTVB
root@arm:~# MARKER='SBKF''FLBLME' run 'echo 1330000 1330000 > /sys/kernel/mva_tesst/regulators/buck6_set'
SBKFFLBLMESBKFFLBLME 0
root@arm:~# echo 'JZHJ''NGPYYS'
JZHJNGPYYS
root@arm:~# MARKER='ZHZX''BFPMFG' run 'i2cget -y -f 1 0x4b 0x17'
ZHZXBFPMFG0x35
ZHZXBFPMFG 0
root@arm:~# echo 'TVJB''YWXYZF'
TVJBYWXYZF
root@arm:~# MARKER='ACKN''GMLELZ' run 'echo 1340000 1340000 > /sys/kernel/mva_tesst/regulators/buck6_set'
ACKNGMLELZACKNGMLELZ 0
root@arm:~# echo 'EJKU''NQKGKK'
EJKUNQKGKK
root@arm:~# MARKER='UXFX''MKJHAJ' run 'i2cget -y -f 1 0x4b 0x17'
UXFXMKJHAJ0x36
UXFXMKJHAJ 0
root@arm:~# echo 'KFAV''HSZZNV'
KFAVHSZZNV
root@arm:~# MARKER='POWW''QKPLLX' run 'echo 1350000 1350000 > /sys/kernel/mva_tesst/regulators/buck6_set'
POWWQKPLLXPOWWQKPLLX 0
root@arm:~# echo 'NEKO''XBJSPW'
NEKOXBJSPW
root@arm:~# MARKER='UCUH''NHEQTF' run 'i2cget -y -f 1 0x4b 0x17'
UCUHNHEQTF0x37
UCUHNHEQTF 0
root@arm:~# echo 'GTJH''YNVBNV'
GTJHYNVBNV
root@arm:~# MARKER='MMHQ''PHHVME' run 'echo 1360000 1360000 > /sys/kernel/mva_tesst/regulators/buck6_set'
MMHQPHHVMEMMHQPHHVME 0
root@arm:~# echo 'VKPB''EUFHBL'
VKPBEUFHBL
root@arm:~# MARKER='ZJHY''VFNLQX' run 'i2cget -y -f 1 0x4b 0x17'
ZJHYVFNLQX0x38
ZJHYVFNLQX 0
root@arm:~# echo 'WJUU''NTLBSC'
WJUUNTLBSC
root@arm:~# MARKER='KAAF''HUUFGM' run 'echo 1370000 1370000 > /sys/kernel/mva_tesst/regulators/buck6_set'
KAAFHUUFGMKAAFHUUFGM 0
root@arm:~# echo 'FKHC''ZHPWZL'
FKHCZHPWZL
root@arm:~# MARKER='PYKX''UCCFCF' run 'i2cget -y -f 1 0x4b 0x17'
PYKXUCCFCF0x39
PYKXUCCFCF 0
root@arm:~# echo 'SMYB''FMEHTM'
SMYBFMEHTM
root@arm:~# MARKER='BJWT''GEJKPS' run 'echo 1380000 1380000 > /sys/kernel/mva_tesst/regulators/buck6_set'
BJWTGEJKPSBJWTGEJKPS 0
root@arm:~# echo 'NWLB''KWXFQU'
NWLBKWXFQU
root@arm:~# MARKER='FCVX''XHPTOF' run 'i2cget -y -f 1 0x4b 0x17'
FCVXXHPTOF0x3a
FCVXXHPTOF 0
root@arm:~# echo 'OQLT''YYLBHU'
OQLTYYLBHU
root@arm:~# MARKER='PVPC''UBQXBB' run 'echo 1390000 1390000 > /sys/kernel/mva_tesst/regulators/buck6_set'
PVPCUBQXBBPVPCUBQXBB 0
root@arm:~# echo 'BVSZ''GTMSHF'
BVSZGTMSHF
root@arm:~# MARKER='AZZP''KJNXUQ' run 'i2cget -y -f 1 0x4b 0x17'
AZZPKJNXUQ0x3b
AZZPKJNXUQ 0
root@arm:~# echo 'AXCN''MPKVBX'
AXCNMPKVBX
root@arm:~# MARKER='CGUZ''XKNEHU' run 'echo 1400000 1400000 > /sys/kernel/mva_tesst/regulators/buck6_set'
CGUZXKNEHUCGUZXKNEHU 0
root@arm:~# echo 'QTPC''GGWTUC'
QTPCGGWTUC
root@arm:~# MARKER='FMOY''UWVEZU' run 'i2cget -y -f 1 0x4b 0x17'
FMOYUWVEZU0x3c
FMOYUWVEZU 0
root@arm:~# echo 'GYJE''SOGOLH'
GYJESOGOLH
root@arm:~# MARKER='NSSL''GHUBOG' run 'grep -r -l rohm,bd71847 /proc/device-tree  | sed '"'"'s![^/]*$!!'"'"''
NSSLGHUBOG/proc/device-tree/ocp/interconnect@48000000/segment@0/target-module@2a000/i2c@0/pmic@4b/
NSSLGHUBOG 0
root@arm:~# echo 'YVWG''UPZHFF'
YVWGUPZHFF
root@arm:~# MARKER='EWFW''TGZYZF' run 'test -f /proc/device-tree/ocp/interconnectt\@48000000/segment\@0/target-module\@2a000/i2c\@0/pmic\@4b/regulators/LDO1/rohm,,no-regulator-enable-control ;echo $?'
EWFWTGZYZF1
EWFWTGZYZF 0
root@arm:~# echo 'OEOU''EAOMOC'
OEOUEAOMOC
root@arm:~# MARKER='OTPE''NNBCEY' run 'i2cget -y -f 1 0x4b 0x18'
OTPENNBCEY0xa2
OTPENNBCEY 0
root@arm:~# echo 'WXVN''JATKWP'
WXVNJATKWP
