Labgrid Console Logfile for main
Logfile started at 2025-02-18 07:57:46.240703
=== Log starts here ===

root@arm:~# run() { echo -n "$MARKER"; sh -c "$@"; echo "$MARKER $?"; }
root@arm:~# echo 'MGYN''TSGHBG'
MGYNTSGHBG
root@arm:~# MARKER='WHEA''BTYYXF' run 'grep -r -l rohm,bd71847 /proc/device-tree  | sed '"'"'s![^/]*$!!'"'"''
WHEABTYYXF/proc/device-tree/ocp/interconnect@48000000/segment@0/target-module@2a000/i2c@0/pmic@4b/
WHEABTYYXF 0
root@arm:~# echo 'WCNE''AYMJGW'
WCNEAYMJGW
root@arm:~# MARKER='XQLK''TZLWTP' run 'test -f /proc/device-tree/ocp/interconnectt\@48000000/segment\@0/target-module\@2a000/i2c\@0/pmic\@4b/regulators/BUCK1/rohmm,no-regulator-enable-control ;echo $?'
XQLKTZLWTP1
XQLKTZLWTP 0
root@arm:~# echo 'OFAQ''NUCEAO'
OFAQNUCEAO
root@arm:~# MARKER='NFOK''XJFUQE' run 'echo 1 > /sys/kernel/mva_test/regulators/bbuck1_en'
NFOKXJFUQENFOKXJFUQE 0
root@arm:~# echo 'MJLV''LZPZFS'
MJLVLZPZFS
root@arm:~# MARKER='QHHW''WQOZCM' run 'i2cget -y -f 1 0x4b 0x5'
QHHWWQOZCM0x03
QHHWWQOZCM 0
root@arm:~# echo 'BBLS''BNXLEH'
BBLSBNXLEH
root@arm:~# MARKER='FASJ''AMXHGW' run 'grep -r -l rohm,bd71847 /proc/device-tree  | sed '"'"'s![^/]*$!!'"'"''
FASJAMXHGW/proc/device-tree/ocp/interconnect@48000000/segment@0/target-module@2a000/i2c@0/pmic@4b/
FASJAMXHGW 0
root@arm:~# echo 'YEMX''CLGXUP'
YEMXCLGXUP
root@arm:~# MARKER='XAPK''PABEZF' run 'test -f /proc/device-tree/ocp/interconnectt\@48000000/segment\@0/target-module\@2a000/i2c\@0/pmic\@4b/regulators/BUCK1/rohmm,no-regulator-enable-control ;echo $?'
XAPKPABEZF1
XAPKPABEZF 0
root@arm:~# echo 'TPWN''EXUTVP'
TPWNEXUTVP
root@arm:~# MARKER='SJYL''VLZFJE' run 'grep -r -l rohm,bd71847 /proc/device-tree  | sed '"'"'s![^/]*$!!'"'"''
SJYLVLZFJE/proc/device-tree/ocp/interconnect@48000000/segment@0/target-module@2a000/i2c@0/pmic@4b/
SJYLVLZFJE 0
root@arm:~# echo 'XBQQ''MCBYCV'
XBQQMCBYCV
root@arm:~# MARKER='QYPC''CAGUPM' run 'test -f /proc/device-tree/ocp/interconnectt\@48000000/segment\@0/target-module\@2a000/i2c\@0/pmic\@4b/regulators/BUCK1/reguulator-always-on ;echo $?'
QYPCCAGUPM1
QYPCCAGUPM 0
root@arm:~# echo 'HSOL''VXVCHH'
HSOLVXVCHH
root@arm:~# MARKER='VMGZ''BNZMGE' run 'echo 0 > /sys/kernel/mva_test/regulators/bbuck1_en'
VMGZBNZMGEVMGZBNZMGE 0
root@arm:~# echo 'MGKY''NGHWYP'
MGKYNGHWYP
root@arm:~# MARKER='VAJX''YSKXKZ' run 'i2cget -y -f 1 0x4b 0x5'
VAJXYSKXKZ0x02
VAJXYSKXKZ 0
root@arm:~# echo 'SLNN''ZASAYN'
SLNNZASAYN
root@arm:~# MARKER='KZZF''ATNCYB' run 'grep -r -l rohm,bd71847 /proc/device-tree  | sed '"'"'s![^/]*$!!'"'"''
KZZFATNCYB/proc/device-tree/ocp/interconnect@48000000/segment@0/target-module@2a000/i2c@0/pmic@4b/
KZZFATNCYB 0
root@arm:~# echo 'SFXA''CUVHVL'
SFXACUVHVL
root@arm:~# MARKER='SUOV''YTOPLU' run 'test -f /proc/device-tree/ocp/interconnectt\@48000000/segment\@0/target-module\@2a000/i2c\@0/pmic\@4b/regulators/BUCK2/rohmm,no-regulator-enable-control ;echo $?'
SUOVYTOPLU1
SUOVYTOPLU 0
root@arm:~# echo 'TVFG''AYMEKY'
TVFGAYMEKY
root@arm:~# MARKER='KPWE''MZFOJJ' run 'echo 1 > /sys/kernel/mva_test/regulators/bbuck2_en'
KPWEMZFOJJKPWEMZFOJJ 0
root@arm:~# echo 'OTNF''MNSPZA'
OTNFMNSPZA
root@arm:~# MARKER='SFEF''XBNHGU' run 'i2cget -y -f 1 0x4b 0x6'
SFEFXBNHGU0x43
SFEFXBNHGU 0
root@arm:~# echo 'XOXQ''FTALOU'
XOXQFTALOU
root@arm:~# MARKER='NVUP''NLGLGH' run 'grep -r -l rohm,bd71847 /proc/device-tree  | sed '"'"'s![^/]*$!!'"'"''
NVUPNLGLGH/proc/device-tree/ocp/interconnect@48000000/segment@0/target-module@2a000/i2c@0/pmic@4b/
NVUPNLGLGH 0
root@arm:~# echo 'GBWW''EPUTNH'
GBWWEPUTNH
root@arm:~# MARKER='GYHV''GEWHCQ' run 'test -f /proc/device-tree/ocp/interconnectt\@48000000/segment\@0/target-module\@2a000/i2c\@0/pmic\@4b/regulators/BUCK2/rohmm,no-regulator-enable-control ;echo $?'
GYHVGEWHCQ1
GYHVGEWHCQ 0
root@arm:~# echo 'BQHF''VUCTGL'
BQHFVUCTGL
root@arm:~# MARKER='NPWB''XNUGJK' run 'grep -r -l rohm,bd71847 /proc/device-tree  | sed '"'"'s![^/]*$!!'"'"''
NPWBXNUGJK/proc/device-tree/ocp/interconnect@48000000/segment@0/target-module@2a000/i2c@0/pmic@4b/
NPWBXNUGJK 0
root@arm:~# echo 'EJBT''CXYZWW'
EJBTCXYZWW
root@arm:~# MARKER='PLFC''OEPYBE' run 'test -f /proc/device-tree/ocp/interconnectt\@48000000/segment\@0/target-module\@2a000/i2c\@0/pmic\@4b/regulators/BUCK2/reguulator-always-on ;echo $?'
PLFCOEPYBE0
PLFCOEPYBE 0
root@arm:~# echo 'QXYL''YQQUWW'
QXYLYQQUWW
root@arm:~# MARKER='MUCS''LJQYXJ' run 'grep -r -l rohm,bd71847 /proc/device-tree  | sed '"'"'s![^/]*$!!'"'"''
MUCSLJQYXJ/proc/device-tree/ocp/interconnect@48000000/segment@0/target-module@2a000/i2c@0/pmic@4b/
MUCSLJQYXJ 0
root@arm:~# echo 'YUGL''VSXXVV'
YUGLVSXXVV
root@arm:~# MARKER='ZMAG''JQNEVE' run 'test -f /proc/device-tree/ocp/interconnectt\@48000000/segment\@0/target-module\@2a000/i2c\@0/pmic\@4b/regulators/BUCK3/rohmm,no-regulator-enable-control ;echo $?'
ZMAGJQNEVE0
ZMAGJQNEVE 0
root@arm:~# echo 'CCTX''PZFJGZ'
CCTXPZFJGZ
root@arm:~# MARKER='FNAX''PSSEWF' run 'grep -r -l rohm,bd71847 /proc/device-tree  | sed '"'"'s![^/]*$!!'"'"''
FNAXPSSEWF/proc/device-tree/ocp/interconnect@48000000/segment@0/target-module@2a000/i2c@0/pmic@4b/
FNAXPSSEWF 0
root@arm:~# echo 'XUAT''VWOPKW'
XUATVWOPKW
root@arm:~# MARKER='MGBQ''CTUQWB' run 'test -f /proc/device-tree/ocp/interconnectt\@48000000/segment\@0/target-module\@2a000/i2c\@0/pmic\@4b/regulators/BUCK3/rohmm,no-regulator-enable-control ;echo $?'
MGBQCTUQWB0
MGBQCTUQWB 0
root@arm:~# echo 'MXWB''OVUENL'
MXWBOVUENL
root@arm:~# MARKER='MZNP''TJOGBA' run 'grep -r -l rohm,bd71847 /proc/device-tree  | sed '"'"'s![^/]*$!!'"'"''
MZNPTJOGBA/proc/device-tree/ocp/interconnect@48000000/segment@0/target-module@2a000/i2c@0/pmic@4b/
MZNPTJOGBA 0
root@arm:~# echo 'LNUK''QMVOKV'
LNUKQMVOKV
root@arm:~# MARKER='HXPL''BYJSCQ' run 'test -f /proc/device-tree/ocp/interconnectt\@48000000/segment\@0/target-module\@2a000/i2c\@0/pmic\@4b/regulators/BUCK4/rohmm,no-regulator-enable-control ;echo $?'
HXPLBYJSCQ1
HXPLBYJSCQ 0
root@arm:~# echo 'TCVY''EJQPWA'
TCVYEJQPWA
root@arm:~# MARKER='QJJP''GLYQGN' run 'echo 1 > /sys/kernel/mva_test/regulators/bbuck4_en'
QJJPGLYQGNQJJPGLYQGN 0
root@arm:~# echo 'OUWM''OKPMVX'
OUWMOKPMVX
root@arm:~# MARKER='YOFQ''NPHAKG' run 'i2cget -y -f 1 0x4b 0xa'
YOFQNPHAKG0x03
YOFQNPHAKG 0
root@arm:~# echo 'TGZB''QWATUQ'
TGZBQWATUQ
root@arm:~# MARKER='UHKN''LLPVWV' run 'grep -r -l rohm,bd71847 /proc/device-tree  | sed '"'"'s![^/]*$!!'"'"''
UHKNLLPVWV/proc/device-tree/ocp/interconnect@48000000/segment@0/target-module@2a000/i2c@0/pmic@4b/
UHKNLLPVWV 0
root@arm:~# echo 'PMVB''FSSJBV'
PMVBFSSJBV
root@arm:~# MARKER='ZPAQ''NJUQWY' run 'test -f /proc/device-tree/ocp/interconnectt\@48000000/segment\@0/target-module\@2a000/i2c\@0/pmic\@4b/regulators/BUCK4/rohmm,no-regulator-enable-control ;echo $?'
ZPAQNJUQWY1
ZPAQNJUQWY 0
root@arm:~# echo 'LJNE''AWHHCA'
LJNEAWHHCA
root@arm:~# MARKER='NTTV''HEPOCU' run 'grep -r -l rohm,bd71847 /proc/device-tree  | sed '"'"'s![^/]*$!!'"'"''
NTTVHEPOCU/proc/device-tree/ocp/interconnect@48000000/segment@0/target-module@2a000/i2c@0/pmic@4b/
NTTVHEPOCU 0
root@arm:~# echo 'WATT''WKCBXU'
WATTWKCBXU
root@arm:~# MARKER='XMHV''OBEQYJ' run 'test -f /proc/device-tree/ocp/interconnectt\@48000000/segment\@0/target-module\@2a000/i2c\@0/pmic\@4b/regulators/BUCK4/reguulator-always-on ;echo $?'
XMHVOBEQYJ1
XMHVOBEQYJ 0
root@arm:~# echo 'NSSN''CEJKLL'
NSSNCEJKLL
root@arm:~# MARKER='OVHF''OGFBKS' run 'echo 0 > /sys/kernel/mva_test/regulators/bbuck4_en'
OVHFOGFBKSOVHFOGFBKS 0
root@arm:~# echo 'SYUX''LKTFPJ'
SYUXLKTFPJ
root@arm:~# MARKER='NSOQ''GJMJJZ' run 'i2cget -y -f 1 0x4b 0xa'
NSOQGJMJJZ0x02
NSOQGJMJJZ 0
root@arm:~# echo 'MZBZ''YKAFFY'
MZBZYKAFFY
root@arm:~# MARKER='HAWG''AJZBCQ' run 'grep -r -l rohm,bd71847 /proc/device-tree  | sed '"'"'s![^/]*$!!'"'"''
HAWGAJZBCQ/proc/device-tree/ocp/interconnect@48000000/segment@0/target-module@2a000/i2c@0/pmic@4b/
HAWGAJZBCQ 0
root@arm:~# echo 'ZOAC''EGZZPA'
ZOACEGZZPA
root@arm:~# MARKER='VSZK''LXNWPM' run 'test -f /proc/device-tree/ocp/interconnectt\@48000000/segment\@0/target-module\@2a000/i2c\@0/pmic\@4b/regulators/BUCK5/rohmm,no-regulator-enable-control ;echo $?'
VSZKLXNWPM1
VSZKLXNWPM 0
root@arm:~# echo 'LGHG''ZFQESM'
LGHGZFQESM
root@arm:~# MARKER='UANS''GBOHBB' run 'echo 1 > /sys/kernel/mva_test/regulators/bbuck5_en'
UANSGBOHBBUANSGBOHBB 0
root@arm:~# echo 'MKYE''PPAAQK'
MKYEPPAAQK
root@arm:~# MARKER='FLWJ''LFPBAJ' run 'i2cget -y -f 1 0x4b 0xb'
FLWJLFPBAJ0x03
FLWJLFPBAJ 0
root@arm:~# echo 'BVAG''LXBVPT'
BVAGLXBVPT
root@arm:~# MARKER='OAAX''ZTXOXM' run 'grep -r -l rohm,bd71847 /proc/device-tree  | sed '"'"'s![^/]*$!!'"'"''
OAAXZTXOXM/proc/device-tree/ocp/interconnect@48000000/segment@0/target-module@2a000/i2c@0/pmic@4b/
OAAXZTXOXM 0
root@arm:~# echo 'OXLE''YAVUNZ'
OXLEYAVUNZ
root@arm:~# MARKER='XLBK''WVZKUS' run 'test -f /proc/device-tree/ocp/interconnectt\@48000000/segment\@0/target-module\@2a000/i2c\@0/pmic\@4b/regulators/BUCK5/rohmm,no-regulator-enable-control ;echo $?'
XLBKWVZKUS1
XLBKWVZKUS 0
root@arm:~# echo 'KMTJ''OBVAVA'
KMTJOBVAVA
root@arm:~# MARKER='QYNC''ONWSZC' run 'grep -r -l rohm,bd71847 /proc/device-tree  | sed '"'"'s![^/]*$!!'"'"''
QYNCONWSZC/proc/device-tree/ocp/interconnect@48000000/segment@0/target-module@2a000/i2c@0/pmic@4b/
QYNCONWSZC 0
root@arm:~# echo 'YMHC''GBWTUW'
YMHCGBWTUW
root@arm:~# MARKER='UXVN''QPVJPJ' run 'test -f /proc/device-tree/ocp/interconnectt\@48000000/segment\@0/target-module\@2a000/i2c\@0/pmic\@4b/regulators/BUCK5/reguulator-always-on ;echo $?'
UXVNQPVJPJ1
UXVNQPVJPJ 0
root@arm:~# echo 'EYPP''XGOSTH'
EYPPXGOSTH
root@arm:~# MARKER='TSAX''GWOYNO' run 'echo 0 > /sys/kernel/mva_test/regulators/bbuck5_en'
TSAXGWOYNOTSAXGWOYNO 0
root@arm:~# echo 'WFSB''AXLSWW'
WFSBAXLSWW
root@arm:~# MARKER='TKFT''BCBZXN' run 'i2cget -y -f 1 0x4b 0xb'
TKFTBCBZXN0x02
TKFTBCBZXN 0
root@arm:~# echo 'EPWM''YAYALZ'
EPWMYAYALZ
root@arm:~# MARKER='OTTZ''QQLOZB' run 'grep -r -l rohm,bd71847 /proc/device-tree  | sed '"'"'s![^/]*$!!'"'"''
OTTZQQLOZB/proc/device-tree/ocp/interconnect@48000000/segment@0/target-module@2a000/i2c@0/pmic@4b/
OTTZQQLOZB 0
root@arm:~# echo 'VSAH''WCZOCQ'
VSAHWCZOCQ
root@arm:~# MARKER='AMMG''OJFFJS' run 'test -f /proc/device-tree/ocp/interconnectt\@48000000/segment\@0/target-module\@2a000/i2c\@0/pmic\@4b/regulators/BUCK6/rohmm,no-regulator-enable-control ;echo $?'
AMMGOJFFJS1
AMMGOJFFJS 0
root@arm:~# echo 'BGKY''PTQZUJ'
BGKYPTQZUJ
root@arm:~# MARKER='GQHW''JVLEJV' run 'echo 1 > /sys/kernel/mva_test/regulators/bbuck6_en'
GQHWJVLEJVGQHWJVLEJV 0
root@arm:~# echo 'XTGO''YTVGLE'
XTGOYTVGLE
root@arm:~# MARKER='YYAV''HGWAFN' run 'i2cget -y -f 1 0x4b 0xc'
YYAVHGWAFN0x03
YYAVHGWAFN 0
root@arm:~# echo 'VBPB''PXPMUL'
VBPBPXPMUL
root@arm:~# MARKER='NGQK''EHUJZA' run 'grep -r -l rohm,bd71847 /proc/device-tree  | sed '"'"'s![^/]*$!!'"'"''
NGQKEHUJZA/proc/device-tree/ocp/interconnect@48000000/segment@0/target-module@2a000/i2c@0/pmic@4b/
NGQKEHUJZA 0
root@arm:~# echo 'AGXJ''YYKJWE'
AGXJYYKJWE
root@arm:~# MARKER='UTBL''OLYUTZ' run 'test -f /proc/device-tree/ocp/interconnectt\@48000000/segment\@0/target-module\@2a000/i2c\@0/pmic\@4b/regulators/BUCK6/rohmm,no-regulator-enable-control ;echo $?'
UTBLOLYUTZ1
UTBLOLYUTZ 0
root@arm:~# echo 'KZOM''XSPLSS'
KZOMXSPLSS
root@arm:~# MARKER='WXEX''TSEBJA' run 'grep -r -l rohm,bd71847 /proc/device-tree  | sed '"'"'s![^/]*$!!'"'"''
WXEXTSEBJA/proc/device-tree/ocp/interconnect@48000000/segment@0/target-module@2a000/i2c@0/pmic@4b/
WXEXTSEBJA 0
root@arm:~# echo 'PGPU''HASWNS'
PGPUHASWNS
root@arm:~# MARKER='CYAS''EBQBQZ' run 'test -f /proc/device-tree/ocp/interconnectt\@48000000/segment\@0/target-module\@2a000/i2c\@0/pmic\@4b/regulators/BUCK6/reguulator-always-on ;echo $?'
CYASEBQBQZ1
CYASEBQBQZ 0
root@arm:~# echo 'HHKP''TJQLBL'
HHKPTJQLBL
root@arm:~# MARKER='XZXM''SGSTGB' run 'echo 0 > /sys/kernel/mva_test/regulators/bbuck6_en'
XZXMSGSTGBXZXMSGSTGB 0
root@arm:~# echo 'WOBE''PTMEHP'
WOBEPTMEHP
root@arm:~# MARKER='ZYZM''SQTHTJ' run 'i2cget -y -f 1 0x4b 0xc'
ZYZMSQTHTJ0x02
ZYZMSQTHTJ 0
root@arm:~# echo 'YEBG''PQYEKM'
YEBGPQYEKM
root@arm:~# MARKER='FGSN''QBABOG' run 'grep -r -l rohm,bd71847 /proc/device-tree  | sed '"'"'s![^/]*$!!'"'"''
FGSNQBABOG/proc/device-tree/ocp/interconnect@48000000/segment@0/target-module@2a000/i2c@0/pmic@4b/
FGSNQBABOG 0
root@arm:~# echo 'TJWL''NXTLOB'
TJWLNXTLOB
root@arm:~# MARKER='OEWF''SBNLYM' run 'test -f /proc/device-tree/ocp/interconnectt\@48000000/segment\@0/target-module\@2a000/i2c\@0/pmic\@4b/regulators/LDO1/rohm,,no-regulator-enable-control ;echo $?'
OEWFSBNLYM1
OEWFSBNLYM 0
root@arm:~# echo 'BXTS''AZWONS'
BXTSAZWONS
root@arm:~# MARKER='OFMY''HAQLBM' run 'echo 1 > /sys/kernel/mva_test/regulators/bbuck7_en'
OFMYHAQLBMOFMYHAQLBM 0
root@arm:~# echo 'WSQK''XLLXMS'
WSQKXLLXMS
root@arm:~# MARKER='VCVX''CEEMTF' run 'i2cget -y -f 1 0x4b 0x18'
VCVXCEEMTF0xe2
VCVXCEEMTF 0
root@arm:~# echo 'HAHA''CGABSB'
HAHACGABSB
root@arm:~# MARKER='UHVY''YFSAET' run 'grep -r -l rohm,bd71847 /proc/device-tree  | sed '"'"'s![^/]*$!!'"'"''
UHVYYFSAET/proc/device-tree/ocp/interconnect@48000000/segment@0/target-module@2a000/i2c@0/pmic@4b/
UHVYYFSAET 0
root@arm:~# echo 'CUMP''XXPQJE'
CUMPXXPQJE
root@arm:~# MARKER='KASP''TGVYLV' run 'test -f /proc/device-tree/ocp/interconnectt\@48000000/segment\@0/target-module\@2a000/i2c\@0/pmic\@4b/regulators/LDO1/rohm,,no-regulator-enable-control ;echo $?'
KASPTGVYLV1
KASPTGVYLV 0
root@arm:~# echo 'MMAM''MPNBAY'
MMAMMPNBAY
root@arm:~# MARKER='TZNB''EOPAVJ' run 'grep -r -l rohm,bd71847 /proc/device-tree  | sed '"'"'s![^/]*$!!'"'"''
TZNBEOPAVJ/proc/device-tree/ocp/interconnect@48000000/segment@0/target-module@2a000/i2c@0/pmic@4b/
TZNBEOPAVJ 0
root@arm:~# echo 'EUTN''EHYNXU'
EUTNEHYNXU
root@arm:~# MARKER='MSMV''AMOPLS' run 'test -f /proc/device-tree/ocp/interconnectt\@48000000/segment\@0/target-module\@2a000/i2c\@0/pmic\@4b/regulators/LDO1/regullator-always-on ;echo $?'
MSMVAMOPLS1
MSMVAMOPLS 0
root@arm:~# echo 'SGWG''NNLWFT'
SGWGNNLWFT
root@arm:~# MARKER='AMOK''ZCJUQG' run 'echo 0 > /sys/kernel/mva_test/regulators/bbuck7_en'
AMOKZCJUQGAMOKZCJUQG 0
root@arm:~# echo 'CELJ''FABHWX'
CELJFABHWX
root@arm:~# MARKER='BMYV''XVVKKX' run 'i2cget -y -f 1 0x4b 0x18'
BMYVXVVKKX0xa2
BMYVXVVKKX 0
root@arm:~# echo 'ZQVQ''WKJYPV'
ZQVQWKJYPV
root@arm:~# MARKER='LMZF''GKOEVN' run 'grep -r -l rohm,bd71847 /proc/device-tree  | sed '"'"'s![^/]*$!!'"'"''
LMZFGKOEVN/proc/device-tree/ocp/interconnect@48000000/segment@0/target-module@2a000/i2c@0/pmic@4b/
LMZFGKOEVN 0
root@arm:~# echo 'SVZQ''EXJKPE'
SVZQEXJKPE
root@arm:~# MARKER='FEZX''EKMTQC' run 'test -f /proc/device-tree/ocp/interconnectt\@48000000/segment\@0/target-module\@2a000/i2c\@0/pmic\@4b/regulators/LDO2/rohm,,no-regulator-enable-control ;echo $?'
FEZXEKMTQC1
FEZXEKMTQC 0
root@arm:~# echo 'OEFE''OPFXPL'
OEFEOPFXPL
root@arm:~# MARKER='KFSW''SBWLSN' run 'echo 1 > /sys/kernel/mva_test/regulators/bbuck8_en'
KFSWSBWLSNKFSWSBWLSN 0
root@arm:~# echo 'EUWF''CUHNWO'
EUWFCUHNWO
root@arm:~# MARKER='UHAK''YGXCWV' run 'i2cget -y -f 1 0x4b 0x19'
UHAKYGXCWV0xe0
UHAKYGXCWV 0
root@arm:~# echo 'WWKB''PYSZUO'
WWKBPYSZUO
root@arm:~# MARKER='EMWO''UPMUAU' run 'grep -r -l rohm,bd71847 /proc/device-tree  | sed '"'"'s![^/]*$!!'"'"''
EMWOUPMUAU/proc/device-tree/ocp/interconnect@48000000/segment@0/target-module@2a000/i2c@0/pmic@4b/
EMWOUPMUAU 0
root@arm:~# echo 'CYGJ''UAESCF'
CYGJUAESCF
root@arm:~# MARKER='JWAL''SPVHVV' run 'test -f /proc/device-tree/ocp/interconnectt\@48000000/segment\@0/target-module\@2a000/i2c\@0/pmic\@4b/regulators/LDO2/rohm,,no-regulator-enable-control ;echo $?'
JWALSPVHVV1
JWALSPVHVV 0
root@arm:~# echo 'HFGN''LECPGB'
HFGNLECPGB
root@arm:~# MARKER='NYUN''MXNWXU' run 'grep -r -l rohm,bd71847 /proc/device-tree  | sed '"'"'s![^/]*$!!'"'"''
NYUNMXNWXU/proc/device-tree/ocp/interconnect@48000000/segment@0/target-module@2a000/i2c@0/pmic@4b/
NYUNMXNWXU 0
root@arm:~# echo 'VQSQ''EMKZZE'
VQSQEMKZZE
root@arm:~# MARKER='JBQE''YQACLT' run 'test -f /proc/device-tree/ocp/interconnectt\@48000000/segment\@0/target-module\@2a000/i2c\@0/pmic\@4b/regulators/LDO2/regullator-always-on ;echo $?'
JBQEYQACLT1
JBQEYQACLT 0
root@arm:~# echo 'WEGW''CSTSFL'
WEGWCSTSFL
root@arm:~# MARKER='FXZH''GGMAVW' run 'echo 0 > /sys/kernel/mva_test/regulators/bbuck8_en'
FXZHGGMAVWFXZHGGMAVW 0
root@arm:~# echo 'UAAG''QFASNS'
UAAGQFASNS
root@arm:~# MARKER='XLGY''CEALNM' run 'i2cget -y -f 1 0x4b 0x19'
XLGYCEALNM0xa0
XLGYCEALNM 0
root@arm:~# echo 'FAQB''UYHFFC'
FAQBUYHFFC
root@arm:~# MARKER='HUQH''ANWQCJ' run 'grep -r -l rohm,bd71847 /proc/device-tree  | sed '"'"'s![^/]*$!!'"'"''
HUQHANWQCJ/proc/device-tree/ocp/interconnect@48000000/segment@0/target-module@2a000/i2c@0/pmic@4b/
HUQHANWQCJ 0
root@arm:~# echo 'HANM''ZPSKQL'
HANMZPSKQL
root@arm:~# MARKER='PKAQ''OLGLOQ' run 'test -f /proc/device-tree/ocp/interconnectt\@48000000/segment\@0/target-module\@2a000/i2c\@0/pmic\@4b/regulators/LDO3/rohm,,no-regulator-enable-control ;echo $?'
PKAQOLGLOQ1
PKAQOLGLOQ 0
root@arm:~# echo 'MHNG''VVJETA'
MHNGVVJETA
root@arm:~# MARKER='CSEX''QPFPYB' run 'echo 1 > /sys/kernel/mva_test/regulators/bbuck9_en'
CSEXQPFPYBCSEXQPFPYB 0
root@arm:~# echo 'LBJF''NKVLZL'
LBJFNKVLZL
root@arm:~# MARKER='JMHA''QLZBVJ' run 'i2cget -y -f 1 0x4b 0x1a'
JMHAQLZBVJ0xc0
JMHAQLZBVJ 0
root@arm:~# echo 'PBVQ''PVZKQJ'
PBVQPVZKQJ
root@arm:~# MARKER='FQTS''YPUOWE' run 'grep -r -l rohm,bd71847 /proc/device-tree  | sed '"'"'s![^/]*$!!'"'"''
FQTSYPUOWE/proc/device-tree/ocp/interconnect@48000000/segment@0/target-module@2a000/i2c@0/pmic@4b/
FQTSYPUOWE 0
root@arm:~# echo 'OBEA''GXVAUP'
OBEAGXVAUP
root@arm:~# MARKER='FNWQ''FGJXKB' run 'test -f /proc/device-tree/ocp/interconnectt\@48000000/segment\@0/target-module\@2a000/i2c\@0/pmic\@4b/regulators/LDO3/rohm,,no-regulator-enable-control ;echo $?'
FNWQFGJXKB1
FNWQFGJXKB 0
root@arm:~# echo 'MATJ''CVVVXF'
MATJCVVVXF
root@arm:~# MARKER='CUHK''HPCXFT' run 'grep -r -l rohm,bd71847 /proc/device-tree  | sed '"'"'s![^/]*$!!'"'"''
CUHKHPCXFT/proc/device-tree/ocp/interconnect@48000000/segment@0/target-module@2a000/i2c@0/pmic@4b/
CUHKHPCXFT 0
root@arm:~# echo 'EVLC''YKJHBZ'
EVLCYKJHBZ
root@arm:~# MARKER='GPUO''TNVVCP' run 'test -f /proc/device-tree/ocp/interconnectt\@48000000/segment\@0/target-module\@2a000/i2c\@0/pmic\@4b/regulators/LDO3/regullator-always-on ;echo $?'
GPUOTNVVCP1
GPUOTNVVCP 0
root@arm:~# echo 'FHCO''FOMVTS'
FHCOFOMVTS
root@arm:~# MARKER='SOFB''HCMOQK' run 'echo 0 > /sys/kernel/mva_test/regulators/bbuck9_en'
SOFBHCMOQKSOFBHCMOQK 0
root@arm:~# echo 'BMHY''GKGYYH'
BMHYGKGYYH
root@arm:~# MARKER='AQGU''BZGYAE' run 'i2cget -y -f 1 0x4b 0x1a'
AQGUBZGYAE0x80
AQGUBZGYAE 0
root@arm:~# echo 'STVW''PWJVMU'
STVWPWJVMU
root@arm:~# MARKER='PMUW''ONJMUY' run 'grep -r -l rohm,bd71847 /proc/device-tree  | sed '"'"'s![^/]*$!!'"'"''
PMUWONJMUY/proc/device-tree/ocp/interconnect@48000000/segment@0/target-module@2a000/i2c@0/pmic@4b/
PMUWONJMUY 0
root@arm:~# echo 'CPEC''YTHWCB'
CPECYTHWCB
root@arm:~# MARKER='WCSL''XYNONG' run 'test -f /proc/device-tree/ocp/interconnectt\@48000000/segment\@0/target-module\@2a000/i2c\@0/pmic\@4b/regulators/LDO4/rohm,,no-regulator-enable-control ;echo $?'
WCSLXYNONG1
WCSLXYNONG 0
root@arm:~# echo 'HFGU''PALZBK'
HFGUPALZBK
root@arm:~# MARKER='GPTG''VLNSUL' run 'echo 1 > /sys/kernel/mva_test/regulators/bbuck10_en'
GPTGVLNSULGPTGVLNSUL 0
root@arm:~# echo 'OQME''ESBHSZ'
OQMEESBHSZ
root@arm:~# MARKER='UYHN''CYXKMN' run 'i2cget -y -f 1 0x4b 0x1b'
UYHNCYXKMN0xc0
UYHNCYXKMN 0
root@arm:~# echo 'QPYG''CQXPWE'
QPYGCQXPWE
root@arm:~# MARKER='FHNH''ABMOLT' run 'grep -r -l rohm,bd71847 /proc/device-tree  | sed '"'"'s![^/]*$!!'"'"''
FHNHABMOLT/proc/device-tree/ocp/interconnect@48000000/segment@0/target-module@2a000/i2c@0/pmic@4b/
FHNHABMOLT 0
root@arm:~# echo 'QAKH''SUVGEO'
QAKHSUVGEO
root@arm:~# MARKER='TNQZ''OHAQMX' run 'test -f /proc/device-tree/ocp/interconnectt\@48000000/segment\@0/target-module\@2a000/i2c\@0/pmic\@4b/regulators/LDO4/rohm,,no-regulator-enable-control ;echo $?'
TNQZOHAQMX1
TNQZOHAQMX 0
root@arm:~# echo 'BGXF''XABEJX'
BGXFXABEJX
root@arm:~# MARKER='WTXH''HPPMPT' run 'grep -r -l rohm,bd71847 /proc/device-tree  | sed '"'"'s![^/]*$!!'"'"''
WTXHHPPMPT/proc/device-tree/ocp/interconnect@48000000/segment@0/target-module@2a000/i2c@0/pmic@4b/
WTXHHPPMPT 0
root@arm:~# echo 'VAGW''GQAGVQ'
VAGWGQAGVQ
root@arm:~# MARKER='VQBM''LOWYWB' run 'test -f /proc/device-tree/ocp/interconnectt\@48000000/segment\@0/target-module\@2a000/i2c\@0/pmic\@4b/regulators/LDO4/regullator-always-on ;echo $?'
VQBMLOWYWB1
VQBMLOWYWB 0
root@arm:~# echo 'BEJJ''FGLXHL'
BEJJFGLXHL
root@arm:~# MARKER='PKJE''LMAONZ' run 'echo 0 > /sys/kernel/mva_test/regulators/bbuck10_en'
PKJELMAONZPKJELMAONZ 0
root@arm:~# echo 'HGZP''VMFECW'
HGZPVMFECW
root@arm:~# MARKER='YZOY''BKCYKL' run 'i2cget -y -f 1 0x4b 0x1b'
YZOYBKCYKL0x80
YZOYBKCYKL 0
root@arm:~# echo 'PYEC''VZVNUC'
PYECVZVNUC
root@arm:~# MARKER='ECWY''CKJSEL' run 'grep -r -l rohm,bd71847 /proc/device-tree  | sed '"'"'s![^/]*$!!'"'"''
ECWYCKJSEL/proc/device-tree/ocp/interconnect@48000000/segment@0/target-module@2a000/i2c@0/pmic@4b/
ECWYCKJSEL 0
root@arm:~# echo 'CYHG''OFYNBL'
CYHGOFYNBL
root@arm:~# MARKER='VWST''BTYONA' run 'test -f /proc/device-tree/ocp/interconnectt\@48000000/segment\@0/target-module\@2a000/i2c\@0/pmic\@4b/regulators/LDO5/rohm,,no-regulator-enable-control ;echo $?'
VWSTBTYONA0
VWSTBTYONA 0
root@arm:~# echo 'MSWV''NGQPHO'
MSWVNGQPHO
root@arm:~# MARKER='BKSG''HTPAMY' run 'grep -r -l rohm,bd71847 /proc/device-tree  | sed '"'"'s![^/]*$!!'"'"''
BKSGHTPAMY/proc/device-tree/ocp/interconnect@48000000/segment@0/target-module@2a000/i2c@0/pmic@4b/
BKSGHTPAMY 0
root@arm:~# echo 'XKKS''UPMZZY'
XKKSUPMZZY
root@arm:~# MARKER='CGNC''WZXFXG' run 'test -f /proc/device-tree/ocp/interconnectt\@48000000/segment\@0/target-module\@2a000/i2c\@0/pmic\@4b/regulators/LDO5/rohm,,no-regulator-enable-control ;echo $?'
CGNCWZXFXG0
CGNCWZXFXG 0
root@arm:~# echo 'YXML''CTNUKP'
YXMLCTNUKP
root@arm:~# MARKER='OTOL''SHGBZC' run 'grep -r -l rohm,bd71847 /proc/device-tree  | sed '"'"'s![^/]*$!!'"'"''
OTOLSHGBZC/proc/device-tree/ocp/interconnect@48000000/segment@0/target-module@2a000/i2c@0/pmic@4b/
OTOLSHGBZC 0
root@arm:~# echo 'VQMY''NQHWGY'
VQMYNQHWGY
root@arm:~# MARKER='AMJS''ZUVSFZ' run 'test -f /proc/device-tree/ocp/interconnectt\@48000000/segment\@0/target-module\@2a000/i2c\@0/pmic\@4b/regulators/LDO6/rohm,,no-regulator-enable-control ;echo $?'
AMJSZUVSFZ1
AMJSZUVSFZ 0
root@arm:~# echo 'NMOW''BOMZNP'
NMOWBOMZNP
root@arm:~# MARKER='OOFM''GUWVCO' run 'echo 1 > /sys/kernel/mva_test/regulators/bbuck12_en'
OOFMGUWVCOOOFMGUWVCO 0
root@arm:~# echo 'XHZO''KJJUXN'
XHZOKJJUXN
root@arm:~# MARKER='XTFX''VWVMVB' run 'i2cget -y -f 1 0x4b 0x1d'
XTFXVWVMVB0xc3
XTFXVWVMVB 0
root@arm:~# echo 'MOUH''QKGVQV'
MOUHQKGVQV
root@arm:~# MARKER='PBYN''ANBBYX' run 'grep -r -l rohm,bd71847 /proc/device-tree  | sed '"'"'s![^/]*$!!'"'"''
PBYNANBBYX/proc/device-tree/ocp/interconnect@48000000/segment@0/target-module@2a000/i2c@0/pmic@4b/
PBYNANBBYX 0
root@arm:~# echo 'LFWP''KTEOZT'
LFWPKTEOZT
root@arm:~# MARKER='TQCC''XZZAQZ' run 'test -f /proc/device-tree/ocp/interconnectt\@48000000/segment\@0/target-module\@2a000/i2c\@0/pmic\@4b/regulators/LDO6/rohm,,no-regulator-enable-control ;echo $?'
TQCCXZZAQZ1
TQCCXZZAQZ 0
root@arm:~# echo 'JKLQ''ZQBBMG'
JKLQZQBBMG
root@arm:~# MARKER='LJJB''ZQHABB' run 'grep -r -l rohm,bd71847 /proc/device-tree  | sed '"'"'s![^/]*$!!'"'"''
LJJBZQHABB/proc/device-tree/ocp/interconnect@48000000/segment@0/target-module@2a000/i2c@0/pmic@4b/
LJJBZQHABB 0
root@arm:~# echo 'FBXY''YJSSZU'
FBXYYJSSZU
root@arm:~# MARKER='PXFH''HOZXVA' run 'test -f /proc/device-tree/ocp/interconnectt\@48000000/segment\@0/target-module\@2a000/i2c\@0/pmic\@4b/regulators/LDO6/regullator-always-on ;echo $?'
PXFHHOZXVA1
PXFHHOZXVA 0
root@arm:~# echo 'GWVL''QMSQSN'
GWVLQMSQSN
root@arm:~# MARKER='HBJK''TPUOBP' run 'echo 0 > /sys/kernel/mva_test/regulators/bbuck12_en'
HBJKTPUOBPHBJKTPUOBP 0
root@arm:~# echo 'PJLH''AUZATP'
PJLHAUZATP
root@arm:~# MARKER='GBVM''VGXFLK' run 'i2cget -y -f 1 0x4b 0x1d'
GBVMVGXFLK0x83
GBVMVGXFLK 0
root@arm:~# Labgrid Console Logfile for main
Logfile started at 2025-02-18 07:58:13.966177
=== Log starts here ===

root@arm:~# run() { echo -n "$MARKER"; sh -c "$@"; echo "$MARKER $?"; }
root@arm:~# echo 'JOBT''JBLFST'
JOBTJBLFST
root@arm:~# MARKER='ZELO''SYLLZH' run 'grep -r -l rohm,bd71847 /proc/device-tree  | sed '"'"'s![^/]*$!!'"'"''
ZELOSYLLZH/proc/device-tree/ocp/interconnect@48000000/segment@0/target-module@2a000/i2c@0/pmic@4b/
ZELOSYLLZH 0
root@arm:~# echo 'YPNF''KLBYWB'
YPNFKLBYWB
root@arm:~# MARKER='NPHM''ZMWCGZ' run 'test -f /proc/device-tree/ocp/interconnectt\@48000000/segment\@0/target-module\@2a000/i2c\@0/pmic\@4b/regulators/BUCK1/rohmm,no-regulator-enable-control ;echo $?'
NPHMZMWCGZ1
NPHMZMWCGZ 0
root@arm:~# echo 'GHBK''SSUEOO'
GHBKSSUEOO
root@arm:~# MARKER='GFFL''XXAMCG' run 'i2cget -y -f 1 0x4b 0x5'
GFFLXXAMCG0x02
GFFLXXAMCG 0
root@arm:~# echo 'UPQL''EXQEFF'
UPQLEXQEFF
root@arm:~# MARKER='HBTC''WKEWPH' run 'echo 700000 700000 > /sys/kernel/mva_test//regulators/buck1_set'
HBTCWKEWPHHBTCWKEWPH 0
root@arm:~# echo 'BTZV''OYHEOJ'
BTZVOYHEOJ
root@arm:~# MARKER='FPLA''WFZBSM' run 'i2cget -y -f 1 0x4b 0xd'
FPLAWFZBSM0x00
FPLAWFZBSM 0
root@arm:~# echo 'GXYM''YUBQYB'
GXYMYUBQYB
root@arm:~# MARKER='LGQH''VMTVXC' run 'echo 710000 710000 > /sys/kernel/mva_test//regulators/buck1_set'
LGQHVMTVXCLGQHVMTVXC 0
root@arm:~# echo 'PHFJ''ZMCMFC'
PHFJZMCMFC
root@arm:~# MARKER='KHEB''VQQOBV' run 'i2cget -y -f 1 0x4b 0xd'
KHEBVQQOBV0x01
KHEBVQQOBV 0
root@arm:~# echo 'HBOU''UXXCAP'
HBOUUXXCAP
root@arm:~# MARKER='QEOY''ACQQLA' run 'echo 720000 720000 > /sys/kernel/mva_test//regulators/buck1_set'
QEOYACQQLAQEOYACQQLA 0
root@arm:~# echo 'JTPH''JTNFWB'
JTPHJTNFWB
root@arm:~# MARKER='TBQF''GYKOTE' run 'i2cget -y -f 1 0x4b 0xd'
TBQFGYKOTE0x02
TBQFGYKOTE 0
root@arm:~# echo 'ZXEG''QJBVGF'
ZXEGQJBVGF
root@arm:~# MARKER='WUYS''EFVYVT' run 'echo 730000 730000 > /sys/kernel/mva_test//regulators/buck1_set'
WUYSEFVYVTWUYSEFVYVT 0
root@arm:~# echo 'WQKB''CFUHGB'
WQKBCFUHGB
root@arm:~# MARKER='NPMF''HMASFC' run 'i2cget -y -f 1 0x4b 0xd'
NPMFHMASFC0x03
NPMFHMASFC 0
root@arm:~# echo 'HSYN''PGTLEO'
HSYNPGTLEO
root@arm:~# MARKER='OPWB''PSQSOK' run 'echo 740000 740000 > /sys/kernel/mva_test//regulators/buck1_set'
OPWBPSQSOKOPWBPSQSOK 0
root@arm:~# echo 'THGF''SZQLJN'
THGFSZQLJN
root@arm:~# MARKER='ZPLW''COQONY' run 'i2cget -y -f 1 0x4b 0xd'
ZPLWCOQONY0x04
ZPLWCOQONY 0
root@arm:~# echo 'FQBJ''XPXKMY'
FQBJXPXKMY
root@arm:~# MARKER='UMBP''MFCJEM' run 'echo 750000 750000 > /sys/kernel/mva_test//regulators/buck1_set'
UMBPMFCJEMUMBPMFCJEM 0
root@arm:~# echo 'WMUM''WPFUYP'
WMUMWPFUYP
root@arm:~# MARKER='ZUPA''TUPXOW' run 'i2cget -y -f 1 0x4b 0xd'
ZUPATUPXOW0x05
ZUPATUPXOW 0
root@arm:~# echo 'FLUA''CACBPS'
FLUACACBPS
root@arm:~# MARKER='KVQT''EMLEHN' run 'echo 760000 760000 > /sys/kernel/mva_test//regulators/buck1_set'
KVQTEMLEHNKVQTEMLEHN 0
root@arm:~# echo 'MQKB''UVGJLJ'
MQKBUVGJLJ
root@arm:~# MARKER='PFBB''FJAZYT' run 'i2cget -y -f 1 0x4b 0xd'
PFBBFJAZYT0x06
PFBBFJAZYT 0
root@arm:~# echo 'KPAT''YEZBWV'
KPATYEZBWV
root@arm:~# MARKER='CLTY''MXNAAQ' run 'echo 770000 770000 > /sys/kernel/mva_test//regulators/buck1_set'
CLTYMXNAAQCLTYMXNAAQ 0
root@arm:~# echo 'FFTQ''JFQUPO'
FFTQJFQUPO
root@arm:~# MARKER='QLOT''BKUKWP' run 'i2cget -y -f 1 0x4b 0xd'
QLOTBKUKWP0x07
QLOTBKUKWP 0
root@arm:~# echo 'MTUV''QZBPFO'
MTUVQZBPFO
root@arm:~# MARKER='HSMJ''KPLSBX' run 'echo 780000 780000 > /sys/kernel/mva_test//regulators/buck1_set'
HSMJKPLSBXHSMJKPLSBX 0
root@arm:~# echo 'SHWN''MCGVKA'
SHWNMCGVKA
root@arm:~# MARKER='TAPY''MUZOPE' run 'i2cget -y -f 1 0x4b 0xd'
TAPYMUZOPE0x08
TAPYMUZOPE 0
root@arm:~# echo 'FLSF''QJSBZV'
FLSFQJSBZV
root@arm:~# MARKER='QHZG''QZNYQC' run 'echo 790000 790000 > /sys/kernel/mva_test//regulators/buck1_set'
QHZGQZNYQCQHZGQZNYQC 0
root@arm:~# echo 'MKMC''LQVJXQ'
MKMCLQVJXQ
root@arm:~# MARKER='SUHQ''KUPWTB' run 'i2cget -y -f 1 0x4b 0xd'
SUHQKUPWTB0x09
SUHQKUPWTB 0
root@arm:~# echo 'CAYM''LQZGHT'
CAYMLQZGHT
root@arm:~# MARKER='UCUA''YYJABO' run 'echo 800000 800000 > /sys/kernel/mva_test//regulators/buck1_set'
UCUAYYJABOUCUAYYJABO 0
root@arm:~# echo 'ZMWZ''QVJBGG'
ZMWZQVJBGG
root@arm:~# MARKER='SWKX''CKBWAL' run 'i2cget -y -f 1 0x4b 0xd'
SWKXCKBWAL0x0a
SWKXCKBWAL 0
root@arm:~# echo 'OHTP''WNHUEE'
OHTPWNHUEE
root@arm:~# MARKER='EXBJ''OBOAXW' run 'echo 810000 810000 > /sys/kernel/mva_test//regulators/buck1_set'
EXBJOBOAXWEXBJOBOAXW 0
root@arm:~# echo 'AEZW''FKNXOZ'
AEZWFKNXOZ
root@arm:~# MARKER='MHYT''HQUWAY' run 'i2cget -y -f 1 0x4b 0xd'
MHYTHQUWAY0x0b
MHYTHQUWAY 0
root@arm:~# echo 'CBKY''AWUFPQ'
CBKYAWUFPQ
root@arm:~# MARKER='CLFX''XQTCAT' run 'echo 820000 820000 > /sys/kernel/mva_test//regulators/buck1_set'
CLFXXQTCATCLFXXQTCAT 0
root@arm:~# echo 'PQTF''WFOTTS'
PQTFWFOTTS
root@arm:~# MARKER='VXPL''PJLMYH' run 'i2cget -y -f 1 0x4b 0xd'
VXPLPJLMYH0x0c
VXPLPJLMYH 0
root@arm:~# echo 'ZTYF''TJYOFS'
ZTYFTJYOFS
root@arm:~# MARKER='WEXX''LGNZPP' run 'echo 830000 830000 > /sys/kernel/mva_test//regulators/buck1_set'
WEXXLGNZPPWEXXLGNZPP 0
root@arm:~# echo 'PMTU''HAGPZJ'
PMTUHAGPZJ
root@arm:~# MARKER='FMNW''WCSGVA' run 'i2cget -y -f 1 0x4b 0xd'
FMNWWCSGVA0x0d
FMNWWCSGVA 0
root@arm:~# echo 'NOXF''YNVEEP'
NOXFYNVEEP
root@arm:~# MARKER='QLXN''SYMOPL' run 'echo 840000 840000 > /sys/kernel/mva_test//regulators/buck1_set'
QLXNSYMOPLQLXNSYMOPL 0
root@arm:~# echo 'WASB''KAVJLC'
WASBKAVJLC
root@arm:~# MARKER='JPCX''CAOWPV' run 'i2cget -y -f 1 0x4b 0xd'
JPCXCAOWPV0x0e
JPCXCAOWPV 0
root@arm:~# echo 'MPGL''YAMLHN'
MPGLYAMLHN
root@arm:~# MARKER='MMMO''VFCSBQ' run 'echo 850000 850000 > /sys/kernel/mva_test//regulators/buck1_set'
MMMOVFCSBQMMMOVFCSBQ 0
root@arm:~# echo 'UXYG''YEAFXW'
UXYGYEAFXW
root@arm:~# MARKER='ZFOX''LTVNKV' run 'i2cget -y -f 1 0x4b 0xd'
ZFOXLTVNKV0x0f
ZFOXLTVNKV 0
root@arm:~# echo 'UWYX''CUFPWL'
UWYXCUFPWL
root@arm:~# MARKER='TTGZ''VUWQSK' run 'echo 860000 860000 > /sys/kernel/mva_test//regulators/buck1_set'
TTGZVUWQSKTTGZVUWQSK 0
root@arm:~# echo 'YTNL''JMCHWC'
YTNLJMCHWC
root@arm:~# MARKER='JONV''FSFJXF' run 'i2cget -y -f 1 0x4b 0xd'
JONVFSFJXF0x10
JONVFSFJXF 0
root@arm:~# echo 'KYWG''NBYCNN'
KYWGNBYCNN
root@arm:~# MARKER='KOBG''NMMSWK' run 'echo 870000 870000 > /sys/kernel/mva_test//regulators/buck1_set'
KOBGNMMSWKKOBGNMMSWK 0
root@arm:~# echo 'FZFO''YHLZHN'
FZFOYHLZHN
root@arm:~# MARKER='NNSP''VFXHJZ' run 'i2cget -y -f 1 0x4b 0xd'
NNSPVFXHJZ0x11
NNSPVFXHJZ 0
root@arm:~# echo 'YFSK''KAJJYX'
YFSKKAJJYX
root@arm:~# MARKER='JCPS''WQAXUU' run 'echo 880000 880000 > /sys/kernel/mva_test//regulators/buck1_set'
JCPSWQAXUUJCPSWQAXUU 0
root@arm:~# echo 'FGML''SEJCYG'
FGMLSEJCYG
root@arm:~# MARKER='CHLZ''GCFCMV' run 'i2cget -y -f 1 0x4b 0xd'
CHLZGCFCMV0x12
CHLZGCFCMV 0
root@arm:~# echo 'EATG''WLOULK'
EATGWLOULK
root@arm:~# MARKER='VJSA''SAELGK' run 'echo 890000 890000 > /sys/kernel/mva_test//regulators/buck1_set'
VJSASAELGKVJSASAELGK 0
root@arm:~# echo 'AOTZ''BLVFTK'
AOTZBLVFTK
root@arm:~# MARKER='CFSK''XZTGFN' run 'i2cget -y -f 1 0x4b 0xd'
CFSKXZTGFN0x13
CFSKXZTGFN 0
root@arm:~# echo 'XNYG''KEPALG'
XNYGKEPALG
root@arm:~# MARKER='ZLYK''SBUQVQ' run 'echo 900000 900000 > /sys/kernel/mva_test//regulators/buck1_set'
ZLYKSBUQVQZLYKSBUQVQ 0
root@arm:~# echo 'YYNM''YLBQOV'
YYNMYLBQOV
root@arm:~# MARKER='SOOK''ZJYJKU' run 'i2cget -y -f 1 0x4b 0xd'
SOOKZJYJKU0x14
SOOKZJYJKU 0
root@arm:~# echo 'GBVT''BSANKE'
GBVTBSANKE
root@arm:~# MARKER='QSLO''HJTQQM' run 'echo 910000 910000 > /sys/kernel/mva_test//regulators/buck1_set'
QSLOHJTQQMQSLOHJTQQM 0
root@arm:~# echo 'JUBU''EGTUZT'
JUBUEGTUZT
root@arm:~# MARKER='LNLU''POKELF' run 'i2cget -y -f 1 0x4b 0xd'
LNLUPOKELF0x15
LNLUPOKELF 0
root@arm:~# echo 'XSCJ''FVXJCZ'
XSCJFVXJCZ
root@arm:~# MARKER='THVH''NESHZH' run 'echo 920000 920000 > /sys/kernel/mva_test//regulators/buck1_set'
THVHNESHZHTHVHNESHZH 0
root@arm:~# echo 'NEUQ''THGUOY'
NEUQTHGUOY
root@arm:~# MARKER='JGHB''JMJSTV' run 'i2cget -y -f 1 0x4b 0xd'
JGHBJMJSTV0x16
JGHBJMJSTV 0
root@arm:~# echo 'SYGN''OATWHK'
SYGNOATWHK
root@arm:~# MARKER='FOUO''XTCHJN' run 'echo 930000 930000 > /sys/kernel/mva_test//regulators/buck1_set'
FOUOXTCHJNFOUOXTCHJN 0
root@arm:~# echo 'FEVF''QLABBK'
FEVFQLABBK
root@arm:~# MARKER='UYQE''AQZLQM' run 'i2cget -y -f 1 0x4b 0xd'
UYQEAQZLQM0x17
UYQEAQZLQM 0
root@arm:~# echo 'ZBTP''CVWFYT'
ZBTPCVWFYT
root@arm:~# MARKER='QHFU''LFYSBF' run 'echo 940000 940000 > /sys/kernel/mva_test//regulators/buck1_set'
QHFULFYSBFQHFULFYSBF 0
root@arm:~# echo 'LMCP''MPLPOO'
LMCPMPLPOO
root@arm:~# MARKER='CHZF''VONOPN' run 'i2cget -y -f 1 0x4b 0xd'
CHZFVONOPN0x18
CHZFVONOPN 0
root@arm:~# echo 'MOCE''HAWYGE'
MOCEHAWYGE
root@arm:~# MARKER='BLVP''YKTCYS' run 'echo 950000 950000 > /sys/kernel/mva_test//regulators/buck1_set'
BLVPYKTCYSBLVPYKTCYS 0
root@arm:~# echo 'JLCV''MVKJOG'
JLCVMVKJOG
root@arm:~# MARKER='BEPM''UPKWNT' run 'i2cget -y -f 1 0x4b 0xd'
BEPMUPKWNT0x19
BEPMUPKWNT 0
root@arm:~# echo 'XETG''EMFPNJ'
XETGEMFPNJ
root@arm:~# MARKER='LSGL''KZSBQW' run 'echo 960000 960000 > /sys/kernel/mva_test//regulators/buck1_set'
LSGLKZSBQWLSGLKZSBQW 0
root@arm:~# echo 'QOKP''FOOKXJ'
QOKPFOOKXJ
root@arm:~# MARKER='QMOX''LXZOOV' run 'i2cget -y -f 1 0x4b 0xd'
QMOXLXZOOV0x1a
QMOXLXZOOV 0
root@arm:~# echo 'OLGX''PLHLHY'
OLGXPLHLHY
root@arm:~# MARKER='HMKB''YYTVJX' run 'echo 970000 970000 > /sys/kernel/mva_test//regulators/buck1_set'
HMKBYYTVJXHMKBYYTVJX 0
root@arm:~# echo 'FYWJ''JLZHEC'
FYWJJLZHEC
root@arm:~# MARKER='MYAW''BYOBNG' run 'i2cget -y -f 1 0x4b 0xd'
MYAWBYOBNG0x1b
MYAWBYOBNG 0
root@arm:~# echo 'USCJ''SFMBTM'
USCJSFMBTM
root@arm:~# MARKER='SVMN''OTGPJX' run 'echo 980000 980000 > /sys/kernel/mva_test//regulators/buck1_set'
SVMNOTGPJXSVMNOTGPJX 0
root@arm:~# echo 'TVOE''EXFJCW'
TVOEEXFJCW
root@arm:~# MARKER='NOZU''NFUHUH' run 'i2cget -y -f 1 0x4b 0xd'
NOZUNFUHUH0x1c
NOZUNFUHUH 0
root@arm:~# echo 'VFKH''CSFGTL'
VFKHCSFGTL
root@arm:~# MARKER='QKNV''BKSUZU' run 'echo 990000 990000 > /sys/kernel/mva_test//regulators/buck1_set'
QKNVBKSUZUQKNVBKSUZU 0
root@arm:~# echo 'FZVC''GUXMPH'
FZVCGUXMPH
root@arm:~# MARKER='WWJO''JXQGEU' run 'i2cget -y -f 1 0x4b 0xd'
WWJOJXQGEU0x1d
WWJOJXQGEU 0
root@arm:~# echo 'LQCM''PWAVUW'
LQCMPWAVUW
root@arm:~# MARKER='MOPE''VWWGJE' run 'echo 1000000 1000000 > /sys/kernel/mva_tesst/regulators/buck1_set'
MOPEVWWGJEMOPEVWWGJE 0
root@arm:~# echo 'NBPN''FXVKXU'
NBPNFXVKXU
root@arm:~# MARKER='OXUB''KOCAPU' run 'i2cget -y -f 1 0x4b 0xd'
OXUBKOCAPU0x1e
OXUBKOCAPU 0
root@arm:~# echo 'JYPX''JTKPYB'
JYPXJTKPYB
root@arm:~# MARKER='CFLX''XJZFNC' run 'echo 1010000 1010000 > /sys/kernel/mva_tesst/regulators/buck1_set'
CFLXXJZFNCCFLXXJZFNC 0
root@arm:~# echo 'TUEH''YOMGWH'
TUEHYOMGWH
root@arm:~# MARKER='CAJM''ZOBHBQ' run 'i2cget -y -f 1 0x4b 0xd'
CAJMZOBHBQ0x1f
CAJMZOBHBQ 0
root@arm:~# echo 'FKPW''OTEPKX'
FKPWOTEPKX
root@arm:~# MARKER='MXLN''MXYJNL' run 'echo 1020000 1020000 > /sys/kernel/mva_tesst/regulators/buck1_set'
MXLNMXYJNLMXLNMXYJNL 0
root@arm:~# echo 'OJCJ''UNMSAF'
OJCJUNMSAF
root@arm:~# MARKER='MXHW''VAKMQT' run 'i2cget -y -f 1 0x4b 0xd'
MXHWVAKMQT0x20
MXHWVAKMQT 0
root@arm:~# echo 'VJMS''XTSTZZ'
VJMSXTSTZZ
root@arm:~# MARKER='NMPX''YVYBEM' run 'echo 1030000 1030000 > /sys/kernel/mva_tesst/regulators/buck1_set'
NMPXYVYBEMNMPXYVYBEM 0
root@arm:~# echo 'XOYJ''GECBLC'
XOYJGECBLC
root@arm:~# MARKER='BFTE''PUJVSC' run 'i2cget -y -f 1 0x4b 0xd'
BFTEPUJVSC0x21
BFTEPUJVSC 0
root@arm:~# echo 'TPGF''QKLEOX'
TPGFQKLEOX
root@arm:~# MARKER='YHGF''VJOQAZ' run 'echo 1040000 1040000 > /sys/kernel/mva_tesst/regulators/buck1_set'
YHGFVJOQAZYHGFVJOQAZ 0
root@arm:~# echo 'BAZG''TUOEVO'
BAZGTUOEVO
root@arm:~# MARKER='YKQP''WVFJOW' run 'i2cget -y -f 1 0x4b 0xd'
YKQPWVFJOW0x22
YKQPWVFJOW 0
root@arm:~# echo 'XJAK''PMMNWN'
XJAKPMMNWN
root@arm:~# MARKER='VMGP''KUGVVP' run 'echo 1050000 1050000 > /sys/kernel/mva_tesst/regulators/buck1_set'
VMGPKUGVVPVMGPKUGVVP 0
root@arm:~# echo 'YTGA''QFVCFS'
YTGAQFVCFS
root@arm:~# MARKER='LLCY''LQGPYF' run 'i2cget -y -f 1 0x4b 0xd'
LLCYLQGPYF0x23
LLCYLQGPYF 0
root@arm:~# echo 'CTTJ''EVPZZC'
CTTJEVPZZC
root@arm:~# MARKER='AKZP''ECKSUN' run 'echo 1060000 1060000 > /sys/kernel/mva_tesst/regulators/buck1_set'
AKZPECKSUNAKZPECKSUN 0
root@arm:~# echo 'HXZE''CYTOGF'
HXZECYTOGF
root@arm:~# MARKER='QYXK''OUEZFG' run 'i2cget -y -f 1 0x4b 0xd'
QYXKOUEZFG0x24
QYXKOUEZFG 0
root@arm:~# echo 'NPZE''ZNENJE'
NPZEZNENJE
root@arm:~# MARKER='OXLL''GNOQZH' run 'echo 1070000 1070000 > /sys/kernel/mva_tesst/regulators/buck1_set'
OXLLGNOQZHOXLLGNOQZH 0
root@arm:~# echo 'KJNB''SLMXBG'
KJNBSLMXBG
root@arm:~# MARKER='MPKW''NSNKSQ' run 'i2cget -y -f 1 0x4b 0xd'
MPKWNSNKSQ0x25
MPKWNSNKSQ 0
root@arm:~# echo 'JUPL''CJSFFZ'
JUPLCJSFFZ
root@arm:~# MARKER='GZPS''ZGWOAP' run 'echo 1080000 1080000 > /sys/kernel/mva_tesst/regulators/buck1_set'
GZPSZGWOAPGZPSZGWOAP 0
root@arm:~# echo 'GYKS''JMQQTX'
GYKSJMQQTX
root@arm:~# MARKER='OPMH''XGCLBP' run 'i2cget -y -f 1 0x4b 0xd'
OPMHXGCLBP0x26
OPMHXGCLBP 0
root@arm:~# echo 'JGJO''PQTSGY'
JGJOPQTSGY
root@arm:~# MARKER='SOQU''PXLJGC' run 'echo 1090000 1090000 > /sys/kernel/mva_tesst/regulators/buck1_set'
SOQUPXLJGCSOQUPXLJGC 0
root@arm:~# echo 'BGUJ''KAYHWN'
BGUJKAYHWN
root@arm:~# MARKER='JWON''AOVQNF' run 'i2cget -y -f 1 0x4b 0xd'
JWONAOVQNF0x27
JWONAOVQNF 0
root@arm:~# echo 'QSUL''PZEAKC'
QSULPZEAKC
root@arm:~# MARKER='JYKU''TCKZBC' run 'echo 1100000 1100000 > /sys/kernel/mva_tesst/regulators/buck1_set'
JYKUTCKZBCJYKUTCKZBC 0
root@arm:~# echo 'MUUC''AOXLUO'
MUUCAOXLUO
root@arm:~# MARKER='XHFW''WYUTWZ' run 'i2cget -y -f 1 0x4b 0xd'
XHFWWYUTWZ0x28
XHFWWYUTWZ 0
root@arm:~# echo 'ZOFK''JQXWAX'
ZOFKJQXWAX
root@arm:~# MARKER='GBFW''ZUFCZZ' run 'echo 1110000 1110000 > /sys/kernel/mva_tesst/regulators/buck1_set'
GBFWZUFCZZGBFWZUFCZZ 0
root@arm:~# echo 'GATN''GPTCZV'
GATNGPTCZV
root@arm:~# MARKER='JBWW''OYKPCW' run 'i2cget -y -f 1 0x4b 0xd'
JBWWOYKPCW0x29
JBWWOYKPCW 0
root@arm:~# echo 'BKUK''TQFOQX'
BKUKTQFOQX
root@arm:~# MARKER='TTHV''NQJETY' run 'echo 1120000 1120000 > /sys/kernel/mva_tesst/regulators/buck1_set'
TTHVNQJETYTTHVNQJETY 0
root@arm:~# echo 'QNQW''XLVEUZ'
QNQWXLVEUZ
root@arm:~# MARKER='CGAY''EWAZSS' run 'i2cget -y -f 1 0x4b 0xd'
CGAYEWAZSS0x2a
CGAYEWAZSS 0
root@arm:~# echo 'GZLF''QZENQQ'
GZLFQZENQQ
root@arm:~# MARKER='WXCJ''WCZVYG' run 'echo 1130000 1130000 > /sys/kernel/mva_tesst/regulators/buck1_set'
WXCJWCZVYGWXCJWCZVYG 0
root@arm:~# echo 'WZJF''HCYSLT'
WZJFHCYSLT
root@arm:~# MARKER='XGKS''GABQPU' run 'i2cget -y -f 1 0x4b 0xd'
XGKSGABQPU0x2b
XGKSGABQPU 0
root@arm:~# echo 'QTMZ''HLXWYF'
QTMZHLXWYF
root@arm:~# MARKER='UVFN''SGHJTY' run 'echo 1140000 1140000 > /sys/kernel/mva_tesst/regulators/buck1_set'
UVFNSGHJTYUVFNSGHJTY 0
root@arm:~# echo 'SHTX''SXWQFU'
SHTXSXWQFU
root@arm:~# MARKER='HNEF''CMTUZC' run 'i2cget -y -f 1 0x4b 0xd'
HNEFCMTUZC0x2c
HNEFCMTUZC 0
root@arm:~# echo 'UMBC''PKPQBK'
UMBCPKPQBK
root@arm:~# MARKER='SVWZ''GTUJSL' run 'echo 1150000 1150000 > /sys/kernel/mva_tesst/regulators/buck1_set'
SVWZGTUJSLSVWZGTUJSL 0
root@arm:~# echo 'TXQZ''BGSQMO'
TXQZBGSQMO
root@arm:~# MARKER='CVNK''WANPGJ' run 'i2cget -y -f 1 0x4b 0xd'
CVNKWANPGJ0x2d
CVNKWANPGJ 0
root@arm:~# echo 'PNXS''JKYLKU'
PNXSJKYLKU
root@arm:~# MARKER='TGLX''LFENOU' run 'echo 1160000 1160000 > /sys/kernel/mva_tesst/regulators/buck1_set'
TGLXLFENOUTGLXLFENOU 0
root@arm:~# echo 'VWJU''UEVGWX'
VWJUUEVGWX
root@arm:~# MARKER='KGVZ''NWGKTT' run 'i2cget -y -f 1 0x4b 0xd'
KGVZNWGKTT0x2e
KGVZNWGKTT 0
root@arm:~# echo 'HJPJ''TSXCVS'
HJPJTSXCVS
root@arm:~# MARKER='NTGP''QPXAGA' run 'echo 1170000 1170000 > /sys/kernel/mva_tesst/regulators/buck1_set'
NTGPQPXAGANTGPQPXAGA 0
root@arm:~# echo 'PSGV''AJHGYN'
PSGVAJHGYN
root@arm:~# MARKER='BXQQ''HCYKSC' run 'i2cget -y -f 1 0x4b 0xd'
BXQQHCYKSC0x2f
BXQQHCYKSC 0
root@arm:~# echo 'CUUV''HTYEOG'
CUUVHTYEOG
root@arm:~# MARKER='ESYQ''QEVCGJ' run 'echo 1180000 1180000 > /sys/kernel/mva_tesst/regulators/buck1_set'
ESYQQEVCGJESYQQEVCGJ 0
root@arm:~# echo 'QAPF''KNLFPQ'
QAPFKNLFPQ
root@arm:~# MARKER='USMZ''NOKKNW' run 'i2cget -y -f 1 0x4b 0xd'
USMZNOKKNW0x30
USMZNOKKNW 0
root@arm:~# echo 'YXVQ''AQNMBX'
YXVQAQNMBX
root@arm:~# MARKER='QYWA''KCQEHY' run 'echo 1190000 1190000 > /sys/kernel/mva_tesst/regulators/buck1_set'
QYWAKCQEHYQYWAKCQEHY 0
root@arm:~# echo 'VNJN''LSWEZB'
VNJNLSWEZB
root@arm:~# MARKER='GYWF''TLVCJN' run 'i2cget -y -f 1 0x4b 0xd'
GYWFTLVCJN0x31
GYWFTLVCJN 0
root@arm:~# echo 'GKAE''FBEJYH'
GKAEFBEJYH
root@arm:~# MARKER='TNQV''GGCXAF' run 'echo 1200000 1200000 > /sys/kernel/mva_tesst/regulators/buck1_set'
TNQVGGCXAFTNQVGGCXAF 0
root@arm:~# echo 'JZGE''HSACPZ'
JZGEHSACPZ
root@arm:~# MARKER='QZGV''ZKVJVO' run 'i2cget -y -f 1 0x4b 0xd'
QZGVZKVJVO0x32
QZGVZKVJVO 0
root@arm:~# echo 'VVHP''GALUTO'
VVHPGALUTO
root@arm:~# MARKER='AHTZ''QSSSNG' run 'echo 1210000 1210000 > /sys/kernel/mva_tesst/regulators/buck1_set'
AHTZQSSSNGAHTZQSSSNG 0
root@arm:~# echo 'SZAP''HGVXTF'
SZAPHGVXTF
root@arm:~# MARKER='HUOG''OJYGNN' run 'i2cget -y -f 1 0x4b 0xd'
HUOGOJYGNN0x33
HUOGOJYGNN 0
root@arm:~# echo 'LKGK''FVXJLB'
LKGKFVXJLB
root@arm:~# MARKER='GNMV''OOSUGO' run 'echo 1220000 1220000 > /sys/kernel/mva_tesst/regulators/buck1_set'
GNMVOOSUGOGNMVOOSUGO 0
root@arm:~# echo 'BNSZ''PSKMPB'
BNSZPSKMPB
root@arm:~# MARKER='PVTQ''ZJLKPP' run 'i2cget -y -f 1 0x4b 0xd'
PVTQZJLKPP0x34
PVTQZJLKPP 0
root@arm:~# echo 'HGSS''NWENWJ'
HGSSNWENWJ
root@arm:~# MARKER='QVFJ''UZGLYN' run 'echo 1230000 1230000 > /sys/kernel/mva_tesst/regulators/buck1_set'
QVFJUZGLYNQVFJUZGLYN 0
root@arm:~# echo 'UYFQ''EABPMP'
UYFQEABPMP
root@arm:~# MARKER='ASQY''YGCQVO' run 'i2cget -y -f 1 0x4b 0xd'
ASQYYGCQVO0x35
ASQYYGCQVO 0
root@arm:~# echo 'NOAJ''FOLFSY'
NOAJFOLFSY
root@arm:~# MARKER='HPAQ''THSWPQ' run 'echo 1240000 1240000 > /sys/kernel/mva_tesst/regulators/buck1_set'
HPAQTHSWPQHPAQTHSWPQ 0
root@arm:~# echo 'NAGL''HJMLQO'
NAGLHJMLQO
root@arm:~# MARKER='FPMP''HHVWQM' run 'i2cget -y -f 1 0x4b 0xd'
FPMPHHVWQM0x36
FPMPHHVWQM 0
root@arm:~# echo 'AGJE''HGAJUN'
AGJEHGAJUN
root@arm:~# MARKER='TNTX''HXTEEU' run 'echo 1250000 1250000 > /sys/kernel/mva_tesst/regulators/buck1_set'
TNTXHXTEEUTNTXHXTEEU 0
root@arm:~# echo 'TNFV''NTOLXF'
TNFVNTOLXF
root@arm:~# MARKER='TYMW''BOYCCC' run 'i2cget -y -f 1 0x4b 0xd'
TYMWBOYCCC0x37
TYMWBOYCCC 0
root@arm:~# echo 'NQXX''KHTPJJ'
NQXXKHTPJJ
root@arm:~# MARKER='UXNC''PCABJA' run 'echo 1260000 1260000 > /sys/kernel/mva_tesst/regulators/buck1_set'
UXNCPCABJAUXNCPCABJA 0
root@arm:~# echo 'AWQN''SUMEAA'
AWQNSUMEAA
root@arm:~# MARKER='UQZO''NCJFAM' run 'i2cget -y -f 1 0x4b 0xd'
UQZONCJFAM0x38
UQZONCJFAM 0
root@arm:~# echo 'MOPW''XHPMZP'
MOPWXHPMZP
root@arm:~# MARKER='HMCW''FAPSHY' run 'echo 1270000 1270000 > /sys/kernel/mva_tesst/regulators/buck1_set'
HMCWFAPSHYHMCWFAPSHY 0
root@arm:~# echo 'ZTHW''ZQBBJZ'
ZTHWZQBBJZ
root@arm:~# MARKER='WWUV''PVMCXS' run 'i2cget -y -f 1 0x4b 0xd'
WWUVPVMCXS0x39
WWUVPVMCXS 0
root@arm:~# echo 'KJFQ''SOHPCJ'
KJFQSOHPCJ
root@arm:~# MARKER='AVYQ''XPMLLH' run 'echo 1280000 1280000 > /sys/kernel/mva_tesst/regulators/buck1_set'
AVYQXPMLLHAVYQXPMLLH 0
root@arm:~# echo 'TLQZ''UWLNNL'
TLQZUWLNNL
root@arm:~# MARKER='SSON''QNXSJC' run 'i2cget -y -f 1 0x4b 0xd'
SSONQNXSJC0x3a
SSONQNXSJC 0
root@arm:~# echo 'PQGL''XOXSWO'
PQGLXOXSWO
root@arm:~# MARKER='NTWH''LSYAOU' run 'echo 1290000 1290000 > /sys/kernel/mva_tesst/regulators/buck1_set'
NTWHLSYAOUNTWHLSYAOU 0
root@arm:~# echo 'ZULB''TFTHBU'
ZULBTFTHBU
root@arm:~# MARKER='CFQO''PMGUYC' run 'i2cget -y -f 1 0x4b 0xd'
CFQOPMGUYC0x3b
CFQOPMGUYC 0
root@arm:~# echo 'VCNS''QVQABY'
VCNSQVQABY
root@arm:~# MARKER='VUWL''ZHJWMU' run 'echo 1300000 1300000 > /sys/kernel/mva_tesst/regulators/buck1_set'
VUWLZHJWMUVUWLZHJWMU 0
root@arm:~# echo 'MKJU''QQFHNE'
MKJUQQFHNE
root@arm:~# MARKER='TZJV''HCBBWQ' run 'i2cget -y -f 1 0x4b 0xd'
TZJVHCBBWQ0x3c
TZJVHCBBWQ 0
root@arm:~# echo 'VXUX''EXWBYV'
VXUXEXWBYV
root@arm:~# MARKER='PCWW''HAOYAG' run 'grep -r -l rohm,bd71847 /proc/device-tree  | sed '"'"'s![^/]*$!!'"'"''
PCWWHAOYAG/proc/device-tree/ocp/interconnect@48000000/segment@0/target-module@2a000/i2c@0/pmic@4b/
PCWWHAOYAG 0
root@arm:~# echo 'UUXK''OUMGPM'
UUXKOUMGPM
root@arm:~# MARKER='VMWO''LNTBAA' run 'test -f /proc/device-tree/ocp/interconnectt\@48000000/segment\@0/target-module\@2a000/i2c\@0/pmic\@4b/regulators/BUCK2/rohmm,no-regulator-enable-control ;echo $?'
VMWOLNTBAA1
VMWOLNTBAA 0
root@arm:~# echo 'HVMT''WYXJGS'
HVMTWYXJGS
root@arm:~# MARKER='CEYS''WFBUXO' run 'i2cget -y -f 1 0x4b 0x6'
CEYSWFBUXO0x43
CEYSWFBUXO 0
root@arm:~# echo 'QZAF''GOTPYO'
QZAFGOTPYO
root@arm:~# MARKER='MOQP''WYTPYU' run 'echo 700000 700000 > /sys/kernel/mva_test//regulators/buck2_set'
MOQPWYTPYUMOQPWYTPYU 0
root@arm:~# echo 'BFQN''CBKHAX'
BFQNCBKHAX
root@arm:~# MARKER='ANQB''WWYZHX' run 'i2cget -y -f 1 0x4b 0x10'
ANQBWWYZHX0x00
ANQBWWYZHX 0
root@arm:~# echo 'TALP''AGBCNW'
TALPAGBCNW
root@arm:~# MARKER='HKBW''UYCCZK' run 'echo 710000 710000 > /sys/kernel/mva_test//regulators/buck2_set'
HKBWUYCCZKHKBWUYCCZK 0
root@arm:~# echo 'HUCX''XVWGLN'
HUCXXVWGLN
root@arm:~# MARKER='QQTS''QNMATW' run 'i2cget -y -f 1 0x4b 0x10'
QQTSQNMATW0x01
QQTSQNMATW 0
root@arm:~# echo 'FPZN''JOKBYA'
FPZNJOKBYA
root@arm:~# MARKER='OHJJ''PLAWUW' run 'echo 720000 720000 > /sys/kernel/mva_test//regulators/buck2_set'
OHJJPLAWUWOHJJPLAWUW 0
root@arm:~# echo 'EZBN''GKSGGB'
EZBNGKSGGB
root@arm:~# MARKER='JETF''ETBHZC' run 'i2cget -y -f 1 0x4b 0x10'
JETFETBHZC0x02
JETFETBHZC 0
root@arm:~# echo 'PHEF''SEBJCF'
PHEFSEBJCF
root@arm:~# MARKER='VLLQ''XSGGTH' run 'echo 730000 730000 > /sys/kernel/mva_test//regulators/buck2_set'
VLLQXSGGTHVLLQXSGGTH 0
root@arm:~# echo 'LGAL''ZFTHTP'
LGALZFTHTP
root@arm:~# MARKER='WENS''TKNFUZ' run 'i2cget -y -f 1 0x4b 0x10'
WENSTKNFUZ0x03
WENSTKNFUZ 0
root@arm:~# echo 'WTMH''BHZCLA'
WTMHBHZCLA
root@arm:~# MARKER='VHEY''BSXQNO' run 'echo 740000 740000 > /sys/kernel/mva_test//regulators/buck2_set'
VHEYBSXQNOVHEYBSXQNO 0
root@arm:~# echo 'LTGY''SWNLCG'
LTGYSWNLCG
root@arm:~# MARKER='VXLX''OZHOXU' run 'i2cget -y -f 1 0x4b 0x10'
VXLXOZHOXU0x04
VXLXOZHOXU 0
root@arm:~# echo 'UJEM''MVBNMC'
UJEMMVBNMC
root@arm:~# MARKER='NNKK''XOGJFL' run 'echo 750000 750000 > /sys/kernel/mva_test//regulators/buck2_set'
NNKKXOGJFLNNKKXOGJFL 0
root@arm:~# echo 'EWSK''AVMTHM'
EWSKAVMTHM
root@arm:~# MARKER='VNJG''EMNKLX' run 'i2cget -y -f 1 0x4b 0x10'
VNJGEMNKLX0x05
VNJGEMNKLX 0
root@arm:~# echo 'QKFO''SWCFJS'
QKFOSWCFJS
root@arm:~# MARKER='GABM''OUEWXJ' run 'echo 760000 760000 > /sys/kernel/mva_test//regulators/buck2_set'
GABMOUEWXJGABMOUEWXJ 0
root@arm:~# echo 'MOTZ''HKEMJN'
MOTZHKEMJN
root@arm:~# MARKER='ATCL''TCNFAN' run 'i2cget -y -f 1 0x4b 0x10'
ATCLTCNFAN0x06
ATCLTCNFAN 0
root@arm:~# echo 'WLXU''SNEXQH'
WLXUSNEXQH
root@arm:~# MARKER='XVSL''FEBQCF' run 'echo 770000 770000 > /sys/kernel/mva_test//regulators/buck2_set'
XVSLFEBQCFXVSLFEBQCF 0
root@arm:~# echo 'NMGC''ZJFYJP'
NMGCZJFYJP
root@arm:~# MARKER='OZMQ''HKYAZF' run 'i2cget -y -f 1 0x4b 0x10'
OZMQHKYAZF0x07
OZMQHKYAZF 0
root@arm:~# echo 'QLBP''VHGSBC'
QLBPVHGSBC
root@arm:~# MARKER='NFAT''JNVAJF' run 'echo 780000 780000 > /sys/kernel/mva_test//regulators/buck2_set'
NFATJNVAJFNFATJNVAJF 0
root@arm:~# echo 'LOGU''UHWFPW'
LOGUUHWFPW
root@arm:~# MARKER='QCEU''JKSKUP' run 'i2cget -y -f 1 0x4b 0x10'
QCEUJKSKUP0x08
QCEUJKSKUP 0
root@arm:~# echo 'HLBK''QBMCSB'
HLBKQBMCSB
root@arm:~# MARKER='MGOQ''MULZVM' run 'echo 790000 790000 > /sys/kernel/mva_test//regulators/buck2_set'
MGOQMULZVMMGOQMULZVM 0
root@arm:~# echo 'ALQV''FOASNE'
ALQVFOASNE
root@arm:~# MARKER='LXYH''WCCKKE' run 'i2cget -y -f 1 0x4b 0x10'
LXYHWCCKKE0x09
LXYHWCCKKE 0
root@arm:~# echo 'GKXC''HJTTVA'
GKXCHJTTVA
root@arm:~# MARKER='TTPF''YSVTXT' run 'echo 800000 800000 > /sys/kernel/mva_test//regulators/buck2_set'
TTPFYSVTXTTTPFYSVTXT 0
root@arm:~# echo 'QAUV''BNSWAQ'
QAUVBNSWAQ
root@arm:~# MARKER='CZBC''FSSJWX' run 'i2cget -y -f 1 0x4b 0x10'
CZBCFSSJWX0x0a
CZBCFSSJWX 0
root@arm:~# echo 'NVQF''VBTQLQ'
NVQFVBTQLQ
root@arm:~# MARKER='BAJL''NWGEAA' run 'echo 810000 810000 > /sys/kernel/mva_test//regulators/buck2_set'
BAJLNWGEAABAJLNWGEAA 0
root@arm:~# echo 'GVYH''GNGJVO'
GVYHGNGJVO
root@arm:~# MARKER='WUVX''ZZNMKF' run 'i2cget -y -f 1 0x4b 0x10'
WUVXZZNMKF0x0b
WUVXZZNMKF 0
root@arm:~# echo 'ZQCO''LKAJNN'
ZQCOLKAJNN
root@arm:~# MARKER='NQNY''XNMJPZ' run 'echo 820000 820000 > /sys/kernel/mva_test//regulators/buck2_set'
NQNYXNMJPZNQNYXNMJPZ 0
root@arm:~# echo 'FBMS''YQGKUW'
FBMSYQGKUW
root@arm:~# MARKER='YKJW''YTYAFC' run 'i2cget -y -f 1 0x4b 0x10'
YKJWYTYAFC0x0c
YKJWYTYAFC 0
root@arm:~# echo 'HSUO''OFOYGZ'
HSUOOFOYGZ
root@arm:~# MARKER='UHQJ''VFZLZY' run 'echo 830000 830000 > /sys/kernel/mva_test//regulators/buck2_set'
UHQJVFZLZYUHQJVFZLZY 0
root@arm:~# echo 'NNNG''AGWLLX'
NNNGAGWLLX
root@arm:~# MARKER='HBZZ''AQHONH' run 'i2cget -y -f 1 0x4b 0x10'
HBZZAQHONH0x0d
HBZZAQHONH 0
root@arm:~# echo 'FNOP''EPGTLZ'
FNOPEPGTLZ
root@arm:~# MARKER='WWLJ''YZLKVW' run 'echo 840000 840000 > /sys/kernel/mva_test//regulators/buck2_set'
WWLJYZLKVWWWLJYZLKVW 0
root@arm:~# echo 'UESA''KKVUAG'
UESAKKVUAG
root@arm:~# MARKER='KCPT''WTGGLJ' run 'i2cget -y -f 1 0x4b 0x10'
KCPTWTGGLJ0x0e
KCPTWTGGLJ 0
root@arm:~# echo 'ZKMO''PGQBNT'
ZKMOPGQBNT
root@arm:~# MARKER='JJHZ''SEUTWX' run 'echo 850000 850000 > /sys/kernel/mva_test//regulators/buck2_set'
JJHZSEUTWXJJHZSEUTWX 0
root@arm:~# echo 'UKNM''EHXJJU'
UKNMEHXJJU
root@arm:~# MARKER='GMQL''XFSMSU' run 'i2cget -y -f 1 0x4b 0x10'
GMQLXFSMSU0x0f
GMQLXFSMSU 0
root@arm:~# echo 'TPBZ''HLNGHN'
TPBZHLNGHN
root@arm:~# MARKER='JQJO''BVFBAQ' run 'echo 860000 860000 > /sys/kernel/mva_test//regulators/buck2_set'
JQJOBVFBAQJQJOBVFBAQ 0
root@arm:~# echo 'SYJZ''NPCTXT'
SYJZNPCTXT
root@arm:~# MARKER='HQKC''UVVWTV' run 'i2cget -y -f 1 0x4b 0x10'
HQKCUVVWTV0x10
HQKCUVVWTV 0
root@arm:~# echo 'FGTV''HUOFML'
FGTVHUOFML
root@arm:~# MARKER='ZHHS''WBBYHF' run 'echo 870000 870000 > /sys/kernel/mva_test//regulators/buck2_set'
ZHHSWBBYHFZHHSWBBYHF 0
root@arm:~# echo 'WEBF''SKKKEC'
WEBFSKKKEC
root@arm:~# MARKER='LEET''NTMSJE' run 'i2cget -y -f 1 0x4b 0x10'
LEETNTMSJE0x11
LEETNTMSJE 0
root@arm:~# echo 'VNYO''AFCYCN'
VNYOAFCYCN
root@arm:~# MARKER='UBMF''KQHFXO' run 'echo 880000 880000 > /sys/kernel/mva_test//regulators/buck2_set'
UBMFKQHFXOUBMFKQHFXO 0
root@arm:~# echo 'NAXE''XNEUQE'
NAXEXNEUQE
root@arm:~# MARKER='GUEC''BZFCZK' run 'i2cget -y -f 1 0x4b 0x10'
GUECBZFCZK0x12
GUECBZFCZK 0
root@arm:~# echo 'QSFT''YPMMXP'
QSFTYPMMXP
root@arm:~# MARKER='BQGT''KMVQEJ' run 'echo 890000 890000 > /sys/kernel/mva_test//regulators/buck2_set'
BQGTKMVQEJBQGTKMVQEJ 0
root@arm:~# echo 'ETTY''PHXZTH'
ETTYPHXZTH
root@arm:~# MARKER='THHF''WSCVNO' run 'i2cget -y -f 1 0x4b 0x10'
THHFWSCVNO0x13
THHFWSCVNO 0
root@arm:~# echo 'EUXA''NETQYY'
EUXANETQYY
root@arm:~# MARKER='QJEE''HVZUCK' run 'echo 900000 900000 > /sys/kernel/mva_test//regulators/buck2_set'
QJEEHVZUCKQJEEHVZUCK 0
root@arm:~# echo 'YWLZ''WPMWWE'
YWLZWPMWWE
root@arm:~# MARKER='GMWE''VWCWKG' run 'i2cget -y -f 1 0x4b 0x10'
GMWEVWCWKG0x14
GMWEVWCWKG 0
root@arm:~# echo 'QAKT''XZMJNJ'
QAKTXZMJNJ
root@arm:~# MARKER='AOVF''VGAZXP' run 'echo 910000 910000 > /sys/kernel/mva_test//regulators/buck2_set'
AOVFVGAZXPAOVFVGAZXP 0
root@arm:~# echo 'CJZP''UYVQEM'
CJZPUYVQEM
root@arm:~# MARKER='VVZC''CCVXHH' run 'i2cget -y -f 1 0x4b 0x10'
VVZCCCVXHH0x15
VVZCCCVXHH 0
root@arm:~# echo 'PEGN''PXVHBB'
PEGNPXVHBB
root@arm:~# MARKER='NHPF''OLZGVG' run 'echo 920000 920000 > /sys/kernel/mva_test//regulators/buck2_set'
NHPFOLZGVGNHPFOLZGVG 0
root@arm:~# echo 'SCUF''UQPPQL'
SCUFUQPPQL
root@arm:~# MARKER='ZFVZ''BCFEPP' run 'i2cget -y -f 1 0x4b 0x10'
ZFVZBCFEPP0x16
ZFVZBCFEPP 0
root@arm:~# echo 'XEUW''PWWFQN'
XEUWPWWFQN
root@arm:~# MARKER='FPZB''TMVKZP' run 'echo 930000 930000 > /sys/kernel/mva_test//regulators/buck2_set'
FPZBTMVKZPFPZBTMVKZP 0
root@arm:~# echo 'HHZP''TOTSLC'
HHZPTOTSLC
root@arm:~# MARKER='WVQW''YJNNZW' run 'i2cget -y -f 1 0x4b 0x10'
WVQWYJNNZW0x17
WVQWYJNNZW 0
root@arm:~# echo 'NNVO''TTNWSS'
NNVOTTNWSS
root@arm:~# MARKER='WUCX''KWVLAH' run 'echo 940000 940000 > /sys/kernel/mva_test//regulators/buck2_set'
WUCXKWVLAHWUCXKWVLAH 0
root@arm:~# echo 'ZYVL''BGOGHS'
ZYVLBGOGHS
root@arm:~# MARKER='MMVU''XLPOTV' run 'i2cget -y -f 1 0x4b 0x10'
MMVUXLPOTV0x18
MMVUXLPOTV 0
root@arm:~# echo 'KKQT''JSNWYU'
KKQTJSNWYU
root@arm:~# MARKER='VJXH''VXLHBW' run 'echo 950000 950000 > /sys/kernel/mva_test//regulators/buck2_set'
VJXHVXLHBWVJXHVXLHBW 0
root@arm:~# echo 'GLNF''KVSFZB'
GLNFKVSFZB
root@arm:~# MARKER='PGMT''LBOSST' run 'i2cget -y -f 1 0x4b 0x10'
PGMTLBOSST0x19
PGMTLBOSST 0
root@arm:~# echo 'JESC''EVQHZP'
JESCEVQHZP
root@arm:~# MARKER='KHLF''FVLVLX' run 'echo 960000 960000 > /sys/kernel/mva_test//regulators/buck2_set'
KHLFFVLVLXKHLFFVLVLX 0
root@arm:~# echo 'QZXB''HMYOMZ'
QZXBHMYOMZ
root@arm:~# MARKER='NHBT''CSSHWK' run 'i2cget -y -f 1 0x4b 0x10'
NHBTCSSHWK0x1a
NHBTCSSHWK 0
root@arm:~# echo 'YMYC''HWJUNX'
YMYCHWJUNX
root@arm:~# MARKER='MOEU''OJTLHP' run 'echo 970000 970000 > /sys/kernel/mva_test//regulators/buck2_set'
MOEUOJTLHPMOEUOJTLHP 0
root@arm:~# echo 'YPCC''VGYVBN'
YPCCVGYVBN
root@arm:~# MARKER='CMNC''QSQWPE' run 'i2cget -y -f 1 0x4b 0x10'
CMNCQSQWPE0x1b
CMNCQSQWPE 0
root@arm:~# echo 'PNSG''AEBLUF'
PNSGAEBLUF
root@arm:~# MARKER='MQZW''SJPCHM' run 'echo 980000 980000 > /sys/kernel/mva_test//regulators/buck2_set'
MQZWSJPCHMMQZWSJPCHM 0
root@arm:~# echo 'VOPN''UVPLKN'
VOPNUVPLKN
root@arm:~# MARKER='AWUS''SFGBYJ' run 'i2cget -y -f 1 0x4b 0x10'
AWUSSFGBYJ0x1c
AWUSSFGBYJ 0
root@arm:~# echo 'ZZJO''CYHTCK'
ZZJOCYHTCK
root@arm:~# MARKER='AQPU''NJAGQF' run 'echo 990000 990000 > /sys/kernel/mva_test//regulators/buck2_set'
AQPUNJAGQFAQPUNJAGQF 0
root@arm:~# echo 'ULUW''EUZHCO'
ULUWEUZHCO
root@arm:~# MARKER='ATXU''ZFVOFA' run 'i2cget -y -f 1 0x4b 0x10'
ATXUZFVOFA0x1d
ATXUZFVOFA 0
root@arm:~# echo 'VENP''QTGHTU'
VENPQTGHTU
root@arm:~# MARKER='NAZF''GGOWTW' run 'echo 1000000 1000000 > /sys/kernel/mva_tesst/regulators/buck2_set'
NAZFGGOWTWNAZFGGOWTW 0
root@arm:~# echo 'FNVX''NAHWYF'
FNVXNAHWYF
root@arm:~# MARKER='ZWQV''PHSTYV' run 'i2cget -y -f 1 0x4b 0x10'
ZWQVPHSTYV0x1e
ZWQVPHSTYV 0
root@arm:~# echo 'XHXQ''SFASCZ'
XHXQSFASCZ
root@arm:~# MARKER='WMLS''BWPTVC' run 'echo 1010000 1010000 > /sys/kernel/mva_tesst/regulators/buck2_set'
WMLSBWPTVCWMLSBWPTVC 0
root@arm:~# echo 'OSWW''FYLGXL'
OSWWFYLGXL
root@arm:~# MARKER='NFZQ''ZZKLJS' run 'i2cget -y -f 1 0x4b 0x10'
NFZQZZKLJS0x1f
NFZQZZKLJS 0
root@arm:~# echo 'ANLE''NJSGVH'
ANLENJSGVH
root@arm:~# MARKER='PXBV''XSSBFS' run 'echo 1020000 1020000 > /sys/kernel/mva_tesst/regulators/buck2_set'
PXBVXSSBFSPXBVXSSBFS 0
root@arm:~# echo 'PBNW''UHEHQN'
PBNWUHEHQN
root@arm:~# MARKER='HSAQ''AYLVVU' run 'i2cget -y -f 1 0x4b 0x10'
HSAQAYLVVU0x20
HSAQAYLVVU 0
root@arm:~# echo 'EKCB''STAETZ'
EKCBSTAETZ
root@arm:~# MARKER='QQKP''UPUUOA' run 'echo 1030000 1030000 > /sys/kernel/mva_tesst/regulators/buck2_set'
QQKPUPUUOAQQKPUPUUOA 0
root@arm:~# echo 'LPCK''UJUUGL'
LPCKUJUUGL
root@arm:~# MARKER='WZGZ''KYAEAW' run 'i2cget -y -f 1 0x4b 0x10'
WZGZKYAEAW0x21
WZGZKYAEAW 0
root@arm:~# echo 'YFME''XGOEGV'
YFMEXGOEGV
root@arm:~# MARKER='AAKP''VYTZQX' run 'echo 1040000 1040000 > /sys/kernel/mva_tesst/regulators/buck2_set'
AAKPVYTZQXAAKPVYTZQX 0
root@arm:~# echo 'CFXS''FKPJTV'
CFXSFKPJTV
root@arm:~# MARKER='UCXT''BZHTFK' run 'i2cget -y -f 1 0x4b 0x10'
UCXTBZHTFK0x22
UCXTBZHTFK 0
root@arm:~# echo 'GHNQ''WSNOOS'
GHNQWSNOOS
root@arm:~# MARKER='HNNQ''WFFNEM' run 'echo 1050000 1050000 > /sys/kernel/mva_tesst/regulators/buck2_set'
HNNQWFFNEMHNNQWFFNEM 0
root@arm:~# echo 'XOXA''EJBAJF'
XOXAEJBAJF
root@arm:~# MARKER='BLOY''CEAKXC' run 'i2cget -y -f 1 0x4b 0x10'
BLOYCEAKXC0x23
BLOYCEAKXC 0
root@arm:~# echo 'KSZX''XYQUZJ'
KSZXXYQUZJ
root@arm:~# MARKER='VUFY''PGEKMF' run 'echo 1060000 1060000 > /sys/kernel/mva_tesst/regulators/buck2_set'
VUFYPGEKMFVUFYPGEKMF 0
root@arm:~# echo 'LMQU''ZKGETS'
LMQUZKGETS
root@arm:~# MARKER='AZFC''TULWJU' run 'i2cget -y -f 1 0x4b 0x10'
AZFCTULWJU0x24
AZFCTULWJU 0
root@arm:~# echo 'MTGZ''JVVNQC'
MTGZJVVNQC
root@arm:~# MARKER='FNPL''AAKXHW' run 'echo 1070000 1070000 > /sys/kernel/mva_tesst/regulators/buck2_set'
FNPLAAKXHWFNPLAAKXHW 0
root@arm:~# echo 'BHNE''YLZVFG'
BHNEYLZVFG
root@arm:~# MARKER='PVON''SEHVZQ' run 'i2cget -y -f 1 0x4b 0x10'
PVONSEHVZQ0x25
PVONSEHVZQ 0
root@arm:~# echo 'VLHH''JYFHOG'
VLHHJYFHOG
root@arm:~# MARKER='MBZH''NXJEZE' run 'echo 1080000 1080000 > /sys/kernel/mva_tesst/regulators/buck2_set'
MBZHNXJEZEMBZHNXJEZE 0
root@arm:~# echo 'JJCY''BLEOAC'
JJCYBLEOAC
root@arm:~# MARKER='AAXM''GLPNHQ' run 'i2cget -y -f 1 0x4b 0x10'
AAXMGLPNHQ0x26
AAXMGLPNHQ 0
root@arm:~# echo 'CTLU''JSJCPX'
CTLUJSJCPX
root@arm:~# MARKER='VLSE''HJEXYS' run 'echo 1090000 1090000 > /sys/kernel/mva_tesst/regulators/buck2_set'
VLSEHJEXYSVLSEHJEXYS 0
root@arm:~# echo 'HTMH''CMVKAG'
HTMHCMVKAG
root@arm:~# MARKER='QAWA''PLTVNB' run 'i2cget -y -f 1 0x4b 0x10'
QAWAPLTVNB0x27
QAWAPLTVNB 0
root@arm:~# echo 'MWCT''MANFUC'
MWCTMANFUC
root@arm:~# MARKER='XZLH''WUPZKV' run 'echo 1100000 1100000 > /sys/kernel/mva_tesst/regulators/buck2_set'
XZLHWUPZKVXZLHWUPZKV 0
root@arm:~# echo 'QQPY''XUAXQA'
QQPYXUAXQA
root@arm:~# MARKER='SPUK''QJSKYG' run 'i2cget -y -f 1 0x4b 0x10'
SPUKQJSKYG0x28
SPUKQJSKYG 0
root@arm:~# echo 'WKKU''SZCLKM'
WKKUSZCLKM
root@arm:~# MARKER='MLUY''MYMWTV' run 'echo 1110000 1110000 > /sys/kernel/mva_tesst/regulators/buck2_set'
MLUYMYMWTVMLUYMYMWTV 0
root@arm:~# echo 'SSNH''AAKBYZ'
SSNHAAKBYZ
root@arm:~# MARKER='UNSS''XXGBSM' run 'i2cget -y -f 1 0x4b 0x10'
UNSSXXGBSM0x29
UNSSXXGBSM 0
root@arm:~# echo 'WWUV''WKPNGQ'
WWUVWKPNGQ
root@arm:~# MARKER='EMLM''PFQHYB' run 'echo 1120000 1120000 > /sys/kernel/mva_tesst/regulators/buck2_set'
EMLMPFQHYBEMLMPFQHYB 0
root@arm:~# echo 'KOLO''BGWLFM'
KOLOBGWLFM
root@arm:~# MARKER='MPMQ''JOFNVM' run 'i2cget -y -f 1 0x4b 0x10'
MPMQJOFNVM0x2a
MPMQJOFNVM 0
root@arm:~# echo 'GEFS''AYSTMQ'
GEFSAYSTMQ
root@arm:~# MARKER='TBPF''YZPKKO' run 'echo 1130000 1130000 > /sys/kernel/mva_tesst/regulators/buck2_set'
TBPFYZPKKOTBPFYZPKKO 0
root@arm:~# echo 'FCXM''LPHSJB'
FCXMLPHSJB
root@arm:~# MARKER='OWKN''GJMHPQ' run 'i2cget -y -f 1 0x4b 0x10'
OWKNGJMHPQ0x2b
OWKNGJMHPQ 0
root@arm:~# echo 'THFM''ECKMQM'
THFMECKMQM
root@arm:~# MARKER='TWLP''YETGBM' run 'echo 1140000 1140000 > /sys/kernel/mva_tesst/regulators/buck2_set'
TWLPYETGBMTWLPYETGBM 0
root@arm:~# echo 'EBNH''UMKQFH'
EBNHUMKQFH
root@arm:~# MARKER='KOEM''HCBHEG' run 'i2cget -y -f 1 0x4b 0x10'
KOEMHCBHEG0x2c
KOEMHCBHEG 0
root@arm:~# echo 'YZPJ''FNWEVB'
YZPJFNWEVB
root@arm:~# MARKER='BYLG''KZNQNA' run 'echo 1150000 1150000 > /sys/kernel/mva_tesst/regulators/buck2_set'
BYLGKZNQNABYLGKZNQNA 0
root@arm:~# echo 'CKAC''XXSJCO'
CKACXXSJCO
root@arm:~# MARKER='JWSW''ZQPCNT' run 'i2cget -y -f 1 0x4b 0x10'
JWSWZQPCNT0x2d
JWSWZQPCNT 0
root@arm:~# echo 'OWVZ''VUJYZN'
OWVZVUJYZN
root@arm:~# MARKER='YLET''XQVGWN' run 'echo 1160000 1160000 > /sys/kernel/mva_tesst/regulators/buck2_set'
YLETXQVGWNYLETXQVGWN 0
root@arm:~# echo 'EZUQ''WKLTQJ'
EZUQWKLTQJ
root@arm:~# MARKER='AZQX''UKZXGY' run 'i2cget -y -f 1 0x4b 0x10'
AZQXUKZXGY0x2e
AZQXUKZXGY 0
root@arm:~# echo 'CHMK''WAXVBH'
CHMKWAXVBH
root@arm:~# MARKER='YNWO''XWHXKH' run 'echo 1170000 1170000 > /sys/kernel/mva_tesst/regulators/buck2_set'
YNWOXWHXKHYNWOXWHXKH 0
root@arm:~# echo 'THLV''UQZZVC'
THLVUQZZVC
root@arm:~# MARKER='OHMV''NQHYFG' run 'i2cget -y -f 1 0x4b 0x10'
OHMVNQHYFG0x2f
OHMVNQHYFG 0
root@arm:~# echo 'PMZS''BEMVAP'
PMZSBEMVAP
root@arm:~# MARKER='EXQU''NYBXJJ' run 'echo 1180000 1180000 > /sys/kernel/mva_tesst/regulators/buck2_set'
EXQUNYBXJJEXQUNYBXJJ 0
root@arm:~# echo 'GWPN''VFATZK'
GWPNVFATZK
root@arm:~# MARKER='EPUX''OMYNZH' run 'i2cget -y -f 1 0x4b 0x10'
EPUXOMYNZH0x30
EPUXOMYNZH 0
root@arm:~# echo 'ZCXK''YKWECJ'
ZCXKYKWECJ
root@arm:~# MARKER='VKGZ''QAUVXO' run 'echo 1190000 1190000 > /sys/kernel/mva_tesst/regulators/buck2_set'
VKGZQAUVXOVKGZQAUVXO 0
root@arm:~# echo 'OLUH''NNZKVT'
OLUHNNZKVT
root@arm:~# MARKER='OVBJ''BJTFJL' run 'i2cget -y -f 1 0x4b 0x10'
OVBJBJTFJL0x31
OVBJBJTFJL 0
root@arm:~# echo 'QGWW''WSFKTM'
QGWWWSFKTM
root@arm:~# MARKER='SWUN''FFJBOQ' run 'echo 1200000 1200000 > /sys/kernel/mva_tesst/regulators/buck2_set'
SWUNFFJBOQSWUNFFJBOQ 0
root@arm:~# echo 'GFVS''EJJBML'
GFVSEJJBML
root@arm:~# MARKER='CACX''AONAOC' run 'i2cget -y -f 1 0x4b 0x10'
CACXAONAOC0x32
CACXAONAOC 0
root@arm:~# echo 'SJZC''NHTPMO'
SJZCNHTPMO
root@arm:~# MARKER='PHSV''HUMKSK' run 'echo 1210000 1210000 > /sys/kernel/mva_tesst/regulators/buck2_set'
PHSVHUMKSKPHSVHUMKSK 0
root@arm:~# echo 'HBLM''VHQVVH'
HBLMVHQVVH
root@arm:~# MARKER='MNPZ''MUXEFA' run 'i2cget -y -f 1 0x4b 0x10'
MNPZMUXEFA0x33
MNPZMUXEFA 0
root@arm:~# echo 'JCCZ''NEZMXM'
JCCZNEZMXM
root@arm:~# MARKER='FKGP''CWTVFH' run 'echo 1220000 1220000 > /sys/kernel/mva_tesst/regulators/buck2_set'
FKGPCWTVFHFKGPCWTVFH 0
root@arm:~# echo 'MWCZ''YYJMJX'
MWCZYYJMJX
root@arm:~# MARKER='EPAO''NQTGKO' run 'i2cget -y -f 1 0x4b 0x10'
EPAONQTGKO0x34
EPAONQTGKO 0
root@arm:~# echo 'NXOG''LEBWYO'
NXOGLEBWYO
root@arm:~# MARKER='MKKC''KQKAEA' run 'echo 1230000 1230000 > /sys/kernel/mva_tesst/regulators/buck2_set'
MKKCKQKAEAMKKCKQKAEA 0
root@arm:~# echo 'EQHF''JNTWYL'
EQHFJNTWYL
root@arm:~# MARKER='UUWS''YVBHZV' run 'i2cget -y -f 1 0x4b 0x10'
UUWSYVBHZV0x35
UUWSYVBHZV 0
root@arm:~# echo 'XZKN''ZGXUKV'
XZKNZGXUKV
root@arm:~# MARKER='JAPC''UWBJZB' run 'echo 1240000 1240000 > /sys/kernel/mva_tesst/regulators/buck2_set'
JAPCUWBJZBJAPCUWBJZB 0
root@arm:~# echo 'POJX''FXOOYU'
POJXFXOOYU
root@arm:~# MARKER='MZJC''YNVTET' run 'i2cget -y -f 1 0x4b 0x10'
MZJCYNVTET0x36
MZJCYNVTET 0
root@arm:~# echo 'OGJW''ZXAFPL'
OGJWZXAFPL
root@arm:~# MARKER='AUCX''QVLKJX' run 'echo 1250000 1250000 > /sys/kernel/mva_tesst/regulators/buck2_set'
AUCXQVLKJXAUCXQVLKJX 0
root@arm:~# echo 'BSCW''FQFWHY'
BSCWFQFWHY
root@arm:~# MARKER='QGVF''VJOGOZ' run 'i2cget -y -f 1 0x4b 0x10'
QGVFVJOGOZ0x37
QGVFVJOGOZ 0
root@arm:~# echo 'XCFF''SXTMJZ'
XCFFSXTMJZ
root@arm:~# MARKER='FWBN''CFCGOA' run 'echo 1260000 1260000 > /sys/kernel/mva_tesst/regulators/buck2_set'
FWBNCFCGOAFWBNCFCGOA 0
root@arm:~# echo 'USBT''TACYTS'
USBTTACYTS
root@arm:~# MARKER='CQZY''XGMJXP' run 'i2cget -y -f 1 0x4b 0x10'
CQZYXGMJXP0x38
CQZYXGMJXP 0
root@arm:~# echo 'NUXW''LTXWQF'
NUXWLTXWQF
root@arm:~# MARKER='YMZK''KTYTBS' run 'echo 1270000 1270000 > /sys/kernel/mva_tesst/regulators/buck2_set'
YMZKKTYTBSYMZKKTYTBS 0
root@arm:~# echo 'MAGE''SLTYXV'
MAGESLTYXV
root@arm:~# MARKER='CVZJ''JZWJWT' run 'i2cget -y -f 1 0x4b 0x10'
CVZJJZWJWT0x39
CVZJJZWJWT 0
root@arm:~# echo 'ZXCL''WALZAW'
ZXCLWALZAW
root@arm:~# MARKER='CEUQ''MYFSKX' run 'echo 1280000 1280000 > /sys/kernel/mva_tesst/regulators/buck2_set'
CEUQMYFSKXCEUQMYFSKX 0
root@arm:~# echo 'LNLZ''MLUWWM'
LNLZMLUWWM
root@arm:~# MARKER='TPXF''EEHHGE' run 'i2cget -y -f 1 0x4b 0x10'
TPXFEEHHGE0x3a
TPXFEEHHGE 0
root@arm:~# echo 'GMFS''SWCLQQ'
GMFSSWCLQQ
root@arm:~# MARKER='AAWW''OMAEUQ' run 'echo 1290000 1290000 > /sys/kernel/mva_tesst/regulators/buck2_set'
AAWWOMAEUQAAWWOMAEUQ 0
root@arm:~# echo 'TQTY''EWULQH'
TQTYEWULQH
root@arm:~# MARKER='PAMK''VZXGYM' run 'i2cget -y -f 1 0x4b 0x10'
PAMKVZXGYM0x3b
PAMKVZXGYM 0
root@arm:~# echo 'ZGUA''ECALXO'
ZGUAECALXO
root@arm:~# MARKER='QYVB''SZJHGV' run 'echo 1300000 1300000 > /sys/kernel/mva_tesst/regulators/buck2_set'
QYVBSZJHGVQYVBSZJHGV 0
root@arm:~# echo 'UTNM''SGSHYL'
UTNMSGSHYL
root@arm:~# MARKER='VSVX''FCGFHG' run 'i2cget -y -f 1 0x4b 0x10'
VSVXFCGFHG0x3c
VSVXFCGFHG 0
root@arm:~# echo 'MWQY''KJSKZU'
MWQYKJSKZU
root@arm:~# MARKER='QLBA''MXGNLK' run 'grep -r -l rohm,bd71847 /proc/device-tree  | sed '"'"'s![^/]*$!!'"'"''
QLBAMXGNLK/proc/device-tree/ocp/interconnect@48000000/segment@0/target-module@2a000/i2c@0/pmic@4b/
QLBAMXGNLK 0
root@arm:~# echo 'ANFH''EWMQNT'
ANFHEWMQNT
root@arm:~# MARKER='JHQQ''MZONSH' run 'test -f /proc/device-tree/ocp/interconnectt\@48000000/segment\@0/target-module\@2a000/i2c\@0/pmic\@4b/regulators/BUCK3/rohmm,no-regulator-enable-control ;echo $?'
JHQQMZONSH0
JHQQMZONSH 0
root@arm:~# echo 'TYCV''OGVOJA'
TYCVOGVOJA
root@arm:~# MARKER='MFYM''CTTKYY' run 'echo 700000 700000 > /sys/kernel/mva_test//regulators/buck3_set'
MFYMCTTKYYMFYMCTTKYY 0
root@arm:~# echo 'SMHU''PNELYB'
SMHUPNELYB
root@arm:~# MARKER='HNUW''XFZCAN' run 'i2cget -y -f 1 0x4b 0x14'
HNUWXFZCAN0x00
HNUWXFZCAN 0
root@arm:~# echo 'EWMU''JXUAHB'
EWMUJXUAHB
root@arm:~# MARKER='LFLA''WEGVCB' run 'echo 800000 800000 > /sys/kernel/mva_test//regulators/buck3_set'
LFLAWEGVCBLFLAWEGVCB 0
root@arm:~# echo 'EWFM''AMOMJE'
EWFMAMOMJE
root@arm:~# MARKER='WQFK''XKJPOK' run 'i2cget -y -f 1 0x4b 0x14'
WQFKXKJPOK0x01
WQFKXKJPOK 0
root@arm:~# echo 'HKSV''XBQLVU'
HKSVXBQLVU
root@arm:~# MARKER='WAQS''WZFWQJ' run 'echo 900000 900000 > /sys/kernel/mva_test//regulators/buck3_set'
WAQSWZFWQJWAQSWZFWQJ 0
root@arm:~# echo 'VUKN''EOUWQJ'
VUKNEOUWQJ
root@arm:~# MARKER='XKTN''LNZEJS' run 'i2cget -y -f 1 0x4b 0x14'
XKTNLNZEJS0x02
XKTNLNZEJS 0
root@arm:~# echo 'UNWK''VVOONP'
UNWKVVOONP
root@arm:~# MARKER='XWXW''BOMZZK' run 'echo 1000000 1000000 > /sys/kernel/mva_tesst/regulators/buck3_set'
XWXWBOMZZKXWXWBOMZZK 0
root@arm:~# echo 'LNFQ''LTALNQ'
LNFQLTALNQ
root@arm:~# MARKER='JUNU''PAGVXN' run 'i2cget -y -f 1 0x4b 0x14'
JUNUPAGVXN0x03
JUNUPAGVXN 0
root@arm:~# echo 'LGON''QZHEOS'
LGONQZHEOS
root@arm:~# MARKER='WMHS''EVKJJQ' run 'echo 1050000 1050000 > /sys/kernel/mva_tesst/regulators/buck3_set'
WMHSEVKJJQWMHSEVKJJQ 0
root@arm:~# echo 'YSQJ''YQAQTG'
YSQJYQAQTG
root@arm:~# MARKER='HVYS''KMJVBV' run 'i2cget -y -f 1 0x4b 0x14'
HVYSKMJVBV0x04
HVYSKMJVBV 0
root@arm:~# echo 'WSYO''EVBMBJ'
WSYOEVBMBJ
root@arm:~# MARKER='MPSB''MXOCNE' run 'echo 1100000 1100000 > /sys/kernel/mva_tesst/regulators/buck3_set'
MPSBMXOCNEMPSBMXOCNE 0
root@arm:~# echo 'HZZQ''SGCNCB'
HZZQSGCNCB
root@arm:~# MARKER='EBZT''TNPAEK' run 'i2cget -y -f 1 0x4b 0x14'
EBZTTNPAEK0x05
EBZTTNPAEK 0
root@arm:~# echo 'BUPX''AQFTVH'
BUPXAQFTVH
root@arm:~# MARKER='EKFO''OYFTCP' run 'echo 1200000 1200000 > /sys/kernel/mva_tesst/regulators/buck3_set'
EKFOOYFTCPEKFOOYFTCP 0
root@arm:~# echo 'OTAO''NCEVSK'
OTAONCEVSK
root@arm:~# MARKER='ZYCT''SGAFVJ' run 'i2cget -y -f 1 0x4b 0x14'
ZYCTSGAFVJ0x06
ZYCTSGAFVJ 0
root@arm:~# echo 'TFLC''SBGEHC'
TFLCSBGEHC
root@arm:~# MARKER='WOXG''WTTJWX' run 'echo 1350000 1350000 > /sys/kernel/mva_tesst/regulators/buck3_set'
WOXGWTTJWXWOXGWTTJWX 0
root@arm:~# echo 'NUMK''ZAEBUC'
NUMKZAEBUC
root@arm:~# MARKER='LHEK''WNWMFF' run 'i2cget -y -f 1 0x4b 0x14'
LHEKWNWMFF0x07
LHEKWNWMFF 0
root@arm:~# echo 'LUWY''JSAHYA'
LUWYJSAHYA
root@arm:~# MARKER='ZSWH''VEGPLL' run 'echo 550000 550000 > /sys/kernel/mva_test//regulators/buck3_set'
ZSWHVEGPLLZSWHVEGPLL 0
root@arm:~# echo 'QBYO''SUJGGU'
QBYOSUJGGU
root@arm:~# MARKER='VSQW''PKFFVY' run 'i2cget -y -f 1 0x4b 0x14'
VSQWPKFFVY0x40
VSQWPKFFVY 0
root@arm:~# echo 'JCVO''OVEJYL'
JCVOOVEJYL
root@arm:~# MARKER='JXPP''KEUOGO' run 'echo 600000 600000 > /sys/kernel/mva_test//regulators/buck3_set'
JXPPKEUOGOJXPPKEUOGO 0
root@arm:~# echo 'HQFU''YJTVBN'
HQFUYJTVBN
root@arm:~# MARKER='KJVN''OYAVQL' run 'i2cget -y -f 1 0x4b 0x14'
KJVNOYAVQL0x41
KJVNOYAVQL 0
root@arm:~# echo 'HSEF''QJVMVY'
HSEFQJVMVY
root@arm:~# MARKER='NAXA''VQGBGK' run 'echo 650000 650000 > /sys/kernel/mva_test//regulators/buck3_set'
NAXAVQGBGKNAXAVQGBGK 0
root@arm:~# echo 'PXXB''MQJQAL'
PXXBMQJQAL
root@arm:~# MARKER='MQYB''WKOTNN' run 'i2cget -y -f 1 0x4b 0x14'
MQYBWKOTNN0x42
MQYBWKOTNN 0
root@arm:~# echo 'SWAL''TFPNOO'
SWALTFPNOO
root@arm:~# MARKER='PNLH''PNOGLK' run 'echo 700000 700000 > /sys/kernel/mva_test//regulators/buck3_set'
PNLHPNOGLKPNLHPNOGLK 0
root@arm:~# echo 'UZBH''UVJXJF'
UZBHUVJXJF
root@arm:~# MARKER='VGQF''CPKYWN' run 'i2cget -y -f 1 0x4b 0x14'
VGQFCPKYWN0x00
VGQFCPKYWN 0
root@arm:~# echo 'NLZW''AQAHNS'
NLZWAQAHNS
root@arm:~# MARKER='YUNS''WTVJSK' run 'echo 750000 750000 > /sys/kernel/mva_test /regulators/buck3_set'
YUNSWTVJSKYUNSWTVJSK 0
root@arm:~# echo 'UNFA''TXSZZZ'
UNFATXSZZZ
root@arm:~# MARKER='SXFO''SCNPFY' run 'i2cget -y -f 1 0x4b 0x14'
SXFOSCNPFY0x44
SXFOSCNPFY 0
root@arm:~# echo 'ZLCO''VYAXUG'
ZLCOVYAXUG
root@arm:~# MARKER='MNMW''QEALKQ' run 'echo 800000 800000 > /sys/kernel/mva_test//regulators/buck3_set'
MNMWQEALKQMNMWQEALKQ 0
root@arm:~# echo 'COTT''NQSQNG'
COTTNQSQNG
root@arm:~# MARKER='VJWQ''EPCWSU' run 'i2cget -y -f 1 0x4b 0x14'
VJWQEPCWSU0x01
VJWQEPCWSU 0
root@arm:~# echo 'YONH''EFFNSQ'
YONHEFFNSQ
root@arm:~# MARKER='BJET''JZGSGQ' run 'echo 850000 850000 > /sys/kernel/mva_test//regulators/buck3_set'
BJETJZGSGQBJETJZGSGQ 0
root@arm:~# echo 'TFBQ''WOBFMM'
TFBQWOBFMM
root@arm:~# MARKER='CWGZ''MQSYSG' run 'i2cget -y -f 1 0x4b 0x14'
CWGZMQSYSG0x46
CWGZMQSYSG 0
root@arm:~# echo 'VCWU''GJHYGZ'
VCWUGJHYGZ
root@arm:~# MARKER='LXAX''CJTTNO' run 'echo 900000 900000 > /sys/kernel/mva_test//regulators/buck3_set'
LXAXCJTTNOLXAXCJTTNO 0
root@arm:~# echo 'XNZK''VVMJKV'
XNZKVVMJKV
root@arm:~# MARKER='WXMF''KAZZGL' run 'i2cget -y -f 1 0x4b 0x14'
WXMFKAZZGL0x02
WXMFKAZZGL 0
root@arm:~# echo 'SBAP''MZPVJA'
SBAPMZPVJA
root@arm:~# MARKER='OBSV''YAWHUY' run 'echo 675000 675000 > /sys/kernel/mva_test//regulators/buck3_set'
OBSVYAWHUYOBSVYAWHUY 0
root@arm:~# echo 'ZFXH''FOONAE'
ZFXHFOONAE
root@arm:~# MARKER='NUVW''VGUWQP' run 'i2cget -y -f 1 0x4b 0x14'
NUVWVGUWQP0x80
NUVWVGUWQP 0
root@arm:~# echo 'MGQU''XXLNTM'
MGQUXXLNTM
root@arm:~# MARKER='BJAE''SHEVKB' run 'echo 775000 775000 > /sys/kernel/mva_test//regulators/buck3_set'
BJAESHEVKBBJAESHEVKB 0
root@arm:~# echo 'MWLK''ABNVKT'
MWLKABNVKT
root@arm:~# MARKER='CNGB''FYEEYL' run 'i2cget -y -f 1 0x4b 0x14'
CNGBFYEEYL0x81
CNGBFYEEYL 0
root@arm:~# echo 'UPAO''BTAHVA'
UPAOBTAHVA
root@arm:~# MARKER='YJNZ''LATCGK' run 'echo 875000 875000 > /sys/kernel/mva_test//regulators/buck3_set'
YJNZLATCGKYJNZLATCGK 0
root@arm:~# echo 'YJUH''HVWYVQ'
YJUHHVWYVQ
root@arm:~# MARKER='JCKT''WUVHJL' run 'i2cget -y -f 1 0x4b 0x14'
JCKTWUVHJL0x82
JCKTWUVHJL 0
root@arm:~# echo 'SWZU''LBTJMH'
SWZULBTJMH
root@arm:~# MARKER='GFGB''HTKKEY' run 'echo 975000 975000 > /sys/kernel/mva_test//regulators/buck3_set'
GFGBHTKKEYGFGBHTKKEY 0
root@arm:~# echo 'PYLW''LEGKEM'
PYLWLEGKEM
root@arm:~# MARKER='WZSN''MCWMWF' run 'i2cget -y -f 1 0x4b 0x14'
WZSNMCWMWF0x83
WZSNMCWMWF 0
root@arm:~# echo 'YFXG''PPUPWW'
YFXGPPUPWW
root@arm:~# MARKER='NJMO''TNGHOO' run 'echo 1025000 1025000 > /sys/kernel/mva_tesst/regulators/buck3_set'
NJMOTNGHOONJMOTNGHOO 0
root@arm:~# echo 'KMGX''SMNTYC'
KMGXSMNTYC
root@arm:~# MARKER='VCSW''NTYSSC' run 'i2cget -y -f 1 0x4b 0x14'
VCSWNTYSSC0x84
VCSWNTYSSC 0
root@arm:~# echo 'JPHW''ABSXHV'
JPHWABSXHV
root@arm:~# MARKER='UOZW''OAKUWB' run 'echo 1075000 1075000 > /sys/kernel/mva_tesst/regulators/buck3_set'
UOZWOAKUWBUOZWOAKUWB 0
root@arm:~# echo 'WNTC''VSYKJB'
WNTCVSYKJB
root@arm:~# MARKER='MYZL''PXQEOW' run 'i2cget -y -f 1 0x4b 0x14'
MYZLPXQEOW0x85
MYZLPXQEOW 0
root@arm:~# echo 'AVGF''BZXXXC'
AVGFBZXXXC
root@arm:~# MARKER='HEOQ''GOUFOM' run 'echo 1175000 1175000 > /sys/kernel/mva_tesst/regulators/buck3_set'
HEOQGOUFOMHEOQGOUFOM 0
root@arm:~# echo 'MTXY''LACXTT'
MTXYLACXTT
root@arm:~# MARKER='BMQB''JTPGPZ' run 'i2cget -y -f 1 0x4b 0x14'
BMQBJTPGPZ0x86
BMQBJTPGPZ 0
root@arm:~# echo 'BBOW''LUAGJK'
BBOWLUAGJK
root@arm:~# MARKER='WFZK''XPXHBC' run 'echo 1325000 1325000 > /sys/kernel/mva_tesst/regulators/buck3_set'
WFZKXPXHBCWFZKXPXHBC 0
root@arm:~# echo 'JAOB''WFJWNQ'
JAOBWFJWNQ
root@arm:~# MARKER='HOPO''SNVFCZ' run 'i2cget -y -f 1 0x4b 0x14'
HOPOSNVFCZ0x87
HOPOSNVFCZ 0
root@arm:~# echo 'SZTS''FOAJUE'
SZTSFOAJUE
root@arm:~# MARKER='XPSV''LENAAL' run 'grep -r -l rohm,bd71847 /proc/device-tree  | sed '"'"'s![^/]*$!!'"'"''
XPSVLENAAL/proc/device-tree/ocp/interconnect@48000000/segment@0/target-module@2a000/i2c@0/pmic@4b/
XPSVLENAAL 0
root@arm:~# echo 'CSEL''KUEOXO'
CSELKUEOXO
root@arm:~# MARKER='BENV''GCAQHQ' run 'test -f /proc/device-tree/ocp/interconnectt\@48000000/segment\@0/target-module\@2a000/i2c\@0/pmic\@4b/regulators/BUCK4/rohmm,no-regulator-enable-control ;echo $?'
BENVGCAQHQ1
BENVGCAQHQ 0
root@arm:~# echo 'JQGU''PCAFFM'
JQGUPCAFFM
root@arm:~# MARKER='NLNU''BLTHOH' run 'i2cget -y -f 1 0x4b 0xa'
NLNUBLTHOH0x02
NLNUBLTHOH 0
root@arm:~# echo 'VZEG''SQWKQL'
VZEGSQWKQL
root@arm:~# MARKER='FOSP''JXHJJC' run 'echo 3000000 3000000 > /sys/kernel/mva_tesst/regulators/buck4_set'
FOSPJXHJJCFOSPJXHJJC 0
root@arm:~# echo 'KCUF''EWMFVF'
KCUFEWMFVF
root@arm:~# MARKER='KJBS''ZUMUEG' run 'i2cget -y -f 1 0x4b 0x15'
KJBSZUMUEG0x00
KJBSZUMUEG 0
root@arm:~# echo 'MPGZ''SELTYU'
MPGZSELTYU
root@arm:~# MARKER='YZWB''YAFKMJ' run 'echo 3100000 3100000 > /sys/kernel/mva_tesst/regulators/buck4_set'
YZWBYAFKMJYZWBYAFKMJ 0
root@arm:~# echo 'ZKOH''XSQZLJ'
ZKOHXSQZLJ
root@arm:~# MARKER='HEVY''CNPQXO' run 'i2cget -y -f 1 0x4b 0x15'
HEVYCNPQXO0x01
HEVYCNPQXO 0
root@arm:~# echo 'OKKW''BQEQFA'
OKKWBQEQFA
root@arm:~# MARKER='OKOB''BKAZUS' run 'echo 3200000 3200000 > /sys/kernel/mva_tesst/regulators/buck4_set'
OKOBBKAZUSOKOBBKAZUS 0
root@arm:~# echo 'PVMX''GKPNBP'
PVMXGKPNBP
root@arm:~# MARKER='EQPQ''HLXJOX' run 'i2cget -y -f 1 0x4b 0x15'
EQPQHLXJOX0x02
EQPQHLXJOX 0
root@arm:~# echo 'VGPW''HVQVOZ'
VGPWHVQVOZ
root@arm:~# MARKER='KAFW''XQVWQK' run 'echo 3300000 3300000 > /sys/kernel/mva_tesst/regulators/buck4_set'
KAFWXQVWQKKAFWXQVWQK 0
root@arm:~# echo 'FZFM''VZXKJL'
FZFMVZXKJL
root@arm:~# MARKER='OOLA''JXXUHL' run 'i2cget -y -f 1 0x4b 0x15'
OOLAJXXUHL0x03
OOLAJXXUHL 0
root@arm:~# echo 'QTCT''HQPPCZ'
QTCTHQPPCZ
root@arm:~# MARKER='CJWS''XYLZLZ' run 'echo 2600000 2600000 > /sys/kernel/mva_tesst/regulators/buck4_set'
CJWSXYLZLZCJWSXYLZLZ 0
root@arm:~# echo 'BYUU''GVEOEX'
BYUUGVEOEX
root@arm:~# MARKER='KLSL''FBGWCZ' run 'i2cget -y -f 1 0x4b 0x15'
KLSLFBGWCZ0x40
KLSLFBGWCZ 0
root@arm:~# echo 'QXEC''WSSEGJ'
QXECWSSEGJ
root@arm:~# MARKER='EXAV''MFOASP' run 'echo 2700000 2700000 > /sys/kernel/mva_tesst/regulators/buck4_set'
EXAVMFOASPEXAVMFOASP 0
root@arm:~# echo 'OQCJ''EEFFEW'
OQCJEEFFEW
root@arm:~# MARKER='FLHH''WQNXSJ' run 'i2cget -y -f 1 0x4b 0x15'
FLHHWQNXSJ0x41
FLHHWQNXSJ 0
root@arm:~# echo 'KUQL''LCVKBS'
KUQLLCVKBS
root@arm:~# MARKER='JKZB''LJTUXB' run 'echo 2800000 2800000 > /sys/kernel/mva_tesst/regulators/buck4_set'
JKZBLJTUXBJKZBLJTUXB 0
root@arm:~# echo 'VTAW''SNJTNZ'
VTAWSNJTNZ
root@arm:~# MARKER='SWBS''JLXXWU' run 'i2cget -y -f 1 0x4b 0x15'
SWBSJLXXWU0x42
SWBSJLXXWU 0
root@arm:~# echo 'BNYE''GVKFTU'
BNYEGVKFTU
root@arm:~# MARKER='SJCX''HHEKMY' run 'echo 2900000 2900000 > /sys/kernel/mva_tesst/regulators/buck4_set'
SJCXHHEKMYSJCXHHEKMY 0
root@arm:~# echo 'ABLT''BTSEOK'
ABLTBTSEOK
root@arm:~# MARKER='CPTJ''HSEUXY' run 'i2cget -y -f 1 0x4b 0x15'
CPTJHSEUXY0x43
CPTJHSEUXY 0
root@arm:~# echo 'NUKO''OGFZSN'
NUKOOGFZSN
root@arm:~# MARKER='NLVS''BQGCCE' run 'grep -r -l rohm,bd71847 /proc/device-tree  | sed '"'"'s![^/]*$!!'"'"''
NLVSBQGCCE/proc/device-tree/ocp/interconnect@48000000/segment@0/target-module@2a000/i2c@0/pmic@4b/
NLVSBQGCCE 0
root@arm:~# echo 'VPOF''ANYSCQ'
VPOFANYSCQ
root@arm:~# MARKER='MSLH''SOJHPP' run 'test -f /proc/device-tree/ocp/interconnectt\@48000000/segment\@0/target-module\@2a000/i2c\@0/pmic\@4b/regulators/BUCK5/rohmm,no-regulator-enable-control ;echo $?'
MSLHSOJHPP1
MSLHSOJHPP 0
root@arm:~# echo 'WAFK''GOGEKL'
WAFKGOGEKL
root@arm:~# MARKER='LWXH''WZKAFG' run 'i2cget -y -f 1 0x4b 0xb'
LWXHWZKAFG0x02
LWXHWZKAFG 0
root@arm:~# echo 'FHZC''VVJOLO'
FHZCVVJOLO
root@arm:~# MARKER='BLCQ''QVNMEB' run 'echo 1605000 1605000 > /sys/kernel/mva_tesst/regulators/buck5_set'
BLCQQVNMEBBLCQQVNMEB 0
root@arm:~# echo 'NSWU''GYTLHH'
NSWUGYTLHH
root@arm:~# MARKER='GWMY''MMXAZE' run 'i2cget -y -f 1 0x4b 0x16'
GWMYMMXAZE0x00
GWMYMMXAZE 0
root@arm:~# echo 'FALG''VMBHMN'
FALGVMBHMN
root@arm:~# MARKER='GCOW''SVSLVM' run 'echo 1695000 1695000 > /sys/kernel/mva_tesst/regulators/buck5_set'
GCOWSVSLVMGCOWSVSLVM 0
root@arm:~# echo 'LACP''ZUOYGQ'
LACPZUOYGQ
root@arm:~# MARKER='VUOG''KSKMHH' run 'i2cget -y -f 1 0x4b 0x16'
VUOGKSKMHH0x01
VUOGKSKMHH 0
root@arm:~# echo 'ZOSM''HTFJSB'
ZOSMHTFJSB
root@arm:~# MARKER='EXJV''TMLPEP' run 'echo 1755000 1755000 > /sys/kernel/mva_tesst/regulators/buck5_set'
EXJVTMLPEPEXJVTMLPEP 0
root@arm:~# echo 'NOQN''BWJXBQ'
NOQNBWJXBQ
root@arm:~# MARKER='UZXA''YUJFUN' run 'i2cget -y -f 1 0x4b 0x16'
UZXAYUJFUN0x02
UZXAYUJFUN 0
root@arm:~# echo 'MLGY''UFZOHG'
MLGYUFZOHG
root@arm:~# MARKER='UZVS''GVGOBS' run 'echo 1800000 1800000 > /sys/kernel/mva_tesst/regulators/buck5_set'
UZVSGVGOBSUZVSGVGOBS 0
root@arm:~# echo 'FLZM''LATQNA'
FLZMLATQNA
root@arm:~# MARKER='PJAK''JLBLHM' run 'i2cget -y -f 1 0x4b 0x16'
PJAKJLBLHM0x03
PJAKJLBLHM 0
root@arm:~# echo 'HBNN''LNOEVS'
HBNNLNOEVS
root@arm:~# MARKER='NLFZ''SOSALK' run 'echo 1845000 1845000 > /sys/kernel/mva_tesst/regulators/buck5_set'
NLFZSOSALKNLFZSOSALK 0
root@arm:~# echo 'XWJY''WFCASM'
XWJYWFCASM
root@arm:~# MARKER='JFFH''NLBXZX' run 'i2cget -y -f 1 0x4b 0x16'
JFFHNLBXZX0x04
JFFHNLBXZX 0
root@arm:~# echo 'GHET''XYTGBT'
GHETXYTGBT
root@arm:~# MARKER='ZVLT''YFOKBY' run 'echo 1905000 1905000 > /sys/kernel/mva_tesst/regulators/buck5_set'
ZVLTYFOKBYZVLTYFOKBY 0
root@arm:~# echo 'WSJA''PBJXYM'
WSJAPBJXYM
root@arm:~# MARKER='XCVZ''HUBEAW' run 'i2cget -y -f 1 0x4b 0x16'
XCVZHUBEAW0x05
XCVZHUBEAW 0
root@arm:~# echo 'UHUC''BPCSAL'
UHUCBPCSAL
root@arm:~# MARKER='GSNO''BBNFAF' run 'echo 1950000 1950000 > /sys/kernel/mva_tesst/regulators/buck5_set'
GSNOBBNFAFGSNOBBNFAF 0
root@arm:~# echo 'HWGV''LYLMTS'
HWGVLYLMTS
root@arm:~# MARKER='PKFO''GGAHBT' run 'i2cget -y -f 1 0x4b 0x16'
PKFOGGAHBT0x06
PKFOGGAHBT 0
root@arm:~# echo 'ZGQQ''TEBNYU'
ZGQQTEBNYU
root@arm:~# MARKER='JVOE''YYJYJY' run 'echo 1995000 1995000 > /sys/kernel/mva_tesst/regulators/buck5_set'
JVOEYYJYJYJVOEYYJYJY 0
root@arm:~# echo 'VEGL''HLGFWL'
VEGLHLGFWL
root@arm:~# MARKER='EEPX''NYSJVH' run 'i2cget -y -f 1 0x4b 0x16'
EEPXNYSJVH0x07
EEPXNYSJVH 0
root@arm:~# echo 'SPGQ''BGKWMM'
SPGQBGKWMM
root@arm:~# MARKER='QHTP''PVUJAV' run 'grep -r -l rohm,bd71847 /proc/device-tree  | sed '"'"'s![^/]*$!!'"'"''
QHTPPVUJAV/proc/device-tree/ocp/interconnect@48000000/segment@0/target-module@2a000/i2c@0/pmic@4b/
QHTPPVUJAV 0
root@arm:~# echo 'AXTU''ZWMXGK'
AXTUZWMXGK
root@arm:~# MARKER='XZNU''TJVCWP' run 'test -f /proc/device-tree/ocp/interconnectt\@48000000/segment\@0/target-module\@2a000/i2c\@0/pmic\@4b/regulators/BUCK6/rohmm,no-regulator-enable-control ;echo $?'
XZNUTJVCWP1
XZNUTJVCWP 0
root@arm:~# echo 'XFWN''YCYAJT'
XFWNYCYAJT
root@arm:~# MARKER='AYXB''LZGOTX' run 'i2cget -y -f 1 0x4b 0xc'
AYXBLZGOTX0x02
AYXBLZGOTX 0
root@arm:~# echo 'NVEB''TLCJWF'
NVEBTLCJWF
root@arm:~# MARKER='KNYF''GVEXTP' run 'echo 800000 800000 > /sys/kernel/mva_test//regulators/buck6_set'
KNYFGVEXTPKNYFGVEXTP 0
root@arm:~# echo 'ZOTG''WOCKLY'
ZOTGWOCKLY
root@arm:~# MARKER='WKXM''ZTAOJX' run 'i2cget -y -f 1 0x4b 0x17'
WKXMZTAOJX0x00
WKXMZTAOJX 0
root@arm:~# echo 'AGBM''PSEZZC'
AGBMPSEZZC
root@arm:~# MARKER='XLEN''HTMEML' run 'echo 810000 810000 > /sys/kernel/mva_test//regulators/buck6_set'
XLENHTMEMLXLENHTMEML 0
root@arm:~# echo 'QLBN''WEUZKL'
QLBNWEUZKL
root@arm:~# MARKER='FUPX''YGYPZU' run 'i2cget -y -f 1 0x4b 0x17'
FUPXYGYPZU0x01
FUPXYGYPZU 0
root@arm:~# echo 'VCGH''MEKPZW'
VCGHMEKPZW
root@arm:~# MARKER='EZCS''TJYJAY' run 'echo 820000 820000 > /sys/kernel/mva_test//regulators/buck6_set'
EZCSTJYJAYEZCSTJYJAY 0
root@arm:~# echo 'XPQZ''ZAHBSM'
XPQZZAHBSM
root@arm:~# MARKER='MHOU''KXJJPF' run 'i2cget -y -f 1 0x4b 0x17'
MHOUKXJJPF0x02
MHOUKXJJPF 0
root@arm:~# echo 'YJPU''TGOFYX'
YJPUTGOFYX
root@arm:~# MARKER='SFXP''SHHYWM' run 'echo 830000 830000 > /sys/kernel/mva_test//regulators/buck6_set'
SFXPSHHYWMSFXPSHHYWM 0
root@arm:~# echo 'VVAS''EVHKNQ'
VVASEVHKNQ
root@arm:~# MARKER='VPXU''ZPKHZU' run 'i2cget -y -f 1 0x4b 0x17'
VPXUZPKHZU0x03
VPXUZPKHZU 0
root@arm:~# echo 'BFWH''BSTECY'
BFWHBSTECY
root@arm:~# MARKER='PFAL''NCJMLF' run 'echo 840000 840000 > /sys/kernel/mva_test//regulators/buck6_set'
PFALNCJMLFPFALNCJMLF 0
root@arm:~# echo 'KFPE''AUAVMT'
KFPEAUAVMT
root@arm:~# MARKER='KPSK''QKVPSK' run 'i2cget -y -f 1 0x4b 0x17'
KPSKQKVPSK0x04
KPSKQKVPSK 0
root@arm:~# echo 'AUYO''TSHHEV'
AUYOTSHHEV
root@arm:~# MARKER='GNAL''CQYXGU' run 'echo 850000 850000 > /sys/kernel/mva_test//regulators/buck6_set'
GNALCQYXGUGNALCQYXGU 0
root@arm:~# echo 'NZML''MKTYKL'
NZMLMKTYKL
root@arm:~# MARKER='QTXK''FVZJKH' run 'i2cget -y -f 1 0x4b 0x17'
QTXKFVZJKH0x05
QTXKFVZJKH 0
root@arm:~# echo 'MFPY''XVLJUF'
MFPYXVLJUF
root@arm:~# MARKER='AMYL''MGEZJF' run 'echo 860000 860000 > /sys/kernel/mva_test//regulators/buck6_set'
AMYLMGEZJFAMYLMGEZJF 0
root@arm:~# echo 'SMUL''XHTBEB'
SMULXHTBEB
root@arm:~# MARKER='YQXQ''BNHHNP' run 'i2cget -y -f 1 0x4b 0x17'
YQXQBNHHNP0x06
YQXQBNHHNP 0
root@arm:~# echo 'PPSM''BCKVFV'
PPSMBCKVFV
root@arm:~# MARKER='OBXT''QAKTOH' run 'echo 870000 870000 > /sys/kernel/mva_test//regulators/buck6_set'
OBXTQAKTOHOBXTQAKTOH 0
root@arm:~# echo 'HJWF''EXSKBK'
HJWFEXSKBK
root@arm:~# MARKER='QUZH''KCWBJJ' run 'i2cget -y -f 1 0x4b 0x17'
QUZHKCWBJJ0x07
QUZHKCWBJJ 0
root@arm:~# echo 'QZGT''JFJNPC'
QZGTJFJNPC
root@arm:~# MARKER='JOFA''MBCFJV' run 'echo 880000 880000 > /sys/kernel/mva_test//regulators/buck6_set'
JOFAMBCFJVJOFAMBCFJV 0
root@arm:~# echo 'QWZZ''NBAOPK'
QWZZNBAOPK
root@arm:~# MARKER='XCME''YLEGQG' run 'i2cget -y -f 1 0x4b 0x17'
XCMEYLEGQG0x08
XCMEYLEGQG 0
root@arm:~# echo 'OFXC''FNGYQQ'
OFXCFNGYQQ
root@arm:~# MARKER='ZJQP''LZAASB' run 'echo 890000 890000 > /sys/kernel/mva_test//regulators/buck6_set'
ZJQPLZAASBZJQPLZAASB 0
root@arm:~# echo 'APMV''ZKTBPX'
APMVZKTBPX
root@arm:~# MARKER='BXWC''GWQUNO' run 'i2cget -y -f 1 0x4b 0x17'
BXWCGWQUNO0x09
BXWCGWQUNO 0
root@arm:~# echo 'CFCW''TNKAAU'
CFCWTNKAAU
root@arm:~# MARKER='OMKQ''KQPUYJ' run 'echo 900000 900000 > /sys/kernel/mva_test//regulators/buck6_set'
OMKQKQPUYJOMKQKQPUYJ 0
root@arm:~# echo 'SSJW''WEGWOG'
SSJWWEGWOG
root@arm:~# MARKER='GVKN''LOJHGJ' run 'i2cget -y -f 1 0x4b 0x17'
GVKNLOJHGJ0x0a
GVKNLOJHGJ 0
root@arm:~# echo 'PBYW''MSMXXL'
PBYWMSMXXL
root@arm:~# MARKER='ZGHK''QBTGZM' run 'echo 910000 910000 > /sys/kernel/mva_test//regulators/buck6_set'
ZGHKQBTGZMZGHKQBTGZM 0
root@arm:~# echo 'NQVM''OSCSGO'
NQVMOSCSGO
root@arm:~# MARKER='VAMK''MYWASA' run 'i2cget -y -f 1 0x4b 0x17'
VAMKMYWASA0x0b
VAMKMYWASA 0
root@arm:~# echo 'LPLN''BTYOBP'
LPLNBTYOBP
root@arm:~# MARKER='HCTO''PMQTNH' run 'echo 920000 920000 > /sys/kernel/mva_test//regulators/buck6_set'
HCTOPMQTNHHCTOPMQTNH 0
root@arm:~# echo 'FJTS''SBPWZL'
FJTSSBPWZL
root@arm:~# MARKER='XMYH''KLSBCY' run 'i2cget -y -f 1 0x4b 0x17'
XMYHKLSBCY0x0c
XMYHKLSBCY 0
root@arm:~# echo 'USFW''FQBXAQ'
USFWFQBXAQ
root@arm:~# MARKER='JOUQ''KSWKWL' run 'echo 930000 930000 > /sys/kernel/mva_test//regulators/buck6_set'
JOUQKSWKWLJOUQKSWKWL 0
root@arm:~# echo 'HEZE''OBTFOM'
HEZEOBTFOM
root@arm:~# MARKER='SKFS''FHHBAN' run 'i2cget -y -f 1 0x4b 0x17'
SKFSFHHBAN0x0d
SKFSFHHBAN 0
root@arm:~# echo 'XOCP''SPAMUP'
XOCPSPAMUP
root@arm:~# MARKER='XMUP''XKBPJO' run 'echo 940000 940000 > /sys/kernel/mva_test//regulators/buck6_set'
XMUPXKBPJOXMUPXKBPJO 0
root@arm:~# echo 'HZWU''PEGWTW'
HZWUPEGWTW
root@arm:~# MARKER='KQVO''XJEHCS' run 'i2cget -y -f 1 0x4b 0x17'
KQVOXJEHCS0x0e
KQVOXJEHCS 0
root@arm:~# echo 'KHPT''ZFUYOY'
KHPTZFUYOY
root@arm:~# MARKER='HPZN''LEONGA' run 'echo 950000 950000 > /sys/kernel/mva_test//regulators/buck6_set'
HPZNLEONGAHPZNLEONGA 0
root@arm:~# echo 'ETXN''CJJNBY'
ETXNCJJNBY
root@arm:~# MARKER='KQKM''QKEHHK' run 'i2cget -y -f 1 0x4b 0x17'
KQKMQKEHHK0x0f
KQKMQKEHHK 0
root@arm:~# echo 'WQAO''VTVUCO'
WQAOVTVUCO
root@arm:~# MARKER='VFBP''LHZONX' run 'echo 960000 960000 > /sys/kernel/mva_test//regulators/buck6_set'
VFBPLHZONXVFBPLHZONX 0
root@arm:~# echo 'OQVP''OHHZOK'
OQVPOHHZOK
root@arm:~# MARKER='NSOG''HUEBON' run 'i2cget -y -f 1 0x4b 0x17'
NSOGHUEBON0x10
NSOGHUEBON 0
root@arm:~# echo 'YTQW''QVZZYJ'
YTQWQVZZYJ
root@arm:~# MARKER='UAZH''KHWNYU' run 'echo 970000 970000 > /sys/kernel/mva_test//regulators/buck6_set'
UAZHKHWNYUUAZHKHWNYU 0
root@arm:~# echo 'OHKB''UMMVYL'
OHKBUMMVYL
root@arm:~# MARKER='TMMZ''ZXQQYH' run 'i2cget -y -f 1 0x4b 0x17'
TMMZZXQQYH0x11
TMMZZXQQYH 0
root@arm:~# echo 'ZZVA''LKSHUX'
ZZVALKSHUX
root@arm:~# MARKER='CUFX''LPMASM' run 'echo 980000 980000 > /sys/kernel/mva_test//regulators/buck6_set'
CUFXLPMASMCUFXLPMASM 0
root@arm:~# echo 'ZYAG''EJUKJW'
ZYAGEJUKJW
root@arm:~# MARKER='FSCO''VOYQKO' run 'i2cget -y -f 1 0x4b 0x17'
FSCOVOYQKO0x12
FSCOVOYQKO 0
root@arm:~# echo 'OVZH''FTEQNS'
OVZHFTEQNS
root@arm:~# MARKER='HKWW''OWSLLP' run 'echo 990000 990000 > /sys/kernel/mva_test//regulators/buck6_set'
HKWWOWSLLPHKWWOWSLLP 0
root@arm:~# echo 'CEGZ''CBUGGQ'
CEGZCBUGGQ
root@arm:~# MARKER='LLOV''PJNGTX' run 'i2cget -y -f 1 0x4b 0x17'
LLOVPJNGTX0x13
LLOVPJNGTX 0
root@arm:~# echo 'VXCL''PMTASU'
VXCLPMTASU
root@arm:~# MARKER='ZNOB''QOVZUM' run 'echo 1000000 1000000 > /sys/kernel/mva_tesst/regulators/buck6_set'
ZNOBQOVZUMZNOBQOVZUM 0
root@arm:~# echo 'KUFM''XYQTTF'
KUFMXYQTTF
root@arm:~# MARKER='ZQCB''XCYBBH' run 'i2cget -y -f 1 0x4b 0x17'
ZQCBXCYBBH0x14
ZQCBXCYBBH 0
root@arm:~# echo 'UTEF''XTSOCJ'
UTEFXTSOCJ
root@arm:~# MARKER='TSCQ''NHOFZB' run 'echo 1010000 1010000 > /sys/kernel/mva_tesst/regulators/buck6_set'
TSCQNHOFZBTSCQNHOFZB 0
root@arm:~# echo 'AVWU''KKMUVH'
AVWUKKMUVH
root@arm:~# MARKER='NQPS''KXYLOH' run 'i2cget -y -f 1 0x4b 0x17'
NQPSKXYLOH0x15
NQPSKXYLOH 0
root@arm:~# echo 'ZKZU''LVASOL'
ZKZULVASOL
root@arm:~# MARKER='WHGB''EPGZQW' run 'echo 1020000 1020000 > /sys/kernel/mva_tesst/regulators/buck6_set'
WHGBEPGZQWWHGBEPGZQW 0
root@arm:~# echo 'HBOG''EBLJHS'
HBOGEBLJHS
root@arm:~# MARKER='ULMS''XVMEXG' run 'i2cget -y -f 1 0x4b 0x17'
ULMSXVMEXG0x16
ULMSXVMEXG 0
root@arm:~# echo 'OSEN''SPGLOM'
OSENSPGLOM
root@arm:~# MARKER='XKWL''ZKYJAV' run 'echo 1030000 1030000 > /sys/kernel/mva_tesst/regulators/buck6_set'
XKWLZKYJAVXKWLZKYJAV 0
root@arm:~# echo 'CKBE''GZOCZQ'
CKBEGZOCZQ
root@arm:~# MARKER='MXHG''ZPPSEM' run 'i2cget -y -f 1 0x4b 0x17'
MXHGZPPSEM0x17
MXHGZPPSEM 0
root@arm:~# echo 'SWSY''TGZMJG'
SWSYTGZMJG
root@arm:~# MARKER='JLES''SOKMVP' run 'echo 1040000 1040000 > /sys/kernel/mva_tesst/regulators/buck6_set'
JLESSOKMVPJLESSOKMVP 0
root@arm:~# echo 'XLFY''UXMZLB'
XLFYUXMZLB
root@arm:~# MARKER='VNMS''NKMMUJ' run 'i2cget -y -f 1 0x4b 0x17'
VNMSNKMMUJ0x18
VNMSNKMMUJ 0
root@arm:~# echo 'VMTW''POZBSA'
VMTWPOZBSA
root@arm:~# MARKER='JNNU''QBZCPQ' run 'echo 1050000 1050000 > /sys/kernel/mva_tesst/regulators/buck6_set'
JNNUQBZCPQJNNUQBZCPQ 0
root@arm:~# echo 'FYLB''UHOMGJ'
FYLBUHOMGJ
root@arm:~# MARKER='ELVF''HFHHVA' run 'i2cget -y -f 1 0x4b 0x17'
ELVFHFHHVA0x19
ELVFHFHHVA 0
root@arm:~# echo 'AKMO''WXTGPG'
AKMOWXTGPG
root@arm:~# MARKER='HBLP''YLJOMQ' run 'echo 1060000 1060000 > /sys/kernel/mva_tesst/regulators/buck6_set'
HBLPYLJOMQHBLPYLJOMQ 0
root@arm:~# echo 'WEPY''WZCVQK'
WEPYWZCVQK
root@arm:~# MARKER='EJEX''AKWXSP' run 'i2cget -y -f 1 0x4b 0x17'
EJEXAKWXSP0x1a
EJEXAKWXSP 0
root@arm:~# echo 'WLCC''TWJAOF'
WLCCTWJAOF
root@arm:~# MARKER='YSJC''ZNNQMU' run 'echo 1070000 1070000 > /sys/kernel/mva_tesst/regulators/buck6_set'
YSJCZNNQMUYSJCZNNQMU 0
root@arm:~# echo 'FWEE''AXOZHX'
FWEEAXOZHX
root@arm:~# MARKER='YYKE''ETMYJK' run 'i2cget -y -f 1 0x4b 0x17'
YYKEETMYJK0x1b
YYKEETMYJK 0
root@arm:~# echo 'OAXY''GUAZHE'
OAXYGUAZHE
root@arm:~# MARKER='QKWF''ZCVKHY' run 'echo 1080000 1080000 > /sys/kernel/mva_tesst/regulators/buck6_set'
QKWFZCVKHYQKWFZCVKHY 0
root@arm:~# echo 'NEOC''CTGVEA'
NEOCCTGVEA
root@arm:~# MARKER='BOWL''XGXMBN' run 'i2cget -y -f 1 0x4b 0x17'
BOWLXGXMBN0x1c
BOWLXGXMBN 0
root@arm:~# echo 'OGES''YKOKMX'
OGESYKOKMX
root@arm:~# MARKER='KHYC''QFCCNZ' run 'echo 1090000 1090000 > /sys/kernel/mva_tesst/regulators/buck6_set'
KHYCQFCCNZKHYCQFCCNZ 0
root@arm:~# echo 'JUHQ''EEAZCY'
JUHQEEAZCY
root@arm:~# MARKER='EJWV''JVJMLK' run 'i2cget -y -f 1 0x4b 0x17'
EJWVJVJMLK0x1d
EJWVJVJMLK 0
root@arm:~# echo 'FKPB''BOEHGO'
FKPBBOEHGO
root@arm:~# MARKER='SGUU''VJLPXP' run 'echo 1100000 1100000 > /sys/kernel/mva_tesst/regulators/buck6_set'
SGUUVJLPXPSGUUVJLPXP 0
root@arm:~# echo 'SNBH''GBTOOJ'
SNBHGBTOOJ
root@arm:~# MARKER='FLYV''ESQNPC' run 'i2cget -y -f 1 0x4b 0x17'
FLYVESQNPC0x1e
FLYVESQNPC 0
root@arm:~# echo 'SWLJ''NUCBPQ'
SWLJNUCBPQ
root@arm:~# MARKER='KEVF''HXETWN' run 'echo 1110000 1110000 > /sys/kernel/mva_tesst/regulators/buck6_set'
KEVFHXETWNKEVFHXETWN 0
root@arm:~# echo 'KEOK''VXUBZX'
KEOKVXUBZX
root@arm:~# MARKER='WBPT''SWWYGN' run 'i2cget -y -f 1 0x4b 0x17'
WBPTSWWYGN0x1f
WBPTSWWYGN 0
root@arm:~# echo 'CLUT''TLGUPX'
CLUTTLGUPX
root@arm:~# MARKER='VGHW''PQUMFW' run 'echo 1120000 1120000 > /sys/kernel/mva_tesst/regulators/buck6_set'
VGHWPQUMFWVGHWPQUMFW 0
root@arm:~# echo 'SJTZ''BPOJFL'
SJTZBPOJFL
root@arm:~# MARKER='GFBM''ZUPPWL' run 'i2cget -y -f 1 0x4b 0x17'
GFBMZUPPWL0x20
GFBMZUPPWL 0
root@arm:~# echo 'MCGY''SKPLFM'
MCGYSKPLFM
root@arm:~# MARKER='PVXY''CQXLYU' run 'echo 1130000 1130000 > /sys/kernel/mva_tesst/regulators/buck6_set'
PVXYCQXLYUPVXYCQXLYU 0
root@arm:~# echo 'FWKS''TGZBEP'
FWKSTGZBEP
root@arm:~# MARKER='LWQW''GJKTLF' run 'i2cget -y -f 1 0x4b 0x17'
LWQWGJKTLF0x21
LWQWGJKTLF 0
root@arm:~# echo 'FUSY''PFLWNN'
FUSYPFLWNN
root@arm:~# MARKER='QBVA''JYJUXK' run 'echo 1140000 1140000 > /sys/kernel/mva_tesst/regulators/buck6_set'
QBVAJYJUXKQBVAJYJUXK 0
root@arm:~# echo 'KJZL''QKMXAH'
KJZLQKMXAH
root@arm:~# MARKER='TMLW''MSGUMY' run 'i2cget -y -f 1 0x4b 0x17'
TMLWMSGUMY0x22
TMLWMSGUMY 0
root@arm:~# echo 'ZYOO''VXHFXO'
ZYOOVXHFXO
root@arm:~# MARKER='OSZC''YZENEZ' run 'echo 1150000 1150000 > /sys/kernel/mva_tesst/regulators/buck6_set'
OSZCYZENEZOSZCYZENEZ 0
root@arm:~# echo 'BUWW''OEKLKK'
BUWWOEKLKK
root@arm:~# MARKER='OLUQ''PANVAT' run 'i2cget -y -f 1 0x4b 0x17'
OLUQPANVAT0x23
OLUQPANVAT 0
root@arm:~# echo 'GSEZ''PCGVLN'
GSEZPCGVLN
root@arm:~# MARKER='EOKO''TPAAWF' run 'echo 1160000 1160000 > /sys/kernel/mva_tesst/regulators/buck6_set'
EOKOTPAAWFEOKOTPAAWF 0
root@arm:~# echo 'NYVK''HXTNSC'
NYVKHXTNSC
root@arm:~# MARKER='QQQL''ECGMZF' run 'i2cget -y -f 1 0x4b 0x17'
QQQLECGMZF0x24
QQQLECGMZF 0
root@arm:~# echo 'HKPN''NFKFNG'
HKPNNFKFNG
root@arm:~# MARKER='VLJA''VYUQLE' run 'echo 1170000 1170000 > /sys/kernel/mva_tesst/regulators/buck6_set'
VLJAVYUQLEVLJAVYUQLE 0
root@arm:~# echo 'ZYVJ''LOXFFE'
ZYVJLOXFFE
root@arm:~# MARKER='CNFW''ZVAMWZ' run 'i2cget -y -f 1 0x4b 0x17'
CNFWZVAMWZ0x25
CNFWZVAMWZ 0
root@arm:~# echo 'CZNC''WMWCZT'
CZNCWMWCZT
root@arm:~# MARKER='VFGM''BXGUOU' run 'echo 1180000 1180000 > /sys/kernel/mva_tesst/regulators/buck6_set'
VFGMBXGUOUVFGMBXGUOU 0
root@arm:~# echo 'SWBB''WENAFP'
SWBBWENAFP
root@arm:~# MARKER='MVEN''YYFETQ' run 'i2cget -y -f 1 0x4b 0x17'
MVENYYFETQ0x26
MVENYYFETQ 0
root@arm:~# echo 'QMZF''UUOFOO'
QMZFUUOFOO
root@arm:~# MARKER='QSBX''ZPSELL' run 'echo 1190000 1190000 > /sys/kernel/mva_tesst/regulators/buck6_set'
QSBXZPSELLQSBXZPSELL 0
root@arm:~# echo 'EPZN''FKBOLS'
EPZNFKBOLS
root@arm:~# MARKER='YWQU''CHLKXN' run 'i2cget -y -f 1 0x4b 0x17'
YWQUCHLKXN0x27
YWQUCHLKXN 0
root@arm:~# echo 'EFSK''NBVQBH'
EFSKNBVQBH
root@arm:~# MARKER='GUQL''BXMSZL' run 'echo 1200000 1200000 > /sys/kernel/mva_tesst/regulators/buck6_set'
GUQLBXMSZLGUQLBXMSZL 0
root@arm:~# echo 'UHZZ''FBHFHF'
UHZZFBHFHF
root@arm:~# MARKER='PWBT''ZZKWGU' run 'i2cget -y -f 1 0x4b 0x17'
PWBTZZKWGU0x28
PWBTZZKWGU 0
root@arm:~# echo 'JZVC''NBZLKE'
JZVCNBZLKE
root@arm:~# MARKER='LCVW''PVXYFY' run 'echo 1210000 1210000 > /sys/kernel/mva_tesst/regulators/buck6_set'
LCVWPVXYFYLCVWPVXYFY 0
root@arm:~# echo 'FNKW''LESNUO'
FNKWLESNUO
root@arm:~# MARKER='FVFZ''MZZZGZ' run 'i2cget -y -f 1 0x4b 0x17'
FVFZMZZZGZ0x29
FVFZMZZZGZ 0
root@arm:~# echo 'VPAC''TXMWKC'
VPACTXMWKC
root@arm:~# MARKER='ASLZ''TMMNHN' run 'echo 1220000 1220000 > /sys/kernel/mva_tesst/regulators/buck6_set'
ASLZTMMNHNASLZTMMNHN 0
root@arm:~# echo 'VYUF''JUMBPM'
VYUFJUMBPM
root@arm:~# MARKER='UJKX''XGTQGB' run 'i2cget -y -f 1 0x4b 0x17'
UJKXXGTQGB0x2a
UJKXXGTQGB 0
root@arm:~# echo 'QCNM''TWAZVF'
QCNMTWAZVF
root@arm:~# MARKER='OTOK''ZLBAKO' run 'echo 1230000 1230000 > /sys/kernel/mva_tesst/regulators/buck6_set'
OTOKZLBAKOOTOKZLBAKO 0
root@arm:~# echo 'LVAM''PCXMFN'
LVAMPCXMFN
root@arm:~# MARKER='TVNW''KYAEAQ' run 'i2cget -y -f 1 0x4b 0x17'
TVNWKYAEAQ0x2b
TVNWKYAEAQ 0
root@arm:~# echo 'AGFC''YOSSXK'
AGFCYOSSXK
root@arm:~# MARKER='ZUAO''CUATGJ' run 'echo 1240000 1240000 > /sys/kernel/mva_tesst/regulators/buck6_set'
ZUAOCUATGJZUAOCUATGJ 0
root@arm:~# echo 'KNAW''JMPWNT'
KNAWJMPWNT
root@arm:~# MARKER='PLZC''FSQFMY' run 'i2cget -y -f 1 0x4b 0x17'
PLZCFSQFMY0x2c
PLZCFSQFMY 0
root@arm:~# echo 'QYOC''TTCJZZ'
QYOCTTCJZZ
root@arm:~# MARKER='VWYJ''YBWWTJ' run 'echo 1250000 1250000 > /sys/kernel/mva_tesst/regulators/buck6_set'
VWYJYBWWTJVWYJYBWWTJ 0
root@arm:~# echo 'WOXG''GQYPYX'
WOXGGQYPYX
root@arm:~# MARKER='SYTM''WQBEKO' run 'i2cget -y -f 1 0x4b 0x17'
SYTMWQBEKO0x2d
SYTMWQBEKO 0
root@arm:~# echo 'SXMQ''CJSEUV'
SXMQCJSEUV
root@arm:~# MARKER='JKYX''CFMOUF' run 'echo 1260000 1260000 > /sys/kernel/mva_tesst/regulators/buck6_set'
JKYXCFMOUFJKYXCFMOUF 0
root@arm:~# echo 'PQTF''CJVUKS'
PQTFCJVUKS
root@arm:~# MARKER='JGOM''MEBTXO' run 'i2cget -y -f 1 0x4b 0x17'
JGOMMEBTXO0x2e
JGOMMEBTXO 0
root@arm:~# echo 'LONA''UFNHEL'
LONAUFNHEL
root@arm:~# MARKER='QFEJ''HBOSHE' run 'echo 1270000 1270000 > /sys/kernel/mva_tesst/regulators/buck6_set'
QFEJHBOSHEQFEJHBOSHE 0
root@arm:~# echo 'TSYP''WAPJAZ'
TSYPWAPJAZ
root@arm:~# MARKER='HKFK''VMNHJN' run 'i2cget -y -f 1 0x4b 0x17'
HKFKVMNHJN0x2f
HKFKVMNHJN 0
root@arm:~# echo 'FKSA''PFVZPB'
FKSAPFVZPB
root@arm:~# MARKER='POVU''EXZZGH' run 'echo 1280000 1280000 > /sys/kernel/mva_tesst/regulators/buck6_set'
POVUEXZZGHPOVUEXZZGH 0
root@arm:~# echo 'EFBS''ZWQAGE'
EFBSZWQAGE
root@arm:~# MARKER='VTVU''UQCLTM' run 'i2cget -y -f 1 0x4b 0x17'
VTVUUQCLTM0x30
VTVUUQCLTM 0
root@arm:~# echo 'GXEP''SNOWYA'
GXEPSNOWYA
root@arm:~# MARKER='ETSS''SESAKU' run 'echo 1290000 1290000 > /sys/kernel/mva_tesst/regulators/buck6_set'
ETSSSESAKUETSSSESAKU 0
root@arm:~# echo 'OCXF''SPGGTW'
OCXFSPGGTW
root@arm:~# MARKER='WJJL''EUHSWU' run 'i2cget -y -f 1 0x4b 0x17'
WJJLEUHSWU0x31
WJJLEUHSWU 0
root@arm:~# echo 'BKXM''WJHMFN'
BKXMWJHMFN
root@arm:~# MARKER='FZLH''GLSZTV' run 'echo 1300000 1300000 > /sys/kernel/mva_tesst/regulators/buck6_set'
FZLHGLSZTVFZLHGLSZTV 0
root@arm:~# echo 'QOPS''OJOSXW'
QOPSOJOSXW
root@arm:~# MARKER='JYGT''QYSYGU' run 'i2cget -y -f 1 0x4b 0x17'
JYGTQYSYGU0x32
JYGTQYSYGU 0
root@arm:~# echo 'CCFU''MQOMXL'
CCFUMQOMXL
root@arm:~# MARKER='QONT''YTPMGZ' run 'echo 1310000 1310000 > /sys/kernel/mva_tesst/regulators/buck6_set'
QONTYTPMGZQONTYTPMGZ 0
root@arm:~# echo 'UCXC''PKKXXA'
UCXCPKKXXA
root@arm:~# MARKER='BGYL''JHCFST' run 'i2cget -y -f 1 0x4b 0x17'
BGYLJHCFST0x33
BGYLJHCFST 0
root@arm:~# echo 'VNKM''KEFOCO'
VNKMKEFOCO
root@arm:~# MARKER='VOVF''MQZQOH' run 'echo 1320000 1320000 > /sys/kernel/mva_tesst/regulators/buck6_set'
VOVFMQZQOHVOVFMQZQOH 0
root@arm:~# echo 'FTZQ''OTZGAK'
FTZQOTZGAK
root@arm:~# MARKER='QTYW''AUKPBB' run 'i2cget -y -f 1 0x4b 0x17'
QTYWAUKPBB0x34
QTYWAUKPBB 0
root@arm:~# echo 'QUWM''SYELPC'
QUWMSYELPC
root@arm:~# MARKER='XUEC''CTCHBZ' run 'echo 1330000 1330000 > /sys/kernel/mva_tesst/regulators/buck6_set'
XUECCTCHBZXUECCTCHBZ 0
root@arm:~# echo 'QMNK''ZEJUKV'
QMNKZEJUKV
root@arm:~# MARKER='LYCX''LUVHMH' run 'i2cget -y -f 1 0x4b 0x17'
LYCXLUVHMH0x35
LYCXLUVHMH 0
root@arm:~# echo 'VWNG''LJXUAB'
VWNGLJXUAB
root@arm:~# MARKER='VMFL''YTPUBN' run 'echo 1340000 1340000 > /sys/kernel/mva_tesst/regulators/buck6_set'
VMFLYTPUBNVMFLYTPUBN 0
root@arm:~# echo 'GWWC''GHNYYY'
GWWCGHNYYY
root@arm:~# MARKER='EPMY''FWXXWQ' run 'i2cget -y -f 1 0x4b 0x17'
EPMYFWXXWQ0x36
EPMYFWXXWQ 0
root@arm:~# echo 'VOHC''YKXUKM'
VOHCYKXUKM
root@arm:~# MARKER='HSOY''BKWVCA' run 'echo 1350000 1350000 > /sys/kernel/mva_tesst/regulators/buck6_set'
HSOYBKWVCAHSOYBKWVCA 0
root@arm:~# echo 'YAVF''OVAJVH'
YAVFOVAJVH
root@arm:~# MARKER='GVLM''HEHAMN' run 'i2cget -y -f 1 0x4b 0x17'
GVLMHEHAMN0x37
GVLMHEHAMN 0
root@arm:~# echo 'VJSF''QCWAVN'
VJSFQCWAVN
root@arm:~# MARKER='CSAV''UVNGEM' run 'echo 1360000 1360000 > /sys/kernel/mva_tesst/regulators/buck6_set'
CSAVUVNGEMCSAVUVNGEM 0
root@arm:~# echo 'GZPT''WCTLWM'
GZPTWCTLWM
root@arm:~# MARKER='JLWV''OEPEMK' run 'i2cget -y -f 1 0x4b 0x17'
JLWVOEPEMK0x38
JLWVOEPEMK 0
root@arm:~# echo 'ZTHN''OWBMHN'
ZTHNOWBMHN
root@arm:~# MARKER='MBLP''EUEHUE' run 'echo 1370000 1370000 > /sys/kernel/mva_tesst/regulators/buck6_set'
MBLPEUEHUEMBLPEUEHUE 0
root@arm:~# echo 'LNOJ''TWGJJU'
LNOJTWGJJU
root@arm:~# MARKER='ZFFB''VWNHJF' run 'i2cget -y -f 1 0x4b 0x17'
ZFFBVWNHJF0x39
ZFFBVWNHJF 0
root@arm:~# echo 'TVAV''WLLVNE'
TVAVWLLVNE
root@arm:~# MARKER='MSCA''NPUOMM' run 'echo 1380000 1380000 > /sys/kernel/mva_tesst/regulators/buck6_set'
MSCANPUOMMMSCANPUOMM 0
root@arm:~# echo 'VJXH''ONFJKC'
VJXHONFJKC
root@arm:~# MARKER='OJAJ''XMGFHJ' run 'i2cget -y -f 1 0x4b 0x17'
OJAJXMGFHJ0x3a
OJAJXMGFHJ 0
root@arm:~# echo 'SYBO''GFNHBS'
SYBOGFNHBS
root@arm:~# MARKER='BUUJ''QSMZMM' run 'echo 1390000 1390000 > /sys/kernel/mva_tesst/regulators/buck6_set'
BUUJQSMZMMBUUJQSMZMM 0
root@arm:~# echo 'VVWY''UTZXWE'
VVWYUTZXWE
root@arm:~# MARKER='UWSK''BUKGBN' run 'i2cget -y -f 1 0x4b 0x17'
UWSKBUKGBN0x3b
UWSKBUKGBN 0
root@arm:~# echo 'KFQW''HLGJXW'
KFQWHLGJXW
root@arm:~# MARKER='OCLU''FGEGJM' run 'echo 1400000 1400000 > /sys/kernel/mva_tesst/regulators/buck6_set'
OCLUFGEGJMOCLUFGEGJM 0
root@arm:~# echo 'QHZX''ONFGMO'
QHZXONFGMO
root@arm:~# MARKER='HQHQ''JXGEKK' run 'i2cget -y -f 1 0x4b 0x17'
HQHQJXGEKK0x3c
HQHQJXGEKK 0
root@arm:~# echo 'EHES''ZUAQPW'
EHESZUAQPW
root@arm:~# MARKER='GFQF''NAQCTK' run 'grep -r -l rohm,bd71847 /proc/device-tree  | sed '"'"'s![^/]*$!!'"'"''
GFQFNAQCTK/proc/device-tree/ocp/interconnect@48000000/segment@0/target-module@2a000/i2c@0/pmic@4b/
GFQFNAQCTK 0
root@arm:~# echo 'VLXG''XSXVSU'
VLXGXSXVSU
root@arm:~# MARKER='CZXG''SJWXJM' run 'test -f /proc/device-tree/ocp/interconnectt\@48000000/segment\@0/target-module\@2a000/i2c\@0/pmic\@4b/regulators/LDO1/rohm,,no-regulator-enable-control ;echo $?'
CZXGSJWXJM1
CZXGSJWXJM 0
root@arm:~# echo 'KPUV''QFJSJY'
KPUVQFJSJY
root@arm:~# MARKER='YTUS''CLXAPJ' run 'i2cget -y -f 1 0x4b 0x18'
YTUSCLXAPJ0xa2
YTUSCLXAPJ 0
root@arm:~# echo 'EBNY''XJOAZL'
EBNYXJOAZL
