Labgrid Console Logfile for main
Logfile started at 2025-09-29 19:39:10.112196
=== Log starts here ===

root@arm:~# run() { echo -n "$MARKER"; sh -c "$@"; echo "$MARKER $?"; }
root@arm:~# echo 'ZKNC''XXCQJZ'
ZKNCXXCQJZ
root@arm:~# MARKER='VFEM''JGKWHS' run 'grep -r -l rohm,bd71837 /proc/device-tree  | sed '"'"'s![^/]*$!!'"'"''
VFEMJGKWHS/proc/device-tree/ocp/interconnect@48000000/segment@100000/target-module@9c000/i2c@0/pmic@4b/
VFEMJGKWHS 0
root@arm:~# echo 'OVQL''CKAWOK'
OVQLCKAWOK
root@arm:~# MARKER='YTVE''ZUEYPH' run 'test -f /proc/device-tree/ocp/interconnectt\@48000000/segment\@100000/target-module\@9c000/i2c\@0/pmic\@4b/regulators/BUCK 1/rohm,no-regulator-enable-control ;echo $?'
YTVEZUEYPH1
YTVEZUEYPH 0
root@arm:~# echo 'WNHZ''OEWYLT'
WNHZOEWYLT
root@arm:~# MARKER='GVAM''FSLYPE' run 'echo 1 > /sys/kernel/mva_test/regulators/bbuck1_en'
GVAMFSLYPEGVAMFSLYPE 0
root@arm:~# echo 'WTJO''XYZGOV'
WTJOXYZGOV
root@arm:~# MARKER='NPBL''GHXCOF' run 'i2cget -y -f 2 0x4b 0x5'
NPBLGHXCOF0x03
NPBLGHXCOF 0
root@arm:~# echo 'BWAL''OKSBHZ'
BWALOKSBHZ
root@arm:~# MARKER='VHTJ''KWFYCO' run 'grep -r -l rohm,bd71837 /proc/device-tree  | sed '"'"'s![^/]*$!!'"'"''
VHTJKWFYCO/proc/device-tree/ocp/interconnect@48000000/segment@100000/target-module@9c000/i2c@0/pmic@4b/
VHTJKWFYCO 0
root@arm:~# echo 'TFBS''EPXLGT'
TFBSEPXLGT
root@arm:~# MARKER='SYZO''NQAVXK' run 'test -f /proc/device-tree/ocp/interconnectt\@48000000/segment\@100000/target-module\@9c000/i2c\@0/pmic\@4b/regulators/BUCK 1/rohm,no-regulator-enable-control ;echo $?'
SYZONQAVXK1
SYZONQAVXK 0
root@arm:~# echo 'CVSJ''VEWGNQ'
CVSJVEWGNQ
root@arm:~# MARKER='SCUA''ANQXYS' run 'grep -r -l rohm,bd71837 /proc/device-tree  | sed '"'"'s![^/]*$!!'"'"''
SCUAANQXYS/proc/device-tree/ocp/interconnect@48000000/segment@100000/target-module@9c000/i2c@0/pmic@4b/
SCUAANQXYS 0
root@arm:~# echo 'JBGX''KUNBJL'
JBGXKUNBJL
root@arm:~# MARKER='JPGK''TQWQTN' run 'test -f /proc/device-tree/ocp/interconnectt\@48000000/segment\@100000/target-module\@9c000/i2c\@0/pmic\@4b/regulators/BUCK11/regulator-always-on ;echo $?'
JPGKTQWQTN1
JPGKTQWQTN 0
root@arm:~# echo 'XKAJ''SGECZM'
XKAJSGECZM
root@arm:~# MARKER='NYJE''WLOMAE' run 'echo 0 > /sys/kernel/mva_test/regulators/bbuck1_en'
NYJEWLOMAENYJEWLOMAE 0
root@arm:~# echo 'LNZG''NMFEBU'
LNZGNMFEBU
root@arm:~# MARKER='MUVX''PSJQFU' run 'i2cget -y -f 2 0x4b 0x5'
MUVXPSJQFU0x02
MUVXPSJQFU 0
root@arm:~# echo 'THVV''JWOYVK'
THVVJWOYVK
root@arm:~# MARKER='TWMG''LTZFBC' run 'grep -r -l rohm,bd71837 /proc/device-tree  | sed '"'"'s![^/]*$!!'"'"''
TWMGLTZFBC/proc/device-tree/ocp/interconnect@48000000/segment@100000/target-module@9c000/i2c@0/pmic@4b/
TWMGLTZFBC 0
root@arm:~# echo 'PQJX''LUKNWW'
PQJXLUKNWW
root@arm:~# MARKER='LGBF''UMYPLY' run 'test -f /proc/device-tree/ocp/interconnectt\@48000000/segment\@100000/target-module\@9c000/i2c\@0/pmic\@4b/regulators/BUCK22/rohm,no-regulator-enable-control ;echo $?'
LGBFUMYPLY1
LGBFUMYPLY 0
root@arm:~# echo 'BWJU''KNCYXG'
BWJUKNCYXG
root@arm:~# MARKER='ZFJQ''YVLSBX' run 'echo 1 > /sys/kernel/mva_test/regulators/bbuck2_en'
ZFJQYVLSBXZFJQYVLSBX 0
root@arm:~# echo 'BUQW''WZZXUX'
BUQWWZZXUX
root@arm:~# MARKER='MAUE''KFCVLP' run 'i2cget -y -f 2 0x4b 0x6'
MAUEKFCVLP0x43
MAUEKFCVLP 0
root@arm:~# echo 'QEAU''VTZFOZ'
QEAUVTZFOZ
root@arm:~# MARKER='WVEK''WYMYCZ' run 'grep -r -l rohm,bd71837 /proc/device-tree  | sed '"'"'s![^/]*$!!'"'"''
WVEKWYMYCZ/proc/device-tree/ocp/interconnect@48000000/segment@100000/target-module@9c000/i2c@0/pmic@4b/
WVEKWYMYCZ 0
root@arm:~# echo 'MQUE''SNTQGA'
MQUESNTQGA
root@arm:~# MARKER='YWJV''NVAXGV' run 'test -f /proc/device-tree/ocp/interconnectt\@48000000/segment\@100000/target-module\@9c000/i2c\@0/pmic\@4b/regulators/BUCK22/rohm,no-regulator-enable-control ;echo $?'
YWJVNVAXGV1
YWJVNVAXGV 0
root@arm:~# echo 'VHJA''BTBFNS'
VHJABTBFNS
root@arm:~# MARKER='MGCP''VBFJNB' run 'grep -r -l rohm,bd71837 /proc/device-tree  | sed '"'"'s![^/]*$!!'"'"''
MGCPVBFJNB/proc/device-tree/ocp/interconnect@48000000/segment@100000/target-module@9c000/i2c@0/pmic@4b/
MGCPVBFJNB 0
root@arm:~# echo 'UCCB''ZEHCOQ'
UCCBZEHCOQ
root@arm:~# MARKER='NVHQ''NEOLHG' run 'test -f /proc/device-tree/ocp/interconnectt\@48000000/segment\@100000/target-module\@9c000/i2c\@0/pmic\@4b/regulators/BUCK22/regulator-always-on ;echo $?'
NVHQNEOLHG0
NVHQNEOLHG 0
root@arm:~# echo 'WCJW''QYNOLW'
WCJWQYNOLW
root@arm:~# MARKER='SOWF''FYPTXF' run 'grep -r -l rohm,bd71837 /proc/device-tree  | sed '"'"'s![^/]*$!!'"'"''
SOWFFYPTXF/proc/device-tree/ocp/interconnect@48000000/segment@100000/target-module@9c000/i2c@0/pmic@4b/
SOWFFYPTXF 0
root@arm:~# echo 'PJCQ''KHCHEN'
PJCQKHCHEN
root@arm:~# MARKER='WAYW''WGWUCA' run 'test -f /proc/device-tree/ocp/interconnectt\@48000000/segment\@100000/target-module\@9c000/i2c\@0/pmic\@4b/regulators/BUCK 3/rohm,no-regulator-enable-control ;echo $?'
WAYWWGWUCA0
WAYWWGWUCA 0
root@arm:~# echo 'LOZF''MHAGQM'
LOZFMHAGQM
root@arm:~# MARKER='AWOW''VFLBWG' run 'grep -r -l rohm,bd71837 /proc/device-tree  | sed '"'"'s![^/]*$!!'"'"''
AWOWVFLBWG/proc/device-tree/ocp/interconnect@48000000/segment@100000/target-module@9c000/i2c@0/pmic@4b/
AWOWVFLBWG 0
root@arm:~# echo 'AWGV''VVPVON'
AWGVVVPVON
root@arm:~# MARKER='XOVU''FAMHCW' run 'test -f /proc/device-tree/ocp/interconnectt\@48000000/segment\@100000/target-module\@9c000/i2c\@0/pmic\@4b/regulators/BUCK 3/rohm,no-regulator-enable-control ;echo $?'
XOVUFAMHCW0
XOVUFAMHCW 0
root@arm:~# echo 'LPLW''XWOVTK'
LPLWXWOVTK
root@arm:~# MARKER='SEHU''UPFKLC' run 'grep -r -l rohm,bd71837 /proc/device-tree  | sed '"'"'s![^/]*$!!'"'"''
SEHUUPFKLC/proc/device-tree/ocp/interconnect@48000000/segment@100000/target-module@9c000/i2c@0/pmic@4b/
SEHUUPFKLC 0
root@arm:~# echo 'OYBT''LFPTPE'
OYBTLFPTPE
root@arm:~# MARKER='GLJP''HHQWQN' run 'test -f /proc/device-tree/ocp/interconnectt\@48000000/segment\@100000/target-module\@9c000/i2c\@0/pmic\@4b/regulators/BUCK44/rohm,no-regulator-enable-control ;echo $?'
GLJPHHQWQN1
GLJPHHQWQN 0
root@arm:~# echo 'QUGU''MLGQSE'
QUGUMLGQSE
root@arm:~# MARKER='MHBZ''OKEVBX' run 'echo 1 > /sys/kernel/mva_test/regulators/bbuck4_en'
MHBZOKEVBXMHBZOKEVBX 0
root@arm:~# echo 'ZEUO''BUEPSL'
ZEUOBUEPSL
root@arm:~# MARKER='BOSL''EPAUHX' run 'i2cget -y -f 2 0x4b 0x8'
BOSLEPAUHX0xc7
BOSLEPAUHX 0
root@arm:~# echo 'POVB''PSBLAT'
POVBPSBLAT
root@arm:~# MARKER='MLJU''LBOPNE' run 'grep -r -l rohm,bd71837 /proc/device-tree  | sed '"'"'s![^/]*$!!'"'"''
MLJULBOPNE/proc/device-tree/ocp/interconnect@48000000/segment@100000/target-module@9c000/i2c@0/pmic@4b/
MLJULBOPNE 0
root@arm:~# echo 'XAQO''GGBTZV'
XAQOGGBTZV
root@arm:~# MARKER='XFPV''UJSPON' run 'test -f /proc/device-tree/ocp/interconnectt\@48000000/segment\@100000/target-module\@9c000/i2c\@0/pmic\@4b/regulators/BUCK44/rohm,no-regulator-enable-control ;echo $?'
XFPVUJSPON1
XFPVUJSPON 0
root@arm:~# echo 'YYSK''VAHJSL'
YYSKVAHJSL
root@arm:~# MARKER='VGGP''MCWYGM' run 'grep -r -l rohm,bd71837 /proc/device-tree  | sed '"'"'s![^/]*$!!'"'"''
VGGPMCWYGM/proc/device-tree/ocp/interconnect@48000000/segment@100000/target-module@9c000/i2c@0/pmic@4b/
VGGPMCWYGM 0
root@arm:~# echo 'OBJC''QHPZFZ'
OBJCQHPZFZ
root@arm:~# MARKER='ZQMK''AASNQS' run 'test -f /proc/device-tree/ocp/interconnectt\@48000000/segment\@100000/target-module\@9c000/i2c\@0/pmic\@4b/regulators/BUCK44/regulator-always-on ;echo $?'
ZQMKAASNQS1
ZQMKAASNQS 0
root@arm:~# echo 'NZKT''HLQWWU'
NZKTHLQWWU
root@arm:~# MARKER='BBUS''XECFXK' run 'echo 0 > /sys/kernel/mva_test/regulators/bbuck4_en'
BBUSXECFXKBBUSXECFXK 0
root@arm:~# echo 'CNKK''ALUEVE'
CNKKALUEVE
root@arm:~# MARKER='JQAM''AZZAVT' run 'i2cget -y -f 2 0x4b 0x8'
JQAMAZZAVT0xc6
JQAMAZZAVT 0
root@arm:~# echo 'LCPH''WUJVHN'
LCPHWUJVHN
root@arm:~# MARKER='TXWQ''BSTNZJ' run 'grep -r -l rohm,bd71837 /proc/device-tree  | sed '"'"'s![^/]*$!!'"'"''
TXWQBSTNZJ/proc/device-tree/ocp/interconnect@48000000/segment@100000/target-module@9c000/i2c@0/pmic@4b/
TXWQBSTNZJ 0
root@arm:~# echo 'ZQJL''UWCXWQ'
ZQJLUWCXWQ
root@arm:~# MARKER='QWBE''CSHQVK' run 'test -f /proc/device-tree/ocp/interconnectt\@48000000/segment\@100000/target-module\@9c000/i2c\@0/pmic\@4b/regulators/BUCK 5/rohm,no-regulator-enable-control ;echo $?'
QWBECSHQVK1
QWBECSHQVK 0
root@arm:~# echo 'UWHS''TQQGHJ'
UWHSTQQGHJ
root@arm:~# MARKER='SAGK''XSKYGX' run 'echo 1 > /sys/kernel/mva_test/regulators/bbuck5_en'
SAGKXSKYGXSAGKXSKYGX 0
root@arm:~# echo 'QVEE''MCVWEV'
QVEEMCVWEV
root@arm:~# MARKER='BLCV''CGYJYA' run 'i2cget -y -f 2 0x4b 0x9'
BLCVCGYJYA0x03
BLCVCGYJYA 0
root@arm:~# echo 'ZMNZ''OLMBVF'
ZMNZOLMBVF
root@arm:~# MARKER='LUTT''JMBZYY' run 'grep -r -l rohm,bd71837 /proc/device-tree  | sed '"'"'s![^/]*$!!'"'"''
LUTTJMBZYY/proc/device-tree/ocp/interconnect@48000000/segment@100000/target-module@9c000/i2c@0/pmic@4b/
LUTTJMBZYY 0
root@arm:~# echo 'LSBK''AKSBXF'
LSBKAKSBXF
root@arm:~# MARKER='QAMY''JKSKOW' run 'test -f /proc/device-tree/ocp/interconnectt\@48000000/segment\@100000/target-module\@9c000/i2c\@0/pmic\@4b/regulators/BUCK55/rohm,no-regulator-enable-control ;echo $?'
QAMYJKSKOW1
QAMYJKSKOW 0
root@arm:~# echo 'AXSN''WNZBJH'
AXSNWNZBJH
root@arm:~# MARKER='KVHE''KEFCGZ' run 'grep -r -l rohm,bd71837 /proc/device-tree  | sed '"'"'s![^/]*$!!'"'"''
KVHEKEFCGZ/proc/device-tree/ocp/interconnect@48000000/segment@100000/target-module@9c000/i2c@0/pmic@4b/
KVHEKEFCGZ 0
root@arm:~# echo 'KESA''XPZHWV'
KESAXPZHWV
root@arm:~# MARKER='GOUH''TWSTYT' run 'test -f /proc/device-tree/ocp/interconnectt\@48000000/segment\@100000/target-module\@9c000/i2c\@0/pmic\@4b/regulators/BUCK55/regulator-always-on ;echo $?'
GOUHTWSTYT1
GOUHTWSTYT 0
root@arm:~# echo 'KJBA''ZXBESN'
KJBAZXBESN
root@arm:~# MARKER='BOPW''YTXVLL' run 'echo 0 > /sys/kernel/mva_test/regulators/bbuck5_en'
BOPWYTXVLLBOPWYTXVLL 0
root@arm:~# echo 'KEGU''AXBSES'
KEGUAXBSES
root@arm:~# MARKER='TVXZ''THKPPJ' run 'i2cget -y -f 2 0x4b 0x9'
TVXZTHKPPJ0x02
TVXZTHKPPJ 0
root@arm:~# echo 'AXUS''PMLTYQ'
AXUSPMLTYQ
root@arm:~# MARKER='TUAQ''OPGFOO' run 'grep -r -l rohm,bd71837 /proc/device-tree  | sed '"'"'s![^/]*$!!'"'"''
TUAQOPGFOO/proc/device-tree/ocp/interconnect@48000000/segment@100000/target-module@9c000/i2c@0/pmic@4b/
TUAQOPGFOO 0
root@arm:~# echo 'QFYZ''KLVGUB'
QFYZKLVGUB
root@arm:~# MARKER='XBXW''VFMUPY' run 'test -f /proc/device-tree/ocp/interconnectt\@48000000/segment\@100000/target-module\@9c000/i2c\@0/pmic\@4b/regulators/BUCK66/rohm,no-regulator-enable-control ;echo $?'
XBXWVFMUPY1
XBXWVFMUPY 0
root@arm:~# echo 'YFKF''PVJHQP'
YFKFPVJHQP
root@arm:~# MARKER='PSLY''PTMMLU' run 'echo 1 > /sys/kernel/mva_test/regulators/bbuck6_en'
PSLYPTMMLUPSLYPTMMLU 0
root@arm:~# echo 'JVWK''UBWHUQ'
JVWKUBWHUQ
root@arm:~# MARKER='MHLU''BTTUUC' run 'i2cget -y -f 2 0x4b 0xa'
MHLUBTTUUC0x03
MHLUBTTUUC 0
root@arm:~# echo 'GGFH''BNSZYV'
GGFHBNSZYV
root@arm:~# MARKER='BLNV''QBWQAO' run 'grep -r -l rohm,bd71837 /proc/device-tree  | sed '"'"'s![^/]*$!!'"'"''
BLNVQBWQAO/proc/device-tree/ocp/interconnect@48000000/segment@100000/target-module@9c000/i2c@0/pmic@4b/
BLNVQBWQAO 0
root@arm:~# echo 'BKLX''UWGBKL'
BKLXUWGBKL
root@arm:~# MARKER='CUEN''NOLOBE' run 'test -f /proc/device-tree/ocp/interconnectt\@48000000/segment\@100000/target-module\@9c000/i2c\@0/pmic\@4b/regulators/BUCK66/rohm,no-regulator-enable-control ;echo $?'
CUENNOLOBE1
CUENNOLOBE 0
root@arm:~# echo 'TYMO''ZMXHBU'
TYMOZMXHBU
root@arm:~# MARKER='MGGY''PXFANE' run 'grep -r -l rohm,bd71837 /proc/device-tree  | sed '"'"'s![^/]*$!!'"'"''
MGGYPXFANE/proc/device-tree/ocp/interconnect@48000000/segment@100000/target-module@9c000/i2c@0/pmic@4b/
MGGYPXFANE 0
root@arm:~# echo 'NEZA''TTCENW'
NEZATTCENW
root@arm:~# MARKER='ABCO''VJLSVQ' run 'test -f /proc/device-tree/ocp/interconnectt\@48000000/segment\@100000/target-module\@9c000/i2c\@0/pmic\@4b/regulators/BUCK 6/regulator-always-on ;echo $?'
ABCOVJLSVQ1
ABCOVJLSVQ 0
root@arm:~# echo 'SOKT''PQPSCV'
SOKTPQPSCV
root@arm:~# MARKER='CKVG''HUPYHA' run 'echo 0 > /sys/kernel/mva_test/regulators/bbuck6_en'
CKVGHUPYHACKVGHUPYHA 0
root@arm:~# echo 'FCVN''UABPVV'
FCVNUABPVV
root@arm:~# MARKER='HHEO''MHQCVC' run 'i2cget -y -f 2 0x4b 0xa'
HHEOMHQCVC0x02
HHEOMHQCVC 0
root@arm:~# echo 'WGAP''WBGMFL'
WGAPWBGMFL
root@arm:~# MARKER='TQCY''NOCGWG' run 'grep -r -l rohm,bd71837 /proc/device-tree  | sed '"'"'s![^/]*$!!'"'"''
TQCYNOCGWG/proc/device-tree/ocp/interconnect@48000000/segment@100000/target-module@9c000/i2c@0/pmic@4b/
TQCYNOCGWG 0
root@arm:~# echo 'MMUW''JZWCMY'
MMUWJZWCMY
root@arm:~# MARKER='OFLQ''TSKMPB' run 'test -f /proc/device-tree/ocp/interconnectt\@48000000/segment\@100000/target-module\@9c000/i2c\@0/pmic\@4b/regulators/BUCK77/rohm,no-regulator-enable-control ;echo $?'
OFLQTSKMPB1
OFLQTSKMPB 0
root@arm:~# echo 'PUSF''GTQSCQ'
PUSFGTQSCQ
root@arm:~# MARKER='MPCT''LXHXNX' run 'echo 1 > /sys/kernel/mva_test/regulators/bbuck7_en'
MPCTLXHXNXMPCTLXHXNX 0
root@arm:~# echo 'JNTW''KQLZAT'
JNTWKQLZAT
root@arm:~# MARKER='WMSB''TQMNWT' run 'i2cget -y -f 2 0x4b 0xb'
WMSBTQMNWT0x03
WMSBTQMNWT 0
root@arm:~# echo 'BCHE''OUFZXT'
BCHEOUFZXT
root@arm:~# MARKER='FKMQ''CTSEXT' run 'grep -r -l rohm,bd71837 /proc/device-tree  | sed '"'"'s![^/]*$!!'"'"''
FKMQCTSEXT/proc/device-tree/ocp/interconnect@48000000/segment@100000/target-module@9c000/i2c@0/pmic@4b/
FKMQCTSEXT 0
root@arm:~# echo 'NJQY''NVCWTQ'
NJQYNVCWTQ
root@arm:~# MARKER='JNKJ''LGNBEC' run 'test -f /proc/device-tree/ocp/interconnectt\@48000000/segment\@100000/target-module\@9c000/i2c\@0/pmic\@4b/regulators/BUCK77/rohm,no-regulator-enable-control ;echo $?'
JNKJLGNBEC1
JNKJLGNBEC 0
root@arm:~# echo 'ZZLB''UOQBHC'
ZZLBUOQBHC
root@arm:~# MARKER='OYUB''WTYGTZ' run 'grep -r -l rohm,bd71837 /proc/device-tree  | sed '"'"'s![^/]*$!!'"'"''
OYUBWTYGTZ/proc/device-tree/ocp/interconnect@48000000/segment@100000/target-module@9c000/i2c@0/pmic@4b/
OYUBWTYGTZ 0
root@arm:~# echo 'FAGL''WFJNBB'
FAGLWFJNBB
root@arm:~# MARKER='QBWS''GGJKVA' run 'test -f /proc/device-tree/ocp/interconnectt\@48000000/segment\@100000/target-module\@9c000/i2c\@0/pmic\@4b/regulators/BUCK77/regulator-always-on ;echo $?'
QBWSGGJKVA1
QBWSGGJKVA 0
root@arm:~# echo 'AGLN''ZJFLPH'
AGLNZJFLPH
root@arm:~# MARKER='TAKS''HCJQSJ' run 'echo 0 > /sys/kernel/mva_test/regulators/bbuck7_en'
TAKSHCJQSJTAKSHCJQSJ 0
root@arm:~# echo 'YZHP''ZOSUFU'
YZHPZOSUFU
root@arm:~# MARKER='XFBJ''CZWLCB' run 'i2cget -y -f 2 0x4b 0xb'
XFBJCZWLCB0x02
XFBJCZWLCB 0
root@arm:~# echo 'EALW''VQONQP'
EALWVQONQP
root@arm:~# MARKER='QXFV''LUVZBY' run 'grep -r -l rohm,bd71837 /proc/device-tree  | sed '"'"'s![^/]*$!!'"'"''
QXFVLUVZBY/proc/device-tree/ocp/interconnect@48000000/segment@100000/target-module@9c000/i2c@0/pmic@4b/
QXFVLUVZBY 0
root@arm:~# echo 'VWYX''WQKFQG'
VWYXWQKFQG
root@arm:~# MARKER='JYCK''UMYCGV' run 'test -f /proc/device-tree/ocp/interconnectt\@48000000/segment\@100000/target-module\@9c000/i2c\@0/pmic\@4b/regulators/BUCK88/rohm,no-regulator-enable-control ;echo $?'
JYCKUMYCGV1
JYCKUMYCGV 0
root@arm:~# echo 'UCMW''UONVFO'
UCMWUONVFO
root@arm:~# MARKER='BQLB''TZWFUS' run 'echo 1 > /sys/kernel/mva_test/regulators/bbuck8_en'
BQLBTZWFUSBQLBTZWFUS 0
root@arm:~# echo 'XEFL''WKJKPO'
XEFLWKJKPO
root@arm:~# MARKER='JLPO''WSBYJW' run 'i2cget -y -f 2 0x4b 0xc'
JLPOWSBYJW0x03
JLPOWSBYJW 0
root@arm:~# echo 'GMXX''EVWPTL'
GMXXEVWPTL
root@arm:~# MARKER='HVHB''ZHPXCB' run 'grep -r -l rohm,bd71837 /proc/device-tree  | sed '"'"'s![^/]*$!!'"'"''
HVHBZHPXCB/proc/device-tree/ocp/interconnect@48000000/segment@100000/target-module@9c000/i2c@0/pmic@4b/
HVHBZHPXCB 0
root@arm:~# echo 'ZYPM''QULVKH'
ZYPMQULVKH
root@arm:~# MARKER='AUEB''XAETQH' run 'test -f /proc/device-tree/ocp/interconnectt\@48000000/segment\@100000/target-module\@9c000/i2c\@0/pmic\@4b/regulators/BUCK88/rohm,no-regulator-enable-control ;echo $?'
AUEBXAETQH1
AUEBXAETQH 0
root@arm:~# echo 'VYNZ''TNMXXX'
VYNZTNMXXX
root@arm:~# MARKER='STXJ''WJGYBB' run 'grep -r -l rohm,bd71837 /proc/device-tree  | sed '"'"'s![^/]*$!!'"'"''
STXJWJGYBB/proc/device-tree/ocp/interconnect@48000000/segment@100000/target-module@9c000/i2c@0/pmic@4b/
STXJWJGYBB 0
root@arm:~# echo 'GWFG''UHWXWF'
GWFGUHWXWF
root@arm:~# MARKER='WZEG''SFPNET' run 'test -f /proc/device-tree/ocp/interconnectt\@48000000/segment\@100000/target-module\@9c000/i2c\@0/pmic\@4b/regulators/BUCK88/regulator-always-on ;echo $?'
WZEGSFPNET1
WZEGSFPNET 0
root@arm:~# echo 'WFLP''OZMHJK'
WFLPOZMHJK
root@arm:~# MARKER='TZXM''SLVZQE' run 'echo 0 > /sys/kernel/mva_test/regulators/bbuck8_en'
TZXMSLVZQETZXMSLVZQE 0
root@arm:~# echo 'QUKQ''CNTGWM'
QUKQCNTGWM
root@arm:~# MARKER='XVBO''QBJKNW' run 'i2cget -y -f 2 0x4b 0xc'
XVBOQBJKNW0x02
XVBOQBJKNW 0
root@arm:~# echo 'BYEW''JEOSHE'
BYEWJEOSHE
root@arm:~# MARKER='TLKG''LTZVQN' run 'grep -r -l rohm,bd71837 /proc/device-tree  | sed '"'"'s![^/]*$!!'"'"''
TLKGLTZVQN/proc/device-tree/ocp/interconnect@48000000/segment@100000/target-module@9c000/i2c@0/pmic@4b/
TLKGLTZVQN 0
root@arm:~# echo 'ZZQW''EANULF'
ZZQWEANULF
root@arm:~# MARKER='WBNK''MKUGEY' run 'test -f /proc/device-tree/ocp/interconnectt\@48000000/segment\@100000/target-module\@9c000/i2c\@0/pmic\@4b/regulators/LDO1//rohm,no-regulator-enable-control ;echo $?'
WBNKMKUGEY1
WBNKMKUGEY 0
root@arm:~# echo 'TLST''TSEZAK'
TLSTTSEZAK
root@arm:~# MARKER='MAKX''YGLCQF' run 'echo 1 > /sys/kernel/mva_test/regulators/bbuck9_en'
MAKXYGLCQFMAKXYGLCQF 0
root@arm:~# echo 'BACF''YLTCBY'
BACFYLTCBY
root@arm:~# MARKER='QZAJ''XAQSNA' run 'i2cget -y -f 2 0x4b 0x18'
QZAJXAQSNA0xc3
QZAJXAQSNA 0
root@arm:~# echo 'XCZC''WESHNN'
XCZCWESHNN
root@arm:~# MARKER='YLVC''HZKULB' run 'grep -r -l rohm,bd71837 /proc/device-tree  | sed '"'"'s![^/]*$!!'"'"''
YLVCHZKULB/proc/device-tree/ocp/interconnect@48000000/segment@100000/target-module@9c000/i2c@0/pmic@4b/
YLVCHZKULB 0
root@arm:~# echo 'BLSP''OJCYBQ'
BLSPOJCYBQ
root@arm:~# MARKER='ZWQJ''OMNSAF' run 'test -f /proc/device-tree/ocp/interconnectt\@48000000/segment\@100000/target-module\@9c000/i2c\@0/pmic\@4b/regulators/LDO1//rohm,no-regulator-enable-control ;echo $?'
ZWQJOMNSAF1
ZWQJOMNSAF 0
root@arm:~# echo 'AUUQ''JTTTTO'
AUUQJTTTTO
root@arm:~# MARKER='EVZS''FVGPYY' run 'grep -r -l rohm,bd71837 /proc/device-tree  | sed '"'"'s![^/]*$!!'"'"''
EVZSFVGPYY/proc/device-tree/ocp/interconnect@48000000/segment@100000/target-module@9c000/i2c@0/pmic@4b/
EVZSFVGPYY 0
root@arm:~# echo 'HGCQ''JMFLQP'
HGCQJMFLQP
root@arm:~# MARKER='YWCB''KUCJGP' run 'test -f /proc/device-tree/ocp/interconnectt\@48000000/segment\@100000/target-module\@9c000/i2c\@0/pmic\@4b/regulators/LDO1//regulator-always-on ;echo $?'
YWCBKUCJGP1
YWCBKUCJGP 0
root@arm:~# echo 'XLSZ''LUQXNZ'
XLSZLUQXNZ
root@arm:~# MARKER='PCAP''NYKPYH' run 'echo 0 > /sys/kernel/mva_test/regulators/bbuck9_en'
PCAPNYKPYHPCAPNYKPYH 0
root@arm:~# echo 'UVFH''QXCHZV'
UVFHQXCHZV
root@arm:~# MARKER='SLPW''ZCFEMB' run 'i2cget -y -f 2 0x4b 0x18'
SLPWZCFEMB0x83
SLPWZCFEMB 0
root@arm:~# echo 'GSNP''TPUFSS'
GSNPTPUFSS
root@arm:~# MARKER='XBJK''FTNZVC' run 'grep -r -l rohm,bd71837 /proc/device-tree  | sed '"'"'s![^/]*$!!'"'"''
XBJKFTNZVC/proc/device-tree/ocp/interconnect@48000000/segment@100000/target-module@9c000/i2c@0/pmic@4b/
XBJKFTNZVC 0
root@arm:~# echo 'AJFX''KJNUMA'
AJFXKJNUMA
root@arm:~# MARKER='PVBW''GQNXCX' run 'test -f /proc/device-tree/ocp/interconnectt\@48000000/segment\@100000/target-module\@9c000/i2c\@0/pmic\@4b/regulators/LDO2//rohm,no-regulator-enable-control ;echo $?'
PVBWGQNXCX1
PVBWGQNXCX 0
root@arm:~# echo 'XWEE''XKBLPZ'
XWEEXKBLPZ
root@arm:~# MARKER='YGFG''JOMAYA' run 'echo 1 > /sys/kernel/mva_test/regulators/bbuck10_en'
YGFGJOMAYAYGFGJOMAYA 0
root@arm:~# echo 'HXYS''AYUWET'
HXYSAYUWET
root@arm:~# MARKER='LEKS''AGKEMZ' run 'i2cget -y -f 2 0x4b 0x19'
LEKSAGKEMZ0xc0
LEKSAGKEMZ 0
root@arm:~# echo 'SOQQ''WGATGX'
SOQQWGATGX
root@arm:~# MARKER='PEGS''ZGFZYK' run 'grep -r -l rohm,bd71837 /proc/device-tree  | sed '"'"'s![^/]*$!!'"'"''
PEGSZGFZYK/proc/device-tree/ocp/interconnect@48000000/segment@100000/target-module@9c000/i2c@0/pmic@4b/
PEGSZGFZYK 0
root@arm:~# echo 'HAWQ''BLXAJX'
HAWQBLXAJX
root@arm:~# MARKER='PCMV''WYKKFK' run 'test -f /proc/device-tree/ocp/interconnectt\@48000000/segment\@100000/target-module\@9c000/i2c\@0/pmic\@4b/regulators/LDO2 /rohm,no-regulator-enable-control ;echo $?'
PCMVWYKKFK1
PCMVWYKKFK 0
root@arm:~# echo 'GTZO''ZWMAPJ'
GTZOZWMAPJ
root@arm:~# MARKER='SFSX''QPOHKT' run 'grep -r -l rohm,bd71837 /proc/device-tree  | sed '"'"'s![^/]*$!!'"'"''
SFSXQPOHKT/proc/device-tree/ocp/interconnect@48000000/segment@100000/target-module@9c000/i2c@0/pmic@4b/
SFSXQPOHKT 0
root@arm:~# echo 'FOVY''YWGUVT'
FOVYYWGUVT
root@arm:~# MARKER='EYQY''WNUFBH' run 'test -f /proc/device-tree/ocp/interconnectt\@48000000/segment\@100000/target-module\@9c000/i2c\@0/pmic\@4b/regulators/LDO2//regulator-always-on ;echo $?'
EYQYWNUFBH1
EYQYWNUFBH 0
root@arm:~# echo 'AFGC''FKSTNB'
AFGCFKSTNB
root@arm:~# MARKER='OWOH''QUPAEB' run 'echo 0 > /sys/kernel/mva_test/regulators/bbuck10_en'
OWOHQUPAEBOWOHQUPAEB 0
root@arm:~# echo 'TCOU''TAKPNG'
TCOUTAKPNG
root@arm:~# MARKER='YLPB''PJABKA' run 'i2cget -y -f 2 0x4b 0x19'
YLPBPJABKA0x80
YLPBPJABKA 0
root@arm:~# echo 'TEVN''SKANOJ'
TEVNSKANOJ
root@arm:~# MARKER='JQET''WTYGOG' run 'grep -r -l rohm,bd71837 /proc/device-tree  | sed '"'"'s![^/]*$!!'"'"''
JQETWTYGOG/proc/device-tree/ocp/interconnect@48000000/segment@100000/target-module@9c000/i2c@0/pmic@4b/
JQETWTYGOG 0
root@arm:~# echo 'HFFL''GLYUKA'
HFFLGLYUKA
root@arm:~# MARKER='PCKO''VGXKOE' run 'test -f /proc/device-tree/ocp/interconnectt\@48000000/segment\@100000/target-module\@9c000/i2c\@0/pmic\@4b/regulators/LDO3//rohm,no-regulator-enable-control ;echo $?'
PCKOVGXKOE1
PCKOVGXKOE 0
root@arm:~# echo 'PFTN''XJLHHM'
PFTNXJLHHM
root@arm:~# MARKER='UTFT''TTJSML' run 'echo 1 > /sys/kernel/mva_test/regulators/bbuck11_en'
UTFTTTJSMLUTFTTTJSML 0
root@arm:~# echo 'JWOS''TABUHF'
JWOSTABUHF
root@arm:~# MARKER='AFGX''LAFTNP' run 'i2cget -y -f 2 0x4b 0x1a'
AFGXLAFTNP0xc0
AFGXLAFTNP 0
root@arm:~# echo 'UGZV''BTNWMZ'
UGZVBTNWMZ
root@arm:~# MARKER='NMNO''ZQYWUS' run 'grep -r -l rohm,bd71837 /proc/device-tree  | sed '"'"'s![^/]*$!!'"'"''
NMNOZQYWUS/proc/device-tree/ocp/interconnect@48000000/segment@100000/target-module@9c000/i2c@0/pmic@4b/
NMNOZQYWUS 0
root@arm:~# echo 'PSKM''ZHACWN'
PSKMZHACWN
root@arm:~# MARKER='FEKZ''TAVZTQ' run 'test -f /proc/device-tree/ocp/interconnectt\@48000000/segment\@100000/target-module\@9c000/i2c\@0/pmic\@4b/regulators/LDO3//rohm,no-regulator-enable-control ;echo $?'
FEKZTAVZTQ1
FEKZTAVZTQ 0
root@arm:~# echo 'WSGZ''UEOKSH'
WSGZUEOKSH
root@arm:~# MARKER='ENXN''CYSQPB' run 'grep -r -l rohm,bd71837 /proc/device-tree  | sed '"'"'s![^/]*$!!'"'"''
ENXNCYSQPB/proc/device-tree/ocp/interconnect@48000000/segment@100000/target-module@9c000/i2c@0/pmic@4b/
ENXNCYSQPB 0
root@arm:~# echo 'HSBM''OGVEFW'
HSBMOGVEFW
root@arm:~# MARKER='VMBY''TQJOWQ' run 'test -f /proc/device-tree/ocp/interconnectt\@48000000/segment\@100000/target-module\@9c000/i2c\@0/pmic\@4b/regulators/LDO3 /regulator-always-on ;echo $?'
VMBYTQJOWQ1
VMBYTQJOWQ 0
root@arm:~# echo 'JCSG''FXMOPQ'
JCSGFXMOPQ
root@arm:~# MARKER='KXLB''CUECBZ' run 'echo 0 > /sys/kernel/mva_test/regulators/bbuck11_en'
KXLBCUECBZKXLBCUECBZ 0
root@arm:~# echo 'MPNQ''KQNOGG'
MPNQKQNOGG
root@arm:~# MARKER='BYAP''MAHFSN' run 'i2cget -y -f 2 0x4b 0x1a'
BYAPMAHFSN0x80
BYAPMAHFSN 0
root@arm:~# echo 'ONHE''KWMXBZ'
ONHEKWMXBZ
root@arm:~# MARKER='TPMW''PSQYPU' run 'grep -r -l rohm,bd71837 /proc/device-tree  | sed '"'"'s![^/]*$!!'"'"''
TPMWPSQYPU/proc/device-tree/ocp/interconnect@48000000/segment@100000/target-module@9c000/i2c@0/pmic@4b/
TPMWPSQYPU 0
root@arm:~# echo 'CGQC''KCQQJS'
CGQCKCQQJS
root@arm:~# MARKER='EJMO''KOUHKU' run 'test -f /proc/device-tree/ocp/interconnectt\@48000000/segment\@100000/target-module\@9c000/i2c\@0/pmic\@4b/regulators/LDO4//rohm,no-regulator-enable-control ;echo $?'
EJMOKOUHKU1
EJMOKOUHKU 0
root@arm:~# echo 'PHPA''XVYNUQ'
PHPAXVYNUQ
root@arm:~# MARKER='XQSP''UTWOCG' run 'echo 1 > /sys/kernel/mva_test/regulators/bbuck12_en'
XQSPUTWOCGXQSPUTWOCG 0
root@arm:~# echo 'NOUV''ZBLASB'
NOUVZBLASB
root@arm:~# MARKER='JXAY''OTPQZU' run 'i2cget -y -f 2 0x4b 0x1b'
JXAYOTPQZU0xc0
JXAYOTPQZU 0
root@arm:~# echo 'GSXW''TCPWFE'
GSXWTCPWFE
root@arm:~# MARKER='VXKN''QKEGUV' run 'grep -r -l rohm,bd71837 /proc/device-tree  | sed '"'"'s![^/]*$!!'"'"''
VXKNQKEGUV/proc/device-tree/ocp/interconnect@48000000/segment@100000/target-module@9c000/i2c@0/pmic@4b/
VXKNQKEGUV 0
root@arm:~# echo 'XBJG''JTWJLU'
XBJGJTWJLU
root@arm:~# MARKER='WLJO''TGVSLC' run 'test -f /proc/device-tree/ocp/interconnectt\@48000000/segment\@100000/target-module\@9c000/i2c\@0/pmic\@4b/regulators/LDO4//rohm,no-regulator-enable-control ;echo $?'
WLJOTGVSLC1
WLJOTGVSLC 0
root@arm:~# echo 'LMJY''OQSBTO'
LMJYOQSBTO
root@arm:~# MARKER='GSJZ''WHTZEE' run 'grep -r -l rohm,bd71837 /proc/device-tree  | sed '"'"'s![^/]*$!!'"'"''
GSJZWHTZEE/proc/device-tree/ocp/interconnect@48000000/segment@100000/target-module@9c000/i2c@0/pmic@4b/
GSJZWHTZEE 0
root@arm:~# echo 'LKPU''QCQHVP'
LKPUQCQHVP
root@arm:~# MARKER='FSJC''FSVZCL' run 'test -f /proc/device-tree/ocp/interconnectt\@48000000/segment\@100000/target-module\@9c000/i2c\@0/pmic\@4b/regulators/LDO4//regulator-always-on ;echo $?'
FSJCFSVZCL1
FSJCFSVZCL 0
root@arm:~# echo 'FBUT''UKYASL'
FBUTUKYASL
root@arm:~# MARKER='VUUQ''BXWYQT' run 'echo 0 > /sys/kernel/mva_test/regulators/bbuck12_en'
VUUQBXWYQTVUUQBXWYQT 0
root@arm:~# echo 'FQHE''UACEQE'
FQHEUACEQE
root@arm:~# MARKER='SMHB''HNWSSA' run 'i2cget -y -f 2 0x4b 0x1b'
SMHBHNWSSA0x80
SMHBHNWSSA 0
root@arm:~# echo 'SOXU''VKUENB'
SOXUVKUENB
root@arm:~# MARKER='KOFY''EUHAMQ' run 'grep -r -l rohm,bd71837 /proc/device-tree  | sed '"'"'s![^/]*$!!'"'"''
KOFYEUHAMQ/proc/device-tree/ocp/interconnect@48000000/segment@100000/target-module@9c000/i2c@0/pmic@4b/
KOFYEUHAMQ 0
root@arm:~# echo 'HVEH''ZSFFEE'
HVEHZSFFEE
root@arm:~# MARKER='HGWQ''BZEPSU' run 'test -f /proc/device-tree/ocp/interconnectt\@48000000/segment\@100000/target-module\@9c000/i2c\@0/pmic\@4b/regulators/LDO5 /rohm,no-regulator-enable-control ;echo $?'
HGWQBZEPSU0
HGWQBZEPSU 0
root@arm:~# echo 'EGBJ''SUFMBJ'
EGBJSUFMBJ
root@arm:~# MARKER='BBOX''HPTQCP' run 'grep -r -l rohm,bd71837 /proc/device-tree  | sed '"'"'s![^/]*$!!'"'"''
BBOXHPTQCP/proc/device-tree/ocp/interconnect@48000000/segment@100000/target-module@9c000/i2c@0/pmic@4b/
BBOXHPTQCP 0
root@arm:~# echo 'KWWZ''QGHQTT'
KWWZQGHQTT
root@arm:~# MARKER='HNKE''QXHHBX' run 'test -f /proc/device-tree/ocp/interconnectt\@48000000/segment\@100000/target-module\@9c000/i2c\@0/pmic\@4b/regulators/LDO5//rohm,no-regulator-enable-control ;echo $?'
HNKEQXHHBX0
HNKEQXHHBX 0
root@arm:~# echo 'ZHEA''YHZTEJ'
ZHEAYHZTEJ
root@arm:~# MARKER='AXVU''TGXTWN' run 'grep -r -l rohm,bd71837 /proc/device-tree  | sed '"'"'s![^/]*$!!'"'"''
AXVUTGXTWN/proc/device-tree/ocp/interconnect@48000000/segment@100000/target-module@9c000/i2c@0/pmic@4b/
AXVUTGXTWN 0
root@arm:~# echo 'YWUV''JALXOO'
YWUVJALXOO
root@arm:~# MARKER='YKQY''MVUAGZ' run 'test -f /proc/device-tree/ocp/interconnectt\@48000000/segment\@100000/target-module\@9c000/i2c\@0/pmic\@4b/regulators/LDO6//rohm,no-regulator-enable-control ;echo $?'
YKQYMVUAGZ1
YKQYMVUAGZ 0
root@arm:~# echo 'CAGN''CPYUCZ'
CAGNCPYUCZ
root@arm:~# MARKER='SOGT''HHVKNZ' run 'echo 1 > /sys/kernel/mva_test/regulators/bbuck14_en'
SOGTHHVKNZSOGTHHVKNZ 0
root@arm:~# echo 'HHXK''TJFOBY'
HHXKTJFOBY
root@arm:~# MARKER='QTTY''OTPEJX' run 'i2cget -y -f 2 0x4b 0x1d'
QTTYOTPEJX0xc0
QTTYOTPEJX 0
root@arm:~# echo 'OGWV''HFHZBK'
OGWVHFHZBK
root@arm:~# MARKER='FYCE''VJLZOB' run 'grep -r -l rohm,bd71837 /proc/device-tree  | sed '"'"'s![^/]*$!!'"'"''
FYCEVJLZOB/proc/device-tree/ocp/interconnect@48000000/segment@100000/target-module@9c000/i2c@0/pmic@4b/
FYCEVJLZOB 0
root@arm:~# echo 'BXNX''KWNFMG'
BXNXKWNFMG
root@arm:~# MARKER='EPFW''UMUFLA' run 'test -f /proc/device-tree/ocp/interconnectt\@48000000/segment\@100000/target-module\@9c000/i2c\@0/pmic\@4b/regulators/LDO6//rohm,no-regulator-enable-control ;echo $?'
EPFWUMUFLA1
EPFWUMUFLA 0
root@arm:~# echo 'MEJJ''TXFNFE'
MEJJTXFNFE
root@arm:~# MARKER='JOGM''ULELEK' run 'grep -r -l rohm,bd71837 /proc/device-tree  | sed '"'"'s![^/]*$!!'"'"''
JOGMULELEK/proc/device-tree/ocp/interconnect@48000000/segment@100000/target-module@9c000/i2c@0/pmic@4b/
JOGMULELEK 0
root@arm:~# echo 'VMPE''UEXNCG'
VMPEUEXNCG
root@arm:~# MARKER='XWTT''SZKYWL' run 'test -f /proc/device-tree/ocp/interconnectt\@48000000/segment\@100000/target-module\@9c000/i2c\@0/pmic\@4b/regulators/LDO6 /regulator-always-on ;echo $?'
XWTTSZKYWL1
XWTTSZKYWL 0
root@arm:~# echo 'NCOH''EFYAYT'
NCOHEFYAYT
root@arm:~# MARKER='CFXB''LSNEAC' run 'echo 0 > /sys/kernel/mva_test/regulators/bbuck14_en'
CFXBLSNEACCFXBLSNEAC 0
root@arm:~# echo 'GKYM''OQSAQW'
GKYMOQSAQW
root@arm:~# MARKER='VOKH''VKFNAY' run 'i2cget -y -f 2 0x4b 0x1d'
VOKHVKFNAY0x80
VOKHVKFNAY 0
root@arm:~# echo 'SOLE''ZTQPLE'
SOLEZTQPLE
root@arm:~# MARKER='CUXN''FOOQJE' run 'grep -r -l rohm,bd71837 /proc/device-tree  | sed '"'"'s![^/]*$!!'"'"''
CUXNFOOQJE/proc/device-tree/ocp/interconnect@48000000/segment@100000/target-module@9c000/i2c@0/pmic@4b/
CUXNFOOQJE 0
root@arm:~# echo 'AVWO''UUBSMQ'
AVWOUUBSMQ
root@arm:~# MARKER='NQME''OWEXPW' run 'test -f /proc/device-tree/ocp/interconnectt\@48000000/segment\@100000/target-module\@9c000/i2c\@0/pmic\@4b/regulators/LDO7//rohm,no-regulator-enable-control ;echo $?'
NQMEOWEXPW1
NQMEOWEXPW 0
root@arm:~# echo 'XVSU''XLLGAT'
XVSUXLLGAT
root@arm:~# MARKER='TSJA''CJKLCZ' run 'echo 1 > /sys/kernel/mva_test/regulators/bbuck15_en'
TSJACJKLCZTSJACJKLCZ 0
root@arm:~# echo 'YTCZ''LFPTUU'
YTCZLFPTUU
root@arm:~# MARKER='UEMY''ZJPZKW' run 'i2cget -y -f 2 0x4b 0x1e'
UEMYZJPZKW0xcf
UEMYZJPZKW 0
root@arm:~# echo 'NCTJ''XGMGYK'
NCTJXGMGYK
root@arm:~# MARKER='YUOS''EANAXT' run 'grep -r -l rohm,bd71837 /proc/device-tree  | sed '"'"'s![^/]*$!!'"'"''
YUOSEANAXT/proc/device-tree/ocp/interconnect@48000000/segment@100000/target-module@9c000/i2c@0/pmic@4b/
YUOSEANAXT 0
root@arm:~# echo 'UCHH''EEGHYG'
UCHHEEGHYG
root@arm:~# MARKER='OHWH''GFLBGM' run 'test -f /proc/device-tree/ocp/interconnectt\@48000000/segment\@100000/target-module\@9c000/i2c\@0/pmic\@4b/regulators/LDO7 /rohm,no-regulator-enable-control ;echo $?'
OHWHGFLBGM1
OHWHGFLBGM 0
root@arm:~# echo 'HFJG''XNCEKW'
HFJGXNCEKW
root@arm:~# MARKER='PFKS''CZMXZY' run 'grep -r -l rohm,bd71837 /proc/device-tree  | sed '"'"'s![^/]*$!!'"'"''
PFKSCZMXZY/proc/device-tree/ocp/interconnect@48000000/segment@100000/target-module@9c000/i2c@0/pmic@4b/
PFKSCZMXZY 0
root@arm:~# echo 'PYSG''MBYFFA'
PYSGMBYFFA
root@arm:~# MARKER='XPTL''EHQMFK' run 'test -f /proc/device-tree/ocp/interconnectt\@48000000/segment\@100000/target-module\@9c000/i2c\@0/pmic\@4b/regulators/LDO7 /regulator-always-on ;echo $?'
XPTLEHQMFK1
XPTLEHQMFK 0
root@arm:~# echo 'CKPA''FYFELS'
CKPAFYFELS
root@arm:~# MARKER='LSPZ''KENCXL' run 'echo 0 > /sys/kernel/mva_test/regulators/bbuck15_en'
LSPZKENCXLLSPZKENCXL 0
root@arm:~# echo 'UNHE''VNWYKX'
UNHEVNWYKX
root@arm:~# MARKER='SPNX''SYFEXL' run 'i2cget -y -f 2 0x4b 0x1e'
SPNXSYFEXL0x8f
SPNXSYFEXL 0
root@arm:~# Labgrid Console Logfile for main
Logfile started at 2025-09-29 19:39:44.892819
=== Log starts here ===

root@arm:~# run() { echo -n "$MARKER"; sh -c "$@"; echo "$MARKER $?"; }
root@arm:~# echo 'OZNX''KSCCHW'
OZNXKSCCHW
root@arm:~# MARKER='BXTU''XTKXBN' run 'grep -r -l rohm,bd71837 /proc/device-tree  | sed '"'"'s![^/]*$!!'"'"''
BXTUXTKXBN/proc/device-tree/ocp/interconnect@48000000/segment@100000/target-module@9c000/i2c@0/pmic@4b/
BXTUXTKXBN 0
root@arm:~# echo 'SPVU''BTCJGE'
SPVUBTCJGE
root@arm:~# MARKER='VUUK''YLPGSC' run 'test -f /proc/device-tree/ocp/interconnectt\@48000000/segment\@100000/target-module\@9c000/i2c\@0/pmic\@4b/regulators/BUCK 1/rohm,no-regulator-enable-control ;echo $?'
VUUKYLPGSC1
VUUKYLPGSC 0
root@arm:~# echo 'QHPJ''XXXMCT'
QHPJXXXMCT
root@arm:~# MARKER='QFUF''AQJMUF' run 'i2cget -y -f 2 0x4b 0x5'
QFUFAQJMUF0x02
QFUFAQJMUF 0
root@arm:~# echo 'HELC''LBONKM'
HELCLBONKM
root@arm:~# MARKER='VQQO''EEMZCB' run 'echo 700000 700000 > /sys/kernel/mva_test//regulators/buck1_set'
VQQOEEMZCBVQQOEEMZCB 0
root@arm:~# echo 'AJCY''ETBOZE'
AJCYETBOZE
root@arm:~# MARKER='ZOAB''XPNGBE' run 'i2cget -y -f 2 0x4b 0xd'
ZOABXPNGBE0x00
ZOABXPNGBE 0
root@arm:~# echo 'UVXS''NLGOTT'
UVXSNLGOTT
root@arm:~# MARKER='HYLK''GMCPML' run 'echo 710000 710000 > /sys/kernel/mva_test//regulators/buck1_set'
HYLKGMCPMLHYLKGMCPML 0
root@arm:~# echo 'XHCS''YFSMEJ'
XHCSYFSMEJ
root@arm:~# MARKER='YJVK''VESNHH' run 'i2cget -y -f 2 0x4b 0xd'
YJVKVESNHH0x01
YJVKVESNHH 0
root@arm:~# echo 'UCVB''LZONKS'
UCVBLZONKS
root@arm:~# MARKER='NUFH''XMXUNB' run 'echo 720000 720000 > /sys/kernel/mva_test//regulators/buck1_set'
NUFHXMXUNBNUFHXMXUNB 0
root@arm:~# echo 'THEG''FKYFEL'
THEGFKYFEL
root@arm:~# MARKER='WGJG''ALMOAS' run 'i2cget -y -f 2 0x4b 0xd'
WGJGALMOAS0x02
WGJGALMOAS 0
root@arm:~# echo 'YAKN''FSLPWW'
YAKNFSLPWW
root@arm:~# MARKER='FXBU''YBGCMC' run 'echo 730000 730000 > /sys/kernel/mva_test//regulators/buck1_set'
FXBUYBGCMCFXBUYBGCMC 0
root@arm:~# echo 'BJVW''HVGLEY'
BJVWHVGLEY
root@arm:~# MARKER='QNJV''THMQYY' run 'i2cget -y -f 2 0x4b 0xd'
QNJVTHMQYY0x03
QNJVTHMQYY 0
root@arm:~# echo 'ZCQX''OUSLMO'
ZCQXOUSLMO
root@arm:~# MARKER='TOBL''XTWAPW' run 'echo 740000 740000 > /sys/kernel/mva_test//regulators/buck1_set'
TOBLXTWAPWTOBLXTWAPW 0
root@arm:~# echo 'ZBHQ''ZAGPUS'
ZBHQZAGPUS
root@arm:~# MARKER='LUKX''MMGYEV' run 'i2cget -y -f 2 0x4b 0xd'
LUKXMMGYEV0x04
LUKXMMGYEV 0
root@arm:~# echo 'BCXY''YSSTLZ'
BCXYYSSTLZ
root@arm:~# MARKER='TQFV''YEPVNY' run 'echo 750000 750000 > /sys/kernel/mva_test//regulators/buck1_set'
TQFVYEPVNYTQFVYEPVNY 0
root@arm:~# echo 'GEPU''AEUNBE'
GEPUAEUNBE
root@arm:~# MARKER='LCLU''OJCCUB' run 'i2cget -y -f 2 0x4b 0xd'
LCLUOJCCUB0x05
LCLUOJCCUB 0
root@arm:~# echo 'LJTJ''OCSNMO'
LJTJOCSNMO
root@arm:~# MARKER='CWNZ''GATNMP' run 'echo 760000 760000 > /sys/kernel/mva_test//regulators/buck1_set'
CWNZGATNMPCWNZGATNMP 0
root@arm:~# echo 'GQTO''AUYOZF'
GQTOAUYOZF
root@arm:~# MARKER='GAKP''YUMPCK' run 'i2cget -y -f 2 0x4b 0xd'
GAKPYUMPCK0x06
GAKPYUMPCK 0
root@arm:~# echo 'ZVCT''KFZKLY'
ZVCTKFZKLY
root@arm:~# MARKER='QQFA''KGQLUU' run 'echo 770000 770000 > /sys/kernel/mva_test//regulators/buck1_set'
QQFAKGQLUUQQFAKGQLUU 0
root@arm:~# echo 'CXJF''TAKBNN'
CXJFTAKBNN
root@arm:~# MARKER='OPUU''BTSXJO' run 'i2cget -y -f 2 0x4b 0xd'
OPUUBTSXJO0x07
OPUUBTSXJO 0
root@arm:~# echo 'TBWE''FNHVZK'
TBWEFNHVZK
root@arm:~# MARKER='ZQQM''CHWWMS' run 'echo 780000 780000 > /sys/kernel/mva_test//regulators/buck1_set'
ZQQMCHWWMSZQQMCHWWMS 0
root@arm:~# echo 'MYNF''ZFQSOF'
MYNFZFQSOF
root@arm:~# MARKER='EEYM''UWXTUG' run 'i2cget -y -f 2 0x4b 0xd'
EEYMUWXTUG0x08
EEYMUWXTUG 0
root@arm:~# echo 'NAKB''ALVWLE'
NAKBALVWLE
root@arm:~# MARKER='QAZS''XOBYMG' run 'echo 790000 790000 > /sys/kernel/mva_test//regulators/buck1_set'
QAZSXOBYMGQAZSXOBYMG 0
root@arm:~# echo 'XWPQ''UFYLMU'
XWPQUFYLMU
root@arm:~# MARKER='XHJV''CQWZWJ' run 'i2cget -y -f 2 0x4b 0xd'
XHJVCQWZWJ0x09
XHJVCQWZWJ 0
root@arm:~# echo 'AZMT''OTNTAT'
AZMTOTNTAT
root@arm:~# MARKER='CNPU''HUHCFC' run 'echo 800000 800000 > /sys/kernel/mva_test//regulators/buck1_set'
CNPUHUHCFCCNPUHUHCFC 0
root@arm:~# echo 'PKWG''SYJPWJ'
PKWGSYJPWJ
root@arm:~# MARKER='SWOO''TWTFCZ' run 'i2cget -y -f 2 0x4b 0xd'
SWOOTWTFCZ0x0a
SWOOTWTFCZ 0
root@arm:~# echo 'XUYV''MPSCTL'
XUYVMPSCTL
root@arm:~# MARKER='HLSL''AQFKOF' run 'echo 810000 810000 > /sys/kernel/mva_test//regulators/buck1_set'
HLSLAQFKOFHLSLAQFKOF 0
root@arm:~# echo 'PVLH''PPAQTF'
PVLHPPAQTF
root@arm:~# MARKER='EPCK''MTYCTB' run 'i2cget -y -f 2 0x4b 0xd'
EPCKMTYCTB0x0b
EPCKMTYCTB 0
root@arm:~# echo 'AEJE''OSLXYZ'
AEJEOSLXYZ
root@arm:~# MARKER='XKKV''YSWAHP' run 'echo 820000 820000 > /sys/kernel/mva_test//regulators/buck1_set'
XKKVYSWAHPXKKVYSWAHP 0
root@arm:~# echo 'WHAY''GGNFKO'
WHAYGGNFKO
root@arm:~# MARKER='JNXF''AAMBNV' run 'i2cget -y -f 2 0x4b 0xd'
JNXFAAMBNV0x0c
JNXFAAMBNV 0
root@arm:~# echo 'UHPH''EQPAQT'
UHPHEQPAQT
root@arm:~# MARKER='XQXP''YUZGEH' run 'echo 830000 830000 > /sys/kernel/mva_test//regulators/buck1_set'
XQXPYUZGEHXQXPYUZGEH 0
root@arm:~# echo 'YQFJ''TVVCTS'
YQFJTVVCTS
root@arm:~# MARKER='JMUK''GVBZYX' run 'i2cget -y -f 2 0x4b 0xd'
JMUKGVBZYX0x0d
JMUKGVBZYX 0
root@arm:~# echo 'EKEB''AZKTKN'
EKEBAZKTKN
root@arm:~# MARKER='MMGH''YECWVA' run 'echo 840000 840000 > /sys/kernel/mva_test//regulators/buck1_set'
MMGHYECWVAMMGHYECWVA 0
root@arm:~# echo 'XCQH''QXYKYL'
XCQHQXYKYL
root@arm:~# MARKER='JESK''OCYSQO' run 'i2cget -y -f 2 0x4b 0xd'
JESKOCYSQO0x0e
JESKOCYSQO 0
root@arm:~# echo 'ZXBG''QAOPAP'
ZXBGQAOPAP
root@arm:~# MARKER='XQMW''BXXBSZ' run 'echo 850000 850000 > /sys/kernel/mva_test//regulators/buck1_set'
XQMWBXXBSZXQMWBXXBSZ 0
root@arm:~# echo 'QVSS''PKUSHB'
QVSSPKUSHB
root@arm:~# MARKER='ONZC''NFEANA' run 'i2cget -y -f 2 0x4b 0xd'
ONZCNFEANA0x0f
ONZCNFEANA 0
root@arm:~# echo 'WPWQ''YJPSJG'
WPWQYJPSJG
root@arm:~# MARKER='HSBH''XSBXOT' run 'echo 860000 860000 > /sys/kernel/mva_test//regulators/buck1_set'
HSBHXSBXOTHSBHXSBXOT 0
root@arm:~# echo 'NKZV''CSMOKE'
NKZVCSMOKE
root@arm:~# MARKER='QVTB''SONNJU' run 'i2cget -y -f 2 0x4b 0xd'
QVTBSONNJU0x10
QVTBSONNJU 0
root@arm:~# echo 'QSXQ''MAYXEB'
QSXQMAYXEB
root@arm:~# MARKER='SZZU''TKLSES' run 'echo 870000 870000 > /sys/kernel/mva_test//regulators/buck1_set'
SZZUTKLSESSZZUTKLSES 0
root@arm:~# echo 'FZWE''VCEYBO'
FZWEVCEYBO
root@arm:~# MARKER='FSQL''CESESV' run 'i2cget -y -f 2 0x4b 0xd'
FSQLCESESV0x11
FSQLCESESV 0
root@arm:~# echo 'TWSA''PCAOYZ'
TWSAPCAOYZ
root@arm:~# MARKER='SPVT''BXVEKM' run 'echo 880000 880000 > /sys/kernel/mva_test//regulators/buck1_set'
SPVTBXVEKMSPVTBXVEKM 0
root@arm:~# echo 'SPTF''HCJWYA'
SPTFHCJWYA
root@arm:~# MARKER='PCOK''NYLHTK' run 'i2cget -y -f 2 0x4b 0xd'
PCOKNYLHTK0x12
PCOKNYLHTK 0
root@arm:~# echo 'TMOF''WOKUGU'
TMOFWOKUGU
root@arm:~# MARKER='HLGH''VZMPQF' run 'echo 890000 890000 > /sys/kernel/mva_test//regulators/buck1_set'
HLGHVZMPQFHLGHVZMPQF 0
root@arm:~# echo 'WKPP''SAHSBC'
WKPPSAHSBC
root@arm:~# MARKER='MNKP''KEGQEP' run 'i2cget -y -f 2 0x4b 0xd'
MNKPKEGQEP0x13
MNKPKEGQEP 0
root@arm:~# echo 'JUJN''YJGQFF'
JUJNYJGQFF
root@arm:~# MARKER='FAKF''CQCOBB' run 'echo 900000 900000 > /sys/kernel/mva_test//regulators/buck1_set'
FAKFCQCOBBFAKFCQCOBB 0
root@arm:~# echo 'EWFE''FLEGNJ'
EWFEFLEGNJ
root@arm:~# MARKER='BEYY''FWVWTU' run 'i2cget -y -f 2 0x4b 0xd'
BEYYFWVWTU0x14
BEYYFWVWTU 0
root@arm:~# echo 'GYNY''AJGAXV'
GYNYAJGAXV
root@arm:~# MARKER='UAEG''WGJEFY' run 'echo 910000 910000 > /sys/kernel/mva_test//regulators/buck1_set'
UAEGWGJEFYUAEGWGJEFY 0
root@arm:~# echo 'ZQTH''AASBTG'
ZQTHAASBTG
root@arm:~# MARKER='LTBH''PPVOAP' run 'i2cget -y -f 2 0x4b 0xd'
LTBHPPVOAP0x15
LTBHPPVOAP 0
root@arm:~# echo 'CHCJ''UYQENM'
CHCJUYQENM
root@arm:~# MARKER='KSQW''LAZCHK' run 'echo 920000 920000 > /sys/kernel/mva_test//regulators/buck1_set'
KSQWLAZCHKKSQWLAZCHK 0
root@arm:~# echo 'HOTK''EHPVSF'
HOTKEHPVSF
root@arm:~# MARKER='LCZJ''CBWWBV' run 'i2cget -y -f 2 0x4b 0xd'
LCZJCBWWBV0x16
LCZJCBWWBV 0
root@arm:~# echo 'SXPW''KKCMPS'
SXPWKKCMPS
root@arm:~# MARKER='SGSF''WGQAWJ' run 'echo 930000 930000 > /sys/kernel/mva_test//regulators/buck1_set'
SGSFWGQAWJSGSFWGQAWJ 0
root@arm:~# echo 'ZWPO''LLHZTW'
ZWPOLLHZTW
root@arm:~# MARKER='CSVZ''XMMUUL' run 'i2cget -y -f 2 0x4b 0xd'
CSVZXMMUUL0x17
CSVZXMMUUL 0
root@arm:~# echo 'WSQM''ZMZNAC'
WSQMZMZNAC
root@arm:~# MARKER='XJZT''TQKSET' run 'echo 940000 940000 > /sys/kernel/mva_test//regulators/buck1_set'
XJZTTQKSETXJZTTQKSET 0
root@arm:~# echo 'MTPY''UPJXSP'
MTPYUPJXSP
root@arm:~# MARKER='ZLWC''ZYKVZM' run 'i2cget -y -f 2 0x4b 0xd'
ZLWCZYKVZM0x18
ZLWCZYKVZM 0
root@arm:~# echo 'XTHP''TPCHEY'
XTHPTPCHEY
root@arm:~# MARKER='WUYW''ZTXCQC' run 'echo 950000 950000 > /sys/kernel/mva_test//regulators/buck1_set'
WUYWZTXCQCWUYWZTXCQC 0
root@arm:~# echo 'PAMA''HTPVPO'
PAMAHTPVPO
root@arm:~# MARKER='TSYG''MNCPVX' run 'i2cget -y -f 2 0x4b 0xd'
TSYGMNCPVX0x19
TSYGMNCPVX 0
root@arm:~# echo 'GZJG''BKMHFS'
GZJGBKMHFS
root@arm:~# MARKER='LYZP''UXSAQC' run 'echo 960000 960000 > /sys/kernel/mva_test//regulators/buck1_set'
LYZPUXSAQCLYZPUXSAQC 0
root@arm:~# echo 'XTWT''NMUXFA'
XTWTNMUXFA
root@arm:~# MARKER='WEVM''ZWJFTP' run 'i2cget -y -f 2 0x4b 0xd'
WEVMZWJFTP0x1a
WEVMZWJFTP 0
root@arm:~# echo 'VPPE''XKKEXE'
VPPEXKKEXE
root@arm:~# MARKER='HJAX''ZBTSWB' run 'echo 970000 970000 > /sys/kernel/mva_test//regulators/buck1_set'
HJAXZBTSWBHJAXZBTSWB 0
root@arm:~# echo 'OYKX''WLEFGQ'
OYKXWLEFGQ
root@arm:~# MARKER='GMLS''HKYQFL' run 'i2cget -y -f 2 0x4b 0xd'
GMLSHKYQFL0x1b
GMLSHKYQFL 0
root@arm:~# echo 'VYPZ''ENEAMY'
VYPZENEAMY
root@arm:~# MARKER='APFP''GCYHMM' run 'echo 980000 980000 > /sys/kernel/mva_test//regulators/buck1_set'
APFPGCYHMMAPFPGCYHMM 0
root@arm:~# echo 'OAVP''LOUOJP'
OAVPLOUOJP
root@arm:~# MARKER='VYGP''QHAHAE' run 'i2cget -y -f 2 0x4b 0xd'
VYGPQHAHAE0x1c
VYGPQHAHAE 0
root@arm:~# echo 'GWQW''KXAVCZ'
GWQWKXAVCZ
root@arm:~# MARKER='XTEF''XSVOKY' run 'echo 990000 990000 > /sys/kernel/mva_test//regulators/buck1_set'
XTEFXSVOKYXTEFXSVOKY 0
root@arm:~# echo 'AEMB''AUOGQL'
AEMBAUOGQL
root@arm:~# MARKER='XTTM''SAWVHW' run 'i2cget -y -f 2 0x4b 0xd'
XTTMSAWVHW0x1d
XTTMSAWVHW 0
root@arm:~# echo 'JVSJ''JBZEUV'
JVSJJBZEUV
root@arm:~# MARKER='KBSC''EFUYAA' run 'echo 1000000 1000000 > /sys/kernel/mva_tesst/regulators/buck1_set'
KBSCEFUYAAKBSCEFUYAA 0
root@arm:~# echo 'KCWE''XAMOAC'
KCWEXAMOAC
root@arm:~# MARKER='YXFW''YWJVMV' run 'i2cget -y -f 2 0x4b 0xd'
YXFWYWJVMV0x1e
YXFWYWJVMV 0
root@arm:~# echo 'NTLK''QVEHUC'
NTLKQVEHUC
root@arm:~# MARKER='GOWK''VZAUOF' run 'echo 1010000 1010000 > /sys/kernel/mva_tesst/regulators/buck1_set'
GOWKVZAUOFGOWKVZAUOF 0
root@arm:~# echo 'FTSW''OCGMXK'
FTSWOCGMXK
root@arm:~# MARKER='UNTJ''ZFNHQE' run 'i2cget -y -f 2 0x4b 0xd'
UNTJZFNHQE0x1f
UNTJZFNHQE 0
root@arm:~# echo 'BUGL''TUGKKE'
BUGLTUGKKE
root@arm:~# MARKER='QJCJ''SFSMCH' run 'echo 1020000 1020000 > /sys/kernel/mva_tesst/regulators/buck1_set'
QJCJSFSMCHQJCJSFSMCH 0
root@arm:~# echo 'CYUU''YQBMLL'
CYUUYQBMLL
root@arm:~# MARKER='UEWG''ETJNWH' run 'i2cget -y -f 2 0x4b 0xd'
UEWGETJNWH0x20
UEWGETJNWH 0
root@arm:~# echo 'MLJJ''PEVCSW'
MLJJPEVCSW
root@arm:~# MARKER='MLUF''OQBCVA' run 'echo 1030000 1030000 > /sys/kernel/mva_tesst/regulators/buck1_set'
MLUFOQBCVAMLUFOQBCVA 0
root@arm:~# echo 'ZEXE''PWEAYK'
ZEXEPWEAYK
root@arm:~# MARKER='FLQW''ZTZTEZ' run 'i2cget -y -f 2 0x4b 0xd'
FLQWZTZTEZ0x21
FLQWZTZTEZ 0
root@arm:~# echo 'JSZO''EKCTCT'
JSZOEKCTCT
root@arm:~# MARKER='TFCG''GTZTSW' run 'echo 1040000 1040000 > /sys/kernel/mva_tesst/regulators/buck1_set'
TFCGGTZTSWTFCGGTZTSW 0
root@arm:~# echo 'UTYX''BNVXCX'
UTYXBNVXCX
root@arm:~# MARKER='OPUV''CQFPXH' run 'i2cget -y -f 2 0x4b 0xd'
OPUVCQFPXH0x22
OPUVCQFPXH 0
root@arm:~# echo 'CASB''EZHFCS'
CASBEZHFCS
root@arm:~# MARKER='EZSH''AXBTZN' run 'echo 1050000 1050000 > /sys/kernel/mva_tesst/regulators/buck1_set'
EZSHAXBTZNEZSHAXBTZN 0
root@arm:~# echo 'FXFG''OXFOYH'
FXFGOXFOYH
root@arm:~# MARKER='TCYX''YNSQGE' run 'i2cget -y -f 2 0x4b 0xd'
TCYXYNSQGE0x23
TCYXYNSQGE 0
root@arm:~# echo 'MJVP''NUOLGU'
MJVPNUOLGU
root@arm:~# MARKER='NJEL''WASWGE' run 'echo 1060000 1060000 > /sys/kernel/mva_tesst/regulators/buck1_set'
NJELWASWGENJELWASWGE 0
root@arm:~# echo 'ZOHN''YQEUBN'
ZOHNYQEUBN
root@arm:~# MARKER='JWEZ''PGZQFJ' run 'i2cget -y -f 2 0x4b 0xd'
JWEZPGZQFJ0x24
JWEZPGZQFJ 0
root@arm:~# echo 'TYPV''BZCCNG'
TYPVBZCCNG
root@arm:~# MARKER='ZUJP''NQKBCA' run 'echo 1070000 1070000 > /sys/kernel/mva_tesst/regulators/buck1_set'
ZUJPNQKBCAZUJPNQKBCA 0
root@arm:~# echo 'LJUT''FELYYF'
LJUTFELYYF
root@arm:~# MARKER='PGKP''AFBOPP' run 'i2cget -y -f 2 0x4b 0xd'
PGKPAFBOPP0x25
PGKPAFBOPP 0
root@arm:~# echo 'ZVYA''AEZYFM'
ZVYAAEZYFM
root@arm:~# MARKER='GZCW''CGYGSX' run 'echo 1080000 1080000 > /sys/kernel/mva_tesst/regulators/buck1_set'
GZCWCGYGSXGZCWCGYGSX 0
root@arm:~# echo 'XLQJ''AEPJOX'
XLQJAEPJOX
root@arm:~# MARKER='TELV''QQCCVF' run 'i2cget -y -f 2 0x4b 0xd'
TELVQQCCVF0x26
TELVQQCCVF 0
root@arm:~# echo 'CMSM''JEECWC'
CMSMJEECWC
root@arm:~# MARKER='GQYN''GFYEGV' run 'echo 1090000 1090000 > /sys/kernel/mva_tesst/regulators/buck1_set'
GQYNGFYEGVGQYNGFYEGV 0
root@arm:~# echo 'HSSZ''SHMBTY'
HSSZSHMBTY
root@arm:~# MARKER='TFUQ''OCWEVY' run 'i2cget -y -f 2 0x4b 0xd'
TFUQOCWEVY0x27
TFUQOCWEVY 0
root@arm:~# echo 'QENT''ENXWBH'
QENTENXWBH
root@arm:~# MARKER='GHVL''NLWFBL' run 'echo 1100000 1100000 > /sys/kernel/mva_tesst/regulators/buck1_set'
GHVLNLWFBLGHVLNLWFBL 0
root@arm:~# echo 'BXWB''ATYKPP'
BXWBATYKPP
root@arm:~# MARKER='KTZP''FOXGPQ' run 'i2cget -y -f 2 0x4b 0xd'
KTZPFOXGPQ0x28
KTZPFOXGPQ 0
root@arm:~# echo 'OWFC''AJHKZB'
OWFCAJHKZB
root@arm:~# MARKER='UEVB''PKUCTF' run 'echo 1110000 1110000 > /sys/kernel/mva_tesst/regulators/buck1_set'
UEVBPKUCTFUEVBPKUCTF 0
root@arm:~# echo 'JXEP''KPGEXV'
JXEPKPGEXV
root@arm:~# MARKER='YOOY''YJOYAN' run 'i2cget -y -f 2 0x4b 0xd'
YOOYYJOYAN0x29
YOOYYJOYAN 0
root@arm:~# echo 'LUSA''GSLQHH'
LUSAGSLQHH
root@arm:~# MARKER='WTUF''QVTNML' run 'echo 1120000 1120000 > /sys/kernel/mva_tesst/regulators/buck1_set'
WTUFQVTNMLWTUFQVTNML 0
root@arm:~# echo 'HTZJ''OJXNWW'
HTZJOJXNWW
root@arm:~# MARKER='SVFW''ZXFZPM' run 'i2cget -y -f 2 0x4b 0xd'
SVFWZXFZPM0x2a
SVFWZXFZPM 0
root@arm:~# echo 'VJKU''QAGJJP'
VJKUQAGJJP
root@arm:~# MARKER='FSLH''TBKKTY' run 'echo 1130000 1130000 > /sys/kernel/mva_tesst/regulators/buck1_set'
FSLHTBKKTYFSLHTBKKTY 0
root@arm:~# echo 'CSYZ''LZJQJZ'
CSYZLZJQJZ
root@arm:~# MARKER='OUJJ''FYUGPK' run 'i2cget -y -f 2 0x4b 0xd'
OUJJFYUGPK0x2b
OUJJFYUGPK 0
root@arm:~# echo 'VTVX''GBAXKQ'
VTVXGBAXKQ
root@arm:~# MARKER='UJLZ''QHWWLU' run 'echo 1140000 1140000 > /sys/kernel/mva_tesst/regulators/buck1_set'
UJLZQHWWLUUJLZQHWWLU 0
root@arm:~# echo 'KSPM''VVLAEB'
KSPMVVLAEB
root@arm:~# MARKER='NCAP''CXPZQS' run 'i2cget -y -f 2 0x4b 0xd'
NCAPCXPZQS0x2c
NCAPCXPZQS 0
root@arm:~# echo 'POTN''PLCKHP'
POTNPLCKHP
root@arm:~# MARKER='NFYS''SEQPTU' run 'echo 1150000 1150000 > /sys/kernel/mva_tesst/regulators/buck1_set'
NFYSSEQPTUNFYSSEQPTU 0
root@arm:~# echo 'GZWB''CZMFQB'
GZWBCZMFQB
root@arm:~# MARKER='SMFQ''AFYCYV' run 'i2cget -y -f 2 0x4b 0xd'
SMFQAFYCYV0x2d
SMFQAFYCYV 0
root@arm:~# echo 'OKJV''WFKZKV'
OKJVWFKZKV
root@arm:~# MARKER='KQHZ''XUXNTQ' run 'echo 1160000 1160000 > /sys/kernel/mva_tesst/regulators/buck1_set'
KQHZXUXNTQKQHZXUXNTQ 0
root@arm:~# echo 'ZSEM''FAEZYC'
ZSEMFAEZYC
root@arm:~# MARKER='TXLL''NCUQAP' run 'i2cget -y -f 2 0x4b 0xd'
TXLLNCUQAP0x2e
TXLLNCUQAP 0
root@arm:~# echo 'TEAP''FFQSJZ'
TEAPFFQSJZ
root@arm:~# MARKER='XNAY''MSZOAO' run 'echo 1170000 1170000 > /sys/kernel/mva_tesst/regulators/buck1_set'
XNAYMSZOAOXNAYMSZOAO 0
root@arm:~# echo 'OUVQ''VLYAOV'
OUVQVLYAOV
root@arm:~# MARKER='ZPSH''QQTPSC' run 'i2cget -y -f 2 0x4b 0xd'
ZPSHQQTPSC0x2f
ZPSHQQTPSC 0
root@arm:~# echo 'TJHQ''MBJBES'
TJHQMBJBES
root@arm:~# MARKER='LKZW''BEHFXV' run 'echo 1180000 1180000 > /sys/kernel/mva_tesst/regulators/buck1_set'
LKZWBEHFXVLKZWBEHFXV 0
root@arm:~# echo 'NLZZ''KJBZBX'
NLZZKJBZBX
root@arm:~# MARKER='EULE''LWAPAE' run 'i2cget -y -f 2 0x4b 0xd'
EULELWAPAE0x30
EULELWAPAE 0
root@arm:~# echo 'GJMC''NKMYFE'
GJMCNKMYFE
root@arm:~# MARKER='VPOK''GMXOQH' run 'echo 1190000 1190000 > /sys/kernel/mva_tesst/regulators/buck1_set'
VPOKGMXOQHVPOKGMXOQH 0
root@arm:~# echo 'JUTZ''WTGQCS'
JUTZWTGQCS
root@arm:~# MARKER='KOFC''BSAJBK' run 'i2cget -y -f 2 0x4b 0xd'
KOFCBSAJBK0x31
KOFCBSAJBK 0
root@arm:~# echo 'SZWH''VJTNWQ'
SZWHVJTNWQ
root@arm:~# MARKER='AZGU''ZAUEEU' run 'echo 1200000 1200000 > /sys/kernel/mva_tesst/regulators/buck1_set'
AZGUZAUEEUAZGUZAUEEU 0
root@arm:~# echo 'JYXF''LJTGET'
JYXFLJTGET
root@arm:~# MARKER='LWVO''VXLUZL' run 'i2cget -y -f 2 0x4b 0xd'
LWVOVXLUZL0x32
LWVOVXLUZL 0
root@arm:~# echo 'CBTW''FONQHJ'
CBTWFONQHJ
root@arm:~# MARKER='QKYC''KYCYKE' run 'echo 1210000 1210000 > /sys/kernel/mva_tesst/regulators/buck1_set'
QKYCKYCYKEQKYCKYCYKE 0
root@arm:~# echo 'TVJV''MQLOWL'
TVJVMQLOWL
root@arm:~# MARKER='QZEB''BNKQBA' run 'i2cget -y -f 2 0x4b 0xd'
QZEBBNKQBA0x33
QZEBBNKQBA 0
root@arm:~# echo 'UYYN''WBFEZV'
UYYNWBFEZV
root@arm:~# MARKER='AZUX''YKPHQB' run 'echo 1220000 1220000 > /sys/kernel/mva_tesst/regulators/buck1_set'
AZUXYKPHQBAZUXYKPHQB 0
root@arm:~# echo 'KAZB''FAZVBN'
KAZBFAZVBN
root@arm:~# MARKER='MXTA''EQGOBW' run 'i2cget -y -f 2 0x4b 0xd'
MXTAEQGOBW0x34
MXTAEQGOBW 0
root@arm:~# echo 'LPBT''KTNOBM'
LPBTKTNOBM
root@arm:~# MARKER='TTYU''HAKJEJ' run 'echo 1230000 1230000 > /sys/kernel/mva_tesst/regulators/buck1_set'
TTYUHAKJEJTTYUHAKJEJ 0
root@arm:~# echo 'XJEU''XZLEPY'
XJEUXZLEPY
root@arm:~# MARKER='YNAU''UVOOUM' run 'i2cget -y -f 2 0x4b 0xd'
YNAUUVOOUM0x35
YNAUUVOOUM 0
root@arm:~# echo 'OBLN''MAASVJ'
OBLNMAASVJ
root@arm:~# MARKER='CAPX''OUNXVS' run 'echo 1240000 1240000 > /sys/kernel/mva_tesst/regulators/buck1_set'
CAPXOUNXVSCAPXOUNXVS 0
root@arm:~# echo 'TZAJ''YGSXAU'
TZAJYGSXAU
root@arm:~# MARKER='KWYN''CPSNAN' run 'i2cget -y -f 2 0x4b 0xd'
KWYNCPSNAN0x36
KWYNCPSNAN 0
root@arm:~# echo 'BQXE''WXSGSJ'
BQXEWXSGSJ
root@arm:~# MARKER='MBFU''CQKNXO' run 'echo 1250000 1250000 > /sys/kernel/mva_tesst/regulators/buck1_set'
MBFUCQKNXOMBFUCQKNXO 0
root@arm:~# echo 'BQEY''FLCYTW'
BQEYFLCYTW
root@arm:~# MARKER='LQVZ''VJMFWQ' run 'i2cget -y -f 2 0x4b 0xd'
LQVZVJMFWQ0x37
LQVZVJMFWQ 0
root@arm:~# echo 'EQVV''YWSNWL'
EQVVYWSNWL
root@arm:~# MARKER='HHVN''QMUENX' run 'echo 1260000 1260000 > /sys/kernel/mva_tesst/regulators/buck1_set'
HHVNQMUENXHHVNQMUENX 0
root@arm:~# echo 'TOPO''ZMNKXE'
TOPOZMNKXE
root@arm:~# MARKER='FCKH''XTXLUH' run 'i2cget -y -f 2 0x4b 0xd'
FCKHXTXLUH0x38
FCKHXTXLUH 0
root@arm:~# echo 'XFHS''FHQBZP'
XFHSFHQBZP
root@arm:~# MARKER='MLCW''NCXPAC' run 'echo 1270000 1270000 > /sys/kernel/mva_tesst/regulators/buck1_set'
MLCWNCXPACMLCWNCXPAC 0
root@arm:~# echo 'NOBM''ZHZTHL'
NOBMZHZTHL
root@arm:~# MARKER='WKSY''HLHXEQ' run 'i2cget -y -f 2 0x4b 0xd'
WKSYHLHXEQ0x39
WKSYHLHXEQ 0
root@arm:~# echo 'YWHM''OMGJWJ'
YWHMOMGJWJ
root@arm:~# MARKER='VQLO''AFPZGK' run 'echo 1280000 1280000 > /sys/kernel/mva_tesst/regulators/buck1_set'
VQLOAFPZGKVQLOAFPZGK 0
root@arm:~# echo 'FWMA''HKLEFU'
FWMAHKLEFU
root@arm:~# MARKER='APJJ''YQHEVW' run 'i2cget -y -f 2 0x4b 0xd'
APJJYQHEVW0x3a
APJJYQHEVW 0
root@arm:~# echo 'GZKE''GUJWBX'
GZKEGUJWBX
root@arm:~# MARKER='NHSH''LEPPTM' run 'echo 1290000 1290000 > /sys/kernel/mva_tesst/regulators/buck1_set'
NHSHLEPPTMNHSHLEPPTM 0
root@arm:~# echo 'SSBN''JEZXCU'
SSBNJEZXCU
root@arm:~# MARKER='CWLV''CXUAJW' run 'i2cget -y -f 2 0x4b 0xd'
CWLVCXUAJW0x3b
CWLVCXUAJW 0
root@arm:~# echo 'JVTG''JHWEFO'
JVTGJHWEFO
root@arm:~# MARKER='JWEC''QZJNYK' run 'echo 1300000 1300000 > /sys/kernel/mva_tesst/regulators/buck1_set'
JWECQZJNYKJWECQZJNYK 0
root@arm:~# echo 'CCHP''CVFEQK'
CCHPCVFEQK
root@arm:~# MARKER='UAGF''EYZUSS' run 'i2cget -y -f 2 0x4b 0xd'
UAGFEYZUSS0x3c
UAGFEYZUSS 0
root@arm:~# echo 'CJWL''SZWBZY'
CJWLSZWBZY
root@arm:~# MARKER='XAUU''PLLMYT' run 'grep -r -l rohm,bd71837 /proc/device-tree  | sed '"'"'s![^/]*$!!'"'"''
XAUUPLLMYT/proc/device-tree/ocp/interconnect@48000000/segment@100000/target-module@9c000/i2c@0/pmic@4b/
XAUUPLLMYT 0
root@arm:~# echo 'TWEK''JTVCXH'
TWEKJTVCXH
root@arm:~# MARKER='OZNK''YLBFSZ' run 'test -f /proc/device-tree/ocp/interconnectt\@48000000/segment\@100000/target-module\@9c000/i2c\@0/pmic\@4b/regulators/BUCK22/rohm,no-regulator-enable-control ;echo $?'
OZNKYLBFSZ1
OZNKYLBFSZ 0
root@arm:~# echo 'EYAA''JPFNLL'
EYAAJPFNLL
root@arm:~# MARKER='JAWW''WZWBJQ' run 'i2cget -y -f 2 0x4b 0x6'
JAWWWZWBJQ0x43
JAWWWZWBJQ 0
root@arm:~# echo 'MFHA''SVAHLS'
MFHASVAHLS
root@arm:~# MARKER='BEQY''MBTWQF' run 'echo 700000 700000 > /sys/kernel/mva_test//regulators/buck2_set'
BEQYMBTWQFBEQYMBTWQF 0
root@arm:~# echo 'WJLX''CMVNEG'
WJLXCMVNEG
root@arm:~# MARKER='WYJZ''HFOZFW' run 'i2cget -y -f 2 0x4b 0x10'
WYJZHFOZFW0x00
WYJZHFOZFW 0
root@arm:~# echo 'PUFV''JOUXXJ'
PUFVJOUXXJ
root@arm:~# MARKER='UPUE''OJFMKE' run 'echo 710000 710000 > /sys/kernel/mva_test//regulators/buck2_set'
UPUEOJFMKEUPUEOJFMKE 0
root@arm:~# echo 'SXUE''MTMWHF'
SXUEMTMWHF
root@arm:~# MARKER='XYHK''SHKPNL' run 'i2cget -y -f 2 0x4b 0x10'
XYHKSHKPNL0x01
XYHKSHKPNL 0
root@arm:~# echo 'LJVM''LVQLXF'
LJVMLVQLXF
root@arm:~# MARKER='HOHS''SGVMET' run 'echo 720000 720000 > /sys/kernel/mva_test//regulators/buck2_set'
HOHSSGVMETHOHSSGVMET 0
root@arm:~# echo 'NVQC''LVZJHQ'
NVQCLVZJHQ
root@arm:~# MARKER='HHNO''BAKOAM' run 'i2cget -y -f 2 0x4b 0x10'
HHNOBAKOAM0x02
HHNOBAKOAM 0
root@arm:~# echo 'MHPE''PLQLFH'
MHPEPLQLFH
root@arm:~# MARKER='TSBF''HKNVAQ' run 'echo 730000 730000 > /sys/kernel/mva_test//regulators/buck2_set'
TSBFHKNVAQTSBFHKNVAQ 0
root@arm:~# echo 'TWQY''ZYJPPF'
TWQYZYJPPF
root@arm:~# MARKER='XYWW''YOHGBV' run 'i2cget -y -f 2 0x4b 0x10'
XYWWYOHGBV0x03
XYWWYOHGBV 0
root@arm:~# echo 'BSXJ''QFLSSK'
BSXJQFLSSK
root@arm:~# MARKER='TTSL''WLGENT' run 'echo 740000 740000 > /sys/kernel/mva_test//regulators/buck2_set'
TTSLWLGENTTTSLWLGENT 0
root@arm:~# echo 'KPSB''VQNOEP'
KPSBVQNOEP
root@arm:~# MARKER='UMOE''YVZOOV' run 'i2cget -y -f 2 0x4b 0x10'
UMOEYVZOOV0x04
UMOEYVZOOV 0
root@arm:~# echo 'CXLY''ECLGKS'
CXLYECLGKS
root@arm:~# MARKER='AMNS''JOCMBU' run 'echo 750000 750000 > /sys/kernel/mva_test//regulators/buck2_set'
AMNSJOCMBUAMNSJOCMBU 0
root@arm:~# echo 'ULCK''XHXECV'
ULCKXHXECV
root@arm:~# MARKER='SQZX''POJBCT' run 'i2cget -y -f 2 0x4b 0x10'
SQZXPOJBCT0x05
SQZXPOJBCT 0
root@arm:~# echo 'QBKN''NTACOE'
QBKNNTACOE
root@arm:~# MARKER='AHSV''ZSPHYL' run 'echo 760000 760000 > /sys/kernel/mva_test//regulators/buck2_set'
AHSVZSPHYLAHSVZSPHYL 0
root@arm:~# echo 'ENKG''ZZZEOP'
ENKGZZZEOP
root@arm:~# MARKER='BNVK''QQUGSB' run 'i2cget -y -f 2 0x4b 0x10'
BNVKQQUGSB0x06
BNVKQQUGSB 0
root@arm:~# echo 'FMKL''JTSMUJ'
FMKLJTSMUJ
root@arm:~# MARKER='JHOB''NXXZWY' run 'echo 770000 770000 > /sys/kernel/mva_test//regulators/buck2_set'
JHOBNXXZWYJHOBNXXZWY 0
root@arm:~# echo 'ENPC''KVWTLM'
ENPCKVWTLM
root@arm:~# MARKER='AHFX''CTAGZP' run 'i2cget -y -f 2 0x4b 0x10'
AHFXCTAGZP0x07
AHFXCTAGZP 0
root@arm:~# echo 'ULUZ''ZZTFQP'
ULUZZZTFQP
root@arm:~# MARKER='OVQA''XMQVFO' run 'echo 780000 780000 > /sys/kernel/mva_test//regulators/buck2_set'
OVQAXMQVFOOVQAXMQVFO 0
root@arm:~# echo 'TFCH''HYFTFQ'
TFCHHYFTFQ
root@arm:~# MARKER='FHOO''XWHBNX' run 'i2cget -y -f 2 0x4b 0x10'
FHOOXWHBNX0x08
FHOOXWHBNX 0
root@arm:~# echo 'TOLY''BWFUOC'
TOLYBWFUOC
root@arm:~# MARKER='BELU''JCCULK' run 'echo 790000 790000 > /sys/kernel/mva_test//regulators/buck2_set'
BELUJCCULKBELUJCCULK 0
root@arm:~# echo 'OTAA''WYNZZW'
OTAAWYNZZW
root@arm:~# MARKER='EGXF''CLWKQJ' run 'i2cget -y -f 2 0x4b 0x10'
EGXFCLWKQJ0x09
EGXFCLWKQJ 0
root@arm:~# echo 'QSJJ''WWPYPM'
QSJJWWPYPM
root@arm:~# MARKER='KUBC''ZACMFP' run 'echo 800000 800000 > /sys/kernel/mva_test//regulators/buck2_set'
KUBCZACMFPKUBCZACMFP 0
root@arm:~# echo 'TFKU''VHJTCS'
TFKUVHJTCS
root@arm:~# MARKER='PTQK''SKUFGC' run 'i2cget -y -f 2 0x4b 0x10'
PTQKSKUFGC0x0a
PTQKSKUFGC 0
root@arm:~# echo 'BJCE''BOGWOF'
BJCEBOGWOF
root@arm:~# MARKER='LQQA''QTSGCV' run 'echo 810000 810000 > /sys/kernel/mva_test//regulators/buck2_set'
LQQAQTSGCVLQQAQTSGCV 0
root@arm:~# echo 'MUMY''MOMSCH'
MUMYMOMSCH
root@arm:~# MARKER='TXFK''MMEYLZ' run 'i2cget -y -f 2 0x4b 0x10'
TXFKMMEYLZ0x0b
TXFKMMEYLZ 0
root@arm:~# echo 'QAUW''BCSLQT'
QAUWBCSLQT
root@arm:~# MARKER='JEJF''WVLJCM' run 'echo 820000 820000 > /sys/kernel/mva_test//regulators/buck2_set'
JEJFWVLJCMJEJFWVLJCM 0
root@arm:~# echo 'UZUE''QFMNNW'
UZUEQFMNNW
root@arm:~# MARKER='VSPT''ZNFQGC' run 'i2cget -y -f 2 0x4b 0x10'
VSPTZNFQGC0x0c
VSPTZNFQGC 0
root@arm:~# echo 'LSCN''OXNYWK'
LSCNOXNYWK
root@arm:~# MARKER='OYAU''SWPHTX' run 'echo 830000 830000 > /sys/kernel/mva_test//regulators/buck2_set'
OYAUSWPHTXOYAUSWPHTX 0
root@arm:~# echo 'WEJA''JFSZUS'
WEJAJFSZUS
root@arm:~# MARKER='NOUN''LKLZTS' run 'i2cget -y -f 2 0x4b 0x10'
NOUNLKLZTS0x0d
NOUNLKLZTS 0
root@arm:~# echo 'KTZY''WOPYZE'
KTZYWOPYZE
root@arm:~# MARKER='UNQH''VFJOAK' run 'echo 840000 840000 > /sys/kernel/mva_test//regulators/buck2_set'
UNQHVFJOAKUNQHVFJOAK 0
root@arm:~# echo 'AKSM''MKQAJH'
AKSMMKQAJH
root@arm:~# MARKER='PSVL''KOMXYQ' run 'i2cget -y -f 2 0x4b 0x10'
PSVLKOMXYQ0x0e
PSVLKOMXYQ 0
root@arm:~# echo 'VLZL''TXMWCA'
VLZLTXMWCA
root@arm:~# MARKER='HSAY''OEYEGM' run 'echo 850000 850000 > /sys/kernel/mva_test//regulators/buck2_set'
HSAYOEYEGMHSAYOEYEGM 0
root@arm:~# echo 'UMET''QEHJUG'
UMETQEHJUG
root@arm:~# MARKER='LVYN''VWCLMA' run 'i2cget -y -f 2 0x4b 0x10'
LVYNVWCLMA0x0f
LVYNVWCLMA 0
root@arm:~# echo 'WTLQ''HTKHPO'
WTLQHTKHPO
root@arm:~# MARKER='YGLG''SBVYVK' run 'echo 860000 860000 > /sys/kernel/mva_test//regulators/buck2_set'
YGLGSBVYVKYGLGSBVYVK 0
root@arm:~# echo 'CJAQ''NKLJMC'
CJAQNKLJMC
root@arm:~# MARKER='EOVJ''ULOECL' run 'i2cget -y -f 2 0x4b 0x10'
EOVJULOECL0x10
EOVJULOECL 0
root@arm:~# echo 'ZUSA''KLYCOY'
ZUSAKLYCOY
root@arm:~# MARKER='PEBH''XGJBSP' run 'echo 870000 870000 > /sys/kernel/mva_test//regulators/buck2_set'
PEBHXGJBSPPEBHXGJBSP 0
root@arm:~# echo 'QVGV''ZEKEOF'
QVGVZEKEOF
root@arm:~# MARKER='QTYF''LTKTAT' run 'i2cget -y -f 2 0x4b 0x10'
QTYFLTKTAT0x11
QTYFLTKTAT 0
root@arm:~# echo 'KPET''GZXLMN'
KPETGZXLMN
root@arm:~# MARKER='AAOS''OMHMXQ' run 'echo 880000 880000 > /sys/kernel/mva_test//regulators/buck2_set'
AAOSOMHMXQAAOSOMHMXQ 0
root@arm:~# echo 'ZKGB''FCSQMK'
ZKGBFCSQMK
root@arm:~# MARKER='FNBW''OSFLWV' run 'i2cget -y -f 2 0x4b 0x10'
FNBWOSFLWV0x12
FNBWOSFLWV 0
root@arm:~# echo 'KJPX''NKFSYB'
KJPXNKFSYB
root@arm:~# MARKER='XYQC''ZUQAKL' run 'echo 890000 890000 > /sys/kernel/mva_test//regulators/buck2_set'
XYQCZUQAKLXYQCZUQAKL 0
root@arm:~# echo 'EHFL''WQJSOG'
EHFLWQJSOG
root@arm:~# MARKER='TSFB''NWQZAH' run 'i2cget -y -f 2 0x4b 0x10'
TSFBNWQZAH0x13
TSFBNWQZAH 0
root@arm:~# echo 'UVCU''VXTONM'
UVCUVXTONM
root@arm:~# MARKER='MGBK''ZTBCVZ' run 'echo 900000 900000 > /sys/kernel/mva_test//regulators/buck2_set'
MGBKZTBCVZMGBKZTBCVZ 0
root@arm:~# echo 'EHNJ''OMUPCP'
EHNJOMUPCP
root@arm:~# MARKER='KWVZ''JHJOLF' run 'i2cget -y -f 2 0x4b 0x10'
KWVZJHJOLF0x14
KWVZJHJOLF 0
root@arm:~# echo 'JAMB''OUZHFX'
JAMBOUZHFX
root@arm:~# MARKER='YXUE''YAWXQM' run 'echo 910000 910000 > /sys/kernel/mva_test//regulators/buck2_set'
YXUEYAWXQMYXUEYAWXQM 0
root@arm:~# echo 'UBXG''NQYJEM'
UBXGNQYJEM
root@arm:~# MARKER='ZZHA''JTBHCM' run 'i2cget -y -f 2 0x4b 0x10'
ZZHAJTBHCM0x15
ZZHAJTBHCM 0
root@arm:~# echo 'AOSG''HBOAFK'
AOSGHBOAFK
root@arm:~# MARKER='JGKO''JJUUKB' run 'echo 920000 920000 > /sys/kernel/mva_test//regulators/buck2_set'
JGKOJJUUKBJGKOJJUUKB 0
root@arm:~# echo 'LLKE''VMTZPM'
LLKEVMTZPM
root@arm:~# MARKER='MVQJ''PBEQNO' run 'i2cget -y -f 2 0x4b 0x10'
MVQJPBEQNO0x16
MVQJPBEQNO 0
root@arm:~# echo 'JQCM''MBSTWL'
JQCMMBSTWL
root@arm:~# MARKER='WBMT''SWLHGY' run 'echo 930000 930000 > /sys/kernel/mva_test//regulators/buck2_set'
WBMTSWLHGYWBMTSWLHGY 0
root@arm:~# echo 'VMXL''AWAUCO'
VMXLAWAUCO
root@arm:~# MARKER='WHVT''VSCUYC' run 'i2cget -y -f 2 0x4b 0x10'
WHVTVSCUYC0x17
WHVTVSCUYC 0
root@arm:~# echo 'YTQG''QSWBQF'
YTQGQSWBQF
root@arm:~# MARKER='QVCN''QBLYPJ' run 'echo 940000 940000 > /sys/kernel/mva_test//regulators/buck2_set'
QVCNQBLYPJQVCNQBLYPJ 0
root@arm:~# echo 'TYLE''UVBLEY'
TYLEUVBLEY
root@arm:~# MARKER='WKNX''GSTQKY' run 'i2cget -y -f 2 0x4b 0x10'
WKNXGSTQKY0x18
WKNXGSTQKY 0
root@arm:~# echo 'UYLA''QGBAJM'
UYLAQGBAJM
root@arm:~# MARKER='YTOB''OXZOLF' run 'echo 950000 950000 > /sys/kernel/mva_test//regulators/buck2_set'
YTOBOXZOLFYTOBOXZOLF 0
root@arm:~# echo 'WVSZ''OEOZMW'
WVSZOEOZMW
root@arm:~# MARKER='AVXZ''VGJTOF' run 'i2cget -y -f 2 0x4b 0x10'
AVXZVGJTOF0x19
AVXZVGJTOF 0
root@arm:~# echo 'LYBT''KHKZYY'
LYBTKHKZYY
root@arm:~# MARKER='ZCCH''AXGXNL' run 'echo 960000 960000 > /sys/kernel/mva_test//regulators/buck2_set'
ZCCHAXGXNLZCCHAXGXNL 0
root@arm:~# echo 'WXVU''LGTLWF'
WXVULGTLWF
root@arm:~# MARKER='STLP''YVFJGY' run 'i2cget -y -f 2 0x4b 0x10'
STLPYVFJGY0x1a
STLPYVFJGY 0
root@arm:~# echo 'SQWH''JBNFZC'
SQWHJBNFZC
root@arm:~# MARKER='HWJN''SFQAOM' run 'echo 970000 970000 > /sys/kernel/mva_test//regulators/buck2_set'
HWJNSFQAOMHWJNSFQAOM 0
root@arm:~# echo 'GEVU''CANCAP'
GEVUCANCAP
root@arm:~# MARKER='QMAJ''UZJXCT' run 'i2cget -y -f 2 0x4b 0x10'
QMAJUZJXCT0x1b
QMAJUZJXCT 0
root@arm:~# echo 'QBVF''GTMUSF'
QBVFGTMUSF
root@arm:~# MARKER='SFJF''AONAMF' run 'echo 980000 980000 > /sys/kernel/mva_test//regulators/buck2_set'
SFJFAONAMFSFJFAONAMF 0
root@arm:~# echo 'BWMX''KUSFYC'
BWMXKUSFYC
root@arm:~# MARKER='BVKW''OSPWHB' run 'i2cget -y -f 2 0x4b 0x10'
BVKWOSPWHB0x1c
BVKWOSPWHB 0
root@arm:~# echo 'PBXH''QVQBBE'
PBXHQVQBBE
root@arm:~# MARKER='XKPA''WSOAZL' run 'echo 990000 990000 > /sys/kernel/mva_test//regulators/buck2_set'
XKPAWSOAZLXKPAWSOAZL 0
root@arm:~# echo 'NKMT''NXXNQN'
NKMTNXXNQN
root@arm:~# MARKER='ZNXW''EZZEVV' run 'i2cget -y -f 2 0x4b 0x10'
ZNXWEZZEVV0x1d
ZNXWEZZEVV 0
root@arm:~# echo 'XOVM''OTGKYF'
XOVMOTGKYF
root@arm:~# MARKER='FVOJ''NKTLJC' run 'echo 1000000 1000000 > /sys/kernel/mva_tesst/regulators/buck2_set'
FVOJNKTLJCFVOJNKTLJC 0
root@arm:~# echo 'KNJM''QMFXTA'
KNJMQMFXTA
root@arm:~# MARKER='OSSM''JCQGFO' run 'i2cget -y -f 2 0x4b 0x10'
OSSMJCQGFO0x1e
OSSMJCQGFO 0
root@arm:~# echo 'BKQS''MKGTNC'
BKQSMKGTNC
root@arm:~# MARKER='LJNC''PBKOZG' run 'echo 1010000 1010000 > /sys/kernel/mva_tesst/regulators/buck2_set'
LJNCPBKOZGLJNCPBKOZG 0
root@arm:~# echo 'WKEJ''GOTBNW'
WKEJGOTBNW
root@arm:~# MARKER='AZEY''MWEPAF' run 'i2cget -y -f 2 0x4b 0x10'
AZEYMWEPAF0x1f
AZEYMWEPAF 0
root@arm:~# echo 'UXNC''AWAPHT'
UXNCAWAPHT
root@arm:~# MARKER='MCHP''FEJQNJ' run 'echo 1020000 1020000 > /sys/kernel/mva_tesst/regulators/buck2_set'
MCHPFEJQNJMCHPFEJQNJ 0
root@arm:~# echo 'UTLJ''XFCTPE'
UTLJXFCTPE
root@arm:~# MARKER='XKJT''XCXCUS' run 'i2cget -y -f 2 0x4b 0x10'
XKJTXCXCUS0x20
XKJTXCXCUS 0
root@arm:~# echo 'QLZM''BWQEEA'
QLZMBWQEEA
root@arm:~# MARKER='SJUT''PVSJAT' run 'echo 1030000 1030000 > /sys/kernel/mva_tesst/regulators/buck2_set'
SJUTPVSJATSJUTPVSJAT 0
root@arm:~# echo 'SFWN''JHXLYC'
SFWNJHXLYC
root@arm:~# MARKER='HFYA''JTVYWS' run 'i2cget -y -f 2 0x4b 0x10'
HFYAJTVYWS0x21
HFYAJTVYWS 0
root@arm:~# echo 'UHVJ''UJJWEU'
UHVJUJJWEU
root@arm:~# MARKER='QKHL''NNBHZS' run 'echo 1040000 1040000 > /sys/kernel/mva_tesst/regulators/buck2_set'
QKHLNNBHZSQKHLNNBHZS 0
root@arm:~# echo 'QOOW''YCOHXX'
QOOWYCOHXX
root@arm:~# MARKER='FEOY''BPSOMA' run 'i2cget -y -f 2 0x4b 0x10'
FEOYBPSOMA0x22
FEOYBPSOMA 0
root@arm:~# echo 'FFFM''KZPZCE'
FFFMKZPZCE
root@arm:~# MARKER='LBAN''NWYZVG' run 'echo 1050000 1050000 > /sys/kernel/mva_tesst/regulators/buck2_set'
LBANNWYZVGLBANNWYZVG 0
root@arm:~# echo 'OGZL''LCCHLG'
OGZLLCCHLG
root@arm:~# MARKER='HVFB''TQZCVQ' run 'i2cget -y -f 2 0x4b 0x10'
HVFBTQZCVQ0x23
HVFBTQZCVQ 0
root@arm:~# echo 'OLPZ''AJVYFQ'
OLPZAJVYFQ
root@arm:~# MARKER='VPFE''NJLUXL' run 'echo 1060000 1060000 > /sys/kernel/mva_tesst/regulators/buck2_set'
VPFENJLUXLVPFENJLUXL 0
root@arm:~# echo 'HSJG''PBHMJH'
HSJGPBHMJH
root@arm:~# MARKER='HMCG''CBXBEH' run 'i2cget -y -f 2 0x4b 0x10'
HMCGCBXBEH0x24
HMCGCBXBEH 0
root@arm:~# echo 'GBWV''HEVJKQ'
GBWVHEVJKQ
root@arm:~# MARKER='JULY''BEPAFV' run 'echo 1070000 1070000 > /sys/kernel/mva_tesst/regulators/buck2_set'
JULYBEPAFVJULYBEPAFV 0
root@arm:~# echo 'VXYL''TZSKQV'
VXYLTZSKQV
root@arm:~# MARKER='VJQU''ENGBCP' run 'i2cget -y -f 2 0x4b 0x10'
VJQUENGBCP0x25
VJQUENGBCP 0
root@arm:~# echo 'XPKE''HXZSNC'
XPKEHXZSNC
root@arm:~# MARKER='TCEL''WVQVCU' run 'echo 1080000 1080000 > /sys/kernel/mva_tesst/regulators/buck2_set'
TCELWVQVCUTCELWVQVCU 0
root@arm:~# echo 'NHSW''QLJEUO'
NHSWQLJEUO
root@arm:~# MARKER='FEAY''QJHKVN' run 'i2cget -y -f 2 0x4b 0x10'
FEAYQJHKVN0x26
FEAYQJHKVN 0
root@arm:~# echo 'YUZE''HBQVYL'
YUZEHBQVYL
root@arm:~# MARKER='YFZP''XVLWXN' run 'echo 1090000 1090000 > /sys/kernel/mva_tesst/regulators/buck2_set'
YFZPXVLWXNYFZPXVLWXN 0
root@arm:~# echo 'AGLF''CHPXUK'
AGLFCHPXUK
root@arm:~# MARKER='CFNL''ZPTWGA' run 'i2cget -y -f 2 0x4b 0x10'
CFNLZPTWGA0x27
CFNLZPTWGA 0
root@arm:~# echo 'MWYP''WCTQOB'
MWYPWCTQOB
root@arm:~# MARKER='UTNG''PLZOKQ' run 'echo 1100000 1100000 > /sys/kernel/mva_tesst/regulators/buck2_set'
UTNGPLZOKQUTNGPLZOKQ 0
root@arm:~# echo 'MJTE''VAYGJT'
MJTEVAYGJT
root@arm:~# MARKER='EQKN''SQXGSM' run 'i2cget -y -f 2 0x4b 0x10'
EQKNSQXGSM0x28
EQKNSQXGSM 0
root@arm:~# echo 'FYVE''CBLHSK'
FYVECBLHSK
root@arm:~# MARKER='FLWP''YHKWTS' run 'echo 1110000 1110000 > /sys/kernel/mva_tesst/regulators/buck2_set'
FLWPYHKWTSFLWPYHKWTS 0
root@arm:~# echo 'BULC''KYBGBN'
BULCKYBGBN
root@arm:~# MARKER='TKJN''CMMLYN' run 'i2cget -y -f 2 0x4b 0x10'
TKJNCMMLYN0x29
TKJNCMMLYN 0
root@arm:~# echo 'OPYS''QASUMM'
OPYSQASUMM
root@arm:~# MARKER='PYHK''HSLGEB' run 'echo 1120000 1120000 > /sys/kernel/mva_tesst/regulators/buck2_set'
PYHKHSLGEBPYHKHSLGEB 0
root@arm:~# echo 'GZHQ''PYPQEW'
GZHQPYPQEW
root@arm:~# MARKER='NAQF''ZPKSZM' run 'i2cget -y -f 2 0x4b 0x10'
NAQFZPKSZM0x2a
NAQFZPKSZM 0
root@arm:~# echo 'WGFC''UBLXMN'
WGFCUBLXMN
root@arm:~# MARKER='BHUC''FWCKGV' run 'echo 1130000 1130000 > /sys/kernel/mva_tesst/regulators/buck2_set'
BHUCFWCKGVBHUCFWCKGV 0
root@arm:~# echo 'OYMX''AWSQSH'
OYMXAWSQSH
root@arm:~# MARKER='NYTW''LMKSMF' run 'i2cget -y -f 2 0x4b 0x10'
NYTWLMKSMF0x2b
NYTWLMKSMF 0
root@arm:~# echo 'LUSS''SXGXCJ'
LUSSSXGXCJ
root@arm:~# MARKER='MUJE''BWWLXF' run 'echo 1140000 1140000 > /sys/kernel/mva_tesst/regulators/buck2_set'
MUJEBWWLXFMUJEBWWLXF 0
root@arm:~# echo 'ZNZS''OBWLWL'
ZNZSOBWLWL
root@arm:~# MARKER='GGCF''NGJJVJ' run 'i2cget -y -f 2 0x4b 0x10'
GGCFNGJJVJ0x2c
GGCFNGJJVJ 0
root@arm:~# echo 'PQHJ''ONZENB'
PQHJONZENB
root@arm:~# MARKER='WGAU''XSQOWJ' run 'echo 1150000 1150000 > /sys/kernel/mva_tesst/regulators/buck2_set'
WGAUXSQOWJWGAUXSQOWJ 0
root@arm:~# echo 'WSQP''JECVQL'
WSQPJECVQL
root@arm:~# MARKER='NSPF''KVVKCP' run 'i2cget -y -f 2 0x4b 0x10'
NSPFKVVKCP0x2d
NSPFKVVKCP 0
root@arm:~# echo 'QEGS''ZNOQAY'
QEGSZNOQAY
root@arm:~# MARKER='PBSU''WHUWWG' run 'echo 1160000 1160000 > /sys/kernel/mva_tesst/regulators/buck2_set'
PBSUWHUWWGPBSUWHUWWG 0
root@arm:~# echo 'AXLE''OBFOYU'
AXLEOBFOYU
root@arm:~# MARKER='HMPS''EGNMBC' run 'i2cget -y -f 2 0x4b 0x10'
HMPSEGNMBC0x2e
HMPSEGNMBC 0
root@arm:~# echo 'SQZM''FPJGNJ'
SQZMFPJGNJ
root@arm:~# MARKER='XZBE''TBMHFK' run 'echo 1170000 1170000 > /sys/kernel/mva_tesst/regulators/buck2_set'
XZBETBMHFKXZBETBMHFK 0
root@arm:~# echo 'CPQM''VBOBMB'
CPQMVBOBMB
root@arm:~# MARKER='BYGZ''CUXAYW' run 'i2cget -y -f 2 0x4b 0x10'
BYGZCUXAYW0x2f
BYGZCUXAYW 0
root@arm:~# echo 'XJEH''GPPGAU'
XJEHGPPGAU
root@arm:~# MARKER='ACXU''TCUPVX' run 'echo 1180000 1180000 > /sys/kernel/mva_tesst/regulators/buck2_set'
ACXUTCUPVXACXUTCUPVX 0
root@arm:~# echo 'QWHH''BNVNZE'
QWHHBNVNZE
root@arm:~# MARKER='FWSA''HWFPZK' run 'i2cget -y -f 2 0x4b 0x10'
FWSAHWFPZK0x30
FWSAHWFPZK 0
root@arm:~# echo 'NZNL''TKUNKB'
NZNLTKUNKB
root@arm:~# MARKER='KJGZ''JYGOAP' run 'echo 1190000 1190000 > /sys/kernel/mva_tesst/regulators/buck2_set'
KJGZJYGOAPKJGZJYGOAP 0
root@arm:~# echo 'LUQH''UOXUZP'
LUQHUOXUZP
root@arm:~# MARKER='JOLS''GHLXVV' run 'i2cget -y -f 2 0x4b 0x10'
JOLSGHLXVV0x31
JOLSGHLXVV 0
root@arm:~# echo 'FZGL''XKBEBH'
FZGLXKBEBH
root@arm:~# MARKER='GKJX''SJJTHL' run 'echo 1200000 1200000 > /sys/kernel/mva_tesst/regulators/buck2_set'
GKJXSJJTHLGKJXSJJTHL 0
root@arm:~# echo 'CXEM''SYCCOO'
CXEMSYCCOO
root@arm:~# MARKER='ZHUE''WSSNTX' run 'i2cget -y -f 2 0x4b 0x10'
ZHUEWSSNTX0x32
ZHUEWSSNTX 0
root@arm:~# echo 'YBGQ''NLFCBV'
YBGQNLFCBV
root@arm:~# MARKER='YNCA''VVUZEU' run 'echo 1210000 1210000 > /sys/kernel/mva_tesst/regulators/buck2_set'
YNCAVVUZEUYNCAVVUZEU 0
root@arm:~# echo 'OYQU''OYASJS'
OYQUOYASJS
root@arm:~# MARKER='FPZL''ZTJSZO' run 'i2cget -y -f 2 0x4b 0x10'
FPZLZTJSZO0x33
FPZLZTJSZO 0
root@arm:~# echo 'PMYN''UMCCYT'
PMYNUMCCYT
root@arm:~# MARKER='NVCP''OZOMTA' run 'echo 1220000 1220000 > /sys/kernel/mva_tesst/regulators/buck2_set'
NVCPOZOMTANVCPOZOMTA 0
root@arm:~# echo 'UQGG''YTONQU'
UQGGYTONQU
root@arm:~# MARKER='LALN''FWOPYZ' run 'i2cget -y -f 2 0x4b 0x10'
LALNFWOPYZ0x34
LALNFWOPYZ 0
root@arm:~# echo 'JUUN''FOZAPG'
JUUNFOZAPG
root@arm:~# MARKER='JOJN''GZTMUA' run 'echo 1230000 1230000 > /sys/kernel/mva_tesst/regulators/buck2_set'
JOJNGZTMUAJOJNGZTMUA 0
root@arm:~# echo 'OBSL''SFZSXQ'
OBSLSFZSXQ
root@arm:~# MARKER='KQWY''FHZVYP' run 'i2cget -y -f 2 0x4b 0x10'
KQWYFHZVYP0x35
KQWYFHZVYP 0
root@arm:~# echo 'SAZG''CWPZAY'
SAZGCWPZAY
root@arm:~# MARKER='WFTP''ESQNMQ' run 'echo 1240000 1240000 > /sys/kernel/mva_tesst/regulators/buck2_set'
WFTPESQNMQWFTPESQNMQ 0
root@arm:~# echo 'LWYU''AUWPVG'
LWYUAUWPVG
root@arm:~# MARKER='BEMP''JWLPAE' run 'i2cget -y -f 2 0x4b 0x10'
BEMPJWLPAE0x36
BEMPJWLPAE 0
root@arm:~# echo 'OBZC''HLTVTM'
OBZCHLTVTM
root@arm:~# MARKER='QYFP''TJTLTT' run 'echo 1250000 1250000 > /sys/kernel/mva_tesst/regulators/buck2_set'
QYFPTJTLTTQYFPTJTLTT 0
root@arm:~# echo 'UYLB''VEOLKF'
UYLBVEOLKF
root@arm:~# MARKER='GWOQ''OTHCYE' run 'i2cget -y -f 2 0x4b 0x10'
GWOQOTHCYE0x37
GWOQOTHCYE 0
root@arm:~# echo 'GZLQ''XTGLHN'
GZLQXTGLHN
root@arm:~# MARKER='QUKY''YZEHBQ' run 'echo 1260000 1260000 > /sys/kernel/mva_tesst/regulators/buck2_set'
QUKYYZEHBQQUKYYZEHBQ 0
root@arm:~# echo 'UGOP''WBKBWC'
UGOPWBKBWC
root@arm:~# MARKER='OUKA''GVAHWX' run 'i2cget -y -f 2 0x4b 0x10'
OUKAGVAHWX0x38
OUKAGVAHWX 0
root@arm:~# echo 'GKWB''GKUZZV'
GKWBGKUZZV
root@arm:~# MARKER='OTSU''GPSBYX' run 'echo 1270000 1270000 > /sys/kernel/mva_tesst/regulators/buck2_set'
OTSUGPSBYXOTSUGPSBYX 0
root@arm:~# echo 'YVPN''AXYSFM'
YVPNAXYSFM
root@arm:~# MARKER='BLXM''FNVWWC' run 'i2cget -y -f 2 0x4b 0x10'
BLXMFNVWWC0x39
BLXMFNVWWC 0
root@arm:~# echo 'MVOU''GFYCCM'
MVOUGFYCCM
root@arm:~# MARKER='GAHE''JNESCL' run 'echo 1280000 1280000 > /sys/kernel/mva_tesst/regulators/buck2_set'
GAHEJNESCLGAHEJNESCL 0
root@arm:~# echo 'CNWP''AXEOVA'
CNWPAXEOVA
root@arm:~# MARKER='QWSX''YNCKMK' run 'i2cget -y -f 2 0x4b 0x10'
QWSXYNCKMK0x3a
QWSXYNCKMK 0
root@arm:~# echo 'KPQN''HBXMXZ'
KPQNHBXMXZ
root@arm:~# MARKER='NHKU''ESVEHG' run 'echo 1290000 1290000 > /sys/kernel/mva_tesst/regulators/buck2_set'
NHKUESVEHGNHKUESVEHG 0
root@arm:~# echo 'HQGP''CHEBGJ'
HQGPCHEBGJ
root@arm:~# MARKER='ONYG''VMSQGM' run 'i2cget -y -f 2 0x4b 0x10'
ONYGVMSQGM0x3b
ONYGVMSQGM 0
root@arm:~# echo 'HAKK''YTBYYN'
HAKKYTBYYN
root@arm:~# MARKER='LUNZ''XHJXEN' run 'echo 1300000 1300000 > /sys/kernel/mva_tesst/regulators/buck2_set'
LUNZXHJXENLUNZXHJXEN 0
root@arm:~# echo 'BKFN''PQZFTN'
BKFNPQZFTN
root@arm:~# MARKER='QSLQ''HLXLJB' run 'i2cget -y -f 2 0x4b 0x10'
QSLQHLXLJB0x3c
QSLQHLXLJB 0
root@arm:~# echo 'HCWK''VAVKQE'
HCWKVAVKQE
root@arm:~# MARKER='NYXZ''ALYGZJ' run 'grep -r -l rohm,bd71837 /proc/device-tree  | sed '"'"'s![^/]*$!!'"'"''
NYXZALYGZJ/proc/device-tree/ocp/interconnect@48000000/segment@100000/target-module@9c000/i2c@0/pmic@4b/
NYXZALYGZJ 0
root@arm:~# echo 'JOOQ''LWHHVO'
JOOQLWHHVO
root@arm:~# MARKER='PGLL''GANJFC' run 'test -f /proc/device-tree/ocp/interconnectt\@48000000/segment\@100000/target-module\@9c000/i2c\@0/pmic\@4b/regulators/BUCK33/rohm,no-regulator-enable-control ;echo $?'
PGLLGANJFC0
PGLLGANJFC 0
root@arm:~# echo 'LQUJ''AHULNJ'
LQUJAHULNJ
root@arm:~# MARKER='GEFB''PGTJTV' run 'echo 700000 700000 > /sys/kernel/mva_test//regulators/buck3_set'
GEFBPGTJTVGEFBPGTJTV 0
root@arm:~# echo 'VSHC''GXTLWU'
VSHCGXTLWU
root@arm:~# MARKER='UFFG''XTOFLC' run 'i2cget -y -f 2 0x4b 0x12'
UFFGXTOFLC0x00
UFFGXTOFLC 0
root@arm:~# echo 'KWNM''QTGKCX'
KWNMQTGKCX
root@arm:~# MARKER='HKZL''OWZCFB' run 'echo 710000 710000 > /sys/kernel/mva_test//regulators/buck3_set'
HKZLOWZCFBHKZLOWZCFB 0
root@arm:~# echo 'JWHU''JAPTSZ'
JWHUJAPTSZ
root@arm:~# MARKER='YLOK''YVQCEV' run 'i2cget -y -f 2 0x4b 0x12'
YLOKYVQCEV0x01
YLOKYVQCEV 0
root@arm:~# echo 'SUNN''VQGZNK'
SUNNVQGZNK
root@arm:~# MARKER='QMXY''BZGKOB' run 'echo 720000 720000 > /sys/kernel/mva_test//regulators/buck3_set'
QMXYBZGKOBQMXYBZGKOB 0
root@arm:~# echo 'MOLN''KATBAQ'
MOLNKATBAQ
root@arm:~# MARKER='SAXG''YYWZSE' run 'i2cget -y -f 2 0x4b 0x12'
SAXGYYWZSE0x02
SAXGYYWZSE 0
root@arm:~# echo 'OZNC''YKOOXL'
OZNCYKOOXL
root@arm:~# MARKER='NTOK''MAGJMQ' run 'echo 730000 730000 > /sys/kernel/mva_test//regulators/buck3_set'
NTOKMAGJMQNTOKMAGJMQ 0
root@arm:~# echo 'KEXT''GQCBYV'
KEXTGQCBYV
root@arm:~# MARKER='LSET''WUNOJQ' run 'i2cget -y -f 2 0x4b 0x12'
LSETWUNOJQ0x03
LSETWUNOJQ 0
root@arm:~# echo 'FHCL''NQESAZ'
FHCLNQESAZ
root@arm:~# MARKER='VWLG''EBBTBG' run 'echo 740000 740000 > /sys/kernel/mva_test//regulators/buck3_set'
VWLGEBBTBGVWLGEBBTBG 0
root@arm:~# echo 'HVFV''WGTZYU'
HVFVWGTZYU
root@arm:~# MARKER='WKFW''ZVNHVM' run 'i2cget -y -f 2 0x4b 0x12'
WKFWZVNHVM0x04
WKFWZVNHVM 0
root@arm:~# echo 'YMJF''STAAAJ'
YMJFSTAAAJ
root@arm:~# MARKER='GOYB''TFJKVY' run 'echo 750000 750000 > /sys/kernel/mva_test//regulators/buck3_set'
GOYBTFJKVYGOYBTFJKVY 0
root@arm:~# echo 'XOWV''BLGOYC'
XOWVBLGOYC
root@arm:~# MARKER='EFGP''GAGTGL' run 'i2cget -y -f 2 0x4b 0x12'
EFGPGAGTGL0x05
EFGPGAGTGL 0
root@arm:~# echo 'UGET''XNMEJH'
UGETXNMEJH
root@arm:~# MARKER='EJYK''JGCNWB' run 'echo 760000 760000 > /sys/kernel/mva_test//regulators/buck3_set'
EJYKJGCNWBEJYKJGCNWB 0
root@arm:~# echo 'ULGA''ZQVCAM'
ULGAZQVCAM
root@arm:~# MARKER='EBSO''AMLNSU' run 'i2cget -y -f 2 0x4b 0x12'
EBSOAMLNSU0x06
EBSOAMLNSU 0
root@arm:~# echo 'XOQP''CCTYKY'
XOQPCCTYKY
root@arm:~# MARKER='CYVB''LBAJPK' run 'echo 770000 770000 > /sys/kernel/mva_test//regulators/buck3_set'
CYVBLBAJPKCYVBLBAJPK 0
root@arm:~# echo 'KUQY''KZUMUC'
KUQYKZUMUC
root@arm:~# MARKER='JEMK''OSNZTW' run 'i2cget -y -f 2 0x4b 0x12'
JEMKOSNZTW0x07
JEMKOSNZTW 0
root@arm:~# echo 'AKPL''BZXHQE'
AKPLBZXHQE
root@arm:~# MARKER='YXWN''UPXKAT' run 'echo 780000 780000 > /sys/kernel/mva_test//regulators/buck3_set'
YXWNUPXKATYXWNUPXKAT 0
root@arm:~# echo 'ZVGH''NYEVUF'
ZVGHNYEVUF
root@arm:~# MARKER='MLNF''SCZTQC' run 'i2cget -y -f 2 0x4b 0x12'
MLNFSCZTQC0x08
MLNFSCZTQC 0
root@arm:~# echo 'HGYW''ANVYQC'
HGYWANVYQC
root@arm:~# MARKER='VOFT''JUCONK' run 'echo 790000 790000 > /sys/kernel/mva_test//regulators/buck3_set'
VOFTJUCONKVOFTJUCONK 0
root@arm:~# echo 'NFUN''JBVFEM'
NFUNJBVFEM
root@arm:~# MARKER='HEBA''BVYHWZ' run 'i2cget -y -f 2 0x4b 0x12'
HEBABVYHWZ0x09
HEBABVYHWZ 0
root@arm:~# echo 'KAAW''NXPPBB'
KAAWNXPPBB
root@arm:~# MARKER='SGEQ''MJNHVF' run 'echo 800000 800000 > /sys/kernel/mva_test//regulators/buck3_set'
SGEQMJNHVFSGEQMJNHVF 0
root@arm:~# echo 'LVVV''VTCJJM'
LVVVVTCJJM
root@arm:~# MARKER='VNEY''VGNGQW' run 'i2cget -y -f 2 0x4b 0x12'
VNEYVGNGQW0x0a
VNEYVGNGQW 0
root@arm:~# echo 'MTWZ''ZKWPLH'
MTWZZKWPLH
root@arm:~# MARKER='JLHO''WOTNYW' run 'echo 810000 810000 > /sys/kernel/mva_test//regulators/buck3_set'
JLHOWOTNYWJLHOWOTNYW 0
root@arm:~# echo 'FGXP''QEQMXH'
FGXPQEQMXH
root@arm:~# MARKER='CMXL''QTYHKQ' run 'i2cget -y -f 2 0x4b 0x12'
CMXLQTYHKQ0x0b
CMXLQTYHKQ 0
root@arm:~# echo 'EZWA''QKOBSX'
EZWAQKOBSX
root@arm:~# MARKER='ZSJG''GCMYTQ' run 'echo 820000 820000 > /sys/kernel/mva_test//regulators/buck3_set'
ZSJGGCMYTQZSJGGCMYTQ 0
root@arm:~# echo 'VGSW''OKYVHK'
VGSWOKYVHK
root@arm:~# MARKER='FBZS''UYABAT' run 'i2cget -y -f 2 0x4b 0x12'
FBZSUYABAT0x0c
FBZSUYABAT 0
root@arm:~# echo 'VJBU''KHVUML'
VJBUKHVUML
root@arm:~# MARKER='CVWM''HNUZZC' run 'echo 830000 830000 > /sys/kernel/mva_test//regulators/buck3_set'
CVWMHNUZZCCVWMHNUZZC 0
root@arm:~# echo 'TXJW''TTXFTT'
TXJWTTXFTT
root@arm:~# MARKER='EGYL''MLJEOH' run 'i2cget -y -f 2 0x4b 0x12'
EGYLMLJEOH0x0d
EGYLMLJEOH 0
root@arm:~# echo 'VQYY''NNBWBA'
VQYYNNBWBA
root@arm:~# MARKER='HBPG''KFCYJO' run 'echo 840000 840000 > /sys/kernel/mva_test//regulators/buck3_set'
HBPGKFCYJOHBPGKFCYJO 0
root@arm:~# echo 'PAZP''QJNOEM'
PAZPQJNOEM
root@arm:~# MARKER='LAZU''AYVXPT' run 'i2cget -y -f 2 0x4b 0x12'
LAZUAYVXPT0x0e
LAZUAYVXPT 0
root@arm:~# echo 'XCVW''AVMAAB'
XCVWAVMAAB
root@arm:~# MARKER='EXBK''AGFCJB' run 'echo 850000 850000 > /sys/kernel/mva_test//regulators/buck3_set'
EXBKAGFCJBEXBKAGFCJB 0
root@arm:~# echo 'XYWW''MAZNBQ'
XYWWMAZNBQ
root@arm:~# MARKER='SFGP''CONTXF' run 'i2cget -y -f 2 0x4b 0x12'
SFGPCONTXF0x0f
SFGPCONTXF 0
root@arm:~# echo 'QOYG''UMNUXV'
QOYGUMNUXV
root@arm:~# MARKER='ZBFG''KKVPFQ' run 'echo 860000 860000 > /sys/kernel/mva_test//regulators/buck3_set'
ZBFGKKVPFQZBFGKKVPFQ 0
root@arm:~# echo 'FKSG''HLPWBO'
FKSGHLPWBO
root@arm:~# MARKER='SHFK''ANOOPH' run 'i2cget -y -f 2 0x4b 0x12'
SHFKANOOPH0x10
SHFKANOOPH 0
root@arm:~# echo 'ZTMA''CYJNOU'
ZTMACYJNOU
root@arm:~# MARKER='HAHZ''MQOOJT' run 'echo 870000 870000 > /sys/kernel/mva_test//regulators/buck3_set'
HAHZMQOOJTHAHZMQOOJT 0
root@arm:~# echo 'JCWK''OLSXTB'
JCWKOLSXTB
root@arm:~# MARKER='PASU''NYMOXW' run 'i2cget -y -f 2 0x4b 0x12'
PASUNYMOXW0x11
PASUNYMOXW 0
root@arm:~# echo 'AHXW''UGZQTT'
AHXWUGZQTT
root@arm:~# MARKER='KZHK''WZSMQH' run 'echo 880000 880000 > /sys/kernel/mva_test//regulators/buck3_set'
KZHKWZSMQHKZHKWZSMQH 0
root@arm:~# echo 'JWEW''BCPMHS'
JWEWBCPMHS
root@arm:~# MARKER='JJMK''PXJTCM' run 'i2cget -y -f 2 0x4b 0x12'
JJMKPXJTCM0x12
JJMKPXJTCM 0
root@arm:~# echo 'ZNZZ''BBHNNG'
ZNZZBBHNNG
root@arm:~# MARKER='YCOU''KKWKTU' run 'echo 890000 890000 > /sys/kernel/mva_test//regulators/buck3_set'
YCOUKKWKTUYCOUKKWKTU 0
root@arm:~# echo 'KBPW''QJCWAQ'
KBPWQJCWAQ
root@arm:~# MARKER='SCCA''WUSHHV' run 'i2cget -y -f 2 0x4b 0x12'
SCCAWUSHHV0x13
SCCAWUSHHV 0
root@arm:~# echo 'BAJS''UKWKSF'
BAJSUKWKSF
root@arm:~# MARKER='BEEG''EOBUSV' run 'echo 900000 900000 > /sys/kernel/mva_test//regulators/buck3_set'
BEEGEOBUSVBEEGEOBUSV 0
root@arm:~# echo 'OKNU''FSJLYN'
OKNUFSJLYN
root@arm:~# MARKER='LXHJ''KLWGBB' run 'i2cget -y -f 2 0x4b 0x12'
LXHJKLWGBB0x14
LXHJKLWGBB 0
root@arm:~# echo 'MECJ''PXUGVF'
MECJPXUGVF
root@arm:~# MARKER='HKKH''GFYYJX' run 'echo 910000 910000 > /sys/kernel/mva_test//regulators/buck3_set'
HKKHGFYYJXHKKHGFYYJX 0
root@arm:~# echo 'KGHE''KKFGWM'
KGHEKKFGWM
root@arm:~# MARKER='CKTK''NGQWQO' run 'i2cget -y -f 2 0x4b 0x12'
CKTKNGQWQO0x15
CKTKNGQWQO 0
root@arm:~# echo 'NZXP''FYLSAV'
NZXPFYLSAV
root@arm:~# MARKER='VJGH''SBNPQH' run 'echo 920000 920000 > /sys/kernel/mva_test//regulators/buck3_set'
VJGHSBNPQHVJGHSBNPQH 0
root@arm:~# echo 'SMJK''LFMUHN'
SMJKLFMUHN
root@arm:~# MARKER='QNTN''ZZVKFU' run 'i2cget -y -f 2 0x4b 0x12'
QNTNZZVKFU0x16
QNTNZZVKFU 0
root@arm:~# echo 'VKYF''VUNLLJ'
VKYFVUNLLJ
root@arm:~# MARKER='ABNP''SNMGHT' run 'echo 930000 930000 > /sys/kernel/mva_test//regulators/buck3_set'
ABNPSNMGHTABNPSNMGHT 0
root@arm:~# echo 'ZQXU''HTOKZK'
ZQXUHTOKZK
root@arm:~# MARKER='THVJ''NJUFTA' run 'i2cget -y -f 2 0x4b 0x12'
THVJNJUFTA0x17
THVJNJUFTA 0
root@arm:~# echo 'AFWP''PNAPKQ'
AFWPPNAPKQ
root@arm:~# MARKER='KCJK''WQXOEC' run 'echo 940000 940000 > /sys/kernel/mva_test//regulators/buck3_set'
KCJKWQXOECKCJKWQXOEC 0
root@arm:~# echo 'KEGH''FQTOXZ'
KEGHFQTOXZ
root@arm:~# MARKER='ZJHB''FPCJSO' run 'i2cget -y -f 2 0x4b 0x12'
ZJHBFPCJSO0x18
ZJHBFPCJSO 0
root@arm:~# echo 'VBKP''APOEXK'
VBKPAPOEXK
root@arm:~# MARKER='YOYK''AJPBZZ' run 'echo 950000 950000 > /sys/kernel/mva_test//regulators/buck3_set'
YOYKAJPBZZYOYKAJPBZZ 0
root@arm:~# echo 'ZMFJ''CJXPHU'
ZMFJCJXPHU
root@arm:~# MARKER='VMOK''HCLLQK' run 'i2cget -y -f 2 0x4b 0x12'
VMOKHCLLQK0x19
VMOKHCLLQK 0
root@arm:~# echo 'SFML''FBETJB'
SFMLFBETJB
root@arm:~# MARKER='JBPQ''LLSTEE' run 'echo 960000 960000 > /sys/kernel/mva_test//regulators/buck3_set'
JBPQLLSTEEJBPQLLSTEE 0
root@arm:~# echo 'WFSW''VZWVFG'
WFSWVZWVFG
root@arm:~# MARKER='JAYT''CVTJVC' run 'i2cget -y -f 2 0x4b 0x12'
JAYTCVTJVC0x1a
JAYTCVTJVC 0
root@arm:~# echo 'ZMJX''OQZZGZ'
ZMJXOQZZGZ
root@arm:~# MARKER='OUJH''WANECV' run 'echo 970000 970000 > /sys/kernel/mva_test//regulators/buck3_set'
OUJHWANECVOUJHWANECV 0
root@arm:~# echo 'TMOL''NNNHGB'
TMOLNNNHGB
root@arm:~# MARKER='TPLH''JMXBVV' run 'i2cget -y -f 2 0x4b 0x12'
TPLHJMXBVV0x1b
TPLHJMXBVV 0
root@arm:~# echo 'ECFH''QXMBJV'
ECFHQXMBJV
root@arm:~# MARKER='VXXU''PHEGFS' run 'echo 980000 980000 > /sys/kernel/mva_test//regulators/buck3_set'
VXXUPHEGFSVXXUPHEGFS 0
root@arm:~# echo 'TCVB''OTUHYF'
TCVBOTUHYF
root@arm:~# MARKER='XGOC''CJVUFY' run 'i2cget -y -f 2 0x4b 0x12'
XGOCCJVUFY0x1c
XGOCCJVUFY 0
root@arm:~# echo 'XPMG''OCHSZJ'
XPMGOCHSZJ
root@arm:~# MARKER='HAXV''XBJVBQ' run 'echo 990000 990000 > /sys/kernel/mva_test//regulators/buck3_set'
HAXVXBJVBQHAXVXBJVBQ 0
root@arm:~# echo 'NKGF''KVAWMM'
NKGFKVAWMM
root@arm:~# MARKER='NKJU''TLLMEX' run 'i2cget -y -f 2 0x4b 0x12'
NKJUTLLMEX0x1d
NKJUTLLMEX 0
root@arm:~# echo 'EYMX''QSBNXO'
EYMXQSBNXO
root@arm:~# MARKER='FGOW''HJNQWG' run 'echo 1000000 1000000 > /sys/kernel/mva_tesst/regulators/buck3_set'
FGOWHJNQWGFGOWHJNQWG 0
root@arm:~# echo 'EWJW''QGTNWQ'
EWJWQGTNWQ
root@arm:~# MARKER='PJMO''BJZZXL' run 'i2cget -y -f 2 0x4b 0x12'
PJMOBJZZXL0x1e
PJMOBJZZXL 0
root@arm:~# echo 'HGHT''BXCWXO'
HGHTBXCWXO
root@arm:~# MARKER='PNZL''KPULCT' run 'echo 1010000 1010000 > /sys/kernel/mva_tesst/regulators/buck3_set'
PNZLKPULCTPNZLKPULCT 0
root@arm:~# echo 'OCTM''QXOYKN'
OCTMQXOYKN
root@arm:~# MARKER='WSUK''HJJSPW' run 'i2cget -y -f 2 0x4b 0x12'
WSUKHJJSPW0x1f
WSUKHJJSPW 0
root@arm:~# echo 'KQGZ''AQKCCE'
KQGZAQKCCE
root@arm:~# MARKER='ANAP''XTOVWK' run 'echo 1020000 1020000 > /sys/kernel/mva_tesst/regulators/buck3_set'
ANAPXTOVWKANAPXTOVWK 0
root@arm:~# echo 'BTMC''JQPOUO'
BTMCJQPOUO
root@arm:~# MARKER='KNKS''TXLAOK' run 'i2cget -y -f 2 0x4b 0x12'
KNKSTXLAOK0x20
KNKSTXLAOK 0
root@arm:~# echo 'GGCG''WELMTL'
GGCGWELMTL
root@arm:~# MARKER='HFTP''BOPMTZ' run 'echo 1030000 1030000 > /sys/kernel/mva_tesst/regulators/buck3_set'
HFTPBOPMTZHFTPBOPMTZ 0
root@arm:~# echo 'HYVB''PLCQHB'
HYVBPLCQHB
root@arm:~# MARKER='XUCO''SLGLFU' run 'i2cget -y -f 2 0x4b 0x12'
XUCOSLGLFU0x21
XUCOSLGLFU 0
root@arm:~# echo 'ZBMX''FNBCWP'
ZBMXFNBCWP
root@arm:~# MARKER='VXTG''MOYJNJ' run 'echo 1040000 1040000 > /sys/kernel/mva_tesst/regulators/buck3_set'
VXTGMOYJNJVXTGMOYJNJ 0
root@arm:~# echo 'WHUW''BBJPQH'
WHUWBBJPQH
root@arm:~# MARKER='XKHV''GGBZEZ' run 'i2cget -y -f 2 0x4b 0x12'
XKHVGGBZEZ0x22
XKHVGGBZEZ 0
root@arm:~# echo 'WUAV''QGXHYP'
WUAVQGXHYP
root@arm:~# MARKER='FSTV''PAZAAX' run 'echo 1050000 1050000 > /sys/kernel/mva_tesst/regulators/buck3_set'
FSTVPAZAAXFSTVPAZAAX 0
root@arm:~# echo 'KUWO''CNCVYS'
KUWOCNCVYS
root@arm:~# MARKER='LSGE''SMUSFB' run 'i2cget -y -f 2 0x4b 0x12'
LSGESMUSFB0x23
LSGESMUSFB 0
root@arm:~# echo 'CHYL''STLJMA'
CHYLSTLJMA
root@arm:~# MARKER='YLJW''QQLBZX' run 'echo 1060000 1060000 > /sys/kernel/mva_tesst/regulators/buck3_set'
YLJWQQLBZXYLJWQQLBZX 0
root@arm:~# echo 'XTWQ''SZHZHE'
XTWQSZHZHE
root@arm:~# MARKER='WOCF''VPWGNX' run 'i2cget -y -f 2 0x4b 0x12'
WOCFVPWGNX0x24
WOCFVPWGNX 0
root@arm:~# echo 'HPSL''QVELKF'
HPSLQVELKF
root@arm:~# MARKER='FVKS''UXXAPT' run 'echo 1070000 1070000 > /sys/kernel/mva_tesst/regulators/buck3_set'
FVKSUXXAPTFVKSUXXAPT 0
root@arm:~# echo 'SWYF''HXVLKZ'
SWYFHXVLKZ
root@arm:~# MARKER='OOSQ''KBVEJS' run 'i2cget -y -f 2 0x4b 0x12'
OOSQKBVEJS0x25
OOSQKBVEJS 0
root@arm:~# echo 'QXGX''JVKXVM'
QXGXJVKXVM
root@arm:~# MARKER='AJUQ''LQBTGY' run 'echo 1080000 1080000 > /sys/kernel/mva_tesst/regulators/buck3_set'
AJUQLQBTGYAJUQLQBTGY 0
root@arm:~# echo 'KXEL''WMSMTS'
KXELWMSMTS
root@arm:~# MARKER='QPYV''MOZXJL' run 'i2cget -y -f 2 0x4b 0x12'
QPYVMOZXJL0x26
QPYVMOZXJL 0
root@arm:~# echo 'WJTW''STEXXL'
WJTWSTEXXL
root@arm:~# MARKER='UVPN''YEPPKY' run 'echo 1090000 1090000 > /sys/kernel/mva_tesst/regulators/buck3_set'
UVPNYEPPKYUVPNYEPPKY 0
root@arm:~# echo 'FENW''LMYASN'
FENWLMYASN
root@arm:~# MARKER='CSMV''NSMAUS' run 'i2cget -y -f 2 0x4b 0x12'
CSMVNSMAUS0x27
CSMVNSMAUS 0
root@arm:~# echo 'QZWV''MVMEPE'
QZWVMVMEPE
root@arm:~# MARKER='EFGX''AKBZHC' run 'echo 1100000 1100000 > /sys/kernel/mva_tesst/regulators/buck3_set'
EFGXAKBZHCEFGXAKBZHC 0
root@arm:~# echo 'TXPT''QFVVAX'
TXPTQFVVAX
root@arm:~# MARKER='ATYA''MUVBYA' run 'i2cget -y -f 2 0x4b 0x12'
ATYAMUVBYA0x28
ATYAMUVBYA 0
root@arm:~# echo 'ZLCS''BFGYSQ'
ZLCSBFGYSQ
root@arm:~# MARKER='BEQX''MENAQX' run 'echo 1110000 1110000 > /sys/kernel/mva_tesst/regulators/buck3_set'
BEQXMENAQXBEQXMENAQX 0
root@arm:~# echo 'QKGB''PYWWVS'
QKGBPYWWVS
root@arm:~# MARKER='SVYJ''AZJAHB' run 'i2cget -y -f 2 0x4b 0x12'
SVYJAZJAHB0x29
SVYJAZJAHB 0
root@arm:~# echo 'LCSE''NKGFQL'
LCSENKGFQL
root@arm:~# MARKER='XVQN''WKNPGX' run 'echo 1120000 1120000 > /sys/kernel/mva_tesst/regulators/buck3_set'
XVQNWKNPGXXVQNWKNPGX 0
root@arm:~# echo 'BYAJ''VMWSOB'
BYAJVMWSOB
root@arm:~# MARKER='XEUY''LEXSCA' run 'i2cget -y -f 2 0x4b 0x12'
XEUYLEXSCA0x2a
XEUYLEXSCA 0
root@arm:~# echo 'ACJO''PBZVZQ'
ACJOPBZVZQ
root@arm:~# MARKER='ZVVO''VVHMWB' run 'echo 1130000 1130000 > /sys/kernel/mva_tesst/regulators/buck3_set'
ZVVOVVHMWBZVVOVVHMWB 0
root@arm:~# echo 'VOYG''WMUTCM'
VOYGWMUTCM
root@arm:~# MARKER='ZBNM''MPMSJS' run 'i2cget -y -f 2 0x4b 0x12'
ZBNMMPMSJS0x2b
ZBNMMPMSJS 0
root@arm:~# echo 'YNUY''GAAKLE'
YNUYGAAKLE
root@arm:~# MARKER='GUNZ''KPQSYX' run 'echo 1140000 1140000 > /sys/kernel/mva_tesst/regulators/buck3_set'
GUNZKPQSYXGUNZKPQSYX 0
root@arm:~# echo 'PEUC''FXLHMV'
PEUCFXLHMV
root@arm:~# MARKER='WKLK''LMMYVV' run 'i2cget -y -f 2 0x4b 0x12'
WKLKLMMYVV0x2c
WKLKLMMYVV 0
root@arm:~# echo 'NWTZ''WTYZKM'
NWTZWTYZKM
root@arm:~# MARKER='YCHF''XVTUGU' run 'echo 1150000 1150000 > /sys/kernel/mva_tesst/regulators/buck3_set'
YCHFXVTUGUYCHFXVTUGU 0
root@arm:~# echo 'ZSGU''GMQUYF'
ZSGUGMQUYF
root@arm:~# MARKER='HSBC''TNUUTS' run 'i2cget -y -f 2 0x4b 0x12'
HSBCTNUUTS0x2d
HSBCTNUUTS 0
root@arm:~# echo 'MCWO''PAHPJB'
MCWOPAHPJB
root@arm:~# MARKER='EMSQ''TPKAVN' run 'echo 1160000 1160000 > /sys/kernel/mva_tesst/regulators/buck3_set'
EMSQTPKAVNEMSQTPKAVN 0
root@arm:~# echo 'FCQH''ENGJUB'
FCQHENGJUB
root@arm:~# MARKER='LOHY''KCSWSL' run 'i2cget -y -f 2 0x4b 0x12'
LOHYKCSWSL0x2e
LOHYKCSWSL 0
root@arm:~# echo 'SMOE''FQWUFN'
SMOEFQWUFN
root@arm:~# MARKER='FVYK''ZYLWEK' run 'echo 1170000 1170000 > /sys/kernel/mva_tesst/regulators/buck3_set'
FVYKZYLWEKFVYKZYLWEK 0
root@arm:~# echo 'QCQM''MLSUZX'
QCQMMLSUZX
root@arm:~# MARKER='MYWE''TMQMKV' run 'i2cget -y -f 2 0x4b 0x12'
MYWETMQMKV0x2f
MYWETMQMKV 0
root@arm:~# echo 'XZUY''GBPAYH'
XZUYGBPAYH
root@arm:~# MARKER='MCXB''CVOPYW' run 'echo 1180000 1180000 > /sys/kernel/mva_tesst/regulators/buck3_set'
MCXBCVOPYWMCXBCVOPYW 0
root@arm:~# echo 'JMVQ''CHMQWW'
JMVQCHMQWW
root@arm:~# MARKER='MBHJ''QYFVON' run 'i2cget -y -f 2 0x4b 0x12'
MBHJQYFVON0x30
MBHJQYFVON 0
root@arm:~# echo 'NCMQ''PWPKKU'
NCMQPWPKKU
root@arm:~# MARKER='ZSEO''NZZUNM' run 'echo 1190000 1190000 > /sys/kernel/mva_tesst/regulators/buck3_set'
ZSEONZZUNMZSEONZZUNM 0
root@arm:~# echo 'PZAO''HSFGYY'
PZAOHSFGYY
root@arm:~# MARKER='TZOK''KFWMFG' run 'i2cget -y -f 2 0x4b 0x12'
TZOKKFWMFG0x31
TZOKKFWMFG 0
root@arm:~# echo 'QGZJ''EUAPWJ'
QGZJEUAPWJ
root@arm:~# MARKER='GENV''ZPKTCU' run 'echo 1200000 1200000 > /sys/kernel/mva_tesst/regulators/buck3_set'
GENVZPKTCUGENVZPKTCU 0
root@arm:~# echo 'WSZP''BUSSJV'
WSZPBUSSJV
root@arm:~# MARKER='PSUC''KPUKES' run 'i2cget -y -f 2 0x4b 0x12'
PSUCKPUKES0x32
PSUCKPUKES 0
root@arm:~# echo 'FCUG''PKTUFT'
FCUGPKTUFT
root@arm:~# MARKER='GHZM''ESWWKK' run 'echo 1210000 1210000 > /sys/kernel/mva_tesst/regulators/buck3_set'
GHZMESWWKKGHZMESWWKK 0
root@arm:~# echo 'BXNW''LLWSGO'
BXNWLLWSGO
root@arm:~# MARKER='MHXO''CLTZOW' run 'i2cget -y -f 2 0x4b 0x12'
MHXOCLTZOW0x33
MHXOCLTZOW 0
root@arm:~# echo 'ZWBX''QTGZBJ'
ZWBXQTGZBJ
root@arm:~# MARKER='FVTT''WPLKYH' run 'echo 1220000 1220000 > /sys/kernel/mva_tesst/regulators/buck3_set'
FVTTWPLKYHFVTTWPLKYH 0
root@arm:~# echo 'SLSB''OLJTZK'
SLSBOLJTZK
root@arm:~# MARKER='GGFF''XHYNGZ' run 'i2cget -y -f 2 0x4b 0x12'
GGFFXHYNGZ0x34
GGFFXHYNGZ 0
root@arm:~# echo 'FHTB''YBXKGN'
FHTBYBXKGN
root@arm:~# MARKER='NEOE''YGUNVU' run 'echo 1230000 1230000 > /sys/kernel/mva_tesst/regulators/buck3_set'
NEOEYGUNVUNEOEYGUNVU 0
root@arm:~# echo 'MMUU''VXUNPJ'
MMUUVXUNPJ
root@arm:~# MARKER='PNFZ''COKOGM' run 'i2cget -y -f 2 0x4b 0x12'
PNFZCOKOGM0x35
PNFZCOKOGM 0
root@arm:~# echo 'BONB''ZAMVOB'
BONBZAMVOB
root@arm:~# MARKER='XFEQ''SZFSFA' run 'echo 1240000 1240000 > /sys/kernel/mva_tesst/regulators/buck3_set'
XFEQSZFSFAXFEQSZFSFA 0
root@arm:~# echo 'SYMY''TSLKQN'
SYMYTSLKQN
root@arm:~# MARKER='VEVJ''KHEQCQ' run 'i2cget -y -f 2 0x4b 0x12'
VEVJKHEQCQ0x36
VEVJKHEQCQ 0
root@arm:~# echo 'FMPC''WMYWMB'
FMPCWMYWMB
root@arm:~# MARKER='KCBK''OWNQWH' run 'echo 1250000 1250000 > /sys/kernel/mva_tesst/regulators/buck3_set'
KCBKOWNQWHKCBKOWNQWH 0
root@arm:~# echo 'LABS''ZSZSYT'
LABSZSZSYT
root@arm:~# MARKER='EBAY''TVNQKH' run 'i2cget -y -f 2 0x4b 0x12'
EBAYTVNQKH0x37
EBAYTVNQKH 0
root@arm:~# echo 'MHAZ''ZJZYGC'
MHAZZJZYGC
root@arm:~# MARKER='NMLX''ANXSBV' run 'echo 1260000 1260000 > /sys/kernel/mva_tesst/regulators/buck3_set'
NMLXANXSBVNMLXANXSBV 0
root@arm:~# echo 'EZOQ''XMMFOQ'
EZOQXMMFOQ
root@arm:~# MARKER='KULW''LTGUGM' run 'i2cget -y -f 2 0x4b 0x12'
KULWLTGUGM0x38
KULWLTGUGM 0
root@arm:~# echo 'PWHA''KFYTLP'
PWHAKFYTLP
root@arm:~# MARKER='QZLY''WZJENJ' run 'echo 1270000 1270000 > /sys/kernel/mva_tesst/regulators/buck3_set'
QZLYWZJENJQZLYWZJENJ 0
root@arm:~# echo 'ETAQ''XWECYY'
ETAQXWECYY
root@arm:~# MARKER='KAPB''WXAHET' run 'i2cget -y -f 2 0x4b 0x12'
KAPBWXAHET0x39
KAPBWXAHET 0
root@arm:~# echo 'AJBC''NVWQLN'
AJBCNVWQLN
root@arm:~# MARKER='BVNG''GGPOVA' run 'echo 1280000 1280000 > /sys/kernel/mva_tesst/regulators/buck3_set'
BVNGGGPOVABVNGGGPOVA 0
root@arm:~# echo 'LELW''BWBXEG'
LELWBWBXEG
root@arm:~# MARKER='PKSF''ZJCXEO' run 'i2cget -y -f 2 0x4b 0x12'
PKSFZJCXEO0x3a
PKSFZJCXEO 0
root@arm:~# echo 'WAZG''EGQETH'
WAZGEGQETH
root@arm:~# MARKER='QQSC''OUGJNQ' run 'echo 1290000 1290000 > /sys/kernel/mva_tesst/regulators/buck3_set'
QQSCOUGJNQQQSCOUGJNQ 0
root@arm:~# echo 'CXKX''FUAGJO'
CXKXFUAGJO
root@arm:~# MARKER='VFCE''KOTCHU' run 'i2cget -y -f 2 0x4b 0x12'
VFCEKOTCHU0x3b
VFCEKOTCHU 0
root@arm:~# echo 'GJMO''LTXUEF'
GJMOLTXUEF
root@arm:~# MARKER='TOHU''AFEWXF' run 'echo 1300000 1300000 > /sys/kernel/mva_tesst/regulators/buck3_set'
TOHUAFEWXFTOHUAFEWXF 0
root@arm:~# echo 'NFQB''OZZNBY'
NFQBOZZNBY
root@arm:~# MARKER='GTEJ''UTZZKW' run 'i2cget -y -f 2 0x4b 0x12'
GTEJUTZZKW0x3c
GTEJUTZZKW 0
root@arm:~# echo 'AABG''QZZCVO'
AABGQZZCVO
root@arm:~# MARKER='FPLC''VWPZQL' run 'grep -r -l rohm,bd71837 /proc/device-tree  | sed '"'"'s![^/]*$!!'"'"''
FPLCVWPZQL/proc/device-tree/ocp/interconnect@48000000/segment@100000/target-module@9c000/i2c@0/pmic@4b/
FPLCVWPZQL 0
root@arm:~# echo 'HZOZ''SOJKAK'
HZOZSOJKAK
root@arm:~# MARKER='VGBF''LKYZXS' run 'test -f /proc/device-tree/ocp/interconnectt\@48000000/segment\@100000/target-module\@9c000/i2c\@0/pmic\@4b/regulators/BUCK44/rohm,no-regulator-enable-control ;echo $?'
VGBFLKYZXS1
VGBFLKYZXS 0
root@arm:~# echo 'XZFV''ZQVFZO'
XZFVZQVFZO
root@arm:~# MARKER='MBMO''YKYOHK' run 'i2cget -y -f 2 0x4b 0x8'
MBMOYKYOHK0xc6
MBMOYKYOHK 0
root@arm:~# echo 'ZCJG''VVLYLF'
ZCJGVVLYLF
root@arm:~# MARKER='QJEM''QMYLCH' run 'echo 700000 700000 > /sys/kernel/mva_test//regulators/buck4_set'
QJEMQMYLCHQJEMQMYLCH 0
root@arm:~# echo 'PSGZ''HCLEKT'
PSGZHCLEKT
root@arm:~# MARKER='LZUW''ECETUF' run 'i2cget -y -f 2 0x4b 0x13'
LZUWECETUF0x00
LZUWECETUF 0
root@arm:~# echo 'PZVU''FBGEKO'
PZVUFBGEKO
root@arm:~# MARKER='WNJX''PPHENE' run 'echo 710000 710000 > /sys/kernel/mva_test//regulators/buck4_set'
WNJXPPHENEWNJXPPHENE 0
root@arm:~# echo 'JEEN''PGVTSH'
JEENPGVTSH
root@arm:~# MARKER='EHJH''VLQOPE' run 'i2cget -y -f 2 0x4b 0x13'
EHJHVLQOPE0x01
EHJHVLQOPE 0
root@arm:~# echo 'ALCV''OTFSZL'
ALCVOTFSZL
root@arm:~# MARKER='ANKY''MNQQFP' run 'echo 720000 720000 > /sys/kernel/mva_test//regulators/buck4_set'
ANKYMNQQFPANKYMNQQFP 0
root@arm:~# echo 'QEMS''NPLUCG'
QEMSNPLUCG
root@arm:~# MARKER='GOST''WFWHNZ' run 'i2cget -y -f 2 0x4b 0x13'
GOSTWFWHNZ0x02
GOSTWFWHNZ 0
root@arm:~# echo 'XOLN''CMXWFG'
XOLNCMXWFG
root@arm:~# MARKER='ZBOF''LGOPQW' run 'echo 730000 730000 > /sys/kernel/mva_test//regulators/buck4_set'
ZBOFLGOPQWZBOFLGOPQW 0
root@arm:~# echo 'YVWC''MPZUHZ'
YVWCMPZUHZ
root@arm:~# MARKER='TFJE''SJVYOV' run 'i2cget -y -f 2 0x4b 0x13'
TFJESJVYOV0x03
TFJESJVYOV 0
root@arm:~# echo 'HFNC''KBXAOX'
HFNCKBXAOX
root@arm:~# MARKER='TMGK''PBWKQE' run 'echo 740000 740000 > /sys/kernel/mva_test//regulators/buck4_set'
TMGKPBWKQETMGKPBWKQE 0
root@arm:~# echo 'YPJH''MFCNCL'
YPJHMFCNCL
root@arm:~# MARKER='AZES''ZXVWVM' run 'i2cget -y -f 2 0x4b 0x13'
AZESZXVWVM0x04
AZESZXVWVM 0
root@arm:~# echo 'QZPY''QWEEKM'
QZPYQWEEKM
root@arm:~# MARKER='CQGJ''PZULHG' run 'echo 750000 750000 > /sys/kernel/mva_test//regulators/buck4_set'
CQGJPZULHGCQGJPZULHG 0
root@arm:~# echo 'CVVU''ELEQWN'
CVVUELEQWN
root@arm:~# MARKER='TPZL''VZCQNN' run 'i2cget -y -f 2 0x4b 0x13'
TPZLVZCQNN0x05
TPZLVZCQNN 0
root@arm:~# echo 'HVEZ''CKALCQ'
HVEZCKALCQ
root@arm:~# MARKER='ZXLU''VQPJWU' run 'echo 760000 760000 > /sys/kernel/mva_test//regulators/buck4_set'
ZXLUVQPJWUZXLUVQPJWU 0
root@arm:~# echo 'NFTO''WPJCSB'
NFTOWPJCSB
root@arm:~# MARKER='JUGO''YEAJTY' run 'i2cget -y -f 2 0x4b 0x13'
JUGOYEAJTY0x06
JUGOYEAJTY 0
root@arm:~# echo 'ZEYP''YXVKTH'
ZEYPYXVKTH
root@arm:~# MARKER='CKEM''CJBWXT' run 'echo 770000 770000 > /sys/kernel/mva_test//regulators/buck4_set'
CKEMCJBWXTCKEMCJBWXT 0
root@arm:~# echo 'TENT''VBWQHL'
TENTVBWQHL
root@arm:~# MARKER='ZJTS''HLWLQT' run 'i2cget -y -f 2 0x4b 0x13'
ZJTSHLWLQT0x07
ZJTSHLWLQT 0
root@arm:~# echo 'YXYS''PGKCCN'
YXYSPGKCCN
root@arm:~# MARKER='MAPF''QFJCUG' run 'echo 780000 780000 > /sys/kernel/mva_test//regulators/buck4_set'
MAPFQFJCUGMAPFQFJCUG 0
root@arm:~# echo 'HQOX''EKVPCC'
HQOXEKVPCC
root@arm:~# MARKER='HXBN''XXLOPJ' run 'i2cget -y -f 2 0x4b 0x13'
HXBNXXLOPJ0x08
HXBNXXLOPJ 0
root@arm:~# echo 'SJFG''YMQQWG'
SJFGYMQQWG
root@arm:~# MARKER='YEUH''MUPSPL' run 'echo 790000 790000 > /sys/kernel/mva_test//regulators/buck4_set'
YEUHMUPSPLYEUHMUPSPL 0
root@arm:~# echo 'TWYV''NFKKLL'
TWYVNFKKLL
root@arm:~# MARKER='EYXP''GUFHZS' run 'i2cget -y -f 2 0x4b 0x13'
EYXPGUFHZS0x09
EYXPGUFHZS 0
root@arm:~# echo 'KECJ''XOAJAZ'
KECJXOAJAZ
root@arm:~# MARKER='LNZU''JSHUJH' run 'echo 800000 800000 > /sys/kernel/mva_test//regulators/buck4_set'
LNZUJSHUJHLNZUJSHUJH 0
root@arm:~# echo 'AQGK''ALZJLT'
AQGKALZJLT
root@arm:~# MARKER='OTYO''VAVBYT' run 'i2cget -y -f 2 0x4b 0x13'
OTYOVAVBYT0x0a
OTYOVAVBYT 0
root@arm:~# echo 'GSFV''SSSLMS'
GSFVSSSLMS
root@arm:~# MARKER='MOAC''ZCFEMT' run 'echo 810000 810000 > /sys/kernel/mva_test//regulators/buck4_set'
MOACZCFEMTMOACZCFEMT 0
root@arm:~# echo 'ZPMG''YLFHVN'
ZPMGYLFHVN
root@arm:~# MARKER='EPBM''AYMWVA' run 'i2cget -y -f 2 0x4b 0x13'
EPBMAYMWVA0x0b
EPBMAYMWVA 0
root@arm:~# echo 'LOHM''ZGCXWV'
LOHMZGCXWV
root@arm:~# MARKER='SFKA''MFBEQO' run 'echo 820000 820000 > /sys/kernel/mva_test//regulators/buck4_set'
SFKAMFBEQOSFKAMFBEQO 0
root@arm:~# echo 'CAJM''KWQGOB'
CAJMKWQGOB
root@arm:~# MARKER='COUJ''GZMWEJ' run 'i2cget -y -f 2 0x4b 0x13'
COUJGZMWEJ0x0c
COUJGZMWEJ 0
root@arm:~# echo 'YOUM''WAHPSE'
YOUMWAHPSE
root@arm:~# MARKER='UBJH''MWLQYY' run 'echo 830000 830000 > /sys/kernel/mva_test//regulators/buck4_set'
UBJHMWLQYYUBJHMWLQYY 0
root@arm:~# echo 'QOGA''TFCYKN'
QOGATFCYKN
root@arm:~# MARKER='BFKG''GJFWCW' run 'i2cget -y -f 2 0x4b 0x13'
BFKGGJFWCW0x0d
BFKGGJFWCW 0
root@arm:~# echo 'ZKGL''XOVNQH'
ZKGLXOVNQH
root@arm:~# MARKER='GKKE''FUAGSM' run 'echo 840000 840000 > /sys/kernel/mva_test//regulators/buck4_set'
GKKEFUAGSMGKKEFUAGSM 0
root@arm:~# echo 'VWNB''JBJQOE'
VWNBJBJQOE
root@arm:~# MARKER='BVQG''QVPGSP' run 'i2cget -y -f 2 0x4b 0x13'
BVQGQVPGSP0x0e
BVQGQVPGSP 0
root@arm:~# echo 'JHXB''CHZWJV'
JHXBCHZWJV
root@arm:~# MARKER='QVEC''KVXXVC' run 'echo 850000 850000 > /sys/kernel/mva_test//regulators/buck4_set'
QVECKVXXVCQVECKVXXVC 0
root@arm:~# echo 'CJUS''ZUKMKM'
CJUSZUKMKM
root@arm:~# MARKER='ZLCO''LUHJMO' run 'i2cget -y -f 2 0x4b 0x13'
ZLCOLUHJMO0x0f
ZLCOLUHJMO 0
root@arm:~# echo 'TNBV''MTMKGN'
TNBVMTMKGN
root@arm:~# MARKER='YTHB''SHCUFF' run 'echo 860000 860000 > /sys/kernel/mva_test//regulators/buck4_set'
YTHBSHCUFFYTHBSHCUFF 0
root@arm:~# echo 'GBZS''AMNEXQ'
GBZSAMNEXQ
root@arm:~# MARKER='EHVK''YGOXTW' run 'i2cget -y -f 2 0x4b 0x13'
EHVKYGOXTW0x10
EHVKYGOXTW 0
root@arm:~# echo 'KHFA''WNBJWH'
KHFAWNBJWH
root@arm:~# MARKER='AECO''UXAYVC' run 'echo 870000 870000 > /sys/kernel/mva_test//regulators/buck4_set'
AECOUXAYVCAECOUXAYVC 0
root@arm:~# echo 'CGLS''NFVKGC'
CGLSNFVKGC
root@arm:~# MARKER='SKZX''LJGMXK' run 'i2cget -y -f 2 0x4b 0x13'
SKZXLJGMXK0x11
SKZXLJGMXK 0
root@arm:~# echo 'ULQV''VFYHJP'
ULQVVFYHJP
root@arm:~# MARKER='WLHJ''ZLOBWL' run 'echo 880000 880000 > /sys/kernel/mva_test//regulators/buck4_set'
WLHJZLOBWLWLHJZLOBWL 0
root@arm:~# echo 'PWLA''CFXWZV'
PWLACFXWZV
root@arm:~# MARKER='GWMY''BGYKYM' run 'i2cget -y -f 2 0x4b 0x13'
GWMYBGYKYM0x12
GWMYBGYKYM 0
root@arm:~# echo 'ZGCN''SPHOMP'
ZGCNSPHOMP
root@arm:~# MARKER='ZJNL''WKQPQT' run 'echo 890000 890000 > /sys/kernel/mva_test//regulators/buck4_set'
ZJNLWKQPQTZJNLWKQPQT 0
root@arm:~# echo 'YKTN''BUNVJH'
YKTNBUNVJH
root@arm:~# MARKER='ZQZF''AHBJAV' run 'i2cget -y -f 2 0x4b 0x13'
ZQZFAHBJAV0x13
ZQZFAHBJAV 0
root@arm:~# echo 'OCML''JGKJUM'
OCMLJGKJUM
root@arm:~# MARKER='LOHK''ZQQXJE' run 'echo 900000 900000 > /sys/kernel/mva_test//regulators/buck4_set'
LOHKZQQXJELOHKZQQXJE 0
root@arm:~# echo 'NPQL''TWJXZX'
NPQLTWJXZX
root@arm:~# MARKER='SQBH''LHPAGG' run 'i2cget -y -f 2 0x4b 0x13'
SQBHLHPAGG0x14
SQBHLHPAGG 0
root@arm:~# echo 'ENEB''PFFWEP'
ENEBPFFWEP
root@arm:~# MARKER='LNJA''OFEMWA' run 'echo 910000 910000 > /sys/kernel/mva_test//regulators/buck4_set'
LNJAOFEMWALNJAOFEMWA 0
root@arm:~# echo 'KBJA''FAAQWJ'
KBJAFAAQWJ
root@arm:~# MARKER='YWNH''KAEONG' run 'i2cget -y -f 2 0x4b 0x13'
YWNHKAEONG0x15
YWNHKAEONG 0
root@arm:~# echo 'GVKA''FKSEFF'
GVKAFKSEFF
root@arm:~# MARKER='YBAH''WOAWAC' run 'echo 920000 920000 > /sys/kernel/mva_test//regulators/buck4_set'
YBAHWOAWACYBAHWOAWAC 0
root@arm:~# echo 'OJGY''ZETYUW'
OJGYZETYUW
root@arm:~# MARKER='SQVW''GEKJMM' run 'i2cget -y -f 2 0x4b 0x13'
SQVWGEKJMM0x16
SQVWGEKJMM 0
root@arm:~# echo 'XKPU''TYNTBT'
XKPUTYNTBT
root@arm:~# MARKER='WHHG''QXUJUX' run 'echo 930000 930000 > /sys/kernel/mva_test//regulators/buck4_set'
WHHGQXUJUXWHHGQXUJUX 0
root@arm:~# echo 'AMZC''TSPOWT'
AMZCTSPOWT
root@arm:~# MARKER='UTFG''JCULXV' run 'i2cget -y -f 2 0x4b 0x13'
UTFGJCULXV0x17
UTFGJCULXV 0
root@arm:~# echo 'SLTG''TJPSYL'
SLTGTJPSYL
