Labgrid Console Logfile for main
Logfile started at 2025-10-03 15:47:24.872139
=== Log starts here ===

root@arm:~# run() { echo -n "$MARKER"; sh -c "$@"; echo "$MARKER $?"; }
root@arm:~# echo 'NMMA''HKJKLO'
NMMAHKJKLO
root@arm:~# MARKER='OFFZ''SUFOQU' run 'grep -r -l rohm,bd71847 /proc/device-tree  | sed '"'"'s![^/]*$!!'"'"''
OFFZSUFOQU/proc/device-tree/ocp/interconnect@48000000/segment@0/target-module@2a000/i2c@0/pmic@4b/
OFFZSUFOQU 0
root@arm:~# echo 'OFOU''WSJJGM'
OFOUWSJJGM
root@arm:~# MARKER='WBEB''ZJAKQC' run 'test -f /proc/device-tree/ocp/interconnectt\@48000000/segment\@0/target-module\@2a000/i2c\@0/pmic\@4b/regulators/BUCK1/rohmm,no-regulator-enable-control ;echo $?'
WBEBZJAKQC1
WBEBZJAKQC 0
root@arm:~# echo 'FCXL''UTEOKZ'
FCXLUTEOKZ
root@arm:~# MARKER='OXXQ''POOWPE' run 'echo 1 > /sys/kernel/mva_test/regulators/bbuck1_en'
OXXQPOOWPEOXXQPOOWPE 0
root@arm:~# echo 'UGOE''VGKHVT'
UGOEVGKHVT
root@arm:~# MARKER='CBHT''TVJVYN' run 'i2cget -y -f 1 0x4b 0x5'
CBHTTVJVYN0x03
CBHTTVJVYN 0
root@arm:~# echo 'NHZC''WLXQZP'
NHZCWLXQZP
root@arm:~# MARKER='XWKK''QVEAWT' run 'grep -r -l rohm,bd71847 /proc/device-tree  | sed '"'"'s![^/]*$!!'"'"''
XWKKQVEAWT/proc/device-tree/ocp/interconnect@48000000/segment@0/target-module@2a000/i2c@0/pmic@4b/
XWKKQVEAWT 0
root@arm:~# echo 'VESG''PMQGUS'
VESGPMQGUS
root@arm:~# MARKER='VPPK''QJMFYZ' run 'test -f /proc/device-tree/ocp/interconnectt\@48000000/segment\@0/target-module\@2a000/i2c\@0/pmic\@4b/regulators/BUCK1/rohmm,no-regulator-enable-control ;echo $?'
VPPKQJMFYZ1
VPPKQJMFYZ 0
root@arm:~# echo 'TMWA''UVZPSE'
TMWAUVZPSE
root@arm:~# MARKER='XYCK''ZNHEYE' run 'grep -r -l rohm,bd71847 /proc/device-tree  | sed '"'"'s![^/]*$!!'"'"''
XYCKZNHEYE/proc/device-tree/ocp/interconnect@48000000/segment@0/target-module@2a000/i2c@0/pmic@4b/
XYCKZNHEYE 0
root@arm:~# echo 'ALMX''KLJFUL'
ALMXKLJFUL
root@arm:~# MARKER='OGTT''QXHQWT' run 'test -f /proc/device-tree/ocp/interconnectt\@48000000/segment\@0/target-module\@2a000/i2c\@0/pmic\@4b/regulators/BUCK1/reguulator-always-on ;echo $?'
OGTTQXHQWT1
OGTTQXHQWT 0
root@arm:~# echo 'OLWS''TLBCOQ'
OLWSTLBCOQ
root@arm:~# MARKER='UULW''APHYGT' run 'echo 0 > /sys/kernel/mva_test/regulators/bbuck1_en'
UULWAPHYGTUULWAPHYGT 0
root@arm:~# echo 'NANY''QMBJXF'
NANYQMBJXF
root@arm:~# MARKER='WLWN''HTJXFV' run 'i2cget -y -f 1 0x4b 0x5'
WLWNHTJXFV0x02
WLWNHTJXFV 0
root@arm:~# echo 'QEHH''YMBUOB'
QEHHYMBUOB
root@arm:~# MARKER='GGUO''FOFTZL' run 'grep -r -l rohm,bd71847 /proc/device-tree  | sed '"'"'s![^/]*$!!'"'"''
GGUOFOFTZL/proc/device-tree/ocp/interconnect@48000000/segment@0/target-module@2a000/i2c@0/pmic@4b/
GGUOFOFTZL 0
root@arm:~# echo 'SPNK''GXNYXV'
SPNKGXNYXV
root@arm:~# MARKER='MWMT''FQHBMW' run 'test -f /proc/device-tree/ocp/interconnectt\@48000000/segment\@0/target-module\@2a000/i2c\@0/pmic\@4b/regulators/BUCK2/rohmm,no-regulator-enable-control ;echo $?'
MWMTFQHBMW1
MWMTFQHBMW 0
root@arm:~# echo 'NKOL''ZKZSXS'
NKOLZKZSXS
root@arm:~# MARKER='WPHT''MTSGCM' run 'echo 1 > /sys/kernel/mva_test/regulators/bbuck2_en'
WPHTMTSGCMWPHTMTSGCM 0
root@arm:~# echo 'ZPSA''GAHQOT'
ZPSAGAHQOT
root@arm:~# MARKER='WGLX''GTYGJF' run 'i2cget -y -f 1 0x4b 0x6'
WGLXGTYGJF0x43
WGLXGTYGJF 0
root@arm:~# echo 'VWNW''JPWPAJ'
VWNWJPWPAJ
root@arm:~# MARKER='FQQE''SEMPLQ' run 'grep -r -l rohm,bd71847 /proc/device-tree  | sed '"'"'s![^/]*$!!'"'"''
FQQESEMPLQ/proc/device-tree/ocp/interconnect@48000000/segment@0/target-module@2a000/i2c@0/pmic@4b/
FQQESEMPLQ 0
root@arm:~# echo 'TYON''SHHNBZ'
TYONSHHNBZ
root@arm:~# MARKER='CEHX''THTUPX' run 'test -f /proc/device-tree/ocp/interconnectt\@48000000/segment\@0/target-module\@2a000/i2c\@0/pmic\@4b/regulators/BUCK2/rohmm,no-regulator-enable-control ;echo $?'
CEHXTHTUPX1
CEHXTHTUPX 0
root@arm:~# echo 'JLHF''KCWWAM'
JLHFKCWWAM
root@arm:~# MARKER='HEFW''XGUFSO' run 'grep -r -l rohm,bd71847 /proc/device-tree  | sed '"'"'s![^/]*$!!'"'"''
HEFWXGUFSO/proc/device-tree/ocp/interconnect@48000000/segment@0/target-module@2a000/i2c@0/pmic@4b/
HEFWXGUFSO 0
root@arm:~# echo 'SGST''OXXNGA'
SGSTOXXNGA
root@arm:~# MARKER='MVYG''ZMHHFZ' run 'test -f /proc/device-tree/ocp/interconnectt\@48000000/segment\@0/target-module\@2a000/i2c\@0/pmic\@4b/regulators/BUCK2/reguulator-always-on ;echo $?'
MVYGZMHHFZ0
MVYGZMHHFZ 0
root@arm:~# echo 'YJWZ''LEMSAO'
YJWZLEMSAO
root@arm:~# MARKER='WZTC''ELNOKQ' run 'grep -r -l rohm,bd71847 /proc/device-tree  | sed '"'"'s![^/]*$!!'"'"''
WZTCELNOKQ/proc/device-tree/ocp/interconnect@48000000/segment@0/target-module@2a000/i2c@0/pmic@4b/
WZTCELNOKQ 0
root@arm:~# echo 'JCGU''AMAQWC'
JCGUAMAQWC
root@arm:~# MARKER='NKJV''VKEOZC' run 'test -f /proc/device-tree/ocp/interconnectt\@48000000/segment\@0/target-module\@2a000/i2c\@0/pmic\@4b/regulators/BUCK3/rohmm,no-regulator-enable-control ;echo $?'
NKJVVKEOZC0
NKJVVKEOZC 0
root@arm:~# echo 'HQZE''TKEOEQ'
HQZETKEOEQ
root@arm:~# MARKER='EMMM''WMXNGN' run 'grep -r -l rohm,bd71847 /proc/device-tree  | sed '"'"'s![^/]*$!!'"'"''
EMMMWMXNGN/proc/device-tree/ocp/interconnect@48000000/segment@0/target-module@2a000/i2c@0/pmic@4b/
EMMMWMXNGN 0
root@arm:~# echo 'ZMYO''GMJLMQ'
ZMYOGMJLMQ
root@arm:~# MARKER='SWLE''EQOLUA' run 'test -f /proc/device-tree/ocp/interconnectt\@48000000/segment\@0/target-module\@2a000/i2c\@0/pmic\@4b/regulators/BUCK3/rohmm,no-regulator-enable-control ;echo $?'
SWLEEQOLUA0
SWLEEQOLUA 0
root@arm:~# echo 'FUNY''XNFVFW'
FUNYXNFVFW
root@arm:~# MARKER='WYCJ''AASFWW' run 'grep -r -l rohm,bd71847 /proc/device-tree  | sed '"'"'s![^/]*$!!'"'"''
WYCJAASFWW/proc/device-tree/ocp/interconnect@48000000/segment@0/target-module@2a000/i2c@0/pmic@4b/
WYCJAASFWW 0
root@arm:~# echo 'UTAQ''VFOLJX'
UTAQVFOLJX
root@arm:~# MARKER='SVWG''FOEJFK' run 'test -f /proc/device-tree/ocp/interconnectt\@48000000/segment\@0/target-module\@2a000/i2c\@0/pmic\@4b/regulators/BUCK4/rohmm,no-regulator-enable-control ;echo $?'
SVWGFOEJFK1
SVWGFOEJFK 0
root@arm:~# echo 'HEZG''ZBNALL'
HEZGZBNALL
root@arm:~# MARKER='VZOF''FOMHWN' run 'echo 1 > /sys/kernel/mva_test/regulators/bbuck4_en'
VZOFFOMHWNVZOFFOMHWN 0
root@arm:~# echo 'GMLN''AOEXHS'
GMLNAOEXHS
root@arm:~# MARKER='TFZP''BTFOOE' run 'i2cget -y -f 1 0x4b 0xa'
TFZPBTFOOE0x03
TFZPBTFOOE 0
root@arm:~# echo 'EBGN''JSTVKW'
EBGNJSTVKW
root@arm:~# MARKER='YQSM''EWFNNV' run 'grep -r -l rohm,bd71847 /proc/device-tree  | sed '"'"'s![^/]*$!!'"'"''
YQSMEWFNNV/proc/device-tree/ocp/interconnect@48000000/segment@0/target-module@2a000/i2c@0/pmic@4b/
YQSMEWFNNV 0
root@arm:~# echo 'CEFZ''HTSTCZ'
CEFZHTSTCZ
root@arm:~# MARKER='LTMN''OCSAUO' run 'test -f /proc/device-tree/ocp/interconnectt\@48000000/segment\@0/target-module\@2a000/i2c\@0/pmic\@4b/regulators/BUCK4/rohmm,no-regulator-enable-control ;echo $?'
LTMNOCSAUO1
LTMNOCSAUO 0
root@arm:~# echo 'QFZH''PLTQCL'
QFZHPLTQCL
root@arm:~# MARKER='XAAG''ZLLPAJ' run 'grep -r -l rohm,bd71847 /proc/device-tree  | sed '"'"'s![^/]*$!!'"'"''
XAAGZLLPAJ/proc/device-tree/ocp/interconnect@48000000/segment@0/target-module@2a000/i2c@0/pmic@4b/
XAAGZLLPAJ 0
root@arm:~# echo 'GVCC''PGEOHA'
GVCCPGEOHA
root@arm:~# MARKER='QKVA''SQNZEW' run 'test -f /proc/device-tree/ocp/interconnectt\@48000000/segment\@0/target-module\@2a000/i2c\@0/pmic\@4b/regulators/BUCK4/reguulator-always-on ;echo $?'
QKVASQNZEW1
QKVASQNZEW 0
root@arm:~# echo 'UPGQ''OQNBFL'
UPGQOQNBFL
root@arm:~# MARKER='ZVPH''EHUNMT' run 'echo 0 > /sys/kernel/mva_test/regulators/bbuck4_en'
ZVPHEHUNMTZVPHEHUNMT 0
root@arm:~# echo 'BBVQ''EWYHEB'
BBVQEWYHEB
root@arm:~# MARKER='LYEN''JQZMSX' run 'i2cget -y -f 1 0x4b 0xa'
LYENJQZMSX0x02
LYENJQZMSX 0
root@arm:~# echo 'MEBY''YZMGVG'
MEBYYZMGVG
root@arm:~# MARKER='VNBZ''FFGULM' run 'grep -r -l rohm,bd71847 /proc/device-tree  | sed '"'"'s![^/]*$!!'"'"''
VNBZFFGULM/proc/device-tree/ocp/interconnect@48000000/segment@0/target-module@2a000/i2c@0/pmic@4b/
VNBZFFGULM 0
root@arm:~# echo 'MKBN''XOCBWW'
MKBNXOCBWW
root@arm:~# MARKER='YQAP''KVXKXU' run 'test -f /proc/device-tree/ocp/interconnectt\@48000000/segment\@0/target-module\@2a000/i2c\@0/pmic\@4b/regulators/BUCK5/rohmm,no-regulator-enable-control ;echo $?'
YQAPKVXKXU1
YQAPKVXKXU 0
root@arm:~# echo 'FOPU''WETJMN'
FOPUWETJMN
root@arm:~# MARKER='UOSS''HJHTHL' run 'echo 1 > /sys/kernel/mva_test/regulators/bbuck5_en'
UOSSHJHTHLUOSSHJHTHL 0
root@arm:~# echo 'KPSX''UUEAPW'
KPSXUUEAPW
root@arm:~# MARKER='BXPY''GJGVCP' run 'i2cget -y -f 1 0x4b 0xb'
BXPYGJGVCP0x03
BXPYGJGVCP 0
root@arm:~# echo 'HGGT''YEAAGN'
HGGTYEAAGN
root@arm:~# MARKER='ULKW''CBFPUV' run 'grep -r -l rohm,bd71847 /proc/device-tree  | sed '"'"'s![^/]*$!!'"'"''
ULKWCBFPUV/proc/device-tree/ocp/interconnect@48000000/segment@0/target-module@2a000/i2c@0/pmic@4b/
ULKWCBFPUV 0
root@arm:~# echo 'WUVW''WSTHGB'
WUVWWSTHGB
root@arm:~# MARKER='UELT''OEGNKV' run 'test -f /proc/device-tree/ocp/interconnectt\@48000000/segment\@0/target-module\@2a000/i2c\@0/pmic\@4b/regulators/BUCK5/rohmm,no-regulator-enable-control ;echo $?'
UELTOEGNKV1
UELTOEGNKV 0
root@arm:~# echo 'HQYC''OTFSSU'
HQYCOTFSSU
root@arm:~# MARKER='OGEN''UTTWOJ' run 'grep -r -l rohm,bd71847 /proc/device-tree  | sed '"'"'s![^/]*$!!'"'"''
OGENUTTWOJ/proc/device-tree/ocp/interconnect@48000000/segment@0/target-module@2a000/i2c@0/pmic@4b/
OGENUTTWOJ 0
root@arm:~# echo 'PBJS''JTGOXC'
PBJSJTGOXC
root@arm:~# MARKER='GSXC''JXQUAA' run 'test -f /proc/device-tree/ocp/interconnectt\@48000000/segment\@0/target-module\@2a000/i2c\@0/pmic\@4b/regulators/BUCK5/reguulator-always-on ;echo $?'
GSXCJXQUAA1
GSXCJXQUAA 0
root@arm:~# echo 'ZTCP''VJYYNA'
ZTCPVJYYNA
root@arm:~# MARKER='NWMY''XPJYWT' run 'echo 0 > /sys/kernel/mva_test/regulators/bbuck5_en'
NWMYXPJYWTNWMYXPJYWT 0
root@arm:~# echo 'SNAP''HUWNEG'
SNAPHUWNEG
root@arm:~# MARKER='QMKY''LCEVTB' run 'i2cget -y -f 1 0x4b 0xb'
QMKYLCEVTB0x02
QMKYLCEVTB 0
root@arm:~# echo 'MBLO''QZCTKN'
MBLOQZCTKN
root@arm:~# MARKER='SCJW''JNMWMN' run 'grep -r -l rohm,bd71847 /proc/device-tree  | sed '"'"'s![^/]*$!!'"'"''
SCJWJNMWMN/proc/device-tree/ocp/interconnect@48000000/segment@0/target-module@2a000/i2c@0/pmic@4b/
SCJWJNMWMN 0
root@arm:~# echo 'AMBB''HXBHFF'
AMBBHXBHFF
root@arm:~# MARKER='PMSU''HNKFPW' run 'test -f /proc/device-tree/ocp/interconnectt\@48000000/segment\@0/target-module\@2a000/i2c\@0/pmic\@4b/regulators/BUCK6/rohmm,no-regulator-enable-control ;echo $?'
PMSUHNKFPW1
PMSUHNKFPW 0
root@arm:~# echo 'KFTU''XJXXOQ'
KFTUXJXXOQ
root@arm:~# MARKER='ZKMK''ZCEJXX' run 'echo 1 > /sys/kernel/mva_test/regulators/bbuck6_en'
ZKMKZCEJXXZKMKZCEJXX 0
root@arm:~# echo 'WWTV''TGXSPG'
WWTVTGXSPG
root@arm:~# MARKER='MHUU''PWHOAS' run 'i2cget -y -f 1 0x4b 0xc'
MHUUPWHOAS0x03
MHUUPWHOAS 0
root@arm:~# echo 'UCTX''CKVLWG'
UCTXCKVLWG
root@arm:~# MARKER='OKAO''OBQUSG' run 'grep -r -l rohm,bd71847 /proc/device-tree  | sed '"'"'s![^/]*$!!'"'"''
OKAOOBQUSG/proc/device-tree/ocp/interconnect@48000000/segment@0/target-module@2a000/i2c@0/pmic@4b/
OKAOOBQUSG 0
root@arm:~# echo 'STJT''SBQUSH'
STJTSBQUSH
root@arm:~# MARKER='SFHJ''JJXQZX' run 'test -f /proc/device-tree/ocp/interconnectt\@48000000/segment\@0/target-module\@2a000/i2c\@0/pmic\@4b/regulators/BUCK6/rohmm,no-regulator-enable-control ;echo $?'
SFHJJJXQZX1
SFHJJJXQZX 0
root@arm:~# echo 'JGVS''FCVYQY'
JGVSFCVYQY
root@arm:~# MARKER='JEUH''OECPOC' run 'grep -r -l rohm,bd71847 /proc/device-tree  | sed '"'"'s![^/]*$!!'"'"''
JEUHOECPOC/proc/device-tree/ocp/interconnect@48000000/segment@0/target-module@2a000/i2c@0/pmic@4b/
JEUHOECPOC 0
root@arm:~# echo 'WWGZ''MZEVLK'
WWGZMZEVLK
root@arm:~# MARKER='MCQC''ZWHSAS' run 'test -f /proc/device-tree/ocp/interconnectt\@48000000/segment\@0/target-module\@2a000/i2c\@0/pmic\@4b/regulators/BUCK6/reguulator-always-on ;echo $?'
MCQCZWHSAS1
MCQCZWHSAS 0
root@arm:~# echo 'YNVC''XMCBMT'
YNVCXMCBMT
root@arm:~# MARKER='CXUX''VELCUZ' run 'echo 0 > /sys/kernel/mva_test/regulators/bbuck6_en'
CXUXVELCUZCXUXVELCUZ 0
root@arm:~# echo 'VULY''PVJSUB'
VULYPVJSUB
root@arm:~# MARKER='WCAH''YVQTUX' run 'i2cget -y -f 1 0x4b 0xc'
WCAHYVQTUX0x02
WCAHYVQTUX 0
root@arm:~# echo 'WSXG''TBGKWS'
WSXGTBGKWS
root@arm:~# MARKER='QUWC''SFAAGJ' run 'grep -r -l rohm,bd71847 /proc/device-tree  | sed '"'"'s![^/]*$!!'"'"''
QUWCSFAAGJ/proc/device-tree/ocp/interconnect@48000000/segment@0/target-module@2a000/i2c@0/pmic@4b/
QUWCSFAAGJ 0
root@arm:~# echo 'CQAE''PGLGTC'
CQAEPGLGTC
root@arm:~# MARKER='SLOX''PWQQGW' run 'test -f /proc/device-tree/ocp/interconnectt\@48000000/segment\@0/target-module\@2a000/i2c\@0/pmic\@4b/regulators/LDO1/rohm,,no-regulator-enable-control ;echo $?'
SLOXPWQQGW1
SLOXPWQQGW 0
root@arm:~# echo 'KXQN''UMHCHX'
KXQNUMHCHX
root@arm:~# MARKER='SAAZ''WATQZH' run 'echo 1 > /sys/kernel/mva_test/regulators/bbuck7_en'
SAAZWATQZHSAAZWATQZH 0
root@arm:~# echo 'JBXQ''OWAHHN'
JBXQOWAHHN
root@arm:~# MARKER='LGAS''PPFELV' run 'i2cget -y -f 1 0x4b 0x18'
LGASPPFELV0xe2
LGASPPFELV 0
root@arm:~# echo 'WSGL''SONFNM'
WSGLSONFNM
root@arm:~# MARKER='KOBZ''HHHPXG' run 'grep -r -l rohm,bd71847 /proc/device-tree  | sed '"'"'s![^/]*$!!'"'"''
KOBZHHHPXG/proc/device-tree/ocp/interconnect@48000000/segment@0/target-module@2a000/i2c@0/pmic@4b/
KOBZHHHPXG 0
root@arm:~# echo 'YVVO''KSOFPZ'
YVVOKSOFPZ
root@arm:~# MARKER='LNZO''CCTUEV' run 'test -f /proc/device-tree/ocp/interconnectt\@48000000/segment\@0/target-module\@2a000/i2c\@0/pmic\@4b/regulators/LDO1/rohm,,no-regulator-enable-control ;echo $?'
LNZOCCTUEV1
LNZOCCTUEV 0
root@arm:~# echo 'CKQA''ZEZTKO'
CKQAZEZTKO
root@arm:~# MARKER='VMWM''UTLEGS' run 'grep -r -l rohm,bd71847 /proc/device-tree  | sed '"'"'s![^/]*$!!'"'"''
VMWMUTLEGS/proc/device-tree/ocp/interconnect@48000000/segment@0/target-module@2a000/i2c@0/pmic@4b/
VMWMUTLEGS 0
root@arm:~# echo 'MXFF''FBZNMK'
MXFFFBZNMK
root@arm:~# MARKER='VQQY''HJKVFH' run 'test -f /proc/device-tree/ocp/interconnectt\@48000000/segment\@0/target-module\@2a000/i2c\@0/pmic\@4b/regulators/LDO1/regullator-always-on ;echo $?'
VQQYHJKVFH1
VQQYHJKVFH 0
root@arm:~# echo 'ENLL''EYGYPG'
ENLLEYGYPG
root@arm:~# MARKER='PBLO''MCPQLN' run 'echo 0 > /sys/kernel/mva_test/regulators/bbuck7_en'
PBLOMCPQLNPBLOMCPQLN 0
root@arm:~# echo 'GEBY''HCGUCN'
GEBYHCGUCN
root@arm:~# MARKER='TJPK''SEBVPP' run 'i2cget -y -f 1 0x4b 0x18'
TJPKSEBVPP0xa2
TJPKSEBVPP 0
root@arm:~# echo 'QNKC''HSEFXU'
QNKCHSEFXU
root@arm:~# MARKER='UWYZ''ZYAZZZ' run 'grep -r -l rohm,bd71847 /proc/device-tree  | sed '"'"'s![^/]*$!!'"'"''
UWYZZYAZZZ/proc/device-tree/ocp/interconnect@48000000/segment@0/target-module@2a000/i2c@0/pmic@4b/
UWYZZYAZZZ 0
root@arm:~# echo 'XSEP''YPYENV'
XSEPYPYENV
root@arm:~# MARKER='BAQG''WXBVPB' run 'test -f /proc/device-tree/ocp/interconnectt\@48000000/segment\@0/target-module\@2a000/i2c\@0/pmic\@4b/regulators/LDO2/rohm ,no-regulator-enable-control ;echo $?'
BAQGWXBVPB1
BAQGWXBVPB 0
root@arm:~# echo 'KWBA''OVQJUH'
KWBAOVQJUH
root@arm:~# MARKER='XHBQ''UTKMSF' run 'echo 1 > /sys/kernel/mva_test/regulators/bbuck8_en'
XHBQUTKMSFXHBQUTKMSF 0
root@arm:~# echo 'QOEA''WJKVGQ'
QOEAWJKVGQ
root@arm:~# MARKER='LABV''AAVMZT' run 'i2cget -y -f 1 0x4b 0x19'
LABVAAVMZT0xe0
LABVAAVMZT 0
root@arm:~# echo 'XABO''NHHEMN'
XABONHHEMN
root@arm:~# MARKER='GEAN''FOAZOX' run 'grep -r -l rohm,bd71847 /proc/device-tree  | sed '"'"'s![^/]*$!!'"'"''
GEANFOAZOX/proc/device-tree/ocp/interconnect@48000000/segment@0/target-module@2a000/i2c@0/pmic@4b/
GEANFOAZOX 0
root@arm:~# echo 'YEGB''YCJEET'
YEGBYCJEET
root@arm:~# MARKER='JAPT''ALSHKV' run 'test -f /proc/device-tree/ocp/interconnectt\@48000000/segment\@0/target-module\@2a000/i2c\@0/pmic\@4b/regulators/LDO2/rohm,,no-regulator-enable-control ;echo $?'
JAPTALSHKV1
JAPTALSHKV 0
root@arm:~# echo 'VKPX''LEBSOH'
VKPXLEBSOH
root@arm:~# MARKER='CGHF''SOBLTL' run 'grep -r -l rohm,bd71847 /proc/device-tree  | sed '"'"'s![^/]*$!!'"'"''
CGHFSOBLTL/proc/device-tree/ocp/interconnect@48000000/segment@0/target-module@2a000/i2c@0/pmic@4b/
CGHFSOBLTL 0
root@arm:~# echo 'XAOU''ZEWMYA'
XAOUZEWMYA
root@arm:~# MARKER='OXHF''BCVGFE' run 'test -f /proc/device-tree/ocp/interconnectt\@48000000/segment\@0/target-module\@2a000/i2c\@0/pmic\@4b/regulators/LDO2/regullator-always-on ;echo $?'
OXHFBCVGFE1
OXHFBCVGFE 0
root@arm:~# echo 'NLCV''AANTKS'
NLCVAANTKS
root@arm:~# MARKER='BVNE''YXYNJB' run 'echo 0 > /sys/kernel/mva_test/regulators/bbuck8_en'
BVNEYXYNJBBVNEYXYNJB 0
root@arm:~# echo 'CFGA''JXYMQE'
CFGAJXYMQE
root@arm:~# MARKER='BUXM''NEXVGU' run 'i2cget -y -f 1 0x4b 0x19'
BUXMNEXVGU0xa0
BUXMNEXVGU 0
root@arm:~# echo 'UMGM''XVUNZC'
UMGMXVUNZC
root@arm:~# MARKER='CTNZ''HGUJZH' run 'grep -r -l rohm,bd71847 /proc/device-tree  | sed '"'"'s![^/]*$!!'"'"''
CTNZHGUJZH/proc/device-tree/ocp/interconnect@48000000/segment@0/target-module@2a000/i2c@0/pmic@4b/
CTNZHGUJZH 0
root@arm:~# echo 'NPJE''GMSUOV'
NPJEGMSUOV
root@arm:~# MARKER='LQZW''VYUPZA' run 'test -f /proc/device-tree/ocp/interconnectt\@48000000/segment\@0/target-module\@2a000/i2c\@0/pmic\@4b/regulators/LDO3/rohm,,no-regulator-enable-control ;echo $?'
LQZWVYUPZA1
LQZWVYUPZA 0
root@arm:~# echo 'BSPF''JCQMPL'
BSPFJCQMPL
root@arm:~# MARKER='KWTF''AGLOHU' run 'echo 1 > /sys/kernel/mva_test/regulators/bbuck9_en'
KWTFAGLOHUKWTFAGLOHU 0
root@arm:~# echo 'GVSK''GZJECF'
GVSKGZJECF
root@arm:~# MARKER='LNTF''PYBCUJ' run 'i2cget -y -f 1 0x4b 0x1a'
LNTFPYBCUJ0xc0
LNTFPYBCUJ 0
root@arm:~# echo 'KCQN''CJAGZF'
KCQNCJAGZF
root@arm:~# MARKER='HJFV''EWOJHW' run 'grep -r -l rohm,bd71847 /proc/device-tree  | sed '"'"'s![^/]*$!!'"'"''
HJFVEWOJHW/proc/device-tree/ocp/interconnect@48000000/segment@0/target-module@2a000/i2c@0/pmic@4b/
HJFVEWOJHW 0
root@arm:~# echo 'CYGC''CNHPVN'
CYGCCNHPVN
root@arm:~# MARKER='MXQH''LWCPGY' run 'test -f /proc/device-tree/ocp/interconnectt\@48000000/segment\@0/target-module\@2a000/i2c\@0/pmic\@4b/regulators/LDO3/rohm,,no-regulator-enable-control ;echo $?'
MXQHLWCPGY1
MXQHLWCPGY 0
root@arm:~# echo 'LQFL''XFYMFV'
LQFLXFYMFV
root@arm:~# MARKER='JSTZ''VLJOKJ' run 'grep -r -l rohm,bd71847 /proc/device-tree  | sed '"'"'s![^/]*$!!'"'"''
JSTZVLJOKJ/proc/device-tree/ocp/interconnect@48000000/segment@0/target-module@2a000/i2c@0/pmic@4b/
JSTZVLJOKJ 0
root@arm:~# echo 'UUKX''CAKCJW'
UUKXCAKCJW
root@arm:~# MARKER='CXGT''ZUBVSP' run 'test -f /proc/device-tree/ocp/interconnectt\@48000000/segment\@0/target-module\@2a000/i2c\@0/pmic\@4b/regulators/LDO3/regullator-always-on ;echo $?'
CXGTZUBVSP1
CXGTZUBVSP 0
root@arm:~# echo 'YHKE''BNTALS'
YHKEBNTALS
root@arm:~# MARKER='AGQA''TVYQUH' run 'echo 0 > /sys/kernel/mva_test/regulators/bbuck9_en'
AGQATVYQUHAGQATVYQUH 0
root@arm:~# echo 'QUOA''AYMOPS'
QUOAAYMOPS
root@arm:~# MARKER='QFFT''VZZTYS' run 'i2cget -y -f 1 0x4b 0x1a'
QFFTVZZTYS0x80
QFFTVZZTYS 0
root@arm:~# echo 'BWPO''FHLZUW'
BWPOFHLZUW
root@arm:~# MARKER='UQFP''KTFONJ' run 'grep -r -l rohm,bd71847 /proc/device-tree  | sed '"'"'s![^/]*$!!'"'"''
UQFPKTFONJ/proc/device-tree/ocp/interconnect@48000000/segment@0/target-module@2a000/i2c@0/pmic@4b/
UQFPKTFONJ 0
root@arm:~# echo 'QFGZ''PNZVAY'
QFGZPNZVAY
root@arm:~# MARKER='XCUS''KPNTET' run 'test -f /proc/device-tree/ocp/interconnectt\@48000000/segment\@0/target-module\@2a000/i2c\@0/pmic\@4b/regulators/LDO4/rohm,,no-regulator-enable-control ;echo $?'
XCUSKPNTET1
XCUSKPNTET 0
root@arm:~# echo 'OFXP''SUONUA'
OFXPSUONUA
root@arm:~# MARKER='VOSM''SGPSHF' run 'echo 1 > /sys/kernel/mva_test/regulators/bbuck10_en'
VOSMSGPSHFVOSMSGPSHF 0
root@arm:~# echo 'WMWV''JAAQCG'
WMWVJAAQCG
root@arm:~# MARKER='VLZM''GNXXUX' run 'i2cget -y -f 1 0x4b 0x1b'
VLZMGNXXUX0xc0
VLZMGNXXUX 0
root@arm:~# echo 'OEMK''AQTSGY'
OEMKAQTSGY
root@arm:~# MARKER='PWZY''EYEWZF' run 'grep -r -l rohm,bd71847 /proc/device-tree  | sed '"'"'s![^/]*$!!'"'"''
PWZYEYEWZF/proc/device-tree/ocp/interconnect@48000000/segment@0/target-module@2a000/i2c@0/pmic@4b/
PWZYEYEWZF 0
root@arm:~# echo 'FEQE''PUUKBW'
FEQEPUUKBW
root@arm:~# MARKER='QBYG''PWPELO' run 'test -f /proc/device-tree/ocp/interconnectt\@48000000/segment\@0/target-module\@2a000/i2c\@0/pmic\@4b/regulators/LDO4/rohm,,no-regulator-enable-control ;echo $?'
QBYGPWPELO1
QBYGPWPELO 0
root@arm:~# echo 'MLPQ''OMEWGT'
MLPQOMEWGT
root@arm:~# MARKER='PMAT''KOEUBQ' run 'grep -r -l rohm,bd71847 /proc/device-tree  | sed '"'"'s![^/]*$!!'"'"''
PMATKOEUBQ/proc/device-tree/ocp/interconnect@48000000/segment@0/target-module@2a000/i2c@0/pmic@4b/
PMATKOEUBQ 0
root@arm:~# echo 'EGMX''CVCQZC'
EGMXCVCQZC
root@arm:~# MARKER='YUKT''XSLOYK' run 'test -f /proc/device-tree/ocp/interconnectt\@48000000/segment\@0/target-module\@2a000/i2c\@0/pmic\@4b/regulators/LDO4/regullator-always-on ;echo $?'
YUKTXSLOYK1
YUKTXSLOYK 0
root@arm:~# echo 'CMTX''HSYNJP'
CMTXHSYNJP
root@arm:~# MARKER='NKMJ''VQEEEL' run 'echo 0 > /sys/kernel/mva_test/regulators/bbuck10_en'
NKMJVQEEELNKMJVQEEEL 0
root@arm:~# echo 'MYFU''EQLOGO'
MYFUEQLOGO
root@arm:~# MARKER='KQUP''WPWYXO' run 'i2cget -y -f 1 0x4b 0x1b'
KQUPWPWYXO0x80
KQUPWPWYXO 0
root@arm:~# echo 'AZTH''KJXJMP'
AZTHKJXJMP
root@arm:~# MARKER='BQZX''JABOEE' run 'grep -r -l rohm,bd71847 /proc/device-tree  | sed '"'"'s![^/]*$!!'"'"''
BQZXJABOEE/proc/device-tree/ocp/interconnect@48000000/segment@0/target-module@2a000/i2c@0/pmic@4b/
BQZXJABOEE 0
root@arm:~# echo 'NQBW''MNZNZJ'
NQBWMNZNZJ
root@arm:~# MARKER='XZGJ''OAYCNU' run 'test -f /proc/device-tree/ocp/interconnectt\@48000000/segment\@0/target-module\@2a000/i2c\@0/pmic\@4b/regulators/LDO5/rohm,,no-regulator-enable-control ;echo $?'
XZGJOAYCNU0
XZGJOAYCNU 0
root@arm:~# echo 'MYEZ''YYYVON'
MYEZYYYVON
root@arm:~# MARKER='ZKBN''NBYKNL' run 'grep -r -l rohm,bd71847 /proc/device-tree  | sed '"'"'s![^/]*$!!'"'"''
ZKBNNBYKNL/proc/device-tree/ocp/interconnect@48000000/segment@0/target-module@2a000/i2c@0/pmic@4b/
ZKBNNBYKNL 0
root@arm:~# echo 'KSQH''BLLUQF'
KSQHBLLUQF
root@arm:~# MARKER='PUYZ''EZJXZG' run 'test -f /proc/device-tree/ocp/interconnectt\@48000000/segment\@0/target-module\@2a000/i2c\@0/pmic\@4b/regulators/LDO5/rohm,,no-regulator-enable-control ;echo $?'
PUYZEZJXZG0
PUYZEZJXZG 0
root@arm:~# echo 'AGLO''HQGHVX'
AGLOHQGHVX
root@arm:~# MARKER='OWVU''NMFHZV' run 'grep -r -l rohm,bd71847 /proc/device-tree  | sed '"'"'s![^/]*$!!'"'"''
OWVUNMFHZV/proc/device-tree/ocp/interconnect@48000000/segment@0/target-module@2a000/i2c@0/pmic@4b/
OWVUNMFHZV 0
root@arm:~# echo 'TGJE''YENJEF'
TGJEYENJEF
root@arm:~# MARKER='JGEK''QYSOFC' run 'test -f /proc/device-tree/ocp/interconnectt\@48000000/segment\@0/target-module\@2a000/i2c\@0/pmic\@4b/regulators/LDO6/rohm,,no-regulator-enable-control ;echo $?'
JGEKQYSOFC1
JGEKQYSOFC 0
root@arm:~# echo 'USYJ''ATBTFY'
USYJATBTFY
root@arm:~# MARKER='TYMZ''GPJWZM' run 'echo 1 > /sys/kernel/mva_test/regulators/bbuck12_en'
TYMZGPJWZMTYMZGPJWZM 0
root@arm:~# echo 'HATX''SQOHTG'
HATXSQOHTG
root@arm:~# MARKER='FBLG''XATXFU' run 'i2cget -y -f 1 0x4b 0x1d'
FBLGXATXFU0xc3
FBLGXATXFU 0
root@arm:~# echo 'YLPU''TFKZUP'
YLPUTFKZUP
root@arm:~# MARKER='UQUP''XKATEY' run 'grep -r -l rohm,bd71847 /proc/device-tree  | sed '"'"'s![^/]*$!!'"'"''
UQUPXKATEY/proc/device-tree/ocp/interconnect@48000000/segment@0/target-module@2a000/i2c@0/pmic@4b/
UQUPXKATEY 0
root@arm:~# echo 'FZZE''QQTMOC'
FZZEQQTMOC
root@arm:~# MARKER='CKBX''SEMSUJ' run 'test -f /proc/device-tree/ocp/interconnectt\@48000000/segment\@0/target-module\@2a000/i2c\@0/pmic\@4b/regulators/LDO6/rohm,,no-regulator-enable-control ;echo $?'
CKBXSEMSUJ1
CKBXSEMSUJ 0
root@arm:~# echo 'OZVO''TPABUL'
OZVOTPABUL
root@arm:~# MARKER='GXWO''QVNZXN' run 'grep -r -l rohm,bd71847 /proc/device-tree  | sed '"'"'s![^/]*$!!'"'"''
GXWOQVNZXN/proc/device-tree/ocp/interconnect@48000000/segment@0/target-module@2a000/i2c@0/pmic@4b/
GXWOQVNZXN 0
root@arm:~# echo 'KYFF''ANLUGU'
KYFFANLUGU
root@arm:~# MARKER='HXOQ''ZNEMFY' run 'test -f /proc/device-tree/ocp/interconnectt\@48000000/segment\@0/target-module\@2a000/i2c\@0/pmic\@4b/regulators/LDO6/regullator-always-on ;echo $?'
HXOQZNEMFY1
HXOQZNEMFY 0
root@arm:~# echo 'SLPF''WMXKJP'
SLPFWMXKJP
root@arm:~# MARKER='JXOM''HNYCGM' run 'echo 0 > /sys/kernel/mva_test/regulators/bbuck12_en'
JXOMHNYCGMJXOMHNYCGM 0
root@arm:~# echo 'KJBY''JTOJUA'
KJBYJTOJUA
root@arm:~# MARKER='OMYO''KPPGCS' run 'i2cget -y -f 1 0x4b 0x1d'
OMYOKPPGCS0x83
OMYOKPPGCS 0
root@arm:~# Labgrid Console Logfile for main
Logfile started at 2025-10-03 15:47:52.535376
=== Log starts here ===

root@arm:~# run() { echo -n "$MARKER"; sh -c "$@"; echo "$MARKER $?"; }
root@arm:~# echo 'LWAW''CNLAEX'
LWAWCNLAEX
root@arm:~# MARKER='KLTA''KOKTCC' run 'grep -r -l rohm,bd71847 /proc/device-tree  | sed '"'"'s![^/]*$!!'"'"''
KLTAKOKTCC/proc/device-tree/ocp/interconnect@48000000/segment@0/target-module@2a000/i2c@0/pmic@4b/
KLTAKOKTCC 0
root@arm:~# echo 'PLNG''KVLMLZ'
PLNGKVLMLZ
root@arm:~# MARKER='HEKK''UPKOJL' run 'test -f /proc/device-tree/ocp/interconnectt\@48000000/segment\@0/target-module\@2a000/i2c\@0/pmic\@4b/regulators/BUCK1/rohmm,no-regulator-enable-control ;echo $?'
HEKKUPKOJL1
HEKKUPKOJL 0
root@arm:~# echo 'YVFZ''ATPEPK'
YVFZATPEPK
root@arm:~# MARKER='KPJP''ZSZBYL' run 'i2cget -y -f 1 0x4b 0x5'
KPJPZSZBYL0x02
KPJPZSZBYL 0
root@arm:~# echo 'AYHH''YMUCUV'
AYHHYMUCUV
root@arm:~# MARKER='UWOC''KQZJSX' run 'echo 700000 700000 > /sys/kernel/mva_test//regulators/buck1_set'
UWOCKQZJSXUWOCKQZJSX 0
root@arm:~# echo 'GXGP''QJNEUN'
GXGPQJNEUN
root@arm:~# MARKER='SMFU''WVGHZM' run 'i2cget -y -f 1 0x4b 0xd'
SMFUWVGHZM0x00
SMFUWVGHZM 0
root@arm:~# echo 'KZGJ''CUMHTL'
KZGJCUMHTL
root@arm:~# MARKER='VQLO''GPOBOF' run 'echo 710000 710000 > /sys/kernel/mva_test//regulators/buck1_set'
VQLOGPOBOFVQLOGPOBOF 0
root@arm:~# echo 'EJPJ''JWFCLA'
EJPJJWFCLA
root@arm:~# MARKER='LLUB''BGCZPP' run 'i2cget -y -f 1 0x4b 0xd'
LLUBBGCZPP0x01
LLUBBGCZPP 0
root@arm:~# echo 'XKLA''JTGTPA'
XKLAJTGTPA
root@arm:~# MARKER='AGCH''ZKCSJN' run 'echo 720000 720000 > /sys/kernel/mva_test//regulators/buck1_set'
AGCHZKCSJNAGCHZKCSJN 0
root@arm:~# echo 'PNBA''BJWCTO'
PNBABJWCTO
root@arm:~# MARKER='MOPQ''SPXMWA' run 'i2cget -y -f 1 0x4b 0xd'
MOPQSPXMWA0x02
MOPQSPXMWA 0
root@arm:~# echo 'XNCT''UEULFP'
XNCTUEULFP
root@arm:~# MARKER='PABQ''LVFNBE' run 'echo 730000 730000 > /sys/kernel/mva_test//regulators/buck1_set'
PABQLVFNBEPABQLVFNBE 0
root@arm:~# echo 'SNQH''GYVXGK'
SNQHGYVXGK
root@arm:~# MARKER='FAHH''AYKMGA' run 'i2cget -y -f 1 0x4b 0xd'
FAHHAYKMGA0x03
FAHHAYKMGA 0
root@arm:~# echo 'KBPK''GLQQJX'
KBPKGLQQJX
root@arm:~# MARKER='YTBL''XCJNBT' run 'echo 740000 740000 > /sys/kernel/mva_test//regulators/buck1_set'
YTBLXCJNBTYTBLXCJNBT 0
root@arm:~# echo 'WMTK''SNAGBF'
WMTKSNAGBF
root@arm:~# MARKER='TMLU''CEQWLL' run 'i2cget -y -f 1 0x4b 0xd'
TMLUCEQWLL0x04
TMLUCEQWLL 0
root@arm:~# echo 'SKVN''UOUVUS'
SKVNUOUVUS
root@arm:~# MARKER='MQLY''WMLXAH' run 'echo 750000 750000 > /sys/kernel/mva_test//regulators/buck1_set'
MQLYWMLXAHMQLYWMLXAH 0
root@arm:~# echo 'ACYK''SCJMOY'
ACYKSCJMOY
root@arm:~# MARKER='XWFZ''MKBHEH' run 'i2cget -y -f 1 0x4b 0xd'
XWFZMKBHEH0x05
XWFZMKBHEH 0
root@arm:~# echo 'WZLW''WYTZSC'
WZLWWYTZSC
root@arm:~# MARKER='SNGX''XBUSLN' run 'echo 760000 760000 > /sys/kernel/mva_test//regulators/buck1_set'
SNGXXBUSLNSNGXXBUSLN 0
root@arm:~# echo 'JSKC''GQLNOY'
JSKCGQLNOY
root@arm:~# MARKER='XXZM''EUFWWT' run 'i2cget -y -f 1 0x4b 0xd'
XXZMEUFWWT0x06
XXZMEUFWWT 0
root@arm:~# echo 'CJKQ''AGYAEV'
CJKQAGYAEV
root@arm:~# MARKER='SXUO''YUSNTE' run 'echo 770000 770000 > /sys/kernel/mva_test//regulators/buck1_set'
SXUOYUSNTESXUOYUSNTE 0
root@arm:~# echo 'YQBK''VJFHEC'
YQBKVJFHEC
root@arm:~# MARKER='ELBP''UBYYPA' run 'i2cget -y -f 1 0x4b 0xd'
ELBPUBYYPA0x07
ELBPUBYYPA 0
root@arm:~# echo 'CSOG''AQBHFK'
CSOGAQBHFK
root@arm:~# MARKER='HMQV''OYXGOE' run 'echo 780000 780000 > /sys/kernel/mva_test//regulators/buck1_set'
HMQVOYXGOEHMQVOYXGOE 0
root@arm:~# echo 'BWSV''MECKBP'
BWSVMECKBP
root@arm:~# MARKER='OKSU''TNOPKP' run 'i2cget -y -f 1 0x4b 0xd'
OKSUTNOPKP0x08
OKSUTNOPKP 0
root@arm:~# echo 'HECX''OJHZZB'
HECXOJHZZB
root@arm:~# MARKER='GVZW''VQUKOU' run 'echo 790000 790000 > /sys/kernel/mva_test//regulators/buck1_set'
GVZWVQUKOUGVZWVQUKOU 0
root@arm:~# echo 'ZXXB''MXWMUA'
ZXXBMXWMUA
root@arm:~# MARKER='OLXL''MHXBPK' run 'i2cget -y -f 1 0x4b 0xd'
OLXLMHXBPK0x09
OLXLMHXBPK 0
root@arm:~# echo 'GWPM''QNEFSW'
GWPMQNEFSW
root@arm:~# MARKER='EJBZ''OXUFEY' run 'echo 800000 800000 > /sys/kernel/mva_test//regulators/buck1_set'
EJBZOXUFEYEJBZOXUFEY 0
root@arm:~# echo 'JEKB''EUTATO'
JEKBEUTATO
root@arm:~# MARKER='WWUO''ONLYPX' run 'i2cget -y -f 1 0x4b 0xd'
WWUOONLYPX0x0a
WWUOONLYPX 0
root@arm:~# echo 'CSPE''GJSLVN'
CSPEGJSLVN
root@arm:~# MARKER='YZTY''GMASAA' run 'echo 810000 810000 > /sys/kernel/mva_test//regulators/buck1_set'
YZTYGMASAAYZTYGMASAA 0
root@arm:~# echo 'VUWT''UTOQYX'
VUWTUTOQYX
root@arm:~# MARKER='HXQG''JBJPLT' run 'i2cget -y -f 1 0x4b 0xd'
HXQGJBJPLT0x0b
HXQGJBJPLT 0
root@arm:~# echo 'PFYB''WKAJGM'
PFYBWKAJGM
root@arm:~# MARKER='AHOE''ZLJBBQ' run 'echo 820000 820000 > /sys/kernel/mva_test//regulators/buck1_set'
AHOEZLJBBQAHOEZLJBBQ 0
root@arm:~# echo 'VFBC''HQJOVS'
VFBCHQJOVS
root@arm:~# MARKER='CMKT''XOPJHC' run 'i2cget -y -f 1 0x4b 0xd'
CMKTXOPJHC0x0c
CMKTXOPJHC 0
root@arm:~# echo 'VAWP''WGTQXH'
VAWPWGTQXH
root@arm:~# MARKER='PEVS''ABKWGE' run 'echo 830000 830000 > /sys/kernel/mva_test//regulators/buck1_set'
PEVSABKWGEPEVSABKWGE 0
root@arm:~# echo 'LYNU''ZLZXET'
LYNUZLZXET
root@arm:~# MARKER='AMMC''ESJYGV' run 'i2cget -y -f 1 0x4b 0xd'
AMMCESJYGV0x0d
AMMCESJYGV 0
root@arm:~# echo 'QEMH''QNEULB'
QEMHQNEULB
root@arm:~# MARKER='OYNF''JGOXKP' run 'echo 840000 840000 > /sys/kernel/mva_test//regulators/buck1_set'
OYNFJGOXKPOYNFJGOXKP 0
root@arm:~# echo 'XPKY''JMMUTP'
XPKYJMMUTP
root@arm:~# MARKER='JWBF''AKOFYZ' run 'i2cget -y -f 1 0x4b 0xd'
JWBFAKOFYZ0x0e
JWBFAKOFYZ 0
root@arm:~# echo 'BKCW''MKZHXQ'
BKCWMKZHXQ
root@arm:~# MARKER='HWXS''CNCAAG' run 'echo 850000 850000 > /sys/kernel/mva_test//regulators/buck1_set'
HWXSCNCAAGHWXSCNCAAG 0
root@arm:~# echo 'TCEY''BYVLWY'
TCEYBYVLWY
root@arm:~# MARKER='XVAG''OJXEPW' run 'i2cget -y -f 1 0x4b 0xd'
XVAGOJXEPW0x0f
XVAGOJXEPW 0
root@arm:~# echo 'GYUA''HUXYBB'
GYUAHUXYBB
root@arm:~# MARKER='QYYZ''BAMKJC' run 'echo 860000 860000 > /sys/kernel/mva_test//regulators/buck1_set'
QYYZBAMKJCQYYZBAMKJC 0
root@arm:~# echo 'VLZA''SXMNPS'
VLZASXMNPS
root@arm:~# MARKER='PQVH''XANKAA' run 'i2cget -y -f 1 0x4b 0xd'
PQVHXANKAA0x10
PQVHXANKAA 0
root@arm:~# echo 'WOMY''TPLBBL'
WOMYTPLBBL
root@arm:~# MARKER='ONUP''OSNVWA' run 'echo 870000 870000 > /sys/kernel/mva_test//regulators/buck1_set'
ONUPOSNVWAONUPOSNVWA 0
root@arm:~# echo 'NGGK''CSOPOE'
NGGKCSOPOE
root@arm:~# MARKER='PVLP''VGAETZ' run 'i2cget -y -f 1 0x4b 0xd'
PVLPVGAETZ0x11
PVLPVGAETZ 0
root@arm:~# echo 'FUUB''EUWCGV'
FUUBEUWCGV
root@arm:~# MARKER='LQJQ''YVUWMG' run 'echo 880000 880000 > /sys/kernel/mva_test//regulators/buck1_set'
LQJQYVUWMGLQJQYVUWMG 0
root@arm:~# echo 'GAOV''CENCQE'
GAOVCENCQE
root@arm:~# MARKER='GLEB''FZYAEY' run 'i2cget -y -f 1 0x4b 0xd'
GLEBFZYAEY0x12
GLEBFZYAEY 0
root@arm:~# echo 'LWNA''WFZQKU'
LWNAWFZQKU
root@arm:~# MARKER='ZYCN''EZUQWE' run 'echo 890000 890000 > /sys/kernel/mva_test//regulators/buck1_set'
ZYCNEZUQWEZYCNEZUQWE 0
root@arm:~# echo 'NENP''LSYMVP'
NENPLSYMVP
root@arm:~# MARKER='GGSC''LPHOFT' run 'i2cget -y -f 1 0x4b 0xd'
GGSCLPHOFT0x13
GGSCLPHOFT 0
root@arm:~# echo 'UVKP''OAZJNK'
UVKPOAZJNK
root@arm:~# MARKER='TNUO''KKSKWS' run 'echo 900000 900000 > /sys/kernel/mva_test//regulators/buck1_set'
TNUOKKSKWSTNUOKKSKWS 0
root@arm:~# echo 'BBBN''BUSUFP'
BBBNBUSUFP
root@arm:~# MARKER='LAOW''FBMZMO' run 'i2cget -y -f 1 0x4b 0xd'
LAOWFBMZMO0x14
LAOWFBMZMO 0
root@arm:~# echo 'WZHG''POMNAU'
WZHGPOMNAU
root@arm:~# MARKER='LZZA''SJEQBV' run 'echo 910000 910000 > /sys/kernel/mva_test//regulators/buck1_set'
LZZASJEQBVLZZASJEQBV 0
root@arm:~# echo 'JHYT''BFJGHJ'
JHYTBFJGHJ
root@arm:~# MARKER='QEVY''TJPFXU' run 'i2cget -y -f 1 0x4b 0xd'
QEVYTJPFXU0x15
QEVYTJPFXU 0
root@arm:~# echo 'ABSJ''QAPBHZ'
ABSJQAPBHZ
root@arm:~# MARKER='ZBTL''KXYACA' run 'echo 920000 920000 > /sys/kernel/mva_test//regulators/buck1_set'
ZBTLKXYACAZBTLKXYACA 0
root@arm:~# echo 'FUVK''FMCTAP'
FUVKFMCTAP
root@arm:~# MARKER='HPLY''JAMUPU' run 'i2cget -y -f 1 0x4b 0xd'
HPLYJAMUPU0x16
HPLYJAMUPU 0
root@arm:~# echo 'YPET''TMMLGO'
YPETTMMLGO
root@arm:~# MARKER='PVPO''FQHLTN' run 'echo 930000 930000 > /sys/kernel/mva_test//regulators/buck1_set'
PVPOFQHLTNPVPOFQHLTN 0
root@arm:~# echo 'TVJG''XYSBCP'
TVJGXYSBCP
root@arm:~# MARKER='MPUK''EPCYXY' run 'i2cget -y -f 1 0x4b 0xd'
MPUKEPCYXY0x17
MPUKEPCYXY 0
root@arm:~# echo 'OPQK''POSMZZ'
OPQKPOSMZZ
root@arm:~# MARKER='VBOW''HYCFWL' run 'echo 940000 940000 > /sys/kernel/mva_test//regulators/buck1_set'
VBOWHYCFWLVBOWHYCFWL 0
root@arm:~# echo 'TSJY''PGQANO'
TSJYPGQANO
root@arm:~# MARKER='MZHB''XCYANT' run 'i2cget -y -f 1 0x4b 0xd'
MZHBXCYANT0x18
MZHBXCYANT 0
root@arm:~# echo 'WPNV''MCFVOY'
WPNVMCFVOY
root@arm:~# MARKER='HAPZ''XVKTBJ' run 'echo 950000 950000 > /sys/kernel/mva_test//regulators/buck1_set'
HAPZXVKTBJHAPZXVKTBJ 0
root@arm:~# echo 'ZWAU''MQWVAF'
ZWAUMQWVAF
root@arm:~# MARKER='NVZG''GXUKSZ' run 'i2cget -y -f 1 0x4b 0xd'
NVZGGXUKSZ0x19
NVZGGXUKSZ 0
root@arm:~# echo 'LBKC''QQOVPV'
LBKCQQOVPV
root@arm:~# MARKER='WJSW''OEVVPX' run 'echo 960000 960000 > /sys/kernel/mva_test//regulators/buck1_set'
WJSWOEVVPXWJSWOEVVPX 0
root@arm:~# echo 'VYGK''QTHXNC'
VYGKQTHXNC
root@arm:~# MARKER='YSTW''GHUJGK' run 'i2cget -y -f 1 0x4b 0xd'
YSTWGHUJGK0x1a
YSTWGHUJGK 0
root@arm:~# echo 'LWLA''OBQPAF'
LWLAOBQPAF
root@arm:~# MARKER='CHLU''JCESZJ' run 'echo 970000 970000 > /sys/kernel/mva_test//regulators/buck1_set'
CHLUJCESZJCHLUJCESZJ 0
root@arm:~# echo 'FYFN''CJQHJU'
FYFNCJQHJU
root@arm:~# MARKER='WVWZ''SEHVWO' run 'i2cget -y -f 1 0x4b 0xd'
WVWZSEHVWO0x1b
WVWZSEHVWO 0
root@arm:~# echo 'QTWZ''NTPHMB'
QTWZNTPHMB
root@arm:~# MARKER='GQNQ''VAXEVL' run 'echo 980000 980000 > /sys/kernel/mva_test//regulators/buck1_set'
GQNQVAXEVLGQNQVAXEVL 0
root@arm:~# echo 'FLNE''WYFNCK'
FLNEWYFNCK
root@arm:~# MARKER='KJZV''HUMGKY' run 'i2cget -y -f 1 0x4b 0xd'
KJZVHUMGKY0x1c
KJZVHUMGKY 0
root@arm:~# echo 'PEAM''KZYYCF'
PEAMKZYYCF
root@arm:~# MARKER='UCJC''EEBXKA' run 'echo 990000 990000 > /sys/kernel/mva_test//regulators/buck1_set'
UCJCEEBXKAUCJCEEBXKA 0
root@arm:~# echo 'ZASW''SMCCZQ'
ZASWSMCCZQ
root@arm:~# MARKER='YPVB''STQKWB' run 'i2cget -y -f 1 0x4b 0xd'
YPVBSTQKWB0x1d
YPVBSTQKWB 0
root@arm:~# echo 'SXYW''LWQECQ'
SXYWLWQECQ
root@arm:~# MARKER='SOKB''VQEUAZ' run 'echo 1000000 1000000 > /sys/kernel/mva_tesst/regulators/buck1_set'
SOKBVQEUAZSOKBVQEUAZ 0
root@arm:~# echo 'LSNX''NESXZZ'
LSNXNESXZZ
root@arm:~# MARKER='HQSH''NJWOCU' run 'i2cget -y -f 1 0x4b 0xd'
HQSHNJWOCU0x1e
HQSHNJWOCU 0
root@arm:~# echo 'OHGN''LCXTYX'
OHGNLCXTYX
root@arm:~# MARKER='YLPB''BELAJC' run 'echo 1010000 1010000 > /sys/kernel/mva_tesst/regulators/buck1_set'
YLPBBELAJCYLPBBELAJC 0
root@arm:~# echo 'VCTS''OXKYCO'
VCTSOXKYCO
root@arm:~# MARKER='NMZX''XTZEEX' run 'i2cget -y -f 1 0x4b 0xd'
NMZXXTZEEX0x1f
NMZXXTZEEX 0
root@arm:~# echo 'HFPU''KKMPNL'
HFPUKKMPNL
root@arm:~# MARKER='CKMV''NTJBPF' run 'echo 1020000 1020000 > /sys/kernel/mva_tesst/regulators/buck1_set'
CKMVNTJBPFCKMVNTJBPF 0
root@arm:~# echo 'EXFH''CTAPKW'
EXFHCTAPKW
root@arm:~# MARKER='FWAB''YMZYES' run 'i2cget -y -f 1 0x4b 0xd'
FWABYMZYES0x20
FWABYMZYES 0
root@arm:~# echo 'EOYV''QTSMMQ'
EOYVQTSMMQ
root@arm:~# MARKER='QEQV''NEEQLU' run 'echo 1030000 1030000 > /sys/kernel/mva_tesst/regulators/buck1_set'
QEQVNEEQLUQEQVNEEQLU 0
root@arm:~# echo 'HWTY''XNJGME'
HWTYXNJGME
root@arm:~# MARKER='LOSV''VULNTA' run 'i2cget -y -f 1 0x4b 0xd'
LOSVVULNTA0x21
LOSVVULNTA 0
root@arm:~# echo 'QCGX''NYAVJS'
QCGXNYAVJS
root@arm:~# MARKER='NUZU''SUBXZP' run 'echo 1040000 1040000 > /sys/kernel/mva_tesst/regulators/buck1_set'
NUZUSUBXZPNUZUSUBXZP 0
root@arm:~# echo 'ECMB''SCLOKJ'
ECMBSCLOKJ
root@arm:~# MARKER='UGQP''EUSPVQ' run 'i2cget -y -f 1 0x4b 0xd'
UGQPEUSPVQ0x22
UGQPEUSPVQ 0
root@arm:~# echo 'LNAL''SHYFOO'
LNALSHYFOO
root@arm:~# MARKER='KMXT''OSSQGP' run 'echo 1050000 1050000 > /sys/kernel/mva_tesst/regulators/buck1_set'
KMXTOSSQGPKMXTOSSQGP 0
root@arm:~# echo 'KEKP''OUQPBS'
KEKPOUQPBS
root@arm:~# MARKER='UOCC''MSOEEJ' run 'i2cget -y -f 1 0x4b 0xd'
UOCCMSOEEJ0x23
UOCCMSOEEJ 0
root@arm:~# echo 'BVHW''HFJWAB'
BVHWHFJWAB
root@arm:~# MARKER='QYFA''ABBHXH' run 'echo 1060000 1060000 > /sys/kernel/mva_tesst/regulators/buck1_set'
QYFAABBHXHQYFAABBHXH 0
root@arm:~# echo 'BBUE''LGGGFU'
BBUELGGGFU
root@arm:~# MARKER='QETW''WKTWGB' run 'i2cget -y -f 1 0x4b 0xd'
QETWWKTWGB0x24
QETWWKTWGB 0
root@arm:~# echo 'MTHM''FYJOSP'
MTHMFYJOSP
root@arm:~# MARKER='HMNE''FXYKCE' run 'echo 1070000 1070000 > /sys/kernel/mva_tesst/regulators/buck1_set'
HMNEFXYKCEHMNEFXYKCE 0
root@arm:~# echo 'FBMG''UUTAEU'
FBMGUUTAEU
root@arm:~# MARKER='ZLGZ''OYFVHB' run 'i2cget -y -f 1 0x4b 0xd'
ZLGZOYFVHB0x25
ZLGZOYFVHB 0
root@arm:~# echo 'SUJS''YCWCLX'
SUJSYCWCLX
root@arm:~# MARKER='ZFNQ''BMZMVP' run 'echo 1080000 1080000 > /sys/kernel/mva_tesst/regulators/buck1_set'
ZFNQBMZMVPZFNQBMZMVP 0
root@arm:~# echo 'XHEE''JCYVBT'
XHEEJCYVBT
root@arm:~# MARKER='UYZN''OPWGKA' run 'i2cget -y -f 1 0x4b 0xd'
UYZNOPWGKA0x26
UYZNOPWGKA 0
root@arm:~# echo 'QBPM''YALLOA'
QBPMYALLOA
root@arm:~# MARKER='HVUF''NOFSTT' run 'echo 1090000 1090000 > /sys/kernel/mva_tesst/regulators/buck1_set'
HVUFNOFSTTHVUFNOFSTT 0
root@arm:~# echo 'MSJQ''XJCAKP'
MSJQXJCAKP
root@arm:~# MARKER='MSJO''UCZXOS' run 'i2cget -y -f 1 0x4b 0xd'
MSJOUCZXOS0x27
MSJOUCZXOS 0
root@arm:~# echo 'GQKS''OMEBGV'
GQKSOMEBGV
root@arm:~# MARKER='HNPL''JHYGHY' run 'echo 1100000 1100000 > /sys/kernel/mva_tesst/regulators/buck1_set'
HNPLJHYGHYHNPLJHYGHY 0
root@arm:~# echo 'QUVL''YPXPGF'
QUVLYPXPGF
root@arm:~# MARKER='WXUX''KCSNQV' run 'i2cget -y -f 1 0x4b 0xd'
WXUXKCSNQV0x28
WXUXKCSNQV 0
root@arm:~# echo 'BSCP''MQVNJJ'
BSCPMQVNJJ
root@arm:~# MARKER='UJCJ''PSOVZY' run 'echo 1110000 1110000 > /sys/kernel/mva_tesst/regulators/buck1_set'
UJCJPSOVZYUJCJPSOVZY 0
root@arm:~# echo 'UEQJ''FLTQWA'
UEQJFLTQWA
root@arm:~# MARKER='GQEE''NJJOJN' run 'i2cget -y -f 1 0x4b 0xd'
GQEENJJOJN0x29
GQEENJJOJN 0
root@arm:~# echo 'XYBQ''ZCALVM'
XYBQZCALVM
root@arm:~# MARKER='SMQE''XXHLGO' run 'echo 1120000 1120000 > /sys/kernel/mva_tesst/regulators/buck1_set'
SMQEXXHLGOSMQEXXHLGO 0
root@arm:~# echo 'NWQJ''XQPXSW'
NWQJXQPXSW
root@arm:~# MARKER='MOYK''ABQSXN' run 'i2cget -y -f 1 0x4b 0xd'
MOYKABQSXN0x2a
MOYKABQSXN 0
root@arm:~# echo 'ELUC''XEQCMA'
ELUCXEQCMA
root@arm:~# MARKER='SKXC''VSQZSK' run 'echo 1130000 1130000 > /sys/kernel/mva_tesst/regulators/buck1_set'
SKXCVSQZSKSKXCVSQZSK 0
root@arm:~# echo 'HHKU''JCEVUU'
HHKUJCEVUU
root@arm:~# MARKER='KQAT''PFSSHJ' run 'i2cget -y -f 1 0x4b 0xd'
KQATPFSSHJ0x2b
KQATPFSSHJ 0
root@arm:~# echo 'YFUL''MEPOYP'
YFULMEPOYP
root@arm:~# MARKER='KNTM''SZVKKT' run 'echo 1140000 1140000 > /sys/kernel/mva_tesst/regulators/buck1_set'
KNTMSZVKKTKNTMSZVKKT 0
root@arm:~# echo 'FPGB''LMLSQA'
FPGBLMLSQA
root@arm:~# MARKER='WHLQ''HZTNVJ' run 'i2cget -y -f 1 0x4b 0xd'
WHLQHZTNVJ0x2c
WHLQHZTNVJ 0
root@arm:~# echo 'OPTZ''HVQYYT'
OPTZHVQYYT
root@arm:~# MARKER='OLUX''QZGHTG' run 'echo 1150000 1150000 > /sys/kernel/mva_tesst/regulators/buck1_set'
OLUXQZGHTGOLUXQZGHTG 0
root@arm:~# echo 'MUGP''FOMHMW'
MUGPFOMHMW
root@arm:~# MARKER='YYEM''ECTSBZ' run 'i2cget -y -f 1 0x4b 0xd'
YYEMECTSBZ0x2d
YYEMECTSBZ 0
root@arm:~# echo 'QYZX''UXSSOQ'
QYZXUXSSOQ
root@arm:~# MARKER='SJNM''MFJTWY' run 'echo 1160000 1160000 > /sys/kernel/mva_tesst/regulators/buck1_set'
SJNMMFJTWYSJNMMFJTWY 0
root@arm:~# echo 'PKTJ''JQNVKA'
PKTJJQNVKA
root@arm:~# MARKER='ZBPO''XQBVXS' run 'i2cget -y -f 1 0x4b 0xd'
ZBPOXQBVXS0x2e
ZBPOXQBVXS 0
root@arm:~# echo 'WZKV''CHKZAV'
WZKVCHKZAV
root@arm:~# MARKER='YUNO''KFANSW' run 'echo 1170000 1170000 > /sys/kernel/mva_tesst/regulators/buck1_set'
YUNOKFANSWYUNOKFANSW 0
root@arm:~# echo 'CMFP''PLYSYS'
CMFPPLYSYS
root@arm:~# MARKER='FHZY''PKXJSS' run 'i2cget -y -f 1 0x4b 0xd'
FHZYPKXJSS0x2f
FHZYPKXJSS 0
root@arm:~# echo 'QOBL''YCWPLT'
QOBLYCWPLT
root@arm:~# MARKER='JUZK''TNYJXC' run 'echo 1180000 1180000 > /sys/kernel/mva_tesst/regulators/buck1_set'
JUZKTNYJXCJUZKTNYJXC 0
root@arm:~# echo 'JMFS''OTUXSM'
JMFSOTUXSM
root@arm:~# MARKER='KGUL''TJCYNG' run 'i2cget -y -f 1 0x4b 0xd'
KGULTJCYNG0x30
KGULTJCYNG 0
root@arm:~# echo 'QVNH''KAPMPN'
QVNHKAPMPN
root@arm:~# MARKER='FLYV''JYVUFV' run 'echo 1190000 1190000 > /sys/kernel/mva_tesst/regulators/buck1_set'
FLYVJYVUFVFLYVJYVUFV 0
root@arm:~# echo 'XCYA''FFKWCP'
XCYAFFKWCP
root@arm:~# MARKER='LACX''UJWWNB' run 'i2cget -y -f 1 0x4b 0xd'
LACXUJWWNB0x31
LACXUJWWNB 0
root@arm:~# echo 'PQGG''YJKPGA'
PQGGYJKPGA
root@arm:~# MARKER='SWYZ''TNJCVC' run 'echo 1200000 1200000 > /sys/kernel/mva_tesst/regulators/buck1_set'
SWYZTNJCVCSWYZTNJCVC 0
root@arm:~# echo 'GVHX''PFCXLC'
GVHXPFCXLC
root@arm:~# MARKER='XFCC''JGXZNP' run 'i2cget -y -f 1 0x4b 0xd'
XFCCJGXZNP0x32
XFCCJGXZNP 0
root@arm:~# echo 'ACTO''ZCMLBO'
ACTOZCMLBO
root@arm:~# MARKER='JCXC''SFOZOY' run 'echo 1210000 1210000 > /sys/kernel/mva_tesst/regulators/buck1_set'
JCXCSFOZOYJCXCSFOZOY 0
root@arm:~# echo 'AUWM''JWJOUE'
AUWMJWJOUE
root@arm:~# MARKER='UPXQ''KVWVOE' run 'i2cget -y -f 1 0x4b 0xd'
UPXQKVWVOE0x33
UPXQKVWVOE 0
root@arm:~# echo 'TTHU''VTXHZV'
TTHUVTXHZV
root@arm:~# MARKER='GJEW''FTOHYF' run 'echo 1220000 1220000 > /sys/kernel/mva_tesst/regulators/buck1_set'
GJEWFTOHYFGJEWFTOHYF 0
root@arm:~# echo 'HNSX''QMOSWO'
HNSXQMOSWO
root@arm:~# MARKER='QXVC''ZUNUFB' run 'i2cget -y -f 1 0x4b 0xd'
QXVCZUNUFB0x34
QXVCZUNUFB 0
root@arm:~# echo 'BZYL''ZMOQYT'
BZYLZMOQYT
root@arm:~# MARKER='HUAA''ZAKLCS' run 'echo 1230000 1230000 > /sys/kernel/mva_tesst/regulators/buck1_set'
HUAAZAKLCSHUAAZAKLCS 0
root@arm:~# echo 'KVJP''BMHEPV'
KVJPBMHEPV
root@arm:~# MARKER='BHYJ''NMHOLF' run 'i2cget -y -f 1 0x4b 0xd'
BHYJNMHOLF0x35
BHYJNMHOLF 0
root@arm:~# echo 'XZLF''NUNFEM'
XZLFNUNFEM
root@arm:~# MARKER='HYPS''NLELXO' run 'echo 1240000 1240000 > /sys/kernel/mva_tesst/regulators/buck1_set'
HYPSNLELXOHYPSNLELXO 0
root@arm:~# echo 'HVBG''XCVGKS'
HVBGXCVGKS
root@arm:~# MARKER='CYWE''OZXLGA' run 'i2cget -y -f 1 0x4b 0xd'
CYWEOZXLGA0x36
CYWEOZXLGA 0
root@arm:~# echo 'EZHF''JXPQNZ'
EZHFJXPQNZ
root@arm:~# MARKER='WXNH''SEYKVZ' run 'echo 1250000 1250000 > /sys/kernel/mva_tesst/regulators/buck1_set'
WXNHSEYKVZWXNHSEYKVZ 0
root@arm:~# echo 'MYST''UTTPFP'
MYSTUTTPFP
root@arm:~# MARKER='GLMX''OYKKLC' run 'i2cget -y -f 1 0x4b 0xd'
GLMXOYKKLC0x37
GLMXOYKKLC 0
root@arm:~# echo 'OEUV''MGYOMX'
OEUVMGYOMX
root@arm:~# MARKER='TZCG''NJSYZN' run 'echo 1260000 1260000 > /sys/kernel/mva_tesst/regulators/buck1_set'
TZCGNJSYZNTZCGNJSYZN 0
root@arm:~# echo 'LTQX''QNKWUB'
LTQXQNKWUB
root@arm:~# MARKER='TXLK''KAPKXT' run 'i2cget -y -f 1 0x4b 0xd'
TXLKKAPKXT0x38
TXLKKAPKXT 0
root@arm:~# echo 'AOZY''CEJAJP'
AOZYCEJAJP
root@arm:~# MARKER='OABK''HQOLEZ' run 'echo 1270000 1270000 > /sys/kernel/mva_tesst/regulators/buck1_set'
OABKHQOLEZOABKHQOLEZ 0
root@arm:~# echo 'KCPH''EPJPZX'
KCPHEPJPZX
root@arm:~# MARKER='VGAV''HTHGEH' run 'i2cget -y -f 1 0x4b 0xd'
VGAVHTHGEH0x39
VGAVHTHGEH 0
root@arm:~# echo 'SWSZ''FJOMPG'
SWSZFJOMPG
root@arm:~# MARKER='FEYF''WKVEFX' run 'echo 1280000 1280000 > /sys/kernel/mva_tesst/regulators/buck1_set'
FEYFWKVEFXFEYFWKVEFX 0
root@arm:~# echo 'WEBX''XUQSOF'
WEBXXUQSOF
root@arm:~# MARKER='VCUE''QKJNLH' run 'i2cget -y -f 1 0x4b 0xd'
VCUEQKJNLH0x3a
VCUEQKJNLH 0
root@arm:~# echo 'BPSE''EQOYMC'
BPSEEQOYMC
root@arm:~# MARKER='BHWT''UMOFFB' run 'echo 1290000 1290000 > /sys/kernel/mva_tesst/regulators/buck1_set'
BHWTUMOFFBBHWTUMOFFB 0
root@arm:~# echo 'YPWF''MNPLNH'
YPWFMNPLNH
root@arm:~# MARKER='BLWA''OOTBJF' run 'i2cget -y -f 1 0x4b 0xd'
BLWAOOTBJF0x3b
BLWAOOTBJF 0
root@arm:~# echo 'HOEQ''ASZQZK'
HOEQASZQZK
root@arm:~# MARKER='PXVO''ZVGKEE' run 'echo 1300000 1300000 > /sys/kernel/mva_tesst/regulators/buck1_set'
PXVOZVGKEEPXVOZVGKEE 0
root@arm:~# echo 'WJZO''SCAAFS'
WJZOSCAAFS
root@arm:~# MARKER='VFEF''PATSYB' run 'i2cget -y -f 1 0x4b 0xd'
VFEFPATSYB0x3c
VFEFPATSYB 0
root@arm:~# echo 'YFCL''KTSSPJ'
YFCLKTSSPJ
root@arm:~# MARKER='UKWB''JCGFXE' run 'grep -r -l rohm,bd71847 /proc/device-tree  | sed '"'"'s![^/]*$!!'"'"''
UKWBJCGFXE/proc/device-tree/ocp/interconnect@48000000/segment@0/target-module@2a000/i2c@0/pmic@4b/
UKWBJCGFXE 0
root@arm:~# echo 'FNEP''ZXLZVW'
FNEPZXLZVW
root@arm:~# MARKER='SNZM''UWFCOY' run 'test -f /proc/device-tree/ocp/interconnectt\@48000000/segment\@0/target-module\@2a000/i2c\@0/pmic\@4b/regulators/BUCK2/rohmm,no-regulator-enable-control ;echo $?'
SNZMUWFCOY1
SNZMUWFCOY 0
root@arm:~# echo 'OAFO''OYZXCU'
OAFOOYZXCU
root@arm:~# MARKER='EKAU''XGLOLQ' run 'i2cget -y -f 1 0x4b 0x6'
EKAUXGLOLQ0x43
EKAUXGLOLQ 0
root@arm:~# echo 'NCEB''JAUYBM'
NCEBJAUYBM
root@arm:~# MARKER='UHOB''CLYVQW' run 'echo 700000 700000 > /sys/kernel/mva_test//regulators/buck2_set'
UHOBCLYVQWUHOBCLYVQW 0
root@arm:~# echo 'MXYE''JVJNWH'
MXYEJVJNWH
root@arm:~# MARKER='EBNN''FZHXVB' run 'i2cget -y -f 1 0x4b 0x10'
EBNNFZHXVB0x00
EBNNFZHXVB 0
root@arm:~# echo 'OCJM''MJEAGP'
OCJMMJEAGP
root@arm:~# MARKER='ZUFO''UKJVSO' run 'echo 710000 710000 > /sys/kernel/mva_test//regulators/buck2_set'
ZUFOUKJVSOZUFOUKJVSO 0
root@arm:~# echo 'EVWC''VKJLUG'
EVWCVKJLUG
root@arm:~# MARKER='OVNZ''PPMGTE' run 'i2cget -y -f 1 0x4b 0x10'
OVNZPPMGTE0x01
OVNZPPMGTE 0
root@arm:~# echo 'WPGO''QKTBML'
WPGOQKTBML
root@arm:~# MARKER='YQYN''WVCZBQ' run 'echo 720000 720000 > /sys/kernel/mva_test//regulators/buck2_set'
YQYNWVCZBQYQYNWVCZBQ 0
root@arm:~# echo 'TGKU''KLFLWU'
TGKUKLFLWU
root@arm:~# MARKER='TUCO''GUPAAM' run 'i2cget -y -f 1 0x4b 0x10'
TUCOGUPAAM0x02
TUCOGUPAAM 0
root@arm:~# echo 'WZCY''MYOAJJ'
WZCYMYOAJJ
root@arm:~# MARKER='GHHH''MHFXTQ' run 'echo 730000 730000 > /sys/kernel/mva_test//regulators/buck2_set'
GHHHMHFXTQGHHHMHFXTQ 0
root@arm:~# echo 'ZESE''NMSFYA'
ZESENMSFYA
root@arm:~# MARKER='OUMG''BSGGYU' run 'i2cget -y -f 1 0x4b 0x10'
OUMGBSGGYU0x03
OUMGBSGGYU 0
root@arm:~# echo 'XLEM''COAHBM'
XLEMCOAHBM
root@arm:~# MARKER='EJNO''HYPHLM' run 'echo 740000 740000 > /sys/kernel/mva_test//regulators/buck2_set'
EJNOHYPHLMEJNOHYPHLM 0
root@arm:~# echo 'GMUP''NASHGO'
GMUPNASHGO
root@arm:~# MARKER='XHBU''GTFSLZ' run 'i2cget -y -f 1 0x4b 0x10'
XHBUGTFSLZ0x04
XHBUGTFSLZ 0
root@arm:~# echo 'JXZM''NFOWVO'
JXZMNFOWVO
root@arm:~# MARKER='GVVE''ZZTKGX' run 'echo 750000 750000 > /sys/kernel/mva_test//regulators/buck2_set'
GVVEZZTKGXGVVEZZTKGX 0
root@arm:~# echo 'YOWV''KMWLJU'
YOWVKMWLJU
root@arm:~# MARKER='SNJT''HWYCYM' run 'i2cget -y -f 1 0x4b 0x10'
SNJTHWYCYM0x05
SNJTHWYCYM 0
root@arm:~# echo 'CGSQ''QVLKNH'
CGSQQVLKNH
root@arm:~# MARKER='VBTQ''XNYOFJ' run 'echo 760000 760000 > /sys/kernel/mva_test//regulators/buck2_set'
VBTQXNYOFJVBTQXNYOFJ 0
root@arm:~# echo 'JTAO''PNXWTM'
JTAOPNXWTM
root@arm:~# MARKER='LBVE''UAUYHT' run 'i2cget -y -f 1 0x4b 0x10'
LBVEUAUYHT0x06
LBVEUAUYHT 0
root@arm:~# echo 'XLJG''XFWEQJ'
XLJGXFWEQJ
root@arm:~# MARKER='SLNA''MZCSUU' run 'echo 770000 770000 > /sys/kernel/mva_test//regulators/buck2_set'
SLNAMZCSUUSLNAMZCSUU 0
root@arm:~# echo 'YVAL''ULAMOJ'
YVALULAMOJ
root@arm:~# MARKER='QVYA''UGUOCV' run 'i2cget -y -f 1 0x4b 0x10'
QVYAUGUOCV0x07
QVYAUGUOCV 0
root@arm:~# echo 'BKFM''TVLJXJ'
BKFMTVLJXJ
root@arm:~# MARKER='OHFG''PAEFXH' run 'echo 780000 780000 > /sys/kernel/mva_test//regulators/buck2_set'
OHFGPAEFXHOHFGPAEFXH 0
root@arm:~# echo 'SGOJ''UJLYNO'
SGOJUJLYNO
root@arm:~# MARKER='HPZB''WHWANG' run 'i2cget -y -f 1 0x4b 0x10'
HPZBWHWANG0x08
HPZBWHWANG 0
root@arm:~# echo 'USBA''SGNYOQ'
USBASGNYOQ
root@arm:~# MARKER='BTOX''VKJCAW' run 'echo 790000 790000 > /sys/kernel/mva_test//regulators/buck2_set'
BTOXVKJCAWBTOXVKJCAW 0
root@arm:~# echo 'GMZW''WZCLJK'
GMZWWZCLJK
root@arm:~# MARKER='NPLU''BGYYPO' run 'i2cget -y -f 1 0x4b 0x10'
NPLUBGYYPO0x09
NPLUBGYYPO 0
root@arm:~# echo 'KZBA''PLPOUV'
KZBAPLPOUV
root@arm:~# MARKER='OGBK''TETWEM' run 'echo 800000 800000 > /sys/kernel/mva_test//regulators/buck2_set'
OGBKTETWEMOGBKTETWEM 0
root@arm:~# echo 'ULHV''KFAYLC'
ULHVKFAYLC
root@arm:~# MARKER='UMWT''YNFQKE' run 'i2cget -y -f 1 0x4b 0x10'
UMWTYNFQKE0x0a
UMWTYNFQKE 0
root@arm:~# echo 'JJPP''AVFMKC'
JJPPAVFMKC
root@arm:~# MARKER='MSLV''ZCKKGO' run 'echo 810000 810000 > /sys/kernel/mva_test//regulators/buck2_set'
MSLVZCKKGOMSLVZCKKGO 0
root@arm:~# echo 'VAVZ''PEMCLE'
VAVZPEMCLE
root@arm:~# MARKER='EXNP''XXUXLN' run 'i2cget -y -f 1 0x4b 0x10'
EXNPXXUXLN0x0b
EXNPXXUXLN 0
root@arm:~# echo 'SBMK''STFYLQ'
SBMKSTFYLQ
root@arm:~# MARKER='VHOO''FMVNYX' run 'echo 820000 820000 > /sys/kernel/mva_test//regulators/buck2_set'
VHOOFMVNYXVHOOFMVNYX 0
root@arm:~# echo 'UHOB''MHELXG'
UHOBMHELXG
root@arm:~# MARKER='WQTZ''QSZYOT' run 'i2cget -y -f 1 0x4b 0x10'
WQTZQSZYOT0x0c
WQTZQSZYOT 0
root@arm:~# echo 'LQYN''MKQJTO'
LQYNMKQJTO
root@arm:~# MARKER='AKWQ''OWVQLT' run 'echo 830000 830000 > /sys/kernel/mva_test//regulators/buck2_set'
AKWQOWVQLTAKWQOWVQLT 0
root@arm:~# echo 'KYOG''VWAMNU'
KYOGVWAMNU
root@arm:~# MARKER='UEEP''LFZCXH' run 'i2cget -y -f 1 0x4b 0x10'
UEEPLFZCXH0x0d
UEEPLFZCXH 0
root@arm:~# echo 'PZYG''SAZWHG'
PZYGSAZWHG
root@arm:~# MARKER='PVLX''PCETEW' run 'echo 840000 840000 > /sys/kernel/mva_test//regulators/buck2_set'
PVLXPCETEWPVLXPCETEW 0
root@arm:~# echo 'HAHG''KHYGCN'
HAHGKHYGCN
root@arm:~# MARKER='WLEK''QZOOFC' run 'i2cget -y -f 1 0x4b 0x10'
WLEKQZOOFC0x0e
WLEKQZOOFC 0
root@arm:~# echo 'SQPL''VMUXGB'
SQPLVMUXGB
root@arm:~# MARKER='ENVP''GELMHN' run 'echo 850000 850000 > /sys/kernel/mva_test//regulators/buck2_set'
ENVPGELMHNENVPGELMHN 0
root@arm:~# echo 'ZAOE''BCPYVB'
ZAOEBCPYVB
root@arm:~# MARKER='OKUX''EOPXMM' run 'i2cget -y -f 1 0x4b 0x10'
OKUXEOPXMM0x0f
OKUXEOPXMM 0
root@arm:~# echo 'KXLA''ZEOZFK'
KXLAZEOZFK
root@arm:~# MARKER='SMPF''GWVEUE' run 'echo 860000 860000 > /sys/kernel/mva_test//regulators/buck2_set'
SMPFGWVEUESMPFGWVEUE 0
root@arm:~# echo 'YZOC''ZYEQZU'
YZOCZYEQZU
root@arm:~# MARKER='HQGF''MTFFLQ' run 'i2cget -y -f 1 0x4b 0x10'
HQGFMTFFLQ0x10
HQGFMTFFLQ 0
root@arm:~# echo 'QOMZ''ATEJVQ'
QOMZATEJVQ
root@arm:~# MARKER='OFOX''QLMBQF' run 'echo 870000 870000 > /sys/kernel/mva_test//regulators/buck2_set'
OFOXQLMBQFOFOXQLMBQF 0
root@arm:~# echo 'HSXM''XZHNGG'
HSXMXZHNGG
root@arm:~# MARKER='HAPY''AVOZOS' run 'i2cget -y -f 1 0x4b 0x10'
HAPYAVOZOS0x11
HAPYAVOZOS 0
root@arm:~# echo 'JKPG''MYMWQO'
JKPGMYMWQO
root@arm:~# MARKER='PXBN''YGPMXO' run 'echo 880000 880000 > /sys/kernel/mva_test//regulators/buck2_set'
PXBNYGPMXOPXBNYGPMXO 0
root@arm:~# echo 'ZPTH''WZFVHC'
ZPTHWZFVHC
root@arm:~# MARKER='QZSH''GNFVPK' run 'i2cget -y -f 1 0x4b 0x10'
QZSHGNFVPK0x12
QZSHGNFVPK 0
root@arm:~# echo 'XKWV''KCZYVN'
XKWVKCZYVN
root@arm:~# MARKER='KQGY''NFMNWJ' run 'echo 890000 890000 > /sys/kernel/mva_test//regulators/buck2_set'
KQGYNFMNWJKQGYNFMNWJ 0
root@arm:~# echo 'XMGL''TYHYCN'
XMGLTYHYCN
root@arm:~# MARKER='BFPN''MZJTQM' run 'i2cget -y -f 1 0x4b 0x10'
BFPNMZJTQM0x13
BFPNMZJTQM 0
root@arm:~# echo 'FGPX''YXBKBP'
FGPXYXBKBP
root@arm:~# MARKER='ETQP''TJFVMX' run 'echo 900000 900000 > /sys/kernel/mva_test//regulators/buck2_set'
ETQPTJFVMXETQPTJFVMX 0
root@arm:~# echo 'LUUU''VUZNBO'
LUUUVUZNBO
root@arm:~# MARKER='WUAZ''ZYLAVF' run 'i2cget -y -f 1 0x4b 0x10'
WUAZZYLAVF0x14
WUAZZYLAVF 0
root@arm:~# echo 'NZJA''FBZVAM'
NZJAFBZVAM
root@arm:~# MARKER='CFCS''CCZJXG' run 'echo 910000 910000 > /sys/kernel/mva_test//regulators/buck2_set'
CFCSCCZJXGCFCSCCZJXG 0
root@arm:~# echo 'UGPT''VGUPNY'
UGPTVGUPNY
root@arm:~# MARKER='YJHH''JGYXXS' run 'i2cget -y -f 1 0x4b 0x10'
YJHHJGYXXS0x15
YJHHJGYXXS 0
root@arm:~# echo 'KWHP''ZZVLPB'
KWHPZZVLPB
root@arm:~# MARKER='ZGTA''BSQHOQ' run 'echo 920000 920000 > /sys/kernel/mva_test//regulators/buck2_set'
ZGTABSQHOQZGTABSQHOQ 0
root@arm:~# echo 'NXXE''KJXHJF'
NXXEKJXHJF
root@arm:~# MARKER='ELVO''MZXGWV' run 'i2cget -y -f 1 0x4b 0x10'
ELVOMZXGWV0x16
ELVOMZXGWV 0
root@arm:~# echo 'HWPM''ZBOBBE'
HWPMZBOBBE
root@arm:~# MARKER='TGFS''NQJSYQ' run 'echo 930000 930000 > /sys/kernel/mva_test//regulators/buck2_set'
TGFSNQJSYQTGFSNQJSYQ 0
root@arm:~# echo 'YWZC''YJFFNP'
YWZCYJFFNP
root@arm:~# MARKER='OBOC''VBCKML' run 'i2cget -y -f 1 0x4b 0x10'
OBOCVBCKML0x17
OBOCVBCKML 0
root@arm:~# echo 'WSQN''XELNNW'
WSQNXELNNW
root@arm:~# MARKER='EPQJ''FCYJAT' run 'echo 940000 940000 > /sys/kernel/mva_test//regulators/buck2_set'
EPQJFCYJATEPQJFCYJAT 0
root@arm:~# echo 'PSQH''NBZZPB'
PSQHNBZZPB
root@arm:~# MARKER='OQQK''TLVTMA' run 'i2cget -y -f 1 0x4b 0x10'
OQQKTLVTMA0x18
OQQKTLVTMA 0
root@arm:~# echo 'NZWZ''VGQEZS'
NZWZVGQEZS
root@arm:~# MARKER='KKOP''FUFQPH' run 'echo 950000 950000 > /sys/kernel/mva_test//regulators/buck2_set'
KKOPFUFQPHKKOPFUFQPH 0
root@arm:~# echo 'GGZT''QGOZFM'
GGZTQGOZFM
root@arm:~# MARKER='AAUA''UQJTLC' run 'i2cget -y -f 1 0x4b 0x10'
AAUAUQJTLC0x19
AAUAUQJTLC 0
root@arm:~# echo 'TMAP''EGVLAX'
TMAPEGVLAX
root@arm:~# MARKER='NCBM''MNMVBN' run 'echo 960000 960000 > /sys/kernel/mva_test//regulators/buck2_set'
NCBMMNMVBNNCBMMNMVBN 0
root@arm:~# echo 'JNPC''BNLHJX'
JNPCBNLHJX
root@arm:~# MARKER='BKQN''XTGNTG' run 'i2cget -y -f 1 0x4b 0x10'
BKQNXTGNTG0x1a
BKQNXTGNTG 0
root@arm:~# echo 'MHGL''SKEPCC'
MHGLSKEPCC
root@arm:~# MARKER='XPLA''HEFVXZ' run 'echo 970000 970000 > /sys/kernel/mva_test//regulators/buck2_set'
XPLAHEFVXZXPLAHEFVXZ 0
root@arm:~# echo 'YLUS''PJWXNE'
YLUSPJWXNE
root@arm:~# MARKER='MSXW''NCCSMO' run 'i2cget -y -f 1 0x4b 0x10'
MSXWNCCSMO0x1b
MSXWNCCSMO 0
root@arm:~# echo 'MZOY''USBQKY'
MZOYUSBQKY
root@arm:~# MARKER='LSVU''QMBNZG' run 'echo 980000 980000 > /sys/kernel/mva_test//regulators/buck2_set'
LSVUQMBNZGLSVUQMBNZG 0
root@arm:~# echo 'GYCZ''KGUXGF'
GYCZKGUXGF
root@arm:~# MARKER='SCEZ''THKGOT' run 'i2cget -y -f 1 0x4b 0x10'
SCEZTHKGOT0x1c
SCEZTHKGOT 0
root@arm:~# echo 'OFHX''AFLSFK'
OFHXAFLSFK
root@arm:~# MARKER='SEWG''MFUQNG' run 'echo 990000 990000 > /sys/kernel/mva_test//regulators/buck2_set'
SEWGMFUQNGSEWGMFUQNG 0
root@arm:~# echo 'BCFC''ETYPBA'
BCFCETYPBA
root@arm:~# MARKER='LQEG''JBPKVN' run 'i2cget -y -f 1 0x4b 0x10'
LQEGJBPKVN0x1d
LQEGJBPKVN 0
root@arm:~# echo 'KGJO''OEKTML'
KGJOOEKTML
root@arm:~# MARKER='QUAG''YWFCJY' run 'echo 1000000 1000000 > /sys/kernel/mva_tesst/regulators/buck2_set'
QUAGYWFCJYQUAGYWFCJY 0
root@arm:~# echo 'HUKB''GLGNBP'
HUKBGLGNBP
root@arm:~# MARKER='JKVH''HHVUOH' run 'i2cget -y -f 1 0x4b 0x10'
JKVHHHVUOH0x1e
JKVHHHVUOH 0
root@arm:~# echo 'SXEP''EXBNCW'
SXEPEXBNCW
root@arm:~# MARKER='UXYE''SYGNWW' run 'echo 1010000 1010000 > /sys/kernel/mva_tesst/regulators/buck2_set'
UXYESYGNWWUXYESYGNWW 0
root@arm:~# echo 'VVMQ''THQQOU'
VVMQTHQQOU
root@arm:~# MARKER='WSML''BUBCKT' run 'i2cget -y -f 1 0x4b 0x10'
WSMLBUBCKT0x1f
WSMLBUBCKT 0
root@arm:~# echo 'TSPS''KZECTH'
TSPSKZECTH
root@arm:~# MARKER='NJCC''LCXPUG' run 'echo 1020000 1020000 > /sys/kernel/mva_tesst/regulators/buck2_set'
NJCCLCXPUGNJCCLCXPUG 0
root@arm:~# echo 'TXPV''PSZZNM'
TXPVPSZZNM
root@arm:~# MARKER='ZMZU''KXVNCZ' run 'i2cget -y -f 1 0x4b 0x10'
ZMZUKXVNCZ0x20
ZMZUKXVNCZ 0
root@arm:~# echo 'KABQ''KUGFNL'
KABQKUGFNL
root@arm:~# MARKER='UTPF''ONTHHP' run 'echo 1030000 1030000 > /sys/kernel/mva_tesst/regulators/buck2_set'
UTPFONTHHPUTPFONTHHP 0
root@arm:~# echo 'NXAS''BPXWMB'
NXASBPXWMB
root@arm:~# MARKER='BWQC''YTMYXS' run 'i2cget -y -f 1 0x4b 0x10'
BWQCYTMYXS0x21
BWQCYTMYXS 0
root@arm:~# echo 'OZCO''NFVXMJ'
OZCONFVXMJ
root@arm:~# MARKER='MMQS''ZWJWTF' run 'echo 1040000 1040000 > /sys/kernel/mva_tesst/regulators/buck2_set'
MMQSZWJWTFMMQSZWJWTF 0
root@arm:~# echo 'CQSS''EOYEVK'
CQSSEOYEVK
root@arm:~# MARKER='FATT''YSALST' run 'i2cget -y -f 1 0x4b 0x10'
FATTYSALST0x22
FATTYSALST 0
root@arm:~# echo 'VEVU''OZTGZJ'
VEVUOZTGZJ
root@arm:~# MARKER='BJBZ''HEGJOH' run 'echo 1050000 1050000 > /sys/kernel/mva_tesst/regulators/buck2_set'
BJBZHEGJOHBJBZHEGJOH 0
root@arm:~# echo 'XLKL''NFVHXL'
XLKLNFVHXL
root@arm:~# MARKER='ASEN''AYZPKE' run 'i2cget -y -f 1 0x4b 0x10'
ASENAYZPKE0x23
ASENAYZPKE 0
root@arm:~# echo 'XHXL''EWBVMN'
XHXLEWBVMN
root@arm:~# MARKER='LQBK''ZMNEFE' run 'echo 1060000 1060000 > /sys/kernel/mva_tesst/regulators/buck2_set'
LQBKZMNEFELQBKZMNEFE 0
root@arm:~# echo 'GYLA''KEQBSU'
GYLAKEQBSU
root@arm:~# MARKER='GLEQ''VLGBYJ' run 'i2cget -y -f 1 0x4b 0x10'
GLEQVLGBYJ0x24
GLEQVLGBYJ 0
root@arm:~# echo 'LOYS''GEQPSO'
LOYSGEQPSO
root@arm:~# MARKER='FOGM''YZWAMU' run 'echo 1070000 1070000 > /sys/kernel/mva_tesst/regulators/buck2_set'
FOGMYZWAMUFOGMYZWAMU 0
root@arm:~# echo 'EVAA''FNONTZ'
EVAAFNONTZ
root@arm:~# MARKER='WKJK''XWNFMC' run 'i2cget -y -f 1 0x4b 0x10'
WKJKXWNFMC0x25
WKJKXWNFMC 0
root@arm:~# echo 'LXEH''XAWSXS'
LXEHXAWSXS
root@arm:~# MARKER='XWPX''AOQYAA' run 'echo 1080000 1080000 > /sys/kernel/mva_tesst/regulators/buck2_set'
XWPXAOQYAAXWPXAOQYAA 0
root@arm:~# echo 'YTJP''HTZEVQ'
YTJPHTZEVQ
root@arm:~# MARKER='XGFF''CLVJLG' run 'i2cget -y -f 1 0x4b 0x10'
XGFFCLVJLG0x26
XGFFCLVJLG 0
root@arm:~# echo 'TWMN''HZUSGO'
TWMNHZUSGO
root@arm:~# MARKER='ZOUB''TGTSYJ' run 'echo 1090000 1090000 > /sys/kernel/mva_tesst/regulators/buck2_set'
ZOUBTGTSYJZOUBTGTSYJ 0
root@arm:~# echo 'XQOX''LGFWPO'
XQOXLGFWPO
root@arm:~# MARKER='PNKF''SBUSXL' run 'i2cget -y -f 1 0x4b 0x10'
PNKFSBUSXL0x27
PNKFSBUSXL 0
root@arm:~# echo 'VPNT''FXFNTA'
VPNTFXFNTA
root@arm:~# MARKER='EUMB''BLYGCA' run 'echo 1100000 1100000 > /sys/kernel/mva_tesst/regulators/buck2_set'
EUMBBLYGCAEUMBBLYGCA 0
root@arm:~# echo 'FNWK''BKSAMS'
FNWKBKSAMS
root@arm:~# MARKER='VVQK''ULJCAX' run 'i2cget -y -f 1 0x4b 0x10'
VVQKULJCAX0x28
VVQKULJCAX 0
root@arm:~# echo 'CSZU''CAUHHW'
CSZUCAUHHW
root@arm:~# MARKER='AWAZ''WMEZXQ' run 'echo 1110000 1110000 > /sys/kernel/mva_tesst/regulators/buck2_set'
AWAZWMEZXQAWAZWMEZXQ 0
root@arm:~# echo 'BWPJ''WUPQUY'
BWPJWUPQUY
root@arm:~# MARKER='QEOU''OSCFYG' run 'i2cget -y -f 1 0x4b 0x10'
QEOUOSCFYG0x29
QEOUOSCFYG 0
root@arm:~# echo 'CLYC''OMENNY'
CLYCOMENNY
root@arm:~# MARKER='WYYM''TYFUYV' run 'echo 1120000 1120000 > /sys/kernel/mva_tesst/regulators/buck2_set'
WYYMTYFUYVWYYMTYFUYV 0
root@arm:~# echo 'QSFU''WLLAON'
QSFUWLLAON
root@arm:~# MARKER='ZJHC''CYHHSH' run 'i2cget -y -f 1 0x4b 0x10'
ZJHCCYHHSH0x2a
ZJHCCYHHSH 0
root@arm:~# echo 'ZSSW''LOJFXE'
ZSSWLOJFXE
root@arm:~# MARKER='LLOU''CCJQCY' run 'echo 1130000 1130000 > /sys/kernel/mva_tesst/regulators/buck2_set'
LLOUCCJQCYLLOUCCJQCY 0
root@arm:~# echo 'YLOL''CZGMEJ'
YLOLCZGMEJ
root@arm:~# MARKER='ONWP''PVVCUQ' run 'i2cget -y -f 1 0x4b 0x10'
ONWPPVVCUQ0x2b
ONWPPVVCUQ 0
root@arm:~# echo 'NUJO''FXXUEP'
NUJOFXXUEP
root@arm:~# MARKER='VEPN''SHWNHT' run 'echo 1140000 1140000 > /sys/kernel/mva_tesst/regulators/buck2_set'
VEPNSHWNHTVEPNSHWNHT 0
root@arm:~# echo 'EZSJ''QJESXP'
EZSJQJESXP
root@arm:~# MARKER='HENZ''XBSNTG' run 'i2cget -y -f 1 0x4b 0x10'
HENZXBSNTG0x2c
HENZXBSNTG 0
root@arm:~# echo 'OGOC''KHUEBG'
OGOCKHUEBG
root@arm:~# MARKER='ZKWS''ALZOGW' run 'echo 1150000 1150000 > /sys/kernel/mva_tesst/regulators/buck2_set'
ZKWSALZOGWZKWSALZOGW 0
root@arm:~# echo 'JFOW''PBNJHN'
JFOWPBNJHN
root@arm:~# MARKER='UVJT''VCFSGW' run 'i2cget -y -f 1 0x4b 0x10'
UVJTVCFSGW0x2d
UVJTVCFSGW 0
root@arm:~# echo 'QZXY''SKJJGH'
QZXYSKJJGH
root@arm:~# MARKER='POZH''FYLAEM' run 'echo 1160000 1160000 > /sys/kernel/mva_tesst/regulators/buck2_set'
POZHFYLAEMPOZHFYLAEM 0
root@arm:~# echo 'LHUK''BCTPCZ'
LHUKBCTPCZ
root@arm:~# MARKER='UVUV''TJQAOM' run 'i2cget -y -f 1 0x4b 0x10'
UVUVTJQAOM0x2e
UVUVTJQAOM 0
root@arm:~# echo 'KMHQ''OUBWLB'
KMHQOUBWLB
root@arm:~# MARKER='XOYA''VEYNGV' run 'echo 1170000 1170000 > /sys/kernel/mva_tesst/regulators/buck2_set'
XOYAVEYNGVXOYAVEYNGV 0
root@arm:~# echo 'WQXF''LQEYYZ'
WQXFLQEYYZ
root@arm:~# MARKER='BSVK''GUJOUW' run 'i2cget -y -f 1 0x4b 0x10'
BSVKGUJOUW0x2f
BSVKGUJOUW 0
root@arm:~# echo 'GSNW''JPOPJE'
GSNWJPOPJE
root@arm:~# MARKER='YOTF''CMBVPY' run 'echo 1180000 1180000 > /sys/kernel/mva_tesst/regulators/buck2_set'
YOTFCMBVPYYOTFCMBVPY 0
root@arm:~# echo 'OKGY''ATYMVT'
OKGYATYMVT
root@arm:~# MARKER='BUWW''WQVKQM' run 'i2cget -y -f 1 0x4b 0x10'
BUWWWQVKQM0x30
BUWWWQVKQM 0
root@arm:~# echo 'YLCH''LFKKXE'
YLCHLFKKXE
root@arm:~# MARKER='KVVV''UBWPMJ' run 'echo 1190000 1190000 > /sys/kernel/mva_tesst/regulators/buck2_set'
KVVVUBWPMJKVVVUBWPMJ 0
root@arm:~# echo 'UPEX''GFBAPC'
UPEXGFBAPC
root@arm:~# MARKER='PUTE''GXCALW' run 'i2cget -y -f 1 0x4b 0x10'
PUTEGXCALW0x31
PUTEGXCALW 0
root@arm:~# echo 'HCMC''VVKNEJ'
HCMCVVKNEJ
root@arm:~# MARKER='XZLT''TCHLXO' run 'echo 1200000 1200000 > /sys/kernel/mva_tesst/regulators/buck2_set'
XZLTTCHLXOXZLTTCHLXO 0
root@arm:~# echo 'KHJG''ABUJUP'
KHJGABUJUP
root@arm:~# MARKER='GUFH''LPOYUY' run 'i2cget -y -f 1 0x4b 0x10'
GUFHLPOYUY0x32
GUFHLPOYUY 0
root@arm:~# echo 'MBBX''SKSLAO'
MBBXSKSLAO
root@arm:~# MARKER='CFZH''KFQCNW' run 'echo 1210000 1210000 > /sys/kernel/mva_tesst/regulators/buck2_set'
CFZHKFQCNWCFZHKFQCNW 0
root@arm:~# echo 'KTCA''HCTEOY'
KTCAHCTEOY
root@arm:~# MARKER='HHUL''LXNPUC' run 'i2cget -y -f 1 0x4b 0x10'
HHULLXNPUC0x33
HHULLXNPUC 0
root@arm:~# echo 'YHJT''QYMFHL'
YHJTQYMFHL
root@arm:~# MARKER='SZMY''LKHZNW' run 'echo 1220000 1220000 > /sys/kernel/mva_tesst/regulators/buck2_set'
SZMYLKHZNWSZMYLKHZNW 0
root@arm:~# echo 'JKGM''SMCMXW'
JKGMSMCMXW
root@arm:~# MARKER='ZYJB''BZXYUV' run 'i2cget -y -f 1 0x4b 0x10'
ZYJBBZXYUV0x34
ZYJBBZXYUV 0
root@arm:~# echo 'EAZK''TQUUZX'
EAZKTQUUZX
root@arm:~# MARKER='XCLV''SJNPYK' run 'echo 1230000 1230000 > /sys/kernel/mva_tesst/regulators/buck2_set'
XCLVSJNPYKXCLVSJNPYK 0
root@arm:~# echo 'LFHU''CCUJJA'
LFHUCCUJJA
root@arm:~# MARKER='CXMC''NHLFAZ' run 'i2cget -y -f 1 0x4b 0x10'
CXMCNHLFAZ0x35
CXMCNHLFAZ 0
root@arm:~# echo 'VFYX''KPAESX'
VFYXKPAESX
root@arm:~# MARKER='VVCN''ZSJGVS' run 'echo 1240000 1240000 > /sys/kernel/mva_tesst/regulators/buck2_set'
VVCNZSJGVSVVCNZSJGVS 0
root@arm:~# echo 'XXXX''BUQVUU'
XXXXBUQVUU
root@arm:~# MARKER='JCLV''GWHVPC' run 'i2cget -y -f 1 0x4b 0x10'
JCLVGWHVPC0x36
JCLVGWHVPC 0
root@arm:~# echo 'JMHL''LQBMAU'
JMHLLQBMAU
root@arm:~# MARKER='MEBX''QWLTSQ' run 'echo 1250000 1250000 > /sys/kernel/mva_tesst/regulators/buck2_set'
MEBXQWLTSQMEBXQWLTSQ 0
root@arm:~# echo 'EQFJ''JHWJWY'
EQFJJHWJWY
root@arm:~# MARKER='UQFY''LEPNHF' run 'i2cget -y -f 1 0x4b 0x10'
UQFYLEPNHF0x37
UQFYLEPNHF 0
root@arm:~# echo 'BGAH''LJWAPM'
BGAHLJWAPM
root@arm:~# MARKER='PULO''XUQVBU' run 'echo 1260000 1260000 > /sys/kernel/mva_tesst/regulators/buck2_set'
PULOXUQVBUPULOXUQVBU 0
root@arm:~# echo 'GHFV''PEBOBY'
GHFVPEBOBY
root@arm:~# MARKER='OXVJ''VJCWTW' run 'i2cget -y -f 1 0x4b 0x10'
OXVJVJCWTW0x38
OXVJVJCWTW 0
root@arm:~# echo 'FHLY''SHLJZN'
FHLYSHLJZN
root@arm:~# MARKER='QXAG''VAAVTB' run 'echo 1270000 1270000 > /sys/kernel/mva_tesst/regulators/buck2_set'
QXAGVAAVTBQXAGVAAVTB 0
root@arm:~# echo 'CTFU''YCVVTF'
CTFUYCVVTF
root@arm:~# MARKER='XAZV''KKTCUL' run 'i2cget -y -f 1 0x4b 0x10'
XAZVKKTCUL0x39
XAZVKKTCUL 0
root@arm:~# echo 'ZSKS''OKQWOF'
ZSKSOKQWOF
root@arm:~# MARKER='UOHW''FZGECN' run 'echo 1280000 1280000 > /sys/kernel/mva_tesst/regulators/buck2_set'
UOHWFZGECNUOHWFZGECN 0
root@arm:~# echo 'UGTB''UBJENS'
UGTBUBJENS
root@arm:~# MARKER='MWYE''FSJNQS' run 'i2cget -y -f 1 0x4b 0x10'
MWYEFSJNQS0x3a
MWYEFSJNQS 0
root@arm:~# echo 'ANBK''QEOXKL'
ANBKQEOXKL
root@arm:~# MARKER='AABZ''VTYGAK' run 'echo 1290000 1290000 > /sys/kernel/mva_tesst/regulators/buck2_set'
AABZVTYGAKAABZVTYGAK 0
root@arm:~# echo 'EKZW''JVALNQ'
EKZWJVALNQ
root@arm:~# MARKER='EMLP''JHHWZQ' run 'i2cget -y -f 1 0x4b 0x10'
EMLPJHHWZQ0x3b
EMLPJHHWZQ 0
root@arm:~# echo 'XTXA''HVEPXL'
XTXAHVEPXL
root@arm:~# MARKER='ENCH''PJLJLB' run 'echo 1300000 1300000 > /sys/kernel/mva_tesst/regulators/buck2_set'
ENCHPJLJLBENCHPJLJLB 0
root@arm:~# echo 'TSOQ''JQFBQS'
TSOQJQFBQS
root@arm:~# MARKER='QEGU''EPHLVP' run 'i2cget -y -f 1 0x4b 0x10'
QEGUEPHLVP0x3c
QEGUEPHLVP 0
root@arm:~# echo 'FHAJ''NVNSSO'
FHAJNVNSSO
root@arm:~# MARKER='HELL''VZYKSA' run 'grep -r -l rohm,bd71847 /proc/device-tree  | sed '"'"'s![^/]*$!!'"'"''
HELLVZYKSA/proc/device-tree/ocp/interconnect@48000000/segment@0/target-module@2a000/i2c@0/pmic@4b/
HELLVZYKSA 0
root@arm:~# echo 'VWZG''LGFXJT'
VWZGLGFXJT
root@arm:~# MARKER='PFNW''KQYSWT' run 'test -f /proc/device-tree/ocp/interconnectt\@48000000/segment\@0/target-module\@2a000/i2c\@0/pmic\@4b/regulators/BUCK3/rohmm,no-regulator-enable-control ;echo $?'
PFNWKQYSWT0
PFNWKQYSWT 0
root@arm:~# echo 'BGZF''AZOLKU'
BGZFAZOLKU
root@arm:~# MARKER='WHLE''YPCKLJ' run 'echo 700000 700000 > /sys/kernel/mva_test//regulators/buck3_set'
WHLEYPCKLJWHLEYPCKLJ 0
root@arm:~# echo 'KMBS''JSPXMT'
KMBSJSPXMT
root@arm:~# MARKER='GWUQ''XCJWSN' run 'i2cget -y -f 1 0x4b 0x14'
GWUQXCJWSN0x00
GWUQXCJWSN 0
root@arm:~# echo 'BMNM''AVWUES'
BMNMAVWUES
root@arm:~# MARKER='EAPV''ACTAGZ' run 'echo 800000 800000 > /sys/kernel/mva_test//regulators/buck3_set'
EAPVACTAGZEAPVACTAGZ 0
root@arm:~# echo 'NTQB''VPHYEK'
NTQBVPHYEK
root@arm:~# MARKER='EJEA''EJHQKO' run 'i2cget -y -f 1 0x4b 0x14'
EJEAEJHQKO0x01
EJEAEJHQKO 0
root@arm:~# echo 'GPSH''UOJKEK'
GPSHUOJKEK
root@arm:~# MARKER='YOBF''YSLKOZ' run 'echo 900000 900000 > /sys/kernel/mva_test//regulators/buck3_set'
YOBFYSLKOZYOBFYSLKOZ 0
root@arm:~# echo 'QWGJ''TXPYMU'
QWGJTXPYMU
root@arm:~# MARKER='UPUM''WKWJOY' run 'i2cget -y -f 1 0x4b 0x14'
UPUMWKWJOY0x02
UPUMWKWJOY 0
root@arm:~# echo 'OMXQ''BPPGSF'
OMXQBPPGSF
root@arm:~# MARKER='MXHJ''UBLXYF' run 'echo 1000000 1000000 > /sys/kernel/mva_tesst/regulators/buck3_set'
MXHJUBLXYFMXHJUBLXYF 0
root@arm:~# echo 'BCKZ''XKLBXJ'
BCKZXKLBXJ
root@arm:~# MARKER='HMTJ''XKGTXG' run 'i2cget -y -f 1 0x4b 0x14'
HMTJXKGTXG0x03
HMTJXKGTXG 0
root@arm:~# echo 'LBQU''XXVWYW'
LBQUXXVWYW
root@arm:~# MARKER='QKWX''AQKMOH' run 'echo 1050000 1050000 > /sys/kernel/mva_tesst/regulators/buck3_set'
QKWXAQKMOHQKWXAQKMOH 0
root@arm:~# echo 'WKVQ''FPTJMY'
WKVQFPTJMY
root@arm:~# MARKER='WOXN''AKCSJQ' run 'i2cget -y -f 1 0x4b 0x14'
WOXNAKCSJQ0x04
WOXNAKCSJQ 0
root@arm:~# echo 'WTXV''YQZTKF'
WTXVYQZTKF
root@arm:~# MARKER='TCFF''WLLENS' run 'echo 1100000 1100000 > /sys/kernel/mva_tesst/regulators/buck3_set'
TCFFWLLENSTCFFWLLENS 0
root@arm:~# echo 'OAUY''USEQYU'
OAUYUSEQYU
root@arm:~# MARKER='GXTM''ZPMMNU' run 'i2cget -y -f 1 0x4b 0x14'
GXTMZPMMNU0x05
GXTMZPMMNU 0
root@arm:~# echo 'VAEU''JXKLYE'
VAEUJXKLYE
root@arm:~# MARKER='ZHUV''SQVGXS' run 'echo 1200000 1200000 > /sys/kernel/mva_tesst/regulators/buck3_set'
ZHUVSQVGXSZHUVSQVGXS 0
root@arm:~# echo 'MHJQ''WEXOYS'
MHJQWEXOYS
root@arm:~# MARKER='LBQJ''XWPLUX' run 'i2cget -y -f 1 0x4b 0x14'
LBQJXWPLUX0x06
LBQJXWPLUX 0
root@arm:~# echo 'LOWQ''LANFKJ'
LOWQLANFKJ
root@arm:~# MARKER='UVLA''LGTFJY' run 'echo 1350000 1350000 > /sys/kernel/mva_tesst/regulators/buck3_set'
UVLALGTFJYUVLALGTFJY 0
root@arm:~# echo 'BEWQ''MZAZUB'
BEWQMZAZUB
root@arm:~# MARKER='XCPT''JNHEXN' run 'i2cget -y -f 1 0x4b 0x14'
XCPTJNHEXN0x07
XCPTJNHEXN 0
root@arm:~# echo 'KHUN''BXNTFA'
KHUNBXNTFA
root@arm:~# MARKER='OAKF''LVECKL' run 'echo 550000 550000 > /sys/kernel/mva_test//regulators/buck3_set'
OAKFLVECKLOAKFLVECKL 0
root@arm:~# echo 'TMKL''NXMVWF'
TMKLNXMVWF
root@arm:~# MARKER='YWGB''NQVCZM' run 'i2cget -y -f 1 0x4b 0x14'
YWGBNQVCZM0x40
YWGBNQVCZM 0
root@arm:~# echo 'VOAT''ZCWMNG'
VOATZCWMNG
root@arm:~# MARKER='SQEX''TBZSVZ' run 'echo 600000 600000 > /sys/kernel/mva_test//regulators/buck3_set'
SQEXTBZSVZSQEXTBZSVZ 0
root@arm:~# echo 'HXJL''PLKOOQ'
HXJLPLKOOQ
root@arm:~# MARKER='ZXUW''VBEUZY' run 'i2cget -y -f 1 0x4b 0x14'
ZXUWVBEUZY0x41
ZXUWVBEUZY 0
root@arm:~# echo 'APLX''WOHKWX'
APLXWOHKWX
root@arm:~# MARKER='LWTM''CMZTFB' run 'echo 650000 650000 > /sys/kernel/mva_test//regulators/buck3_set'
LWTMCMZTFBLWTMCMZTFB 0
root@arm:~# echo 'NEXU''PUQQWN'
NEXUPUQQWN
root@arm:~# MARKER='VFTF''VVBEVW' run 'i2cget -y -f 1 0x4b 0x14'
VFTFVVBEVW0x42
VFTFVVBEVW 0
root@arm:~# echo 'JZGF''TOAFAN'
JZGFTOAFAN
root@arm:~# MARKER='YLJZ''VSCBCV' run 'echo 700000 700000 > /sys/kernel/mva_test//regulators/buck3_set'
YLJZVSCBCVYLJZVSCBCV 0
root@arm:~# echo 'LFXA''OYMCYV'
LFXAOYMCYV
root@arm:~# MARKER='KKAC''EOTYHF' run 'i2cget -y -f 1 0x4b 0x14'
KKACEOTYHF0x00
KKACEOTYHF 0
root@arm:~# echo 'YNUS''MGMPEB'
YNUSMGMPEB
root@arm:~# MARKER='EFMP''YQMNVO' run 'echo 750000 750000 > /sys/kernel/mva_test//regulators/buck3_set'
EFMPYQMNVOEFMPYQMNVO 0
root@arm:~# echo 'UEFY''QAYGUP'
UEFYQAYGUP
root@arm:~# MARKER='HAVW''EMOZET' run 'i2cget -y -f 1 0x4b 0x14'
HAVWEMOZET0x44
HAVWEMOZET 0
root@arm:~# echo 'CLOV''CLPZJT'
CLOVCLPZJT
root@arm:~# MARKER='ABCE''BFLQOG' run 'echo 800000 800000 > /sys/kernel/mva_test//regulators/buck3_set'
ABCEBFLQOGABCEBFLQOG 0
root@arm:~# echo 'TLPL''ZCLWZY'
TLPLZCLWZY
root@arm:~# MARKER='LGTS''SFGKUT' run 'i2cget -y -f 1 0x4b 0x14'
LGTSSFGKUT0x01
LGTSSFGKUT 0
root@arm:~# echo 'OCWT''VBWNUS'
OCWTVBWNUS
root@arm:~# MARKER='CEPN''XCQOYV' run 'echo 850000 850000 > /sys/kernel/mva_test//regulators/buck3_set'
CEPNXCQOYVCEPNXCQOYV 0
root@arm:~# echo 'QFJE''GJJCKU'
QFJEGJJCKU
root@arm:~# MARKER='EQLB''TAXMCN' run 'i2cget -y -f 1 0x4b 0x14'
EQLBTAXMCN0x46
EQLBTAXMCN 0
root@arm:~# echo 'MJOY''SSTTXO'
MJOYSSTTXO
root@arm:~# MARKER='ZBUG''LOZGHZ' run 'echo 900000 900000 > /sys/kernel/mva_test//regulators/buck3_set'
ZBUGLOZGHZZBUGLOZGHZ 0
root@arm:~# echo 'YJNF''AKAOUB'
YJNFAKAOUB
root@arm:~# MARKER='VPGA''AWLTQB' run 'i2cget -y -f 1 0x4b 0x14'
VPGAAWLTQB0x02
VPGAAWLTQB 0
root@arm:~# echo 'BAVB''HJXCVH'
BAVBHJXCVH
root@arm:~# MARKER='MKQN''JTMZTA' run 'echo 675000 675000 > /sys/kernel/mva_test//regulators/buck3_set'
MKQNJTMZTAMKQNJTMZTA 0
root@arm:~# echo 'ZMEC''JUHCXQ'
ZMECJUHCXQ
root@arm:~# MARKER='TQVH''MFESHN' run 'i2cget -y -f 1 0x4b 0x14'
TQVHMFESHN0x80
TQVHMFESHN 0
root@arm:~# echo 'ZAJW''FOPOUJ'
ZAJWFOPOUJ
root@arm:~# MARKER='GXAU''TNOHAS' run 'echo 775000 775000 > /sys/kernel/mva_test//regulators/buck3_set'
GXAUTNOHASGXAUTNOHAS 0
root@arm:~# echo 'JHAF''VWKNWY'
JHAFVWKNWY
root@arm:~# MARKER='BTAT''GLBHMY' run 'i2cget -y -f 1 0x4b 0x14'
BTATGLBHMY0x81
BTATGLBHMY 0
root@arm:~# echo 'WESQ''ZBGKAV'
WESQZBGKAV
root@arm:~# MARKER='LEJF''ACVKCP' run 'echo 875000 875000 > /sys/kernel/mva_test//regulators/buck3_set'
LEJFACVKCPLEJFACVKCP 0
root@arm:~# echo 'UQXE''JPLNWJ'
UQXEJPLNWJ
root@arm:~# MARKER='WETE''QKQFLK' run 'i2cget -y -f 1 0x4b 0x14'
WETEQKQFLK0x82
WETEQKQFLK 0
root@arm:~# echo 'TJSB''CPBWEE'
TJSBCPBWEE
root@arm:~# MARKER='HKWA''PYVFBF' run 'echo 975000 975000 > /sys/kernel/mva_test//regulators/buck3_set'
HKWAPYVFBFHKWAPYVFBF 0
root@arm:~# echo 'YTFL''SXGKTS'
YTFLSXGKTS
root@arm:~# MARKER='AAPC''FVEXBC' run 'i2cget -y -f 1 0x4b 0x14'
AAPCFVEXBC0x83
AAPCFVEXBC 0
root@arm:~# echo 'BTLO''UAUPQA'
BTLOUAUPQA
root@arm:~# MARKER='PFQJ''FOJANL' run 'echo 1025000 1025000 > /sys/kernel/mva_tesst/regulators/buck3_set'
PFQJFOJANLPFQJFOJANL 0
root@arm:~# echo 'PHAA''AGELYJ'
PHAAAGELYJ
root@arm:~# MARKER='LYNM''KXVAFS' run 'i2cget -y -f 1 0x4b 0x14'
LYNMKXVAFS0x84
LYNMKXVAFS 0
root@arm:~# echo 'NNWM''QBYTQQ'
NNWMQBYTQQ
root@arm:~# MARKER='WKYX''BWLHLO' run 'echo 1075000 1075000 > /sys/kernel/mva_tesst/regulators/buck3_set'
WKYXBWLHLOWKYXBWLHLO 0
root@arm:~# echo 'FMJZ''ZBVUQK'
FMJZZBVUQK
root@arm:~# MARKER='YZBE''XOPABH' run 'i2cget -y -f 1 0x4b 0x14'
YZBEXOPABH0x85
YZBEXOPABH 0
root@arm:~# echo 'YSNF''EUNZKW'
YSNFEUNZKW
root@arm:~# MARKER='UTPF''JMOOQN' run 'echo 1175000 1175000 > /sys/kernel/mva_tesst/regulators/buck3_set'
UTPFJMOOQNUTPFJMOOQN 0
root@arm:~# echo 'JQYV''PJYGVB'
JQYVPJYGVB
root@arm:~# MARKER='CHUV''TBJVYL' run 'i2cget -y -f 1 0x4b 0x14'
CHUVTBJVYL0x86
CHUVTBJVYL 0
root@arm:~# echo 'FPZV''PBVSON'
FPZVPBVSON
root@arm:~# MARKER='EVQY''QGQSZM' run 'echo 1325000 1325000 > /sys/kernel/mva_tesst/regulators/buck3_set'
EVQYQGQSZMEVQYQGQSZM 0
root@arm:~# echo 'EBEF''PPOWUN'
EBEFPPOWUN
root@arm:~# MARKER='TYKG''FVYWWV' run 'i2cget -y -f 1 0x4b 0x14'
TYKGFVYWWV0x87
TYKGFVYWWV 0
root@arm:~# echo 'PPGJ''NUPLCZ'
PPGJNUPLCZ
root@arm:~# MARKER='YAJH''CWFCGG' run 'grep -r -l rohm,bd71847 /proc/device-tree  | sed '"'"'s![^/]*$!!'"'"''
YAJHCWFCGG/proc/device-tree/ocp/interconnect@48000000/segment@0/target-module@2a000/i2c@0/pmic@4b/
YAJHCWFCGG 0
root@arm:~# echo 'YEZZ''JCNCNP'
YEZZJCNCNP
root@arm:~# MARKER='YNNS''TAKKYJ' run 'test -f /proc/device-tree/ocp/interconnectt\@48000000/segment\@0/target-module\@2a000/i2c\@0/pmic\@4b/regulators/BUCK4/rohmm,no-regulator-enable-control ;echo $?'
YNNSTAKKYJ1
YNNSTAKKYJ 0
root@arm:~# echo 'GZTT''PLOYXU'
GZTTPLOYXU
root@arm:~# MARKER='THLP''YHFBHG' run 'i2cget -y -f 1 0x4b 0xa'
THLPYHFBHG0x02
THLPYHFBHG 0
root@arm:~# echo 'UCGF''TBWHJL'
UCGFTBWHJL
root@arm:~# MARKER='WVXW''ZLZWSH' run 'echo 3000000 3000000 > /sys/kernel/mva_tesst/regulators/buck4_set'
WVXWZLZWSHWVXWZLZWSH 0
root@arm:~# echo 'NLKC''ZUGAFA'
NLKCZUGAFA
root@arm:~# MARKER='LLFH''LOAYAJ' run 'i2cget -y -f 1 0x4b 0x15'
LLFHLOAYAJ0x00
LLFHLOAYAJ 0
root@arm:~# echo 'SFKJ''LEJHKT'
SFKJLEJHKT
root@arm:~# MARKER='AOMP''ZVSWSQ' run 'echo 3100000 3100000 > /sys/kernel/mva_tesst/regulators/buck4_set'
AOMPZVSWSQAOMPZVSWSQ 0
root@arm:~# echo 'VBBC''NPJEXB'
VBBCNPJEXB
root@arm:~# MARKER='LCXG''NSVZJS' run 'i2cget -y -f 1 0x4b 0x15'
LCXGNSVZJS0x01
LCXGNSVZJS 0
root@arm:~# echo 'LGWX''QFGXZW'
LGWXQFGXZW
root@arm:~# MARKER='QZVG''CKMFKF' run 'echo 3200000 3200000 > /sys/kernel/mva_tesst/regulators/buck4_set'
QZVGCKMFKFQZVGCKMFKF 0
root@arm:~# echo 'WGHA''MMQPZA'
WGHAMMQPZA
root@arm:~# MARKER='XVKC''YWVZHF' run 'i2cget -y -f 1 0x4b 0x15'
XVKCYWVZHF0x02
XVKCYWVZHF 0
root@arm:~# echo 'SQJO''HOGVWB'
SQJOHOGVWB
root@arm:~# MARKER='FUCC''AJLBSL' run 'echo 3300000 3300000 > /sys/kernel/mva_tesst/regulators/buck4_set'
FUCCAJLBSLFUCCAJLBSL 0
root@arm:~# echo 'YKCL''CJFMJX'
YKCLCJFMJX
root@arm:~# MARKER='WBPM''CTGOPN' run 'i2cget -y -f 1 0x4b 0x15'
WBPMCTGOPN0x03
WBPMCTGOPN 0
root@arm:~# echo 'SZHQ''OJQOUK'
SZHQOJQOUK
root@arm:~# MARKER='EWFN''VUHKPF' run 'echo 2600000 2600000 > /sys/kernel/mva_tesst/regulators/buck4_set'
EWFNVUHKPFEWFNVUHKPF 0
root@arm:~# echo 'BLGW''HMHJTH'
BLGWHMHJTH
root@arm:~# MARKER='XNUB''XVNGLW' run 'i2cget -y -f 1 0x4b 0x15'
XNUBXVNGLW0x40
XNUBXVNGLW 0
root@arm:~# echo 'XOGU''ZOVOFW'
XOGUZOVOFW
root@arm:~# MARKER='MAHS''SFWPOG' run 'echo 2700000 2700000 > /sys/kernel/mva_tesst/regulators/buck4_set'
MAHSSFWPOGMAHSSFWPOG 0
root@arm:~# echo 'NEGP''EBBWEJ'
NEGPEBBWEJ
root@arm:~# MARKER='GMTF''JEWGJC' run 'i2cget -y -f 1 0x4b 0x15'
GMTFJEWGJC0x41
GMTFJEWGJC 0
root@arm:~# echo 'FJSA''WAYUMB'
FJSAWAYUMB
root@arm:~# MARKER='ZCBP''BGCUPO' run 'echo 2800000 2800000 > /sys/kernel/mva_tesst/regulators/buck4_set'
ZCBPBGCUPOZCBPBGCUPO 0
root@arm:~# echo 'CPOW''JJXTYU'
CPOWJJXTYU
root@arm:~# MARKER='YTXA''UCTWVB' run 'i2cget -y -f 1 0x4b 0x15'
YTXAUCTWVB0x42
YTXAUCTWVB 0
root@arm:~# echo 'ZWTO''ZNNWAS'
ZWTOZNNWAS
root@arm:~# MARKER='BPFO''SCBTWQ' run 'echo 2900000 2900000 > /sys/kernel/mva_tesst/regulators/buck4_set'
BPFOSCBTWQBPFOSCBTWQ 0
root@arm:~# echo 'GZCH''ZYLNPN'
GZCHZYLNPN
root@arm:~# MARKER='AYLQ''KCVYUO' run 'i2cget -y -f 1 0x4b 0x15'
AYLQKCVYUO0x43
AYLQKCVYUO 0
root@arm:~# echo 'KYJL''WBEMFX'
KYJLWBEMFX
root@arm:~# MARKER='XKLU''OEQGEC' run 'grep -r -l rohm,bd71847 /proc/device-tree  | sed '"'"'s![^/]*$!!'"'"''
XKLUOEQGEC/proc/device-tree/ocp/interconnect@48000000/segment@0/target-module@2a000/i2c@0/pmic@4b/
XKLUOEQGEC 0
root@arm:~# echo 'BQBA''XGPYNY'
BQBAXGPYNY
root@arm:~# MARKER='KLCX''VVAMUJ' run 'test -f /proc/device-tree/ocp/interconnectt\@48000000/segment\@0/target-module\@2a000/i2c\@0/pmic\@4b/regulators/BUCK5/rohmm,no-regulator-enable-control ;echo $?'
KLCXVVAMUJ1
KLCXVVAMUJ 0
root@arm:~# echo 'FVQZ''PZFECG'
FVQZPZFECG
root@arm:~# MARKER='AYPM''VHQPJF' run 'i2cget -y -f 1 0x4b 0xb'
AYPMVHQPJF0x02
AYPMVHQPJF 0
root@arm:~# echo 'FFHN''OTUNQN'
FFHNOTUNQN
root@arm:~# MARKER='YZFB''AZZQAC' run 'echo 1605000 1605000 > /sys/kernel/mva_tesst/regulators/buck5_set'
YZFBAZZQACYZFBAZZQAC 0
root@arm:~# echo 'SWJY''TSBNJV'
SWJYTSBNJV
root@arm:~# MARKER='YEXH''VTBCGN' run 'i2cget -y -f 1 0x4b 0x16'
YEXHVTBCGN0x00
YEXHVTBCGN 0
root@arm:~# echo 'HZKN''WGKNHG'
HZKNWGKNHG
root@arm:~# MARKER='YMGN''NVYMNM' run 'echo 1695000 1695000 > /sys/kernel/mva_tesst/regulators/buck5_set'
YMGNNVYMNMYMGNNVYMNM 0
root@arm:~# echo 'HLWK''UPONJX'
HLWKUPONJX
root@arm:~# MARKER='ZFMH''MVFNGZ' run 'i2cget -y -f 1 0x4b 0x16'
ZFMHMVFNGZ0x01
ZFMHMVFNGZ 0
root@arm:~# echo 'NUTT''TYNZUN'
NUTTTYNZUN
root@arm:~# MARKER='XMOJ''YTPJWW' run 'echo 1755000 1755000 > /sys/kernel/mva_tesst/regulators/buck5_set'
XMOJYTPJWWXMOJYTPJWW 0
root@arm:~# echo 'EFZQ''CWOEJS'
EFZQCWOEJS
root@arm:~# MARKER='MQNB''AAFVLW' run 'i2cget -y -f 1 0x4b 0x16'
MQNBAAFVLW0x02
MQNBAAFVLW 0
root@arm:~# echo 'BJUX''WONOAG'
BJUXWONOAG
root@arm:~# MARKER='GHXW''XVGXZN' run 'echo 1800000 1800000 > /sys/kernel/mva_tesst/regulators/buck5_set'
GHXWXVGXZNGHXWXVGXZN 0
root@arm:~# echo 'MLEL''BYOOUM'
MLELBYOOUM
root@arm:~# MARKER='MOVU''LCFOZC' run 'i2cget -y -f 1 0x4b 0x16'
MOVULCFOZC0x03
MOVULCFOZC 0
root@arm:~# echo 'VWPK''TUWSCC'
VWPKTUWSCC
root@arm:~# MARKER='MNVQ''WCMTOO' run 'echo 1845000 1845000 > /sys/kernel/mva_tesst/regulators/buck5_set'
MNVQWCMTOOMNVQWCMTOO 0
root@arm:~# echo 'YTXT''VJOZTL'
YTXTVJOZTL
root@arm:~# MARKER='MEQN''QAPOJJ' run 'i2cget -y -f 1 0x4b 0x16'
MEQNQAPOJJ0x04
MEQNQAPOJJ 0
root@arm:~# echo 'XVVG''JWNCHS'
XVVGJWNCHS
root@arm:~# MARKER='TLGH''NCTUMW' run 'echo 1905000 1905000 > /sys/kernel/mva_tesst/regulators/buck5_set'
TLGHNCTUMWTLGHNCTUMW 0
root@arm:~# echo 'QLBT''PGVWPO'
QLBTPGVWPO
root@arm:~# MARKER='AOHY''SZZVZF' run 'i2cget -y -f 1 0x4b 0x16'
AOHYSZZVZF0x05
AOHYSZZVZF 0
root@arm:~# echo 'VLKZ''JKQUCG'
VLKZJKQUCG
root@arm:~# MARKER='WWUO''VYTZUL' run 'echo 1950000 1950000 > /sys/kernel/mva_tesst/regulators/buck5_set'
WWUOVYTZULWWUOVYTZUL 0
root@arm:~# echo 'MCFO''EUNYVN'
MCFOEUNYVN
root@arm:~# MARKER='VNGN''WFESGH' run 'i2cget -y -f 1 0x4b 0x16'
VNGNWFESGH0x06
VNGNWFESGH 0
root@arm:~# echo 'MPYP''GGLLLU'
MPYPGGLLLU
root@arm:~# MARKER='KFZE''JBKBNX' run 'echo 1995000 1995000 > /sys/kernel/mva_tesst/regulators/buck5_set'
KFZEJBKBNXKFZEJBKBNX 0
root@arm:~# echo 'GZHZ''UZGMKB'
GZHZUZGMKB
root@arm:~# MARKER='PHYH''EBYOHZ' run 'i2cget -y -f 1 0x4b 0x16'
PHYHEBYOHZ0x07
PHYHEBYOHZ 0
root@arm:~# echo 'EGCJ''NHGZWK'
EGCJNHGZWK
root@arm:~# MARKER='QMMS''MKUMNJ' run 'grep -r -l rohm,bd71847 /proc/device-tree  | sed '"'"'s![^/]*$!!'"'"''
QMMSMKUMNJ/proc/device-tree/ocp/interconnect@48000000/segment@0/target-module@2a000/i2c@0/pmic@4b/
QMMSMKUMNJ 0
root@arm:~# echo 'WSHJ''ZXVGYA'
WSHJZXVGYA
root@arm:~# MARKER='SCWY''KOXBYP' run 'test -f /proc/device-tree/ocp/interconnectt\@48000000/segment\@0/target-module\@2a000/i2c\@0/pmic\@4b/regulators/BUCK6/rohmm,no-regulator-enable-control ;echo $?'
SCWYKOXBYP1
SCWYKOXBYP 0
root@arm:~# echo 'BTQL''NAOTLN'
BTQLNAOTLN
root@arm:~# MARKER='ZZCL''JSLCYJ' run 'i2cget -y -f 1 0x4b 0xc'
ZZCLJSLCYJ0x02
ZZCLJSLCYJ 0
root@arm:~# echo 'GYTZ''NTHTEE'
GYTZNTHTEE
root@arm:~# MARKER='ZZGA''YAOYYQ' run 'echo 800000 800000 > /sys/kernel/mva_test//regulators/buck6_set'
ZZGAYAOYYQZZGAYAOYYQ 0
root@arm:~# echo 'ATHQ''PVQBAW'
ATHQPVQBAW
root@arm:~# MARKER='ENHK''PFASQS' run 'i2cget -y -f 1 0x4b 0x17'
ENHKPFASQS0x00
ENHKPFASQS 0
root@arm:~# echo 'JYVF''CPJWMX'
JYVFCPJWMX
root@arm:~# MARKER='EAAU''MMKAPY' run 'echo 810000 810000 > /sys/kernel/mva_test//regulators/buck6_set'
EAAUMMKAPYEAAUMMKAPY 0
root@arm:~# echo 'VUTN''ONBTMQ'
VUTNONBTMQ
root@arm:~# MARKER='YLWG''WWPTPF' run 'i2cget -y -f 1 0x4b 0x17'
YLWGWWPTPF0x01
YLWGWWPTPF 0
root@arm:~# echo 'CKGB''QFLSYJ'
CKGBQFLSYJ
root@arm:~# MARKER='PMQV''LPAXNZ' run 'echo 820000 820000 > /sys/kernel/mva_test//regulators/buck6_set'
PMQVLPAXNZPMQVLPAXNZ 0
root@arm:~# echo 'YBME''BFCXXL'
YBMEBFCXXL
root@arm:~# MARKER='AFWM''OOSCWT' run 'i2cget -y -f 1 0x4b 0x17'
AFWMOOSCWT0x02
AFWMOOSCWT 0
root@arm:~# echo 'FOLL''SYJNMO'
FOLLSYJNMO
root@arm:~# MARKER='KUMQ''JZQSVO' run 'echo 830000 830000 > /sys/kernel/mva_test//regulators/buck6_set'
KUMQJZQSVOKUMQJZQSVO 0
root@arm:~# echo 'YTHW''JCYCNX'
YTHWJCYCNX
root@arm:~# MARKER='YKLV''LPFBUK' run 'i2cget -y -f 1 0x4b 0x17'
YKLVLPFBUK0x03
YKLVLPFBUK 0
root@arm:~# echo 'KETH''HSOWZM'
KETHHSOWZM
root@arm:~# MARKER='NCWL''PHHWHF' run 'echo 840000 840000 > /sys/kernel/mva_test//regulators/buck6_set'
NCWLPHHWHFNCWLPHHWHF 0
root@arm:~# echo 'ESNK''WNLVUO'
ESNKWNLVUO
root@arm:~# MARKER='ELNJ''LFQTKE' run 'i2cget -y -f 1 0x4b 0x17'
ELNJLFQTKE0x04
ELNJLFQTKE 0
root@arm:~# echo 'ASVJ''LGLKOC'
ASVJLGLKOC
root@arm:~# MARKER='QFNQ''CUYXYJ' run 'echo 850000 850000 > /sys/kernel/mva_test//regulators/buck6_set'
QFNQCUYXYJQFNQCUYXYJ 0
root@arm:~# echo 'VFUZ''NUSOHP'
VFUZNUSOHP
root@arm:~# MARKER='HEFE''ULZMLH' run 'i2cget -y -f 1 0x4b 0x17'
HEFEULZMLH0x05
HEFEULZMLH 0
root@arm:~# echo 'HBYW''UVLKJC'
HBYWUVLKJC
root@arm:~# MARKER='XWYB''HXWWOP' run 'echo 860000 860000 > /sys/kernel/mva_test//regulators/buck6_set'
XWYBHXWWOPXWYBHXWWOP 0
root@arm:~# echo 'CCHV''QJUAEA'
CCHVQJUAEA
root@arm:~# MARKER='CHQW''VZXFPO' run 'i2cget -y -f 1 0x4b 0x17'
CHQWVZXFPO0x06
CHQWVZXFPO 0
root@arm:~# echo 'CENS''SHWVXA'
CENSSHWVXA
root@arm:~# MARKER='AGHZ''CXNQSB' run 'echo 870000 870000 > /sys/kernel/mva_test//regulators/buck6_set'
AGHZCXNQSBAGHZCXNQSB 0
root@arm:~# echo 'MKYV''SNOUVH'
MKYVSNOUVH
root@arm:~# MARKER='HPLT''WYUMXF' run 'i2cget -y -f 1 0x4b 0x17'
HPLTWYUMXF0x07
HPLTWYUMXF 0
root@arm:~# echo 'HPYP''QZQHPQ'
HPYPQZQHPQ
root@arm:~# MARKER='UNOH''CUHOVF' run 'echo 880000 880000 > /sys/kernel/mva_test//regulators/buck6_set'
UNOHCUHOVFUNOHCUHOVF 0
root@arm:~# echo 'JFTB''GBHJVB'
JFTBGBHJVB
root@arm:~# MARKER='QHSQ''HWCJQW' run 'i2cget -y -f 1 0x4b 0x17'
QHSQHWCJQW0x08
QHSQHWCJQW 0
root@arm:~# echo 'JMMM''QHYSTB'
JMMMQHYSTB
root@arm:~# MARKER='APVJ''QQHASK' run 'echo 890000 890000 > /sys/kernel/mva_test//regulators/buck6_set'
APVJQQHASKAPVJQQHASK 0
root@arm:~# echo 'QTWM''SCVHHK'
QTWMSCVHHK
root@arm:~# MARKER='GOWJ''GHJUFM' run 'i2cget -y -f 1 0x4b 0x17'
GOWJGHJUFM0x09
GOWJGHJUFM 0
root@arm:~# echo 'PNQY''SCWCXW'
PNQYSCWCXW
root@arm:~# MARKER='MWLB''PMNBWV' run 'echo 900000 900000 > /sys/kernel/mva_test//regulators/buck6_set'
MWLBPMNBWVMWLBPMNBWV 0
root@arm:~# echo 'MNTM''QTJUON'
MNTMQTJUON
root@arm:~# MARKER='TBCC''ZBTOEY' run 'i2cget -y -f 1 0x4b 0x17'
TBCCZBTOEY0x0a
TBCCZBTOEY 0
root@arm:~# echo 'YNCX''UFQNVY'
YNCXUFQNVY
root@arm:~# MARKER='ZKVT''GNSMCQ' run 'echo 910000 910000 > /sys/kernel/mva_test//regulators/buck6_set'
ZKVTGNSMCQZKVTGNSMCQ 0
root@arm:~# echo 'MVUK''ZPZEQL'
MVUKZPZEQL
root@arm:~# MARKER='JJWT''GOUAZX' run 'i2cget -y -f 1 0x4b 0x17'
JJWTGOUAZX0x0b
JJWTGOUAZX 0
root@arm:~# echo 'ULQP''OVXWVF'
ULQPOVXWVF
root@arm:~# MARKER='KGQL''PJLEOQ' run 'echo 920000 920000 > /sys/kernel/mva_test//regulators/buck6_set'
KGQLPJLEOQKGQLPJLEOQ 0
root@arm:~# echo 'MTOT''GSHXSS'
MTOTGSHXSS
root@arm:~# MARKER='CYCA''SVXULT' run 'i2cget -y -f 1 0x4b 0x17'
CYCASVXULT0x0c
CYCASVXULT 0
root@arm:~# echo 'QCUV''FEJZKV'
QCUVFEJZKV
root@arm:~# MARKER='GENM''WEKLCL' run 'echo 930000 930000 > /sys/kernel/mva_test//regulators/buck6_set'
GENMWEKLCLGENMWEKLCL 0
root@arm:~# echo 'QYYK''UPAUGT'
QYYKUPAUGT
root@arm:~# MARKER='UCBH''FXZLAA' run 'i2cget -y -f 1 0x4b 0x17'
UCBHFXZLAA0x0d
UCBHFXZLAA 0
root@arm:~# echo 'UKPE''TGJUPO'
UKPETGJUPO
root@arm:~# MARKER='PBTW''LKGWAK' run 'echo 940000 940000 > /sys/kernel/mva_test//regulators/buck6_set'
PBTWLKGWAKPBTWLKGWAK 0
root@arm:~# echo 'MACW''HHTQGA'
MACWHHTQGA
root@arm:~# MARKER='YEVW''BCFLYC' run 'i2cget -y -f 1 0x4b 0x17'
YEVWBCFLYC0x0e
YEVWBCFLYC 0
root@arm:~# echo 'PKKG''CZZYOL'
PKKGCZZYOL
root@arm:~# MARKER='SVFX''GNCUCC' run 'echo 950000 950000 > /sys/kernel/mva_test//regulators/buck6_set'
SVFXGNCUCCSVFXGNCUCC 0
root@arm:~# echo 'MVVM''LBCZMY'
MVVMLBCZMY
root@arm:~# MARKER='SGHJ''MHUZKJ' run 'i2cget -y -f 1 0x4b 0x17'
SGHJMHUZKJ0x0f
SGHJMHUZKJ 0
root@arm:~# echo 'UMQA''MVUHXN'
UMQAMVUHXN
root@arm:~# MARKER='XSJE''YMLXXT' run 'echo 960000 960000 > /sys/kernel/mva_test//regulators/buck6_set'
XSJEYMLXXTXSJEYMLXXT 0
root@arm:~# echo 'JBFC''ZMHJWT'
JBFCZMHJWT
root@arm:~# MARKER='HQLM''SMSWBO' run 'i2cget -y -f 1 0x4b 0x17'
HQLMSMSWBO0x10
HQLMSMSWBO 0
root@arm:~# echo 'ETMA''LXKHTG'
ETMALXKHTG
root@arm:~# MARKER='CSKX''LJZMOM' run 'echo 970000 970000 > /sys/kernel/mva_test//regulators/buck6_set'
CSKXLJZMOMCSKXLJZMOM 0
root@arm:~# echo 'JJVM''KUOELE'
JJVMKUOELE
root@arm:~# MARKER='JMFN''OQAPHJ' run 'i2cget -y -f 1 0x4b 0x17'
JMFNOQAPHJ0x11
JMFNOQAPHJ 0
root@arm:~# echo 'MJYM''OYNMLB'
MJYMOYNMLB
root@arm:~# MARKER='JGVP''NBVGBE' run 'echo 980000 980000 > /sys/kernel/mva_test//regulators/buck6_set'
JGVPNBVGBEJGVPNBVGBE 0
root@arm:~# echo 'OGQU''OGXLKX'
OGQUOGXLKX
root@arm:~# MARKER='MXLB''NUJWJC' run 'i2cget -y -f 1 0x4b 0x17'
MXLBNUJWJC0x12
MXLBNUJWJC 0
root@arm:~# echo 'THUW''XVLLUU'
THUWXVLLUU
root@arm:~# MARKER='PKHO''BNBAOU' run 'echo 990000 990000 > /sys/kernel/mva_test//regulators/buck6_set'
PKHOBNBAOUPKHOBNBAOU 0
root@arm:~# echo 'QAPS''LBNYPP'
QAPSLBNYPP
root@arm:~# MARKER='WMNP''SBMMYW' run 'i2cget -y -f 1 0x4b 0x17'
WMNPSBMMYW0x13
WMNPSBMMYW 0
root@arm:~# echo 'YKVM''TNUVCF'
YKVMTNUVCF
root@arm:~# MARKER='ZUXO''BSLTKA' run 'echo 1000000 1000000 > /sys/kernel/mva_tesst/regulators/buck6_set'
ZUXOBSLTKAZUXOBSLTKA 0
root@arm:~# echo 'GNUA''NTTQTF'
GNUANTTQTF
root@arm:~# MARKER='AJAC''QYWBKH' run 'i2cget -y -f 1 0x4b 0x17'
AJACQYWBKH0x14
AJACQYWBKH 0
root@arm:~# echo 'AVNF''FSCUWV'
AVNFFSCUWV
root@arm:~# MARKER='XQBZ''BPZTHF' run 'echo 1010000 1010000 > /sys/kernel/mva_tesst/regulators/buck6_set'
XQBZBPZTHFXQBZBPZTHF 0
root@arm:~# echo 'YBBT''WNHLJP'
YBBTWNHLJP
root@arm:~# MARKER='HUPU''SZFNKL' run 'i2cget -y -f 1 0x4b 0x17'
HUPUSZFNKL0x15
HUPUSZFNKL 0
root@arm:~# echo 'QHWS''PFSNUM'
QHWSPFSNUM
root@arm:~# MARKER='ENQQ''OOKLCV' run 'echo 1020000 1020000 > /sys/kernel/mva_tesst/regulators/buck6_set'
ENQQOOKLCVENQQOOKLCV 0
root@arm:~# echo 'UMQQ''WUOPFG'
UMQQWUOPFG
root@arm:~# MARKER='TTSB''MQCVGP' run 'i2cget -y -f 1 0x4b 0x17'
TTSBMQCVGP0x16
TTSBMQCVGP 0
root@arm:~# echo 'HYXE''FPBSQF'
HYXEFPBSQF
root@arm:~# MARKER='NMMZ''MYSHWH' run 'echo 1030000 1030000 > /sys/kernel/mva_tesst/regulators/buck6_set'
NMMZMYSHWHNMMZMYSHWH 0
root@arm:~# echo 'FTTT''UUEASF'
FTTTUUEASF
root@arm:~# MARKER='KCHT''PFWBXH' run 'i2cget -y -f 1 0x4b 0x17'
KCHTPFWBXH0x17
KCHTPFWBXH 0
root@arm:~# echo 'JSLY''YOJGGL'
JSLYYOJGGL
root@arm:~# MARKER='LOSL''HHXBSL' run 'echo 1040000 1040000 > /sys/kernel/mva_tesst/regulators/buck6_set'
LOSLHHXBSLLOSLHHXBSL 0
root@arm:~# echo 'OAPE''SBKFZC'
OAPESBKFZC
root@arm:~# MARKER='FLAO''EAWNAC' run 'i2cget -y -f 1 0x4b 0x17'
FLAOEAWNAC0x18
FLAOEAWNAC 0
root@arm:~# echo 'AQSY''LPFGNS'
AQSYLPFGNS
root@arm:~# MARKER='VCCN''XSKHXQ' run 'echo 1050000 1050000 > /sys/kernel/mva_tesst/regulators/buck6_set'
VCCNXSKHXQVCCNXSKHXQ 0
root@arm:~# echo 'UGFZ''HOFPGJ'
UGFZHOFPGJ
root@arm:~# MARKER='UHMK''YBUTLS' run 'i2cget -y -f 1 0x4b 0x17'
UHMKYBUTLS0x19
UHMKYBUTLS 0
root@arm:~# echo 'BGYZ''CZANSM'
BGYZCZANSM
root@arm:~# MARKER='PLSB''QMYXKU' run 'echo 1060000 1060000 > /sys/kernel/mva_tesst/regulators/buck6_set'
PLSBQMYXKUPLSBQMYXKU 0
root@arm:~# echo 'WVEE''EGSTAF'
WVEEEGSTAF
root@arm:~# MARKER='ZNWZ''GFYLML' run 'i2cget -y -f 1 0x4b 0x17'
ZNWZGFYLML0x1a
ZNWZGFYLML 0
root@arm:~# echo 'TGGS''ENXZCP'
TGGSENXZCP
root@arm:~# MARKER='WCGV''ZHUNZP' run 'echo 1070000 1070000 > /sys/kernel/mva_tesst/regulators/buck6_set'
WCGVZHUNZPWCGVZHUNZP 0
root@arm:~# echo 'FJSH''MPPLJH'
FJSHMPPLJH
root@arm:~# MARKER='ZPST''LPCNPQ' run 'i2cget -y -f 1 0x4b 0x17'
ZPSTLPCNPQ0x1b
ZPSTLPCNPQ 0
root@arm:~# echo 'KXPN''KNNAQS'
KXPNKNNAQS
root@arm:~# MARKER='HCCE''VNKLGU' run 'echo 1080000 1080000 > /sys/kernel/mva_tesst/regulators/buck6_set'
HCCEVNKLGUHCCEVNKLGU 0
root@arm:~# echo 'LZOO''BEJHWK'
LZOOBEJHWK
root@arm:~# MARKER='HASO''FQTEKT' run 'i2cget -y -f 1 0x4b 0x17'
HASOFQTEKT0x1c
HASOFQTEKT 0
root@arm:~# echo 'JNSG''ATFSJV'
JNSGATFSJV
root@arm:~# MARKER='LHMB''GAQTWY' run 'echo 1090000 1090000 > /sys/kernel/mva_tesst/regulators/buck6_set'
LHMBGAQTWYLHMBGAQTWY 0
root@arm:~# echo 'NQBP''LUKAGY'
NQBPLUKAGY
root@arm:~# MARKER='NCEF''KUHEEB' run 'i2cget -y -f 1 0x4b 0x17'
NCEFKUHEEB0x1d
NCEFKUHEEB 0
root@arm:~# echo 'TWKX''CMATSK'
TWKXCMATSK
root@arm:~# MARKER='BZMO''CGSALO' run 'echo 1100000 1100000 > /sys/kernel/mva_tesst/regulators/buck6_set'
BZMOCGSALOBZMOCGSALO 0
root@arm:~# echo 'ZCXO''BSAVOO'
ZCXOBSAVOO
root@arm:~# MARKER='UWMX''OALVTU' run 'i2cget -y -f 1 0x4b 0x17'
UWMXOALVTU0x1e
UWMXOALVTU 0
root@arm:~# echo 'PQOE''WYCKCT'
PQOEWYCKCT
root@arm:~# MARKER='WFTY''MXHQOQ' run 'echo 1110000 1110000 > /sys/kernel/mva_tesst/regulators/buck6_set'
WFTYMXHQOQWFTYMXHQOQ 0
root@arm:~# echo 'JEBF''JYTMUO'
JEBFJYTMUO
root@arm:~# MARKER='BTLM''VQFYVO' run 'i2cget -y -f 1 0x4b 0x17'
BTLMVQFYVO0x1f
BTLMVQFYVO 0
root@arm:~# echo 'ZJPQ''NFSBQB'
ZJPQNFSBQB
root@arm:~# MARKER='KKFL''XAQBOA' run 'echo 1120000 1120000 > /sys/kernel/mva_tesst/regulators/buck6_set'
KKFLXAQBOAKKFLXAQBOA 0
root@arm:~# echo 'QCVU''HXZOVM'
QCVUHXZOVM
root@arm:~# MARKER='SOGW''JOHLCS' run 'i2cget -y -f 1 0x4b 0x17'
SOGWJOHLCS0x20
SOGWJOHLCS 0
root@arm:~# echo 'HAUP''OZHAMA'
HAUPOZHAMA
root@arm:~# MARKER='OMKT''QOTCEK' run 'echo 1130000 1130000 > /sys/kernel/mva_tesst/regulators/buck6_set'
OMKTQOTCEKOMKTQOTCEK 0
root@arm:~# echo 'QCKX''VBBVKV'
QCKXVBBVKV
root@arm:~# MARKER='VGAN''AEMFAM' run 'i2cget -y -f 1 0x4b 0x17'
VGANAEMFAM0x21
VGANAEMFAM 0
root@arm:~# echo 'VAPO''QTKWSX'
VAPOQTKWSX
root@arm:~# MARKER='XCYE''XNTKCQ' run 'echo 1140000 1140000 > /sys/kernel/mva_tesst/regulators/buck6_set'
XCYEXNTKCQXCYEXNTKCQ 0
root@arm:~# echo 'JPOT''GQOJFK'
JPOTGQOJFK
root@arm:~# MARKER='EZGG''VFVLHZ' run 'i2cget -y -f 1 0x4b 0x17'
EZGGVFVLHZ0x22
EZGGVFVLHZ 0
root@arm:~# echo 'SYPH''MVMFBB'
SYPHMVMFBB
root@arm:~# MARKER='JTTA''GZKSKN' run 'echo 1150000 1150000 > /sys/kernel/mva_tesst/regulators/buck6_set'
JTTAGZKSKNJTTAGZKSKN 0
root@arm:~# echo 'ZCZV''CLSPWL'
ZCZVCLSPWL
root@arm:~# MARKER='OAMY''LJVEJL' run 'i2cget -y -f 1 0x4b 0x17'
OAMYLJVEJL0x23
OAMYLJVEJL 0
root@arm:~# echo 'GQML''QYXHJV'
GQMLQYXHJV
root@arm:~# MARKER='APHB''JLFFVJ' run 'echo 1160000 1160000 > /sys/kernel/mva_tesst/regulators/buck6_set'
APHBJLFFVJAPHBJLFFVJ 0
root@arm:~# echo 'EVJV''FEFANZ'
EVJVFEFANZ
root@arm:~# MARKER='KCTN''JSQBGK' run 'i2cget -y -f 1 0x4b 0x17'
KCTNJSQBGK0x24
KCTNJSQBGK 0
root@arm:~# echo 'QATK''YOCKJF'
QATKYOCKJF
root@arm:~# MARKER='WNKY''KVCCJJ' run 'echo 1170000 1170000 > /sys/kernel/mva_tesst/regulators/buck6_set'
WNKYKVCCJJWNKYKVCCJJ 0
root@arm:~# echo 'KUHW''YJGGBQ'
KUHWYJGGBQ
root@arm:~# MARKER='PJBG''FCVOPL' run 'i2cget -y -f 1 0x4b 0x17'
PJBGFCVOPL0x25
PJBGFCVOPL 0
root@arm:~# echo 'OABH''LXQUHH'
OABHLXQUHH
root@arm:~# MARKER='VPFU''XQNVYA' run 'echo 1180000 1180000 > /sys/kernel/mva_tesst/regulators/buck6_set'
VPFUXQNVYAVPFUXQNVYA 0
root@arm:~# echo 'ZMLY''VKYGPC'
ZMLYVKYGPC
root@arm:~# MARKER='ETOS''XVPXBW' run 'i2cget -y -f 1 0x4b 0x17'
ETOSXVPXBW0x26
ETOSXVPXBW 0
root@arm:~# echo 'GFWA''TOTFCY'
GFWATOTFCY
root@arm:~# MARKER='EAPU''ZPZEXN' run 'echo 1190000 1190000 > /sys/kernel/mva_tesst/regulators/buck6_set'
EAPUZPZEXNEAPUZPZEXN 0
root@arm:~# echo 'EPWX''YMGQFT'
EPWXYMGQFT
root@arm:~# MARKER='GMVU''UAHJOX' run 'i2cget -y -f 1 0x4b 0x17'
GMVUUAHJOX0x27
GMVUUAHJOX 0
root@arm:~# echo 'NWOX''FGEHKN'
NWOXFGEHKN
root@arm:~# MARKER='JQLC''JZETHJ' run 'echo 1200000 1200000 > /sys/kernel/mva_tesst/regulators/buck6_set'
JQLCJZETHJJQLCJZETHJ 0
root@arm:~# echo 'VGGC''NUHQXU'
VGGCNUHQXU
root@arm:~# MARKER='CYAL''KVAVQH' run 'i2cget -y -f 1 0x4b 0x17'
CYALKVAVQH0x28
CYALKVAVQH 0
root@arm:~# echo 'NAXV''VTFVZH'
NAXVVTFVZH
root@arm:~# MARKER='BFYT''OWPFPX' run 'echo 1210000 1210000 > /sys/kernel/mva_tesst/regulators/buck6_set'
BFYTOWPFPXBFYTOWPFPX 0
root@arm:~# echo 'CNGA''BOJWJC'
CNGABOJWJC
root@arm:~# MARKER='OQTO''ZJLWPP' run 'i2cget -y -f 1 0x4b 0x17'
OQTOZJLWPP0x29
OQTOZJLWPP 0
root@arm:~# echo 'JJKB''YXGYZX'
JJKBYXGYZX
root@arm:~# MARKER='YKMY''PYOOXK' run 'echo 1220000 1220000 > /sys/kernel/mva_tesst/regulators/buck6_set'
YKMYPYOOXKYKMYPYOOXK 0
root@arm:~# echo 'NKPO''CWYYCM'
NKPOCWYYCM
root@arm:~# MARKER='VPHG''KTSHCZ' run 'i2cget -y -f 1 0x4b 0x17'
VPHGKTSHCZ0x2a
VPHGKTSHCZ 0
root@arm:~# echo 'SXEB''FGZNLF'
SXEBFGZNLF
root@arm:~# MARKER='PJHY''QZYVGW' run 'echo 1230000 1230000 > /sys/kernel/mva_tesst/regulators/buck6_set'
PJHYQZYVGWPJHYQZYVGW 0
root@arm:~# echo 'SAJH''SOBMAU'
SAJHSOBMAU
root@arm:~# MARKER='BASQ''XMKPLY' run 'i2cget -y -f 1 0x4b 0x17'
BASQXMKPLY0x2b
BASQXMKPLY 0
root@arm:~# echo 'SLSS''EVMBTE'
SLSSEVMBTE
root@arm:~# MARKER='XLBS''TPQHOV' run 'echo 1240000 1240000 > /sys/kernel/mva_tesst/regulators/buck6_set'
XLBSTPQHOVXLBSTPQHOV 0
root@arm:~# echo 'UZQW''UNZHCM'
UZQWUNZHCM
root@arm:~# MARKER='SKVE''VYEGET' run 'i2cget -y -f 1 0x4b 0x17'
SKVEVYEGET0x2c
SKVEVYEGET 0
root@arm:~# echo 'MWMG''KGQHBB'
MWMGKGQHBB
root@arm:~# MARKER='LKSQ''QGQAOJ' run 'echo 1250000 1250000 > /sys/kernel/mva_tesst/regulators/buck6_set'
LKSQQGQAOJLKSQQGQAOJ 0
root@arm:~# echo 'WPQE''MFPZTV'
WPQEMFPZTV
root@arm:~# MARKER='GQUA''XOMFCP' run 'i2cget -y -f 1 0x4b 0x17'
GQUAXOMFCP0x2d
GQUAXOMFCP 0
root@arm:~# echo 'WFNK''OZVEQZ'
WFNKOZVEQZ
root@arm:~# MARKER='TYEK''SOKXMQ' run 'echo 1260000 1260000 > /sys/kernel/mva_tesst/regulators/buck6_set'
TYEKSOKXMQTYEKSOKXMQ 0
root@arm:~# echo 'ZBUP''HYVBYM'
ZBUPHYVBYM
root@arm:~# MARKER='KNOW''NNVAWH' run 'i2cget -y -f 1 0x4b 0x17'
KNOWNNVAWH0x2e
KNOWNNVAWH 0
root@arm:~# echo 'WKTW''KSXPOU'
WKTWKSXPOU
root@arm:~# MARKER='NJZZ''TATBOS' run 'echo 1270000 1270000 > /sys/kernel/mva_tesst/regulators/buck6_set'
NJZZTATBOSNJZZTATBOS 0
root@arm:~# echo 'OLVV''WVGWJB'
OLVVWVGWJB
root@arm:~# MARKER='CQUJ''BEYGKS' run 'i2cget -y -f 1 0x4b 0x17'
CQUJBEYGKS0x2f
CQUJBEYGKS 0
root@arm:~# echo 'PZPH''SETAYN'
PZPHSETAYN
root@arm:~# MARKER='WYAP''WZVLMG' run 'echo 1280000 1280000 > /sys/kernel/mva_tesst/regulators/buck6_set'
WYAPWZVLMGWYAPWZVLMG 0
root@arm:~# echo 'UHKK''VOPJUG'
UHKKVOPJUG
root@arm:~# MARKER='ZFFC''HBQZPU' run 'i2cget -y -f 1 0x4b 0x17'
ZFFCHBQZPU0x30
ZFFCHBQZPU 0
root@arm:~# echo 'YMEZ''LNUGXO'
YMEZLNUGXO
root@arm:~# MARKER='PXJX''UBNPET' run 'echo 1290000 1290000 > /sys/kernel/mva_tesst/regulators/buck6_set'
PXJXUBNPETPXJXUBNPET 0
root@arm:~# echo 'EHLL''OSVPBJ'
EHLLOSVPBJ
root@arm:~# MARKER='ANHP''HLCFCE' run 'i2cget -y -f 1 0x4b 0x17'
ANHPHLCFCE0x31
ANHPHLCFCE 0
root@arm:~# echo 'VWOT''UEZBYP'
VWOTUEZBYP
root@arm:~# MARKER='SQNW''WFTNJQ' run 'echo 1300000 1300000 > /sys/kernel/mva_tesst/regulators/buck6_set'
SQNWWFTNJQSQNWWFTNJQ 0
root@arm:~# echo 'JBNC''KBFSEJ'
JBNCKBFSEJ
root@arm:~# MARKER='JJKM''UFOYWM' run 'i2cget -y -f 1 0x4b 0x17'
JJKMUFOYWM0x32
JJKMUFOYWM 0
root@arm:~# echo 'WCLJ''XXKMYM'
WCLJXXKMYM
root@arm:~# MARKER='UPQJ''HEEQAY' run 'echo 1310000 1310000 > /sys/kernel/mva_tesst/regulators/buck6_set'
UPQJHEEQAYUPQJHEEQAY 0
root@arm:~# echo 'ECSA''QSLUWJ'
ECSAQSLUWJ
root@arm:~# MARKER='OHFC''EOCNYG' run 'i2cget -y -f 1 0x4b 0x17'
OHFCEOCNYG0x33
OHFCEOCNYG 0
root@arm:~# echo 'FJNM''ZUBCFA'
FJNMZUBCFA
root@arm:~# MARKER='OGUB''LCJWEB' run 'echo 1320000 1320000 > /sys/kernel/mva_tesst/regulators/buck6_set'
OGUBLCJWEBOGUBLCJWEB 0
root@arm:~# echo 'JMTO''OXKHJT'
JMTOOXKHJT
root@arm:~# MARKER='UWLM''QLHNHS' run 'i2cget -y -f 1 0x4b 0x17'
UWLMQLHNHS0x34
UWLMQLHNHS 0
root@arm:~# echo 'PCQM''ZVPCTO'
PCQMZVPCTO
root@arm:~# MARKER='WHEL''GEFNEB' run 'echo 1330000 1330000 > /sys/kernel/mva_tesst/regulators/buck6_set'
WHELGEFNEBWHELGEFNEB 0
root@arm:~# echo 'KNME''YVAPKX'
KNMEYVAPKX
root@arm:~# MARKER='UYXL''TLKUSX' run 'i2cget -y -f 1 0x4b 0x17'
UYXLTLKUSX0x35
UYXLTLKUSX 0
root@arm:~# echo 'HPYV''XZJPLU'
HPYVXZJPLU
root@arm:~# MARKER='MLVM''UVKVNO' run 'echo 1340000 1340000 > /sys/kernel/mva_tesst/regulators/buck6_set'
MLVMUVKVNOMLVMUVKVNO 0
root@arm:~# echo 'LPYS''FXLXSN'
LPYSFXLXSN
root@arm:~# MARKER='ATBV''VSPVVW' run 'i2cget -y -f 1 0x4b 0x17'
ATBVVSPVVW0x36
ATBVVSPVVW 0
root@arm:~# echo 'BEJG''GGGFHA'
BEJGGGGFHA
root@arm:~# MARKER='HGPY''UCZNTW' run 'echo 1350000 1350000 > /sys/kernel/mva_tesst/regulators/buck6_set'
HGPYUCZNTWHGPYUCZNTW 0
root@arm:~# echo 'LAOW''EPQZCT'
LAOWEPQZCT
root@arm:~# MARKER='CKOK''PEQZKV' run 'i2cget -y -f 1 0x4b 0x17'
CKOKPEQZKV0x37
CKOKPEQZKV 0
root@arm:~# echo 'PBOM''QWAQHK'
PBOMQWAQHK
root@arm:~# MARKER='UJPH''KKMNHP' run 'echo 1360000 1360000 > /sys/kernel/mva_tesst/regulators/buck6_set'
UJPHKKMNHPUJPHKKMNHP 0
root@arm:~# echo 'HZZZ''LFVWEE'
HZZZLFVWEE
root@arm:~# MARKER='SKOH''EXOCMY' run 'i2cget -y -f 1 0x4b 0x17'
SKOHEXOCMY0x38
SKOHEXOCMY 0
root@arm:~# echo 'HFNA''EHJASJ'
HFNAEHJASJ
root@arm:~# MARKER='QMHH''JFNUQO' run 'echo 1370000 1370000 > /sys/kernel/mva_tesst/regulators/buck6_set'
QMHHJFNUQOQMHHJFNUQO 0
root@arm:~# echo 'VPSG''BUSCHO'
VPSGBUSCHO
root@arm:~# MARKER='AVTX''JKAALQ' run 'i2cget -y -f 1 0x4b 0x17'
AVTXJKAALQ0x39
AVTXJKAALQ 0
root@arm:~# echo 'GFOS''CKTFVQ'
GFOSCKTFVQ
root@arm:~# MARKER='WUNM''KPKXLH' run 'echo 1380000 1380000 > /sys/kernel/mva_tesst/regulators/buck6_set'
WUNMKPKXLHWUNMKPKXLH 0
root@arm:~# echo 'XPXO''VZZGMV'
XPXOVZZGMV
root@arm:~# MARKER='UGFQ''GUBXVA' run 'i2cget -y -f 1 0x4b 0x17'
UGFQGUBXVA0x3a
UGFQGUBXVA 0
root@arm:~# echo 'WETN''QXQKCB'
WETNQXQKCB
root@arm:~# MARKER='NGCO''ETVFPL' run 'echo 1390000 1390000 > /sys/kernel/mva_tesst/regulators/buck6_set'
NGCOETVFPLNGCOETVFPL 0
root@arm:~# echo 'KFOM''LWWHLN'
KFOMLWWHLN
root@arm:~# MARKER='SLTW''PHGYEE' run 'i2cget -y -f 1 0x4b 0x17'
SLTWPHGYEE0x3b
SLTWPHGYEE 0
root@arm:~# echo 'NZOB''UWUAOH'
NZOBUWUAOH
root@arm:~# MARKER='JOCZ''VJVXCE' run 'echo 1400000 1400000 > /sys/kernel/mva_tesst/regulators/buck6_set'
JOCZVJVXCEJOCZVJVXCE 0
root@arm:~# echo 'XKQT''YXOLHG'
XKQTYXOLHG
root@arm:~# MARKER='OVBB''FUUEAA' run 'i2cget -y -f 1 0x4b 0x17'
OVBBFUUEAA0x3c
OVBBFUUEAA 0
root@arm:~# echo 'WBAB''NJLAJV'
WBABNJLAJV
root@arm:~# MARKER='KPXN''NSFCSU' run 'grep -r -l rohm,bd71847 /proc/device-tree  | sed '"'"'s![^/]*$!!'"'"''
KPXNNSFCSU/proc/device-tree/ocp/interconnect@48000000/segment@0/target-module@2a000/i2c@0/pmic@4b/
KPXNNSFCSU 0
root@arm:~# echo 'BYQW''EXPWWU'
BYQWEXPWWU
root@arm:~# MARKER='KLKX''SLGWGL' run 'test -f /proc/device-tree/ocp/interconnectt\@48000000/segment\@0/target-module\@2a000/i2c\@0/pmic\@4b/regulators/LDO1/rohm,,no-regulator-enable-control ;echo $?'
KLKXSLGWGL1
KLKXSLGWGL 0
root@arm:~# echo 'JUPL''ZBZNPT'
JUPLZBZNPT
root@arm:~# MARKER='ULTO''CFACBF' run 'i2cget -y -f 1 0x4b 0x18'
ULTOCFACBF0xa2
ULTOCFACBF 0
root@arm:~# echo 'HHOT''HTASLS'
HHOTHTASLS
