Labgrid Console Logfile for main
Logfile started at 2025-07-31 08:17:44.356792
=== Log starts here ===

root@arm:~# run() { echo -n "$MARKER"; sh -c "$@"; echo "$MARKER $?"; }
root@arm:~# echo 'HBEX''AFUEXO'
HBEXAFUEXO
root@arm:~# MARKER='ZMPX''ZNZLAZ' run 'grep -r -l rohm,bd96805 /proc/device-tree  | sed '"'"'s![^/]*$!!'"'"''
ZMPXZNZLAZ/proc/device-tree/ocp/interconnect@48000000/segment@100000/target-module@9c000/i2c@0/pmic@60/
ZMPXZNZLAZ 0
root@arm:~# echo 'JMLY''KNBEGJ'
JMLYKNBEGJ
root@arm:~# MARKER='VUSS''TAUVYY' run 'test -f /proc/device-tree/ocp/interconnectt\@48000000/segment\@100000/target-module\@9c000/i2c\@0/pmic\@60/regulators/buck11/rohm,no-regulator-enable-control ;echo $?'
VUSSTAUVYY1
VUSSTAUVYY 0
root@arm:~# echo 'OTWQ''JYSUWV'
OTWQJYSUWV
root@arm:~# MARKER='NAQG''MUEBQW' run 'i2cget -y -f 2 0x60 0xb'
NAQGMUEBQW0x00
NAQGMUEBQW 0
root@arm:~# echo 'OAZP''FOTXWT'
OAZPFOTXWT
root@arm:~# MARKER='GLXY''UFXJXT' run 'grep -r -l rohm,bd96805 /proc/device-tree  | sed '"'"'s![^/]*$!!'"'"''
GLXYUFXJXT/proc/device-tree/ocp/interconnect@48000000/segment@100000/target-module@9c000/i2c@0/pmic@60/
GLXYUFXJXT 0
root@arm:~# echo 'PPVT''YKGOGX'
PPVTYKGOGX
root@arm:~# MARKER='CQXJ''LFBSJT' run 'test -f /proc/device-tree/ocp/interconnectt\@48000000/segment\@100000/target-module\@9c000/i2c\@0/pmic\@60/regulators/buck22/rohm,no-regulator-enable-control ;echo $?'
CQXJLFBSJT1
CQXJLFBSJT 0
root@arm:~# echo 'QUKM''FBOOBS'
QUKMFBOOBS
root@arm:~# MARKER='QAUB''PXAZEA' run 'i2cget -y -f 2 0x60 0xb'
QAUBPXAZEA0x00
QAUBPXAZEA 0
root@arm:~# echo 'YCAA''OKTVCA'
YCAAOKTVCA
root@arm:~# MARKER='ZQVB''PKZBLH' run 'grep -r -l rohm,bd96805 /proc/device-tree  | sed '"'"'s![^/]*$!!'"'"''
ZQVBPKZBLH/proc/device-tree/ocp/interconnect@48000000/segment@100000/target-module@9c000/i2c@0/pmic@60/
ZQVBPKZBLH 0
root@arm:~# echo 'MQXP''VOWLJC'
MQXPVOWLJC
root@arm:~# MARKER='JLEH''BCKKEY' run 'test -f /proc/device-tree/ocp/interconnectt\@48000000/segment\@100000/target-module\@9c000/i2c\@0/pmic\@60/regulators/buck33/rohm,no-regulator-enable-control ;echo $?'
JLEHBCKKEY1
JLEHBCKKEY 0
root@arm:~# echo 'AHYE''GYEJLE'
AHYEGYEJLE
root@arm:~# MARKER='OMZY''ZNHTVN' run 'i2cget -y -f 2 0x60 0xb'
OMZYZNHTVN0x00
OMZYZNHTVN 0
root@arm:~# echo 'FOTP''HYUSES'
FOTPHYUSES
root@arm:~# MARKER='QBFT''MPQQEN' run 'grep -r -l rohm,bd96805 /proc/device-tree  | sed '"'"'s![^/]*$!!'"'"''
QBFTMPQQEN/proc/device-tree/ocp/interconnect@48000000/segment@100000/target-module@9c000/i2c@0/pmic@60/
QBFTMPQQEN 0
root@arm:~# echo 'HMSW''GXFWWU'
HMSWGXFWWU
root@arm:~# MARKER='LGCH''SMVQWJ' run 'test -f /proc/device-tree/ocp/interconnectt\@48000000/segment\@100000/target-module\@9c000/i2c\@0/pmic\@60/regulators/buck44/rohm,no-regulator-enable-control ;echo $?'
LGCHSMVQWJ1
LGCHSMVQWJ 0
root@arm:~# echo 'PVHM''CZBFVV'
PVHMCZBFVV
root@arm:~# MARKER='OFAC''FHWGVW' run 'i2cget -y -f 2 0x60 0xb'
OFACFHWGVW0x00
OFACFHWGVW 0
root@arm:~# echo 'LGBK''YBSECL'
LGBKYBSECL
root@arm:~# MARKER='UKCM''BMFASL' run 'grep -r -l rohm,bd96805 /proc/device-tree  | sed '"'"'s![^/]*$!!'"'"''
UKCMBMFASL/proc/device-tree/ocp/interconnect@48000000/segment@100000/target-module@9c000/i2c@0/pmic@60/
UKCMBMFASL 0
root@arm:~# echo 'FANL''CUMBNM'
FANLCUMBNM
root@arm:~# MARKER='FYEK''BEBCVO' run 'test -f /proc/device-tree/ocp/interconnectt\@48000000/segment\@100000/target-module\@9c000/i2c\@0/pmic\@60/regulators/ldo5//rohm,no-regulator-enable-control ;echo $?'
FYEKBEBCVO1
FYEKBEBCVO 0
root@arm:~# echo 'PPEX''CHLWJJ'
PPEXCHLWJJ
root@arm:~# MARKER='PMCF''TUZJOG' run 'i2cget -y -f 2 0x60 0xb'
PMCFTUZJOG0x00
PMCFTUZJOG 0
root@arm:~# echo 'SYEO''FOHJYK'
SYEOFOHJYK
root@arm:~# MARKER='HNVP''ANNHXB' run 'grep -r -l rohm,bd96805 /proc/device-tree  | sed '"'"'s![^/]*$!!'"'"''
HNVPANNHXB/proc/device-tree/ocp/interconnect@48000000/segment@100000/target-module@9c000/i2c@0/pmic@60/
HNVPANNHXB 0
root@arm:~# echo 'OCUK''JFCFNS'
OCUKJFCFNS
root@arm:~# MARKER='QWYQ''LFOUJP' run 'test -f /proc/device-tree/ocp/interconnectt\@48000000/segment\@100000/target-module\@9c000/i2c\@0/pmic\@60/regulators/ldo6//rohm,no-regulator-enable-control ;echo $?'
QWYQLFOUJP1
QWYQLFOUJP 0
root@arm:~# echo 'KXTN''XNFPWZ'
KXTNXNFPWZ
root@arm:~# MARKER='YXYN''EFPLEY' run 'i2cget -y -f 2 0x60 0xb'
YXYNEFPLEY0x00
YXYNEFPLEY 0
root@arm:~# echo 'NWZU''YVKJLW'
NWZUYVKJLW
root@arm:~# MARKER='LUZL''FKENOQ' run 'grep -r -l rohm,bd96805 /proc/device-tree  | sed '"'"'s![^/]*$!!'"'"''
LUZLFKENOQ/proc/device-tree/ocp/interconnect@48000000/segment@100000/target-module@9c000/i2c@0/pmic@60/
LUZLFKENOQ 0
root@arm:~# echo 'GNUV''TAKOZB'
GNUVTAKOZB
root@arm:~# MARKER='HYOO''PPGTAO' run 'test -f /proc/device-tree/ocp/interconnectt\@48000000/segment\@100000/target-module\@9c000/i2c\@0/pmic\@60/regulators/ldo7//rohm,no-regulator-enable-control ;echo $?'
HYOOPPGTAO1
HYOOPPGTAO 0
root@arm:~# echo 'UWSS''KJOAFB'
UWSSKJOAFB
root@arm:~# MARKER='OQQQ''XZQFQC' run 'i2cget -y -f 2 0x60 0xb'
OQQQXZQFQC0x00
OQQQXZQFQC 0
root@arm:~# Labgrid Console Logfile for main
Logfile started at 2025-07-31 08:17:51.902593
=== Log starts here ===

root@arm:~# run() { echo -n "$MARKER"; sh -c "$@"; echo "$MARKER $?"; }
root@arm:~# echo 'QXHK''HONPVH'
QXHKHONPVH
root@arm:~# MARKER='HBOX''PFKOLG' run 'cat /sys/kernel/mva_test/regulators/buck1__set'
HBOXPFKOLG1800000
HBOXPFKOLG 0
root@arm:~# echo 'QFGJ''LCVEBX'
QFGJLCVEBX
root@arm:~# MARKER='EWXS''ZACWSA' run 'i2cget -y -f 2 0x60 0x21'
EWXSZACWSA0xce
EWXSZACWSA 0
root@arm:~# echo 'XBGC''QZAEME'
XBGCQZAEME
root@arm:~# MARKER='CPWQ''GXZUQH' run 'cat /sys/kernel/mva_test/regulators/buck2__set'
CPWQGXZUQH1100000
CPWQGXZUQH 0
root@arm:~# echo 'ONTL''AGWLHZ'
ONTLAGWLHZ
root@arm:~# MARKER='CNAK''LLTBJX' run 'i2cget -y -f 2 0x60 0x22'
CNAKLLTBJX0x78
CNAKLLTBJX 0
root@arm:~# echo 'YXJF''AVLHLL'
YXJFAVLHLL
root@arm:~# MARKER='HOJS''QPVAPY' run 'cat /sys/kernel/mva_test/regulators/buck3__set'
HOJSQPVAPY850000
HOJSQPVAPY 0
root@arm:~# echo 'CMPL''ZWFNBM'
CMPLZWFNBM
root@arm:~# MARKER='AEQJ''KGEHFS' run 'i2cget -y -f 2 0x60 0x23'
AEQJKGEHFS0x46
AEQJKGEHFS 0
root@arm:~# echo 'XKXK''AYEFKH'
XKXKAYEFKH
root@arm:~# MARKER='EVKA''WKAFUU' run 'cat /sys/kernel/mva_test/regulators/buck4__set'
EVKAWKAFUU850000
EVKAWKAFUU 0
root@arm:~# echo 'ZNWK''QOTSXX'
ZNWKQOTSXX
root@arm:~# MARKER='SFOX''QKJLWW' run 'i2cget -y -f 2 0x60 0x24'
SFOXQKJLWW0x46
SFOXQKJLWW 0
root@arm:~# echo 'YBCO''OKHEXN'
YBCOOKHEXN
root@arm:~# MARKER='AJZN''GOKUCV' run 'cat /sys/kernel/mva_test/regulators/buck5__set'
AJZNGOKUCV900000
AJZNGOKUCV 0
root@arm:~# echo 'HSJK''OHOAZL'
HSJKOHOAZL
root@arm:~# MARKER='EOVL''AMNKAC' run 'i2cget -y -f 2 0x60 0x25'
EOVLAMNKAC0x18
EOVLAMNKAC 0
root@arm:~# echo 'NAAG''PBUQTB'
NAAGPBUQTB
root@arm:~# MARKER='YFTL''MZKPVF' run 'cat /sys/kernel/mva_test/regulators/buck6__set'
YFTLMZKPVF1200000
YFTLMZKPVF 0
root@arm:~# echo 'WETB''VUTJYH'
WETBVUTJYH
root@arm:~# MARKER='GBKV''YZXNFU' run 'i2cget -y -f 2 0x60 0x26'
GBKVYZXNFU0x24
GBKVYZXNFU 0
root@arm:~# echo 'GKJN''YKEKJV'
GKJNYKEKJV
root@arm:~# MARKER='GPCV''QTQYGG' run 'cat /sys/kernel/mva_test/regulators/buck7__set'
GPCVQTQYGG3300000
GPCVQTQYGG 0
root@arm:~# echo 'GHEJ''GBGLOP'
GHEJGBGLOP
root@arm:~# MARKER='TEBW''JOVFFS' run 'i2cget -y -f 2 0x60 0x27'
TEBWJOVFFS0x78
TEBWJOVFFS 0
root@arm:~# Labgrid Console Logfile for main
Logfile started at 2025-07-31 08:17:57.097918
=== Log starts here ===

root@arm:~# run() { echo -n "$MARKER"; sh -c "$@"; echo "$MARKER $?"; }
root@arm:~# echo 'KQTZ''QSWKXX'
KQTZQSWKXX
root@arm:~# MARKER='OPZS''OLKFGL' run 'i2cget -y -f 2 0x60 0x21'
OPZSOLKFGL0xce
OPZSOLKFGL 0
root@arm:~# echo 'SMKX''QVZPFG'
SMKXQVZPFG
root@arm:~# MARKER='YPFU''JTFWTZ' run 'echo 1800000 1800000 > /sys/kernel/mva_tesst/regulators/buck1_set'
YPFUJTFWTZYPFUJTFWTZ 0
root@arm:~# echo 'SPSH''SUPPLG'
SPSHSUPPLG
root@arm:~# MARKER='OEEB''GGNMPN' run 'i2cget -f -y 2 0x60 0x28'
OEEBGGNMPN0x00
OEEBGGNMPN 0
root@arm:~# echo 'HTEZ''BFLWAB'
HTEZBFLWAB
root@arm:~# MARKER='GAJJ''MNQWSH' run 'i2cget -y -f 2 0x60 0x21'
GAJJMNQWSH0xce
GAJJMNQWSH 0
root@arm:~# echo 'FNOH''PZMCEO'
FNOHPZMCEO
root@arm:~# MARKER='FHFL''XZAETX' run 'i2cget -y -f 2 0x60 0x21'
FHFLXZAETX0xce
FHFLXZAETX 0
root@arm:~# echo 'JACS''ASYKMK'
JACSASYKMK
root@arm:~# MARKER='ALGG''MKNHJW' run 'echo 1810000 1810000 > /sys/kernel/mva_tesst/regulators/buck1_set'
ALGGMKNHJWALGGMKNHJW 0
root@arm:~# echo 'SSXF''GHWHAX'
SSXFGHWHAX
root@arm:~# MARKER='OFGG''SLKWMH' run 'i2cget -f -y 2 0x60 0x28'
OFGGSLKWMH0x01
OFGGSLKWMH 0
root@arm:~# echo 'TBOE''FQGQEG'
TBOEFQGQEG
root@arm:~# MARKER='TNAS''AXBSHB' run 'i2cget -y -f 2 0x60 0x21'
TNASAXBSHB0xce
TNASAXBSHB 0
root@arm:~# echo 'XUSO''NGHSOY'
XUSONGHSOY
root@arm:~# MARKER='MUEM''OGFTEW' run 'i2cget -y -f 2 0x60 0x21'
MUEMOGFTEW0xce
MUEMOGFTEW 0
root@arm:~# echo 'VSNJ''PZCCUH'
VSNJPZCCUH
root@arm:~# MARKER='ESHT''ZWMCOB' run 'echo 1820000 1820000 > /sys/kernel/mva_tesst/regulators/buck1_set'
ESHTZWMCOBESHTZWMCOB 0
root@arm:~# echo 'LSMM''SEYCLW'
LSMMSEYCLW
root@arm:~# MARKER='GHBZ''OVGTZO' run 'i2cget -f -y 2 0x60 0x28'
GHBZOVGTZO0x02
GHBZOVGTZO 0
root@arm:~# echo 'COEC''CLPMKX'
COECCLPMKX
root@arm:~# MARKER='MAKA''ACKBKB' run 'i2cget -y -f 2 0x60 0x21'
MAKAACKBKB0xce
MAKAACKBKB 0
root@arm:~# echo 'SPNM''XFXXZS'
SPNMXFXXZS
root@arm:~# MARKER='ZATL''UBNZGW' run 'i2cget -y -f 2 0x60 0x21'
ZATLUBNZGW0xce
ZATLUBNZGW 0
root@arm:~# echo 'PHPE''ZGNJSH'
PHPEZGNJSH
root@arm:~# MARKER='XSLE''FGHTNQ' run 'echo 1830000 1830000 > /sys/kernel/mva_tesst/regulators/buck1_set'
XSLEFGHTNQXSLEFGHTNQ 0
root@arm:~# echo 'FWWT''LUQBEJ'
FWWTLUQBEJ
root@arm:~# MARKER='ENHS''JVOWSB' run 'i2cget -f -y 2 0x60 0x28'
ENHSJVOWSB0x03
ENHSJVOWSB 0
root@arm:~# echo 'UYFN''MPSBQX'
UYFNMPSBQX
root@arm:~# MARKER='ZLFT''TBMQQT' run 'i2cget -y -f 2 0x60 0x21'
ZLFTTBMQQT0xce
ZLFTTBMQQT 0
root@arm:~# echo 'ZZLQ''KBEYFW'
ZZLQKBEYFW
root@arm:~# MARKER='VQZK''MKUYCQ' run 'i2cget -y -f 2 0x60 0x21'
VQZKMKUYCQ0xce
VQZKMKUYCQ 0
root@arm:~# echo 'YSUM''TCFGWT'
YSUMTCFGWT
root@arm:~# MARKER='KEKZ''FKXGGN' run 'echo 1840000 1840000 > /sys/kernel/mva_tesst/regulators/buck1_set'
KEKZFKXGGNKEKZFKXGGN 0
root@arm:~# echo 'VMHE''FNNQYL'
VMHEFNNQYL
root@arm:~# MARKER='SMPM''ZHNECL' run 'i2cget -f -y 2 0x60 0x28'
SMPMZHNECL0x04
SMPMZHNECL 0
root@arm:~# echo 'VTYO''HJNJKP'
VTYOHJNJKP
root@arm:~# MARKER='PSWQ''AMNGOL' run 'i2cget -y -f 2 0x60 0x21'
PSWQAMNGOL0xce
PSWQAMNGOL 0
root@arm:~# echo 'ZQYY''QXXHPN'
ZQYYQXXHPN
root@arm:~# MARKER='OVBE''QEPTJQ' run 'i2cget -y -f 2 0x60 0x21'
OVBEQEPTJQ0xce
OVBEQEPTJQ 0
root@arm:~# echo 'QZTJ''KPKFFS'
QZTJKPKFFS
root@arm:~# MARKER='XWNT''WAATBK' run 'echo 1850000 1850000 > /sys/kernel/mva_tesst/regulators/buck1_set'
XWNTWAATBKXWNTWAATBK 0
root@arm:~# echo 'HJXX''YQGMZQ'
HJXXYQGMZQ
root@arm:~# MARKER='HBNK''ELPQPZ' run 'i2cget -f -y 2 0x60 0x28'
HBNKELPQPZ0x05
HBNKELPQPZ 0
root@arm:~# echo 'KVPV''CLKSBY'
KVPVCLKSBY
root@arm:~# MARKER='KNZN''TVLPCA' run 'i2cget -y -f 2 0x60 0x21'
KNZNTVLPCA0xce
KNZNTVLPCA 0
root@arm:~# echo 'LCTT''YEGWSW'
LCTTYEGWSW
root@arm:~# MARKER='MVTX''BCWPMW' run 'i2cget -y -f 2 0x60 0x21'
MVTXBCWPMW0xce
MVTXBCWPMW 0
root@arm:~# echo 'SYVF''WUJTEW'
SYVFWUJTEW
root@arm:~# MARKER='EFAQ''VKCTSG' run 'echo 1860000 1860000 > /sys/kernel/mva_tesst/regulators/buck1_set'
EFAQVKCTSGEFAQVKCTSG 0
root@arm:~# echo 'LVWH''XOZCNO'
LVWHXOZCNO
root@arm:~# MARKER='AXMJ''LOUXLS' run 'i2cget -f -y 2 0x60 0x28'
AXMJLOUXLS0x06
AXMJLOUXLS 0
root@arm:~# echo 'EMUM''XEMSXW'
EMUMXEMSXW
root@arm:~# MARKER='EHYY''XOHFPY' run 'i2cget -y -f 2 0x60 0x21'
EHYYXOHFPY0xce
EHYYXOHFPY 0
root@arm:~# echo 'NMVJ''XKMOSG'
NMVJXKMOSG
root@arm:~# MARKER='YBJZ''PHJVPT' run 'i2cget -y -f 2 0x60 0x21'
YBJZPHJVPT0xce
YBJZPHJVPT 0
root@arm:~# echo 'TOMO''UGNNSH'
TOMOUGNNSH
root@arm:~# MARKER='CZHU''VMTZNE' run 'echo 1870000 1870000 > /sys/kernel/mva_tesst/regulators/buck1_set'
CZHUVMTZNECZHUVMTZNE 0
root@arm:~# echo 'WWYP''BQCUKS'
WWYPBQCUKS
root@arm:~# MARKER='XMSP''WUUBNC' run 'i2cget -f -y 2 0x60 0x28'
XMSPWUUBNC0x07
XMSPWUUBNC 0
root@arm:~# echo 'APHF''GZEBSH'
APHFGZEBSH
root@arm:~# MARKER='QLZO''FXVUWO' run 'i2cget -y -f 2 0x60 0x21'
QLZOFXVUWO0xce
QLZOFXVUWO 0
root@arm:~# echo 'EJAY''YHKVWU'
EJAYYHKVWU
root@arm:~# MARKER='HCOO''XZMJAT' run 'i2cget -y -f 2 0x60 0x21'
HCOOXZMJAT0xce
HCOOXZMJAT 0
root@arm:~# echo 'NCVZ''ZNZSZA'
NCVZZNZSZA
root@arm:~# MARKER='PTYX''CUVZFH' run 'echo 1880000 1880000 > /sys/kernel/mva_tesst/regulators/buck1_set'
PTYXCUVZFHPTYXCUVZFH 0
root@arm:~# echo 'MLNM''SWZNPJ'
MLNMSWZNPJ
root@arm:~# MARKER='XBVF''OTWOBM' run 'i2cget -f -y 2 0x60 0x28'
XBVFOTWOBM0x08
XBVFOTWOBM 0
root@arm:~# echo 'YVLN''XASLHJ'
YVLNXASLHJ
root@arm:~# MARKER='UACW''GNUAKP' run 'i2cget -y -f 2 0x60 0x21'
UACWGNUAKP0xce
UACWGNUAKP 0
root@arm:~# echo 'FFBJ''ATPOCP'
FFBJATPOCP
root@arm:~# MARKER='SUWH''SXWJBM' run 'i2cget -y -f 2 0x60 0x21'
SUWHSXWJBM0xce
SUWHSXWJBM 0
root@arm:~# echo 'HHES''UPXHOF'
HHESUPXHOF
root@arm:~# MARKER='GLAS''XTHWYX' run 'echo 1890000 1890000 > /sys/kernel/mva_tesst/regulators/buck1_set'
GLASXTHWYXGLASXTHWYX 0
root@arm:~# echo 'UTLU''FXJCUW'
UTLUFXJCUW
root@arm:~# MARKER='YHFV''WBSKVQ' run 'i2cget -f -y 2 0x60 0x28'
YHFVWBSKVQ0x09
YHFVWBSKVQ 0
root@arm:~# echo 'NNHY''HYUAQF'
NNHYHYUAQF
root@arm:~# MARKER='TATF''UWZEHV' run 'i2cget -y -f 2 0x60 0x21'
TATFUWZEHV0xce
TATFUWZEHV 0
root@arm:~# echo 'ZOJY''YCCCTV'
ZOJYYCCCTV
root@arm:~# MARKER='LYGY''FLWLKB' run 'i2cget -y -f 2 0x60 0x21'
LYGYFLWLKB0xce
LYGYFLWLKB 0
root@arm:~# echo 'JKTO''SUNCWV'
JKTOSUNCWV
root@arm:~# MARKER='MVGO''HSHSFL' run 'echo 1900000 1900000 > /sys/kernel/mva_tesst/regulators/buck1_set'
MVGOHSHSFLMVGOHSHSFL 0
root@arm:~# echo 'YFUC''MBEWKV'
YFUCMBEWKV
root@arm:~# MARKER='ASVN''YCAWYT' run 'i2cget -f -y 2 0x60 0x28'
ASVNYCAWYT0x0a
ASVNYCAWYT 0
root@arm:~# echo 'WVJK''TMANTK'
WVJKTMANTK
root@arm:~# MARKER='WVUK''SEBOVU' run 'i2cget -y -f 2 0x60 0x21'
WVUKSEBOVU0xce
WVUKSEBOVU 0
root@arm:~# echo 'XXHS''HOKFGH'
XXHSHOKFGH
root@arm:~# MARKER='AQWQ''UPKTBZ' run 'i2cget -y -f 2 0x60 0x21'
AQWQUPKTBZ0xce
AQWQUPKTBZ 0
root@arm:~# echo 'JPZJ''NJKUWP'
JPZJNJKUWP
root@arm:~# MARKER='PYNV''MGAJHV' run 'echo 1910000 1910000 > /sys/kernel/mva_tesst/regulators/buck1_set'
PYNVMGAJHVPYNVMGAJHV 0
root@arm:~# echo 'TPOP''QJHMFH'
TPOPQJHMFH
root@arm:~# MARKER='NCAZ''XTMYGO' run 'i2cget -f -y 2 0x60 0x28'
NCAZXTMYGO0x0b
NCAZXTMYGO 0
root@arm:~# echo 'SUST''WTUNPX'
SUSTWTUNPX
root@arm:~# MARKER='SWYP''EJMSTX' run 'i2cget -y -f 2 0x60 0x21'
SWYPEJMSTX0xce
SWYPEJMSTX 0
root@arm:~# echo 'KWMB''QGXTQC'
KWMBQGXTQC
root@arm:~# MARKER='ANUX''UFVMFA' run 'i2cget -y -f 2 0x60 0x21'
ANUXUFVMFA0xce
ANUXUFVMFA 0
root@arm:~# echo 'ZWBQ''SXHLQA'
ZWBQSXHLQA
root@arm:~# MARKER='UCTQ''UOSXZE' run 'echo 1920000 1920000 > /sys/kernel/mva_tesst/regulators/buck1_set'
UCTQUOSXZEUCTQUOSXZE 0
root@arm:~# echo 'MUAO''GTQTQB'
MUAOGTQTQB
root@arm:~# MARKER='XKZX''JLKXHP' run 'i2cget -f -y 2 0x60 0x28'
XKZXJLKXHP0x0c
XKZXJLKXHP 0
root@arm:~# echo 'WSOX''NKCMAF'
WSOXNKCMAF
root@arm:~# MARKER='TGXZ''AYMXPG' run 'i2cget -y -f 2 0x60 0x21'
TGXZAYMXPG0xce
TGXZAYMXPG 0
root@arm:~# echo 'ASTW''FJPNFU'
ASTWFJPNFU
root@arm:~# MARKER='FZHF''EPCVXH' run 'i2cget -y -f 2 0x60 0x21'
FZHFEPCVXH0xce
FZHFEPCVXH 0
root@arm:~# echo 'MGMX''GQAJNJ'
MGMXGQAJNJ
root@arm:~# MARKER='AZMH''PSWZTA' run 'echo 1930000 1930000 > /sys/kernel/mva_tesst/regulators/buck1_set'
AZMHPSWZTAAZMHPSWZTA 0
root@arm:~# echo 'KEFZ''HZUNSU'
KEFZHZUNSU
root@arm:~# MARKER='AZSM''NOXQWY' run 'i2cget -f -y 2 0x60 0x28'
AZSMNOXQWY0x0d
AZSMNOXQWY 0
root@arm:~# echo 'TAFH''UFGPYJ'
TAFHUFGPYJ
root@arm:~# MARKER='AJWF''CYPKHO' run 'i2cget -y -f 2 0x60 0x21'
AJWFCYPKHO0xce
AJWFCYPKHO 0
root@arm:~# echo 'ZBHE''YKHUOL'
ZBHEYKHUOL
root@arm:~# MARKER='SQGB''BYAFJU' run 'i2cget -y -f 2 0x60 0x21'
SQGBBYAFJU0xce
SQGBBYAFJU 0
root@arm:~# echo 'QCWK''BOVLYQ'
QCWKBOVLYQ
root@arm:~# MARKER='WVWM''BESSYM' run 'echo 1940000 1940000 > /sys/kernel/mva_tesst/regulators/buck1_set'
WVWMBESSYMWVWMBESSYM 0
root@arm:~# echo 'GAAC''FVXAAL'
GAACFVXAAL
root@arm:~# MARKER='PWJA''LKTPLK' run 'i2cget -f -y 2 0x60 0x28'
PWJALKTPLK0x0e
PWJALKTPLK 0
root@arm:~# echo 'JPVG''VCFPSQ'
JPVGVCFPSQ
root@arm:~# MARKER='VBPJ''PXALOC' run 'i2cget -y -f 2 0x60 0x21'
VBPJPXALOC0xce
VBPJPXALOC 0
root@arm:~# echo 'VGTC''NONBTY'
VGTCNONBTY
root@arm:~# MARKER='XQHO''JJMVHA' run 'i2cget -y -f 2 0x60 0x21'
XQHOJJMVHA0xce
XQHOJJMVHA 0
root@arm:~# echo 'BVXG''OFPJKF'
BVXGOFPJKF
root@arm:~# MARKER='NHWS''PCOXBY' run 'echo 1950000 1950000 > /sys/kernel/mva_tesst/regulators/buck1_set'
NHWSPCOXBYNHWSPCOXBY 0
root@arm:~# echo 'LVNC''TKCJWV'
LVNCTKCJWV
root@arm:~# MARKER='YOLH''GXJJWK' run 'i2cget -f -y 2 0x60 0x28'
YOLHGXJJWK0x0f
YOLHGXJJWK 0
root@arm:~# echo 'JZUM''ACEFBG'
JZUMACEFBG
root@arm:~# MARKER='FSVT''SCHZZB' run 'i2cget -y -f 2 0x60 0x21'
FSVTSCHZZB0xce
FSVTSCHZZB 0
root@arm:~# echo 'OQWH''LMKUFG'
OQWHLMKUFG
root@arm:~# MARKER='FFQG''XTKWOS' run 'i2cget -y -f 2 0x60 0x21'
FFQGXTKWOS0xce
FFQGXTKWOS 0
root@arm:~# echo 'NSXW''KUYMLB'
NSXWKUYMLB
root@arm:~# MARKER='XBVY''WCUPVG' run 'echo 1960000 1960000 > /sys/kernel/mva_tesst/regulators/buck1_set'
XBVYWCUPVGXBVYWCUPVG 0
root@arm:~# echo 'OFTF''BFLOUZ'
OFTFBFLOUZ
root@arm:~# MARKER='FAHL''TFEOJH' run 'i2cget -f -y 2 0x60 0x28'
FAHLTFEOJH0x10
FAHLTFEOJH 0
root@arm:~# echo 'CLCT''LOBZHK'
CLCTLOBZHK
root@arm:~# MARKER='SJMA''ZSANGW' run 'i2cget -y -f 2 0x60 0x21'
SJMAZSANGW0xce
SJMAZSANGW 0
root@arm:~# echo 'WXXF''TPYUXA'
WXXFTPYUXA
root@arm:~# MARKER='XBAH''MJJTLS' run 'i2cget -y -f 2 0x60 0x21'
XBAHMJJTLS0xce
XBAHMJJTLS 0
root@arm:~# echo 'SAKC''HOGNOT'
SAKCHOGNOT
root@arm:~# MARKER='MANC''BSBVWA' run 'echo 1970000 1970000 > /sys/kernel/mva_tesst/regulators/buck1_set'
MANCBSBVWAMANCBSBVWA 0
root@arm:~# echo 'PFYG''GNPJWS'
PFYGGNPJWS
root@arm:~# MARKER='WWVK''WPWPSE' run 'i2cget -f -y 2 0x60 0x28'
WWVKWPWPSE0x11
WWVKWPWPSE 0
root@arm:~# echo 'KVTH''PFKLKH'
KVTHPFKLKH
root@arm:~# MARKER='GVFA''UBQKPX' run 'i2cget -y -f 2 0x60 0x21'
GVFAUBQKPX0xce
GVFAUBQKPX 0
root@arm:~# echo 'HLWM''NVYCMB'
HLWMNVYCMB
root@arm:~# MARKER='UMFO''SHQOFX' run 'i2cget -y -f 2 0x60 0x21'
UMFOSHQOFX0xce
UMFOSHQOFX 0
root@arm:~# echo 'SWYX''BKPCNL'
SWYXBKPCNL
root@arm:~# MARKER='ZZAU''SBJMQU' run 'echo 1980000 1980000 > /sys/kernel/mva_tesst/regulators/buck1_set'
ZZAUSBJMQUZZAUSBJMQU 0
root@arm:~# echo 'UFGB''VPULTV'
UFGBVPULTV
root@arm:~# MARKER='JVWE''FNVUPA' run 'i2cget -f -y 2 0x60 0x28'
JVWEFNVUPA0x12
JVWEFNVUPA 0
root@arm:~# echo 'JLBU''BOFBLJ'
JLBUBOFBLJ
root@arm:~# MARKER='XBYC''ZAFFST' run 'i2cget -y -f 2 0x60 0x21'
XBYCZAFFST0xce
XBYCZAFFST 0
root@arm:~# echo 'VBFY''CHJMXN'
VBFYCHJMXN
root@arm:~# MARKER='QMUL''QWNGFM' run 'i2cget -y -f 2 0x60 0x21'
QMULQWNGFM0xce
QMULQWNGFM 0
root@arm:~# echo 'SOPP''QPEOOS'
SOPPQPEOOS
root@arm:~# MARKER='COSM''XTZQKY' run 'echo 1990000 1990000 > /sys/kernel/mva_tesst/regulators/buck1_set'
COSMXTZQKYCOSMXTZQKY 0
root@arm:~# echo 'OQGL''SAOCVB'
OQGLSAOCVB
root@arm:~# MARKER='JLSC''XGZBVS' run 'i2cget -f -y 2 0x60 0x28'
JLSCXGZBVS0x13
JLSCXGZBVS 0
root@arm:~# echo 'XTUG''SWCPCU'
XTUGSWCPCU
root@arm:~# MARKER='XWOK''XAZAZG' run 'i2cget -y -f 2 0x60 0x21'
XWOKXAZAZG0xce
XWOKXAZAZG 0
root@arm:~# echo 'LFXZ''EKNGKA'
LFXZEKNGKA
root@arm:~# MARKER='HNFX''PZVFVX' run 'i2cget -y -f 2 0x60 0x21'
HNFXPZVFVX0xce
HNFXPZVFVX 0
root@arm:~# echo 'AYYN''VWFGAP'
AYYNVWFGAP
root@arm:~# MARKER='QCWN''FCCTNA' run 'echo 2000000 2000000 > /sys/kernel/mva_tesst/regulators/buck1_set'
QCWNFCCTNAQCWNFCCTNA 0
root@arm:~# echo 'UWNC''FEUHWW'
UWNCFEUHWW
root@arm:~# MARKER='GMYX''FEOTPU' run 'i2cget -f -y 2 0x60 0x28'
GMYXFEOTPU0x14
GMYXFEOTPU 0
root@arm:~# echo 'NOXO''LOSVPA'
NOXOLOSVPA
root@arm:~# MARKER='ZQFV''BPSGFH' run 'i2cget -y -f 2 0x60 0x21'
ZQFVBPSGFH0xce
ZQFVBPSGFH 0
root@arm:~# echo 'JKLZ''PWQWCG'
JKLZPWQWCG
root@arm:~# MARKER='XNBF''XYZQXG' run 'i2cget -y -f 2 0x60 0x21'
XNBFXYZQXG0xce
XNBFXYZQXG 0
root@arm:~# echo 'FPKW''TTHMLJ'
FPKWTTHMLJ
root@arm:~# MARKER='AGQQ''YXFSWJ' run 'echo 2010000 2010000 > /sys/kernel/mva_tesst/regulators/buck1_set'
AGQQYXFSWJAGQQYXFSWJ 0
root@arm:~# echo 'VWZH''UELOHH'
VWZHUELOHH
root@arm:~# MARKER='CQJN''NFSZFW' run 'i2cget -f -y 2 0x60 0x28'
CQJNNFSZFW0x15
CQJNNFSZFW 0
root@arm:~# echo 'JCXK''MZXXUJ'
JCXKMZXXUJ
root@arm:~# MARKER='CUZA''WOQOMJ' run 'i2cget -y -f 2 0x60 0x21'
CUZAWOQOMJ0xce
CUZAWOQOMJ 0
root@arm:~# echo 'EENN''SNAVZZ'
EENNSNAVZZ
root@arm:~# MARKER='QTZB''OUNFHY' run 'i2cget -y -f 2 0x60 0x21'
QTZBOUNFHY0xce
QTZBOUNFHY 0
root@arm:~# echo 'WHSX''BMOYNZ'
WHSXBMOYNZ
root@arm:~# MARKER='AEMF''AVQPPL' run 'echo 2020000 2020000 > /sys/kernel/mva_tesst/regulators/buck1_set'
AEMFAVQPPLAEMFAVQPPL 0
root@arm:~# echo 'NWTG''LBSLCK'
NWTGLBSLCK
root@arm:~# MARKER='ZKLF''MFMAWG' run 'i2cget -f -y 2 0x60 0x28'
ZKLFMFMAWG0x16
ZKLFMFMAWG 0
root@arm:~# echo 'VJXE''YHSMGU'
VJXEYHSMGU
root@arm:~# MARKER='ZFVA''EFQVKO' run 'i2cget -y -f 2 0x60 0x21'
ZFVAEFQVKO0xce
ZFVAEFQVKO 0
root@arm:~# echo 'TTGS''KPCSAP'
TTGSKPCSAP
root@arm:~# MARKER='CZKB''GEOMUY' run 'i2cget -y -f 2 0x60 0x21'
CZKBGEOMUY0xce
CZKBGEOMUY 0
root@arm:~# echo 'SAXF''EBFYXQ'
SAXFEBFYXQ
root@arm:~# MARKER='CJSY''GWBCOV' run 'echo 2030000 2030000 > /sys/kernel/mva_tesst/regulators/buck1_set'
CJSYGWBCOVCJSYGWBCOV 0
root@arm:~# echo 'FBZW''CZNAVL'
FBZWCZNAVL
root@arm:~# MARKER='ZJKQ''LVOXMK' run 'i2cget -f -y 2 0x60 0x28'
ZJKQLVOXMK0x17
ZJKQLVOXMK 0
root@arm:~# echo 'FJVX''YBSVAN'
FJVXYBSVAN
root@arm:~# MARKER='EJPT''LYQYTZ' run 'i2cget -y -f 2 0x60 0x21'
EJPTLYQYTZ0xce
EJPTLYQYTZ 0
root@arm:~# echo 'JTHH''HNJSNM'
JTHHHNJSNM
root@arm:~# MARKER='OWJF''ZHAJCF' run 'i2cget -y -f 2 0x60 0x21'
OWJFZHAJCF0xce
OWJFZHAJCF 0
root@arm:~# echo 'TVFC''KKBGOT'
TVFCKKBGOT
root@arm:~# MARKER='WCPH''ONHGPO' run 'echo 2040000 2040000 > /sys/kernel/mva_tesst/regulators/buck1_set'
WCPHONHGPOWCPHONHGPO 0
root@arm:~# echo 'WASZ''AWZZLQ'
WASZAWZZLQ
root@arm:~# MARKER='ZTLZ''FOPGFU' run 'i2cget -f -y 2 0x60 0x28'
ZTLZFOPGFU0x18
ZTLZFOPGFU 0
root@arm:~# echo 'CAVM''EOWKZK'
CAVMEOWKZK
root@arm:~# MARKER='HTHW''XAQTNN' run 'i2cget -y -f 2 0x60 0x21'
HTHWXAQTNN0xce
HTHWXAQTNN 0
root@arm:~# echo 'ZVKY''HJCSPS'
ZVKYHJCSPS
root@arm:~# MARKER='XOLN''MLMXKV' run 'i2cget -y -f 2 0x60 0x21'
XOLNMLMXKV0xce
XOLNMLMXKV 0
root@arm:~# echo 'OPFJ''COYSYQ'
OPFJCOYSYQ
root@arm:~# MARKER='ATPL''YPCMME' run 'echo 2050000 2050000 > /sys/kernel/mva_tesst/regulators/buck1_set'
ATPLYPCMMEATPLYPCMME 0
root@arm:~# echo 'ONQC''GVWTQB'
ONQCGVWTQB
root@arm:~# MARKER='ZJCQ''HWWAWB' run 'i2cget -f -y 2 0x60 0x28'
ZJCQHWWAWB0x19
ZJCQHWWAWB 0
root@arm:~# echo 'HVKK''ABWFJO'
HVKKABWFJO
root@arm:~# MARKER='SYTU''LMLABJ' run 'i2cget -y -f 2 0x60 0x21'
SYTULMLABJ0xce
SYTULMLABJ 0
root@arm:~# echo 'ECCW''HBXGOL'
ECCWHBXGOL
root@arm:~# MARKER='SKVF''XHLMFG' run 'i2cget -y -f 2 0x60 0x21'
SKVFXHLMFG0xce
SKVFXHLMFG 0
root@arm:~# echo 'MZME''JYBMJN'
MZMEJYBMJN
root@arm:~# MARKER='YPVW''JLUXAH' run 'echo 2060000 2060000 > /sys/kernel/mva_tesst/regulators/buck1_set'
YPVWJLUXAHYPVWJLUXAH 0
root@arm:~# echo 'BBFJ''YTKTBK'
BBFJYTKTBK
root@arm:~# MARKER='BAAQ''XGWJQC' run 'i2cget -f -y 2 0x60 0x28'
BAAQXGWJQC0x1a
BAAQXGWJQC 0
root@arm:~# echo 'PSQM''JYNSZS'
PSQMJYNSZS
root@arm:~# MARKER='TZYA''SWMNSY' run 'i2cget -y -f 2 0x60 0x21'
TZYASWMNSY0xce
TZYASWMNSY 0
root@arm:~# echo 'YWPL''JXMBWM'
YWPLJXMBWM
root@arm:~# MARKER='WKQP''JUVQJS' run 'i2cget -y -f 2 0x60 0x21'
WKQPJUVQJS0xce
WKQPJUVQJS 0
root@arm:~# echo 'NWQA''NFZNVS'
NWQANFZNVS
root@arm:~# MARKER='TYET''OMOHGH' run 'echo 2070000 2070000 > /sys/kernel/mva_tesst/regulators/buck1_set'
TYETOMOHGHTYETOMOHGH 0
root@arm:~# echo 'OTEW''HTPCLV'
OTEWHTPCLV
root@arm:~# MARKER='MZKV''WPOFTC' run 'i2cget -f -y 2 0x60 0x28'
MZKVWPOFTC0x1b
MZKVWPOFTC 0
root@arm:~# echo 'HFSE''LHLTTO'
HFSELHLTTO
root@arm:~# MARKER='VCEP''NKOASS' run 'i2cget -y -f 2 0x60 0x21'
VCEPNKOASS0xce
VCEPNKOASS 0
root@arm:~# echo 'BGWU''KBWNZW'
BGWUKBWNZW
root@arm:~# MARKER='FTLB''CYLPXC' run 'i2cget -y -f 2 0x60 0x21'
FTLBCYLPXC0xce
FTLBCYLPXC 0
root@arm:~# echo 'ELMO''KCQTQG'
ELMOKCQTQG
root@arm:~# MARKER='MPAE''YLQOTN' run 'echo 2080000 2080000 > /sys/kernel/mva_tesst/regulators/buck1_set'
MPAEYLQOTNMPAEYLQOTN 0
root@arm:~# echo 'TMLQ''NJWOVN'
TMLQNJWOVN
root@arm:~# MARKER='WVXS''FMZLGK' run 'i2cget -f -y 2 0x60 0x28'
WVXSFMZLGK0x1c
WVXSFMZLGK 0
root@arm:~# echo 'TTCL''OKZSYH'
TTCLOKZSYH
root@arm:~# MARKER='UHYY''JOMLAE' run 'i2cget -y -f 2 0x60 0x21'
UHYYJOMLAE0xce
UHYYJOMLAE 0
root@arm:~# echo 'HZNP''SWPFFT'
HZNPSWPFFT
root@arm:~# MARKER='PQOV''NGMPKX' run 'i2cget -y -f 2 0x60 0x21'
PQOVNGMPKX0xce
PQOVNGMPKX 0
root@arm:~# echo 'QFAX''HJVCPE'
QFAXHJVCPE
root@arm:~# MARKER='AEXN''GZGZCX' run 'echo 2090000 2090000 > /sys/kernel/mva_tesst/regulators/buck1_set'
AEXNGZGZCXAEXNGZGZCX 0
root@arm:~# echo 'HTXN''HTLQGP'
HTXNHTLQGP
root@arm:~# MARKER='MKJV''KVEKTO' run 'i2cget -f -y 2 0x60 0x28'
MKJVKVEKTO0x1d
MKJVKVEKTO 0
root@arm:~# echo 'KUXA''ZSYHMP'
KUXAZSYHMP
root@arm:~# MARKER='HBBV''HMGTHX' run 'i2cget -y -f 2 0x60 0x21'
HBBVHMGTHX0xce
HBBVHMGTHX 0
root@arm:~# echo 'OFAJ''ZSQVQT'
OFAJZSQVQT
root@arm:~# MARKER='BCFH''AHEEHZ' run 'i2cget -y -f 2 0x60 0x21'
BCFHAHEEHZ0xce
BCFHAHEEHZ 0
root@arm:~# echo 'SUGL''SCYVVB'
SUGLSCYVVB
root@arm:~# MARKER='BOKM''JNFCYW' run 'echo 2100000 2100000 > /sys/kernel/mva_tesst/regulators/buck1_set'
BOKMJNFCYWBOKMJNFCYW 0
root@arm:~# echo 'XUNG''YNEYJQ'
XUNGYNEYJQ
root@arm:~# MARKER='ZLLB''SUGEMV' run 'i2cget -f -y 2 0x60 0x28'
ZLLBSUGEMV0x1e
ZLLBSUGEMV 0
root@arm:~# echo 'KZNB''VAGNMK'
KZNBVAGNMK
root@arm:~# MARKER='VFVT''JNEAFB' run 'i2cget -y -f 2 0x60 0x21'
VFVTJNEAFB0xce
VFVTJNEAFB 0
root@arm:~# echo 'OOEA''BJEGWT'
OOEABJEGWT
root@arm:~# MARKER='WSQY''YUOGKS' run 'i2cget -y -f 2 0x60 0x21'
WSQYYUOGKS0xce
WSQYYUOGKS 0
root@arm:~# echo 'OAFO''BNSYAT'
OAFOBNSYAT
root@arm:~# MARKER='BYEE''KFAZVW' run 'echo 2110000 2110000 > /sys/kernel/mva_tesst/regulators/buck1_set'
BYEEKFAZVWBYEEKFAZVW 0
root@arm:~# echo 'SGBE''PJFWQZ'
SGBEPJFWQZ
root@arm:~# MARKER='QPLO''BUTYYM' run 'i2cget -f -y 2 0x60 0x28'
QPLOBUTYYM0x1f
QPLOBUTYYM 0
root@arm:~# echo 'JXVA''UWHGJM'
JXVAUWHGJM
root@arm:~# MARKER='TQVT''HHECOC' run 'i2cget -y -f 2 0x60 0x21'
TQVTHHECOC0xce
TQVTHHECOC 0
root@arm:~# echo 'MEXH''LGFAUS'
MEXHLGFAUS
root@arm:~# MARKER='FSUO''FAYYCX' run 'i2cget -y -f 2 0x60 0x21'
FSUOFAYYCX0xce
FSUOFAYYCX 0
root@arm:~# echo 'HFES''PKYJTP'
HFESPKYJTP
root@arm:~# MARKER='OSBB''PCZKWT' run 'echo 1490000 1490000 > /sys/kernel/mva_tesst/regulators/buck1_set'
OSBBPCZKWTOSBBPCZKWT 0
root@arm:~# echo 'WWAZ''ZAYOGK'
WWAZZAYOGK
root@arm:~# MARKER='FQLC''GXSWBO' run 'i2cget -f -y 2 0x60 0x28'
FQLCGXSWBO0x20
FQLCGXSWBO 0
root@arm:~# echo 'GKXS''OLMLGH'
GKXSOLMLGH
root@arm:~# MARKER='FZMS''YMLNPK' run 'i2cget -y -f 2 0x60 0x21'
FZMSYMLNPK0xce
FZMSYMLNPK 0
root@arm:~# echo 'NCSW''VZMZLX'
NCSWVZMZLX
root@arm:~# MARKER='YMZY''EYOEGG' run 'i2cget -y -f 2 0x60 0x21'
YMZYEYOEGG0xce
YMZYEYOEGG 0
root@arm:~# echo 'QYQW''ZUWUEG'
QYQWZUWUEG
root@arm:~# MARKER='GYBT''SEKVVY' run 'echo 1500000 1500000 > /sys/kernel/mva_tesst/regulators/buck1_set'
GYBTSEKVVYGYBTSEKVVY 0
root@arm:~# echo 'EBJQ''JOGPPS'
EBJQJOGPPS
root@arm:~# MARKER='OXTM''TOUPSV' run 'i2cget -f -y 2 0x60 0x28'
OXTMTOUPSV0x21
OXTMTOUPSV 0
root@arm:~# echo 'OGKL''GKSMKU'
OGKLGKSMKU
root@arm:~# MARKER='CKHG''XNYQBX' run 'i2cget -y -f 2 0x60 0x21'
CKHGXNYQBX0xce
CKHGXNYQBX 0
root@arm:~# echo 'FYXH''YCLCXO'
FYXHYCLCXO
root@arm:~# MARKER='UCNE''SESJTF' run 'i2cget -y -f 2 0x60 0x21'
UCNESESJTF0xce
UCNESESJTF 0
root@arm:~# echo 'HMEG''KAGYQT'
HMEGKAGYQT
root@arm:~# MARKER='YUKE''KQJGQG' run 'echo 1510000 1510000 > /sys/kernel/mva_tesst/regulators/buck1_set'
YUKEKQJGQGYUKEKQJGQG 0
root@arm:~# echo 'VYYW''OBOOYL'
VYYWOBOOYL
root@arm:~# MARKER='YGYQ''LPKGMA' run 'i2cget -f -y 2 0x60 0x28'
YGYQLPKGMA0x22
YGYQLPKGMA 0
root@arm:~# echo 'PKCW''QEBTUJ'
PKCWQEBTUJ
root@arm:~# MARKER='ZPOZ''LNGKYV' run 'i2cget -y -f 2 0x60 0x21'
ZPOZLNGKYV0xce
ZPOZLNGKYV 0
root@arm:~# echo 'EJOS''XTWGEX'
EJOSXTWGEX
root@arm:~# MARKER='EFWP''EBZNLU' run 'i2cget -y -f 2 0x60 0x21'
EFWPEBZNLU0xce
EFWPEBZNLU 0
root@arm:~# echo 'UHBK''NVGEQT'
UHBKNVGEQT
root@arm:~# MARKER='JYKG''CEJNOC' run 'echo 1520000 1520000 > /sys/kernel/mva_tesst/regulators/buck1_set'
JYKGCEJNOCJYKGCEJNOC 0
root@arm:~# echo 'FWEX''YVHPCG'
FWEXYVHPCG
root@arm:~# MARKER='VEAP''YKOGEJ' run 'i2cget -f -y 2 0x60 0x28'
VEAPYKOGEJ0x23
VEAPYKOGEJ 0
root@arm:~# echo 'EFTG''NOJXVE'
EFTGNOJXVE
root@arm:~# MARKER='HKBX''ASLOCF' run 'i2cget -y -f 2 0x60 0x21'
HKBXASLOCF0xce
HKBXASLOCF 0
root@arm:~# echo 'VBWM''HLPOOG'
VBWMHLPOOG
root@arm:~# MARKER='QTWG''YESEMP' run 'i2cget -y -f 2 0x60 0x21'
QTWGYESEMP0xce
QTWGYESEMP 0
root@arm:~# echo 'BCWX''NSWCYJ'
BCWXNSWCYJ
root@arm:~# MARKER='ZXLB''WWTKBF' run 'echo 1530000 1530000 > /sys/kernel/mva_tesst/regulators/buck1_set'
ZXLBWWTKBFZXLBWWTKBF 0
root@arm:~# echo 'VVZN''EMCYEA'
VVZNEMCYEA
root@arm:~# MARKER='JZAL''VASOTU' run 'i2cget -f -y 2 0x60 0x28'
JZALVASOTU0x24
JZALVASOTU 0
root@arm:~# echo 'WYEK''MLXZUP'
WYEKMLXZUP
root@arm:~# MARKER='XGOA''WQFJGO' run 'i2cget -y -f 2 0x60 0x21'
XGOAWQFJGO0xce
XGOAWQFJGO 0
root@arm:~# echo 'BQMG''ETEZYY'
BQMGETEZYY
root@arm:~# MARKER='HJZO''GQCPSH' run 'i2cget -y -f 2 0x60 0x21'
HJZOGQCPSH0xce
HJZOGQCPSH 0
root@arm:~# echo 'WWON''QKXQHV'
WWONQKXQHV
root@arm:~# MARKER='KVWP''FZSKNJ' run 'echo 1540000 1540000 > /sys/kernel/mva_tesst/regulators/buck1_set'
KVWPFZSKNJKVWPFZSKNJ 0
root@arm:~# echo 'PQJA''CUEQUE'
PQJACUEQUE
root@arm:~# MARKER='QCAN''NZUNLU' run 'i2cget -f -y 2 0x60 0x28'
QCANNZUNLU0x25
QCANNZUNLU 0
root@arm:~# echo 'QONH''QTJNZV'
QONHQTJNZV
root@arm:~# MARKER='TAMP''YJOTTH' run 'i2cget -y -f 2 0x60 0x21'
TAMPYJOTTH0xce
TAMPYJOTTH 0
root@arm:~# echo 'EZBC''WPBOYC'
EZBCWPBOYC
root@arm:~# MARKER='VPKW''WKXUUA' run 'i2cget -y -f 2 0x60 0x21'
VPKWWKXUUA0xce
VPKWWKXUUA 0
root@arm:~# echo 'COAG''QUJZGW'
COAGQUJZGW
root@arm:~# MARKER='CJFQ''HEJMTE' run 'echo 1550000 1550000 > /sys/kernel/mva_tesst/regulators/buck1_set'
CJFQHEJMTECJFQHEJMTE 0
root@arm:~# echo 'PYNB''HNGOUM'
PYNBHNGOUM
root@arm:~# MARKER='FUHK''YCXOCS' run 'i2cget -f -y 2 0x60 0x28'
FUHKYCXOCS0x26
FUHKYCXOCS 0
root@arm:~# echo 'KWNM''PPJAYB'
KWNMPPJAYB
root@arm:~# MARKER='KPJB''EKFOXV' run 'i2cget -y -f 2 0x60 0x21'
KPJBEKFOXV0xce
KPJBEKFOXV 0
root@arm:~# echo 'VTNX''MYGXQF'
VTNXMYGXQF
root@arm:~# MARKER='AFUM''ETYZWY' run 'i2cget -y -f 2 0x60 0x21'
AFUMETYZWY0xce
AFUMETYZWY 0
root@arm:~# echo 'ZMKF''AUWYEC'
ZMKFAUWYEC
root@arm:~# MARKER='QYEH''PFZOOB' run 'echo 1560000 1560000 > /sys/kernel/mva_tesst/regulators/buck1_set'
QYEHPFZOOBQYEHPFZOOB 0
root@arm:~# echo 'YVNX''JJOVTW'
YVNXJJOVTW
root@arm:~# MARKER='NNNO''WKESQE' run 'i2cget -f -y 2 0x60 0x28'
NNNOWKESQE0x27
NNNOWKESQE 0
root@arm:~# echo 'PWCN''EBSXVB'
PWCNEBSXVB
root@arm:~# MARKER='KUTC''YQVGLL' run 'i2cget -y -f 2 0x60 0x21'
KUTCYQVGLL0xce
KUTCYQVGLL 0
root@arm:~# echo 'JYNV''PQOQYB'
JYNVPQOQYB
root@arm:~# MARKER='CVYT''TCCCPE' run 'i2cget -y -f 2 0x60 0x21'
CVYTTCCCPE0xce
CVYTTCCCPE 0
root@arm:~# echo 'COOX''LSECMG'
COOXLSECMG
root@arm:~# MARKER='HLCJ''HWBXYX' run 'echo 1570000 1570000 > /sys/kernel/mva_tesst/regulators/buck1_set'
HLCJHWBXYXHLCJHWBXYX 0
root@arm:~# echo 'QGBZ''VBZTQH'
QGBZVBZTQH
root@arm:~# MARKER='VWFP''APKZOU' run 'i2cget -f -y 2 0x60 0x28'
VWFPAPKZOU0x28
VWFPAPKZOU 0
root@arm:~# echo 'SHWE''EXUKZM'
SHWEEXUKZM
root@arm:~# MARKER='NNUS''OHWJCM' run 'i2cget -y -f 2 0x60 0x21'
NNUSOHWJCM0xce
NNUSOHWJCM 0
root@arm:~# echo 'UEOP''ZVJBEL'
UEOPZVJBEL
root@arm:~# MARKER='VATF''OTJBXY' run 'i2cget -y -f 2 0x60 0x21'
VATFOTJBXY0xce
VATFOTJBXY 0
root@arm:~# echo 'JUMK''OHZOYV'
JUMKOHZOYV
root@arm:~# MARKER='CBOX''TVYBGM' run 'echo 1580000 1580000 > /sys/kernel/mva_tesst/regulators/buck1_set'
CBOXTVYBGMCBOXTVYBGM 0
root@arm:~# echo 'AAKS''ETWUBQ'
AAKSETWUBQ
root@arm:~# MARKER='YYLQ''ZOCAFZ' run 'i2cget -f -y 2 0x60 0x28'
YYLQZOCAFZ0x29
YYLQZOCAFZ 0
root@arm:~# echo 'MKXG''LSNCVW'
MKXGLSNCVW
root@arm:~# MARKER='UNXY''BYXJYT' run 'i2cget -y -f 2 0x60 0x21'
UNXYBYXJYT0xce
UNXYBYXJYT 0
root@arm:~# echo 'EXNT''SOUHPS'
EXNTSOUHPS
root@arm:~# MARKER='ZXPH''SAANZC' run 'i2cget -y -f 2 0x60 0x21'
ZXPHSAANZC0xce
ZXPHSAANZC 0
root@arm:~# echo 'GBEY''SNYZLJ'
GBEYSNYZLJ
root@arm:~# MARKER='LZKP''ZSMCOP' run 'echo 1590000 1590000 > /sys/kernel/mva_tesst/regulators/buck1_set'
LZKPZSMCOPLZKPZSMCOP 0
root@arm:~# echo 'TWJV''KYWNPG'
TWJVKYWNPG
root@arm:~# MARKER='NBEX''XCBKAV' run 'i2cget -f -y 2 0x60 0x28'
NBEXXCBKAV0x2a
NBEXXCBKAV 0
root@arm:~# echo 'QYBW''SWUVEB'
QYBWSWUVEB
root@arm:~# MARKER='JYKN''BHMFPK' run 'i2cget -y -f 2 0x60 0x21'
JYKNBHMFPK0xce
JYKNBHMFPK 0
root@arm:~# echo 'BZTN''ANJBTE'
BZTNANJBTE
root@arm:~# MARKER='LWKG''KAACYM' run 'i2cget -y -f 2 0x60 0x21'
LWKGKAACYM0xce
LWKGKAACYM 0
root@arm:~# echo 'PATM''UBYKBY'
PATMUBYKBY
root@arm:~# MARKER='TPXN''KQXUWW' run 'echo 1600000 1600000 > /sys/kernel/mva_tesst/regulators/buck1_set'
TPXNKQXUWWTPXNKQXUWW 0
root@arm:~# echo 'PTZN''NPAZBL'
PTZNNPAZBL
root@arm:~# MARKER='CUBK''BHGBTM' run 'i2cget -f -y 2 0x60 0x28'
CUBKBHGBTM0x2b
CUBKBHGBTM 0
root@arm:~# echo 'GWXM''BSZGLT'
GWXMBSZGLT
root@arm:~# MARKER='JCHM''JVKFJG' run 'i2cget -y -f 2 0x60 0x21'
JCHMJVKFJG0xce
JCHMJVKFJG 0
root@arm:~# echo 'QPBH''VBTXLN'
QPBHVBTXLN
root@arm:~# MARKER='GLMB''PCKZMY' run 'i2cget -y -f 2 0x60 0x21'
GLMBPCKZMY0xce
GLMBPCKZMY 0
root@arm:~# echo 'NMHC''CEFNBK'
NMHCCEFNBK
root@arm:~# MARKER='MKPE''FAHOWF' run 'echo 1610000 1610000 > /sys/kernel/mva_tesst/regulators/buck1_set'
MKPEFAHOWFMKPEFAHOWF 0
root@arm:~# echo 'LEZA''AJEZNP'
LEZAAJEZNP
root@arm:~# MARKER='JCZK''YGFQPH' run 'i2cget -f -y 2 0x60 0x28'
JCZKYGFQPH0x2c
JCZKYGFQPH 0
root@arm:~# echo 'FNYV''FSBCFZ'
FNYVFSBCFZ
root@arm:~# MARKER='LJKG''CJFQNS' run 'i2cget -y -f 2 0x60 0x21'
LJKGCJFQNS0xce
LJKGCJFQNS 0
root@arm:~# echo 'WPJW''NKUOQS'
WPJWNKUOQS
root@arm:~# MARKER='GWBA''UVEQNA' run 'i2cget -y -f 2 0x60 0x21'
GWBAUVEQNA0xce
GWBAUVEQNA 0
root@arm:~# echo 'YUYZ''YGBSLZ'
YUYZYGBSLZ
root@arm:~# MARKER='VJUK''NYZMPF' run 'echo 1620000 1620000 > /sys/kernel/mva_tesst/regulators/buck1_set'
VJUKNYZMPFVJUKNYZMPF 0
root@arm:~# echo 'JYEG''SFFUFF'
JYEGSFFUFF
root@arm:~# MARKER='SWSO''AQXCYM' run 'i2cget -f -y 2 0x60 0x28'
SWSOAQXCYM0x2d
SWSOAQXCYM 0
root@arm:~# echo 'MEQB''HBKYQG'
MEQBHBKYQG
root@arm:~# MARKER='QBVZ''PWAJVK' run 'i2cget -y -f 2 0x60 0x21'
QBVZPWAJVK0xce
QBVZPWAJVK 0
root@arm:~# echo 'VTGE''NHBLNN'
VTGENHBLNN
root@arm:~# MARKER='LHJB''AGMQKZ' run 'i2cget -y -f 2 0x60 0x21'
LHJBAGMQKZ0xce
LHJBAGMQKZ 0
root@arm:~# echo 'VEZB''MXYBSX'
VEZBMXYBSX
root@arm:~# MARKER='UQBN''ZMPKJN' run 'echo 1630000 1630000 > /sys/kernel/mva_tesst/regulators/buck1_set'
UQBNZMPKJNUQBNZMPKJN 0
root@arm:~# echo 'NFSC''NCMHHK'
NFSCNCMHHK
root@arm:~# MARKER='WSZC''QALUZH' run 'i2cget -f -y 2 0x60 0x28'
WSZCQALUZH0x2e
WSZCQALUZH 0
root@arm:~# echo 'MXVZ''LWETBX'
MXVZLWETBX
root@arm:~# MARKER='CNPA''SETWLS' run 'i2cget -y -f 2 0x60 0x21'
CNPASETWLS0xce
CNPASETWLS 0
root@arm:~# echo 'GCGK''XWHVLK'
GCGKXWHVLK
root@arm:~# MARKER='CKUG''NGTVFA' run 'i2cget -y -f 2 0x60 0x21'
CKUGNGTVFA0xce
CKUGNGTVFA 0
root@arm:~# echo 'ZTOK''CWJWAQ'
ZTOKCWJWAQ
root@arm:~# MARKER='MFEB''EGAOYX' run 'echo 1640000 1640000 > /sys/kernel/mva_tesst/regulators/buck1_set'
MFEBEGAOYXMFEBEGAOYX 0
root@arm:~# echo 'QGZO''WGHZYB'
QGZOWGHZYB
root@arm:~# MARKER='NKAU''QSGPKJ' run 'i2cget -f -y 2 0x60 0x28'
NKAUQSGPKJ0x2f
NKAUQSGPKJ 0
root@arm:~# echo 'BJGP''KTQYUN'
BJGPKTQYUN
root@arm:~# MARKER='FEQE''HFYZPU' run 'i2cget -y -f 2 0x60 0x21'
FEQEHFYZPU0xce
FEQEHFYZPU 0
root@arm:~# echo 'ZYXZ''FKLLPA'
ZYXZFKLLPA
root@arm:~# MARKER='OHJN''LWJOAS' run 'i2cget -y -f 2 0x60 0x21'
OHJNLWJOAS0xce
OHJNLWJOAS 0
root@arm:~# echo 'AMGZ''UULSGN'
AMGZUULSGN
root@arm:~# MARKER='OPCF''GJFFJB' run 'echo 1650000 1650000 > /sys/kernel/mva_tesst/regulators/buck1_set'
OPCFGJFFJBOPCFGJFFJB 0
root@arm:~# echo 'MBFQ''LSKYMP'
MBFQLSKYMP
root@arm:~# MARKER='HQPJ''QPMQGU' run 'i2cget -f -y 2 0x60 0x28'
HQPJQPMQGU0x30
HQPJQPMQGU 0
root@arm:~# echo 'HHAJ''JBPWVP'
HHAJJBPWVP
root@arm:~# MARKER='WUVQ''OMOPEC' run 'i2cget -y -f 2 0x60 0x21'
WUVQOMOPEC0xce
WUVQOMOPEC 0
root@arm:~# echo 'UYLZ''UXTGXT'
UYLZUXTGXT
root@arm:~# MARKER='WGUY''QNAFTF' run 'i2cget -y -f 2 0x60 0x21'
WGUYQNAFTF0xce
WGUYQNAFTF 0
root@arm:~# echo 'UBNZ''ACZGVG'
UBNZACZGVG
root@arm:~# MARKER='OUSS''FQCXXG' run 'echo 1660000 1660000 > /sys/kernel/mva_tesst/regulators/buck1_set'
OUSSFQCXXGOUSSFQCXXG 0
root@arm:~# echo 'AMZS''ZHVWKT'
AMZSZHVWKT
root@arm:~# MARKER='FKAH''CBNNFG' run 'i2cget -f -y 2 0x60 0x28'
FKAHCBNNFG0x31
FKAHCBNNFG 0
root@arm:~# echo 'SOQZ''AUKLFY'
SOQZAUKLFY
root@arm:~# MARKER='XVKW''KOBKLC' run 'i2cget -y -f 2 0x60 0x21'
XVKWKOBKLC0xce
XVKWKOBKLC 0
root@arm:~# echo 'ENGL''NBKQCO'
ENGLNBKQCO
root@arm:~# MARKER='FHQF''KZMXTZ' run 'i2cget -y -f 2 0x60 0x21'
FHQFKZMXTZ0xce
FHQFKZMXTZ 0
root@arm:~# echo 'SMSZ''YFGCQF'
SMSZYFGCQF
root@arm:~# MARKER='FBUA''MQYFLU' run 'echo 1670000 1670000 > /sys/kernel/mva_tesst/regulators/buck1_set'
FBUAMQYFLUFBUAMQYFLU 0
root@arm:~# echo 'VOXV''YKCFOM'
VOXVYKCFOM
root@arm:~# MARKER='ZYVT''FYGYUH' run 'i2cget -f -y 2 0x60 0x28'
ZYVTFYGYUH0x32
ZYVTFYGYUH 0
root@arm:~# echo 'QWOM''YQLJHC'
QWOMYQLJHC
root@arm:~# MARKER='ZCKU''XQMUCH' run 'i2cget -y -f 2 0x60 0x21'
ZCKUXQMUCH0xce
ZCKUXQMUCH 0
root@arm:~# echo 'FWYH''WEYZQP'
FWYHWEYZQP
root@arm:~# MARKER='MWKB''ZKHNQA' run 'i2cget -y -f 2 0x60 0x21'
MWKBZKHNQA0xce
MWKBZKHNQA 0
root@arm:~# echo 'OYLK''SYJPMJ'
OYLKSYJPMJ
root@arm:~# MARKER='JQJZ''WBFEJL' run 'echo 1680000 1680000 > /sys/kernel/mva_tesst/regulators/buck1_set'
JQJZWBFEJLJQJZWBFEJL 0
root@arm:~# echo 'QJPB''NZKNLM'
QJPBNZKNLM
root@arm:~# MARKER='KXEM''OGWVCW' run 'i2cget -f -y 2 0x60 0x28'
KXEMOGWVCW0x33
KXEMOGWVCW 0
root@arm:~# echo 'OUOC''FQPHWL'
OUOCFQPHWL
root@arm:~# MARKER='QGYE''MYJYHX' run 'i2cget -y -f 2 0x60 0x21'
QGYEMYJYHX0xce
QGYEMYJYHX 0
root@arm:~# echo 'FVJA''AJKVVT'
FVJAAJKVVT
root@arm:~# MARKER='ATVK''MXPZGL' run 'i2cget -y -f 2 0x60 0x21'
ATVKMXPZGL0xce
ATVKMXPZGL 0
root@arm:~# echo 'CBVB''TSTVUH'
CBVBTSTVUH
root@arm:~# MARKER='KSEX''TZMGTH' run 'echo 1690000 1690000 > /sys/kernel/mva_tesst/regulators/buck1_set'
KSEXTZMGTHKSEXTZMGTH 0
root@arm:~# echo 'WAXM''UNSKEE'
WAXMUNSKEE
root@arm:~# MARKER='WJSC''TQVTAZ' run 'i2cget -f -y 2 0x60 0x28'
WJSCTQVTAZ0x34
WJSCTQVTAZ 0
root@arm:~# echo 'BMHM''AGQGBF'
BMHMAGQGBF
root@arm:~# MARKER='YCLU''FOJNVJ' run 'i2cget -y -f 2 0x60 0x21'
YCLUFOJNVJ0xce
YCLUFOJNVJ 0
root@arm:~# echo 'ENBZ''PGEQJA'
ENBZPGEQJA
root@arm:~# MARKER='AAHO''CZFCBZ' run 'i2cget -y -f 2 0x60 0x21'
AAHOCZFCBZ0xce
AAHOCZFCBZ 0
root@arm:~# echo 'KSAK''UWSUGG'
KSAKUWSUGG
root@arm:~# MARKER='MVGS''BOYUQE' run 'echo 1700000 1700000 > /sys/kernel/mva_tesst/regulators/buck1_set'
MVGSBOYUQEMVGSBOYUQE 0
root@arm:~# echo 'THBE''GFXQCK'
THBEGFXQCK
root@arm:~# MARKER='CTOU''YCCEVQ' run 'i2cget -f -y 2 0x60 0x28'
CTOUYCCEVQ0x35
CTOUYCCEVQ 0
root@arm:~# echo 'HCSF''ZAFEOX'
HCSFZAFEOX
root@arm:~# MARKER='FLTJ''LQTMZO' run 'i2cget -y -f 2 0x60 0x21'
FLTJLQTMZO0xce
FLTJLQTMZO 0
root@arm:~# echo 'YHSQ''LNOMZM'
YHSQLNOMZM
root@arm:~# MARKER='VGEX''GXTXHF' run 'i2cget -y -f 2 0x60 0x21'
VGEXGXTXHF0xce
VGEXGXTXHF 0
root@arm:~# echo 'HQEK''WPMFXY'
HQEKWPMFXY
root@arm:~# MARKER='SYCM''TAHQYP' run 'echo 1710000 1710000 > /sys/kernel/mva_tesst/regulators/buck1_set'
SYCMTAHQYPSYCMTAHQYP 0
root@arm:~# echo 'GVUK''FALCFB'
GVUKFALCFB
root@arm:~# MARKER='LYQB''TFMGWT' run 'i2cget -f -y 2 0x60 0x28'
LYQBTFMGWT0x36
LYQBTFMGWT 0
root@arm:~# echo 'YJBU''PLKNPJ'
YJBUPLKNPJ
root@arm:~# MARKER='MKFH''OKYTUM' run 'i2cget -y -f 2 0x60 0x21'
MKFHOKYTUM0xce
MKFHOKYTUM 0
root@arm:~# echo 'MLPF''WKCNEX'
MLPFWKCNEX
root@arm:~# MARKER='XPGU''MPSUJB' run 'i2cget -y -f 2 0x60 0x21'
XPGUMPSUJB0xce
XPGUMPSUJB 0
root@arm:~# echo 'GGTL''XYLLPT'
GGTLXYLLPT
root@arm:~# MARKER='YVNH''OKKSZV' run 'echo 1720000 1720000 > /sys/kernel/mva_tesst/regulators/buck1_set'
YVNHOKKSZVYVNHOKKSZV 0
root@arm:~# echo 'UZMJ''VFHFWY'
UZMJVFHFWY
root@arm:~# MARKER='QZSH''YBXUEA' run 'i2cget -f -y 2 0x60 0x28'
QZSHYBXUEA0x37
QZSHYBXUEA 0
root@arm:~# echo 'UCLA''QUKBQN'
UCLAQUKBQN
root@arm:~# MARKER='NCTA''KWHXWJ' run 'i2cget -y -f 2 0x60 0x21'
NCTAKWHXWJ0xce
NCTAKWHXWJ 0
root@arm:~# echo 'MELQ''VGLOQA'
MELQVGLOQA
root@arm:~# MARKER='LZQJ''GXBEMH' run 'i2cget -y -f 2 0x60 0x21'
LZQJGXBEMH0xce
LZQJGXBEMH 0
root@arm:~# echo 'HNEY''TOCJSL'
HNEYTOCJSL
root@arm:~# MARKER='XKJV''LHYPUE' run 'echo 1730000 1730000 > /sys/kernel/mva_tesst/regulators/buck1_set'
XKJVLHYPUEXKJVLHYPUE 0
root@arm:~# echo 'VOAE''XXQYXX'
VOAEXXQYXX
root@arm:~# MARKER='YLFQ''TSXHFG' run 'i2cget -f -y 2 0x60 0x28'
YLFQTSXHFG0x38
YLFQTSXHFG 0
root@arm:~# echo 'NVST''BEMATE'
NVSTBEMATE
root@arm:~# MARKER='ZWMM''AGBHFF' run 'i2cget -y -f 2 0x60 0x21'
ZWMMAGBHFF0xce
ZWMMAGBHFF 0
root@arm:~# echo 'NCNY''MXNSFC'
NCNYMXNSFC
root@arm:~# MARKER='AKXX''LAKZKW' run 'i2cget -y -f 2 0x60 0x21'
AKXXLAKZKW0xce
AKXXLAKZKW 0
root@arm:~# echo 'KSPJ''NPUVMH'
KSPJNPUVMH
root@arm:~# MARKER='LPOL''POELFJ' run 'echo 1740000 1740000 > /sys/kernel/mva_tesst/regulators/buck1_set'
LPOLPOELFJLPOLPOELFJ 0
root@arm:~# echo 'VEUT''HPOWTF'
VEUTHPOWTF
root@arm:~# MARKER='LSGF''LUVMSA' run 'i2cget -f -y 2 0x60 0x28'
LSGFLUVMSA0x39
LSGFLUVMSA 0
root@arm:~# echo 'SVTH''NPVMQG'
SVTHNPVMQG
root@arm:~# MARKER='QNBY''FZGTGP' run 'i2cget -y -f 2 0x60 0x21'
QNBYFZGTGP0xce
QNBYFZGTGP 0
root@arm:~# echo 'LYLC''PMZACV'
LYLCPMZACV
root@arm:~# MARKER='ZCGM''WXOEET' run 'i2cget -y -f 2 0x60 0x21'
ZCGMWXOEET0xce
ZCGMWXOEET 0
root@arm:~# echo 'FPQP''FZLXSE'
FPQPFZLXSE
root@arm:~# MARKER='PCHJ''QXZPYL' run 'echo 1750000 1750000 > /sys/kernel/mva_tesst/regulators/buck1_set'
PCHJQXZPYLPCHJQXZPYL 0
root@arm:~# echo 'GMJZ''WFHGAX'
GMJZWFHGAX
root@arm:~# MARKER='MXYC''HAJNLM' run 'i2cget -f -y 2 0x60 0x28'
MXYCHAJNLM0x3a
MXYCHAJNLM 0
root@arm:~# echo 'WWXH''KVTMPU'
WWXHKVTMPU
root@arm:~# MARKER='KLKQ''AOAAHM' run 'i2cget -y -f 2 0x60 0x21'
KLKQAOAAHM0xce
KLKQAOAAHM 0
root@arm:~# echo 'SNAB''QGVLWZ'
SNABQGVLWZ
root@arm:~# MARKER='ZOEA''SQFKAX' run 'i2cget -y -f 2 0x60 0x21'
ZOEASQFKAX0xce
ZOEASQFKAX 0
root@arm:~# echo 'SASJ''JNWGGQ'
SASJJNWGGQ
root@arm:~# MARKER='NMZZ''AHFBVK' run 'echo 1760000 1760000 > /sys/kernel/mva_tesst/regulators/buck1_set'
NMZZAHFBVKNMZZAHFBVK 0
root@arm:~# echo 'ATEB''PHOQLP'
ATEBPHOQLP
root@arm:~# MARKER='LSJA''YLEMSX' run 'i2cget -f -y 2 0x60 0x28'
LSJAYLEMSX0x3b
LSJAYLEMSX 0
root@arm:~# echo 'JQWA''NCUYMO'
JQWANCUYMO
root@arm:~# MARKER='ZXCZ''NETBQB' run 'i2cget -y -f 2 0x60 0x21'
ZXCZNETBQB0xce
ZXCZNETBQB 0
root@arm:~# echo 'XXEP''JBAUAS'
XXEPJBAUAS
root@arm:~# MARKER='OWOW''AEYQXX' run 'i2cget -y -f 2 0x60 0x21'
OWOWAEYQXX0xce
OWOWAEYQXX 0
root@arm:~# echo 'NUCK''SNQPPC'
NUCKSNQPPC
root@arm:~# MARKER='MVPK''FEHLGK' run 'echo 1770000 1770000 > /sys/kernel/mva_tesst/regulators/buck1_set'
MVPKFEHLGKMVPKFEHLGK 0
root@arm:~# echo 'CKOP''WXZSWL'
CKOPWXZSWL
root@arm:~# MARKER='LJEH''BQOXKQ' run 'i2cget -f -y 2 0x60 0x28'
LJEHBQOXKQ0x3c
LJEHBQOXKQ 0
root@arm:~# echo 'LGOQ''TBHLYU'
LGOQTBHLYU
root@arm:~# MARKER='JXMA''MTWCMW' run 'i2cget -y -f 2 0x60 0x21'
JXMAMTWCMW0xce
JXMAMTWCMW 0
root@arm:~# echo 'SUEQ''FQTNVV'
SUEQFQTNVV
root@arm:~# MARKER='GCZG''JWHMEB' run 'i2cget -y -f 2 0x60 0x21'
GCZGJWHMEB0xce
GCZGJWHMEB 0
root@arm:~# echo 'PFML''QPQKNL'
PFMLQPQKNL
root@arm:~# MARKER='ATOL''GGOHYG' run 'echo 1780000 1780000 > /sys/kernel/mva_tesst/regulators/buck1_set'
ATOLGGOHYGATOLGGOHYG 0
root@arm:~# echo 'KVYA''CQYPNL'
KVYACQYPNL
root@arm:~# MARKER='AVHY''YKMFSH' run 'i2cget -f -y 2 0x60 0x28'
AVHYYKMFSH0x3d
AVHYYKMFSH 0
root@arm:~# echo 'BHKP''VYYGQH'
BHKPVYYGQH
root@arm:~# MARKER='MQWZ''KJOYJC' run 'i2cget -y -f 2 0x60 0x21'
MQWZKJOYJC0xce
MQWZKJOYJC 0
root@arm:~# echo 'PUMK''VHNCTX'
PUMKVHNCTX
root@arm:~# MARKER='MJOX''EWSYPA' run 'i2cget -y -f 2 0x60 0x21'
MJOXEWSYPA0xce
MJOXEWSYPA 0
root@arm:~# echo 'SZZO''MKGTWZ'
SZZOMKGTWZ
root@arm:~# MARKER='QFWU''SUZJQX' run 'echo 1790000 1790000 > /sys/kernel/mva_tesst/regulators/buck1_set'
QFWUSUZJQXQFWUSUZJQX 0
root@arm:~# echo 'LFVK''GJASGS'
LFVKGJASGS
root@arm:~# MARKER='FLXO''OJXTOP' run 'i2cget -f -y 2 0x60 0x28'
FLXOOJXTOP0x3e
FLXOOJXTOP 0
root@arm:~# echo 'ZKEB''UAGMZU'
ZKEBUAGMZU
root@arm:~# MARKER='ZLQT''JMCJWB' run 'i2cget -y -f 2 0x60 0x21'
ZLQTJMCJWB0xce
ZLQTJMCJWB 0
root@arm:~# echo 'FMJG''GGCFAA'
FMJGGGCFAA
root@arm:~# MARKER='ZJSV''BJFXNK' run 'i2cget -y -f 2 0x60 0x21'
ZJSVBJFXNK0xce
ZJSVBJFXNK 0
root@arm:~# echo 'KNCN''YHAOGQ'
KNCNYHAOGQ
root@arm:~# MARKER='KPVQ''WHYVJB' run 'echo 1800000 1800000 > /sys/kernel/mva_tesst/regulators/buck1_set'
KPVQWHYVJBKPVQWHYVJB 0
root@arm:~# echo 'MAOP''NTGXKS'
MAOPNTGXKS
root@arm:~# MARKER='CVHC''TBEFUB' run 'i2cget -f -y 2 0x60 0x28'
CVHCTBEFUB0x00
CVHCTBEFUB 0
root@arm:~# echo 'SHCK''AVJNHV'
SHCKAVJNHV
root@arm:~# MARKER='QKEY''QSLOJF' run 'i2cget -y -f 2 0x60 0x21'
QKEYQSLOJF0xce
QKEYQSLOJF 0
root@arm:~# echo 'MTWN''ZCLMLW'
MTWNZCLMLW
root@arm:~# MARKER='FKKQ''FSVQUW' run 'i2cget -y -f 2 0x60 0x22'
FKKQFSVQUW0x78
FKKQFSVQUW 0
root@arm:~# echo 'FYVZ''MJQUYJ'
FYVZMJQUYJ
root@arm:~# MARKER='EWMX''YUBANV' run 'echo 1100000 1100000 > /sys/kernel/mva_tesst/regulators/buck2_set'
EWMXYUBANVEWMXYUBANV 0
root@arm:~# echo 'FMJW''TUFZYS'
FMJWTUFZYS
root@arm:~# MARKER='LTUX''VGULGF' run 'i2cget -f -y 2 0x60 0x29'
LTUXVGULGF0x40
LTUXVGULGF 0
root@arm:~# echo 'FHCT''MNSBFT'
FHCTMNSBFT
root@arm:~# MARKER='JEVZ''VAYBVF' run 'i2cget -y -f 2 0x60 0x22'
JEVZVAYBVF0x78
JEVZVAYBVF 0
root@arm:~# echo 'XBUP''ECPENS'
XBUPECPENS
root@arm:~# MARKER='PSMQ''ZOVNXF' run 'i2cget -y -f 2 0x60 0x22'
PSMQZOVNXF0x78
PSMQZOVNXF 0
root@arm:~# echo 'HWNG''NTWPNH'
HWNGNTWPNH
root@arm:~# MARKER='YPKY''LJZUKO' run 'echo 1110000 1110000 > /sys/kernel/mva_tesst/regulators/buck2_set'
YPKYLJZUKOYPKYLJZUKO 0
root@arm:~# echo 'GFJX''SULXQY'
GFJXSULXQY
root@arm:~# MARKER='KBZY''GLUBNT' run 'i2cget -f -y 2 0x60 0x29'
KBZYGLUBNT0x41
KBZYGLUBNT 0
root@arm:~# echo 'JLEM''PPEQKC'
JLEMPPEQKC
root@arm:~# MARKER='HGXJ''WPVFCG' run 'i2cget -y -f 2 0x60 0x22'
HGXJWPVFCG0x78
HGXJWPVFCG 0
root@arm:~# echo 'SKSC''JOYSGK'
SKSCJOYSGK
root@arm:~# MARKER='QOPE''LWAKWM' run 'i2cget -y -f 2 0x60 0x22'
QOPELWAKWM0x78
QOPELWAKWM 0
root@arm:~# echo 'SXEP''WFNHMP'
SXEPWFNHMP
root@arm:~# MARKER='KGTC''ESJHUW' run 'echo 1120000 1120000 > /sys/kernel/mva_tesst/regulators/buck2_set'
KGTCESJHUWKGTCESJHUW 0
root@arm:~# echo 'KNNK''HPPXTX'
KNNKHPPXTX
root@arm:~# MARKER='LXEB''FXMZNU' run 'i2cget -f -y 2 0x60 0x29'
LXEBFXMZNU0x42
LXEBFXMZNU 0
root@arm:~# echo 'FYNF''QJQWOV'
FYNFQJQWOV
root@arm:~# MARKER='EBTQ''KLZATN' run 'i2cget -y -f 2 0x60 0x22'
EBTQKLZATN0x78
EBTQKLZATN 0
root@arm:~# echo 'SFHC''ZELBUK'
SFHCZELBUK
root@arm:~# MARKER='THSS''JAKGAH' run 'i2cget -y -f 2 0x60 0x22'
THSSJAKGAH0x78
THSSJAKGAH 0
root@arm:~# echo 'TKQZ''OXEEOH'
TKQZOXEEOH
root@arm:~# MARKER='KALN''WALSYP' run 'echo 1130000 1130000 > /sys/kernel/mva_tesst/regulators/buck2_set'
KALNWALSYPKALNWALSYP 0
root@arm:~# echo 'YWPU''PFKMZS'
YWPUPFKMZS
root@arm:~# MARKER='JTWX''VUVNOG' run 'i2cget -f -y 2 0x60 0x29'
JTWXVUVNOG0x43
JTWXVUVNOG 0
root@arm:~# echo 'EXCZ''OEJOXA'
EXCZOEJOXA
root@arm:~# MARKER='UQXW''KEYYWP' run 'i2cget -y -f 2 0x60 0x22'
UQXWKEYYWP0x78
UQXWKEYYWP 0
root@arm:~# echo 'YOVP''QNCGNK'
YOVPQNCGNK
root@arm:~# MARKER='STOL''AYFWWN' run 'i2cget -y -f 2 0x60 0x22'
STOLAYFWWN0x78
STOLAYFWWN 0
root@arm:~# echo 'GCTE''PEPSVX'
GCTEPEPSVX
root@arm:~# MARKER='LSOV''NOYVEF' run 'echo 1140000 1140000 > /sys/kernel/mva_tesst/regulators/buck2_set'
LSOVNOYVEFLSOVNOYVEF 0
root@arm:~# echo 'VSBS''SEHTYW'
VSBSSEHTYW
root@arm:~# MARKER='MOMX''OLCLFK' run 'i2cget -f -y 2 0x60 0x29'
MOMXOLCLFK0x44
MOMXOLCLFK 0
root@arm:~# echo 'OKSH''MBAUPC'
OKSHMBAUPC
root@arm:~# MARKER='BQJL''OAMKTH' run 'i2cget -y -f 2 0x60 0x22'
BQJLOAMKTH0x78
BQJLOAMKTH 0
root@arm:~# echo 'LJTA''QWHMKP'
LJTAQWHMKP
root@arm:~# MARKER='CEZQ''LSHUJB' run 'i2cget -y -f 2 0x60 0x22'
CEZQLSHUJB0x78
CEZQLSHUJB 0
root@arm:~# echo 'HQYG''ZCZJML'
HQYGZCZJML
root@arm:~# MARKER='TXCO''EXXNKE' run 'echo 1150000 1150000 > /sys/kernel/mva_tesst/regulators/buck2_set'
TXCOEXXNKETXCOEXXNKE 0
root@arm:~# echo 'KPVJ''LQLNKX'
KPVJLQLNKX
root@arm:~# MARKER='HOGF''XHKBWE' run 'i2cget -f -y 2 0x60 0x29'
HOGFXHKBWE0x45
HOGFXHKBWE 0
root@arm:~# echo 'CQCJ''KMTFQY'
CQCJKMTFQY
root@arm:~# MARKER='BEKC''LLNPLO' run 'i2cget -y -f 2 0x60 0x22'
BEKCLLNPLO0x78
BEKCLLNPLO 0
root@arm:~# echo 'GMYQ''EGJCNJ'
GMYQEGJCNJ
root@arm:~# MARKER='QBES''FWNGPQ' run 'i2cget -y -f 2 0x60 0x22'
QBESFWNGPQ0x78
QBESFWNGPQ 0
root@arm:~# echo 'HKQT''ZZCFYC'
HKQTZZCFYC
root@arm:~# MARKER='ATGS''BGWJVP' run 'echo 1160000 1160000 > /sys/kernel/mva_tesst/regulators/buck2_set'
ATGSBGWJVPATGSBGWJVP 0
root@arm:~# echo 'CBCO''ZAZSTX'
CBCOZAZSTX
root@arm:~# MARKER='UBMP''BJTSGY' run 'i2cget -f -y 2 0x60 0x29'
UBMPBJTSGY0x46
UBMPBJTSGY 0
root@arm:~# echo 'OVSK''CLPSPP'
OVSKCLPSPP
root@arm:~# MARKER='OCQE''YTVMWB' run 'i2cget -y -f 2 0x60 0x22'
OCQEYTVMWB0x78
OCQEYTVMWB 0
root@arm:~# echo 'NAZX''BTEPYQ'
NAZXBTEPYQ
root@arm:~# MARKER='WPWG''YPAPXW' run 'i2cget -y -f 2 0x60 0x22'
WPWGYPAPXW0x78
WPWGYPAPXW 0
root@arm:~# echo 'NJVE''HWGGQY'
NJVEHWGGQY
root@arm:~# MARKER='SPFU''ZHVEVK' run 'echo 1170000 1170000 > /sys/kernel/mva_tesst/regulators/buck2_set'
SPFUZHVEVKSPFUZHVEVK 0
root@arm:~# echo 'AWCO''JYMSBV'
AWCOJYMSBV
root@arm:~# MARKER='OZZN''LAFYZB' run 'i2cget -f -y 2 0x60 0x29'
OZZNLAFYZB0x47
OZZNLAFYZB 0
root@arm:~# echo 'NGLB''PYQTOT'
NGLBPYQTOT
root@arm:~# MARKER='HAQZ''YUEKQZ' run 'i2cget -y -f 2 0x60 0x22'
HAQZYUEKQZ0x78
HAQZYUEKQZ 0
root@arm:~# echo 'YNPP''GTCSUG'
YNPPGTCSUG
root@arm:~# MARKER='FHZX''MLTUFN' run 'i2cget -y -f 2 0x60 0x22'
FHZXMLTUFN0x78
FHZXMLTUFN 0
root@arm:~# echo 'GLZE''LEUSAC'
GLZELEUSAC
root@arm:~# MARKER='WPZK''APPCHH' run 'echo 1180000 1180000 > /sys/kernel/mva_tesst/regulators/buck2_set'
WPZKAPPCHHWPZKAPPCHH 0
root@arm:~# echo 'WEZK''USOSCQ'
WEZKUSOSCQ
root@arm:~# MARKER='STOO''TLJUBE' run 'i2cget -f -y 2 0x60 0x29'
STOOTLJUBE0x48
STOOTLJUBE 0
root@arm:~# echo 'TNAN''WEYYYG'
TNANWEYYYG
root@arm:~# MARKER='QLMU''UFZJPJ' run 'i2cget -y -f 2 0x60 0x22'
QLMUUFZJPJ0x78
QLMUUFZJPJ 0
root@arm:~# echo 'ZPNJ''ZZTEFN'
ZPNJZZTEFN
root@arm:~# MARKER='XCGF''MQGMOZ' run 'i2cget -y -f 2 0x60 0x22'
XCGFMQGMOZ0x78
XCGFMQGMOZ 0
root@arm:~# echo 'CSBT''OZYQGL'
CSBTOZYQGL
root@arm:~# MARKER='QXBH''KEJUNT' run 'echo 1190000 1190000 > /sys/kernel/mva_tesst/regulators/buck2_set'
QXBHKEJUNTQXBHKEJUNT 0
root@arm:~# echo 'UQXK''XTSXVB'
UQXKXTSXVB
root@arm:~# MARKER='QWSE''VJQQKH' run 'i2cget -f -y 2 0x60 0x29'
QWSEVJQQKH0x49
QWSEVJQQKH 0
root@arm:~# echo 'OUMY''MGHTGF'
OUMYMGHTGF
root@arm:~# MARKER='VEKW''YQAWTY' run 'i2cget -y -f 2 0x60 0x22'
VEKWYQAWTY0x78
VEKWYQAWTY 0
root@arm:~# echo 'VWKT''WUFEMB'
VWKTWUFEMB
root@arm:~# MARKER='VWHV''NTOSPF' run 'i2cget -y -f 2 0x60 0x22'
VWHVNTOSPF0x78
VWHVNTOSPF 0
root@arm:~# echo 'AFMC''AEOOYF'
AFMCAEOOYF
root@arm:~# MARKER='JXSO''SEKAQL' run 'echo 1200000 1200000 > /sys/kernel/mva_tesst/regulators/buck2_set'
JXSOSEKAQLJXSOSEKAQL 0
root@arm:~# echo 'HHEE''QNFLHM'
HHEEQNFLHM
root@arm:~# MARKER='HJZK''AVUHOO' run 'i2cget -f -y 2 0x60 0x29'
HJZKAVUHOO0x4a
HJZKAVUHOO 0
root@arm:~# echo 'NQZQ''VAMNZG'
NQZQVAMNZG
root@arm:~# MARKER='FSVX''KGMUYF' run 'i2cget -y -f 2 0x60 0x22'
FSVXKGMUYF0x78
FSVXKGMUYF 0
root@arm:~# echo 'TOFF''GFJLFG'
TOFFGFJLFG
root@arm:~# MARKER='JEFW''ONHWHP' run 'i2cget -y -f 2 0x60 0x22'
JEFWONHWHP0x78
JEFWONHWHP 0
root@arm:~# echo 'EZHX''MVHGNE'
EZHXMVHGNE
root@arm:~# MARKER='GFSQ''VVWCNV' run 'echo 1210000 1210000 > /sys/kernel/mva_tesst/regulators/buck2_set'
GFSQVVWCNVGFSQVVWCNV 0
root@arm:~# echo 'ONUG''BTFAGT'
ONUGBTFAGT
root@arm:~# MARKER='QWGQ''LNCPAO' run 'i2cget -f -y 2 0x60 0x29'
QWGQLNCPAO0x4b
QWGQLNCPAO 0
root@arm:~# echo 'AMCW''SHWMSP'
AMCWSHWMSP
root@arm:~# MARKER='GMXK''FMKTQK' run 'i2cget -y -f 2 0x60 0x22'
GMXKFMKTQK0x78
GMXKFMKTQK 0
root@arm:~# echo 'FQTF''NYFNJM'
FQTFNYFNJM
root@arm:~# MARKER='OTJZ''WFQQQS' run 'i2cget -y -f 2 0x60 0x22'
OTJZWFQQQS0x78
OTJZWFQQQS 0
root@arm:~# echo 'AKCX''VEYLBG'
AKCXVEYLBG
root@arm:~# MARKER='FJEQ''KGMTOM' run 'echo 1220000 1220000 > /sys/kernel/mva_tesst/regulators/buck2_set'
FJEQKGMTOMFJEQKGMTOM 0
root@arm:~# echo 'VTWC''KJKPZF'
VTWCKJKPZF
root@arm:~# MARKER='GXMH''KCFYUV' run 'i2cget -f -y 2 0x60 0x29'
GXMHKCFYUV0x4c
GXMHKCFYUV 0
root@arm:~# echo 'YQOB''NJYCOA'
YQOBNJYCOA
root@arm:~# MARKER='SCPQ''AQMQOL' run 'i2cget -y -f 2 0x60 0x22'
SCPQAQMQOL0x78
SCPQAQMQOL 0
root@arm:~# echo 'AQZJ''WAGQCX'
AQZJWAGQCX
root@arm:~# MARKER='QCJN''PWUQWF' run 'i2cget -y -f 2 0x60 0x22'
QCJNPWUQWF0x78
QCJNPWUQWF 0
root@arm:~# echo 'BMBL''LZWSMV'
BMBLLZWSMV
root@arm:~# MARKER='MTTH''LHSCFA' run 'echo 1230000 1230000 > /sys/kernel/mva_tesst/regulators/buck2_set'
MTTHLHSCFAMTTHLHSCFA 0
root@arm:~# echo 'EOWC''JOOOSF'
EOWCJOOOSF
root@arm:~# MARKER='QNQN''FHTXNX' run 'i2cget -f -y 2 0x60 0x29'
QNQNFHTXNX0x4d
QNQNFHTXNX 0
root@arm:~# echo 'OOYB''ZVVYTF'
OOYBZVVYTF
root@arm:~# MARKER='BTZE''YVFXTA' run 'i2cget -y -f 2 0x60 0x22'
BTZEYVFXTA0x78
BTZEYVFXTA 0
root@arm:~# echo 'BNCU''LGCELG'
BNCULGCELG
root@arm:~# MARKER='YVXO''EBOEKQ' run 'i2cget -y -f 2 0x60 0x22'
YVXOEBOEKQ0x78
YVXOEBOEKQ 0
root@arm:~# echo 'HPEN''CPMWOJ'
HPENCPMWOJ
root@arm:~# MARKER='OWCU''EASUSU' run 'echo 1240000 1240000 > /sys/kernel/mva_tesst/regulators/buck2_set'
OWCUEASUSUOWCUEASUSU 0
root@arm:~# echo 'EVBU''QAYWOV'
EVBUQAYWOV
root@arm:~# MARKER='ZFFV''ZAGWBL' run 'i2cget -f -y 2 0x60 0x29'
ZFFVZAGWBL0x4e
ZFFVZAGWBL 0
root@arm:~# echo 'XMJE''LYTMKH'
XMJELYTMKH
root@arm:~# MARKER='WGCW''TPYTZB' run 'i2cget -y -f 2 0x60 0x22'
WGCWTPYTZB0x78
WGCWTPYTZB 0
root@arm:~# echo 'WTWM''GALQFO'
WTWMGALQFO
root@arm:~# MARKER='ABUS''LMGKUS' run 'i2cget -y -f 2 0x60 0x22'
ABUSLMGKUS0x78
ABUSLMGKUS 0
root@arm:~# echo 'OJJW''HTPAGL'
OJJWHTPAGL
root@arm:~# MARKER='KPHA''SHYZWG' run 'echo 1250000 1250000 > /sys/kernel/mva_tesst/regulators/buck2_set'
KPHASHYZWGKPHASHYZWG 0
root@arm:~# echo 'LZVS''KOWAAE'
LZVSKOWAAE
root@arm:~# MARKER='FEEF''YPKQHV' run 'i2cget -f -y 2 0x60 0x29'
FEEFYPKQHV0x4f
FEEFYPKQHV 0
root@arm:~# echo 'UHOP''BSKOXK'
UHOPBSKOXK
root@arm:~# MARKER='CCXU''BHWKMB' run 'i2cget -y -f 2 0x60 0x22'
CCXUBHWKMB0x78
CCXUBHWKMB 0
root@arm:~# echo 'ZLSC''NWOMFZ'
ZLSCNWOMFZ
root@arm:~# MARKER='OFWN''PWFAEG' run 'i2cget -y -f 2 0x60 0x22'
OFWNPWFAEG0x78
OFWNPWFAEG 0
root@arm:~# echo 'QSBC''ZJYYCU'
QSBCZJYYCU
root@arm:~# MARKER='UUTV''OTSXTL' run 'echo 1260000 1260000 > /sys/kernel/mva_tesst/regulators/buck2_set'
UUTVOTSXTLUUTVOTSXTL 0
root@arm:~# echo 'NQVP''WFQQTH'
NQVPWFQQTH
root@arm:~# MARKER='NWPU''UYSZHA' run 'i2cget -f -y 2 0x60 0x29'
NWPUUYSZHA0x50
NWPUUYSZHA 0
root@arm:~# echo 'UJKJ''HKKBTE'
UJKJHKKBTE
root@arm:~# MARKER='NNFA''AKCLKM' run 'i2cget -y -f 2 0x60 0x22'
NNFAAKCLKM0x78
NNFAAKCLKM 0
root@arm:~# echo 'MBZA''KXPWEA'
MBZAKXPWEA
root@arm:~# MARKER='QCNK''CWSHKB' run 'i2cget -y -f 2 0x60 0x22'
QCNKCWSHKB0x78
QCNKCWSHKB 0
root@arm:~# echo 'AACC''UEPUMF'
AACCUEPUMF
root@arm:~# MARKER='SQSB''YFEOGA' run 'echo 1270000 1270000 > /sys/kernel/mva_tesst/regulators/buck2_set'
SQSBYFEOGASQSBYFEOGA 0
root@arm:~# echo 'UZWJ''VNKAOP'
UZWJVNKAOP
root@arm:~# MARKER='LCPA''YLBUWS' run 'i2cget -f -y 2 0x60 0x29'
LCPAYLBUWS0x51
LCPAYLBUWS 0
root@arm:~# echo 'BKUH''ANMFFS'
BKUHANMFFS
root@arm:~# MARKER='ASNJ''HVBVPZ' run 'i2cget -y -f 2 0x60 0x22'
ASNJHVBVPZ0x78
ASNJHVBVPZ 0
root@arm:~# echo 'NTWJ''TVNXGY'
NTWJTVNXGY
root@arm:~# MARKER='FJHG''FTKZTC' run 'i2cget -y -f 2 0x60 0x22'
FJHGFTKZTC0x78
FJHGFTKZTC 0
root@arm:~# echo 'NGAX''OSWEJP'
NGAXOSWEJP
root@arm:~# MARKER='AZKM''YNTNTW' run 'echo 1280000 1280000 > /sys/kernel/mva_tesst/regulators/buck2_set'
AZKMYNTNTWAZKMYNTNTW 0
root@arm:~# echo 'TSJC''BNLPJC'
TSJCBNLPJC
root@arm:~# MARKER='TSVG''JALXUY' run 'i2cget -f -y 2 0x60 0x29'
TSVGJALXUY0x52
TSVGJALXUY 0
root@arm:~# echo 'CNTS''BZHAGU'
CNTSBZHAGU
root@arm:~# MARKER='WNYX''MAUQMP' run 'i2cget -y -f 2 0x60 0x22'
WNYXMAUQMP0x78
WNYXMAUQMP 0
root@arm:~# echo 'SBXQ''MSVZYS'
SBXQMSVZYS
root@arm:~# MARKER='GSYY''YETFUT' run 'i2cget -y -f 2 0x60 0x22'
GSYYYETFUT0x78
GSYYYETFUT 0
root@arm:~# echo 'FVCG''PUJAJV'
FVCGPUJAJV
root@arm:~# MARKER='LJEU''YJVGYC' run 'echo 1290000 1290000 > /sys/kernel/mva_tesst/regulators/buck2_set'
LJEUYJVGYCLJEUYJVGYC 0
root@arm:~# echo 'EHZX''TEJYYY'
EHZXTEJYYY
root@arm:~# MARKER='YVSQ''BSBVEK' run 'i2cget -f -y 2 0x60 0x29'
YVSQBSBVEK0x53
YVSQBSBVEK 0
root@arm:~# echo 'AJOQ''USFKMW'
AJOQUSFKMW
root@arm:~# MARKER='TMMK''XVMLGN' run 'i2cget -y -f 2 0x60 0x22'
TMMKXVMLGN0x78
TMMKXVMLGN 0
root@arm:~# echo 'PSGA''CJZXBP'
PSGACJZXBP
root@arm:~# MARKER='OVOB''GJFQQE' run 'i2cget -y -f 2 0x60 0x22'
OVOBGJFQQE0x78
OVOBGJFQQE 0
root@arm:~# echo 'EHUX''LSTUSP'
EHUXLSTUSP
root@arm:~# MARKER='QEOK''BWFLVM' run 'echo 1300000 1300000 > /sys/kernel/mva_tesst/regulators/buck2_set'
QEOKBWFLVMQEOKBWFLVM 0
root@arm:~# echo 'HUAU''OCWCFN'
HUAUOCWCFN
root@arm:~# MARKER='KHXC''AQHYXH' run 'i2cget -f -y 2 0x60 0x29'
KHXCAQHYXH0x54
KHXCAQHYXH 0
root@arm:~# echo 'SJBJ''HOKNWZ'
SJBJHOKNWZ
root@arm:~# MARKER='SACG''AWGSSL' run 'i2cget -y -f 2 0x60 0x22'
SACGAWGSSL0x78
SACGAWGSSL 0
root@arm:~# echo 'ZLOK''JLZUSY'
ZLOKJLZUSY
root@arm:~# MARKER='JHLY''MZEWWT' run 'i2cget -y -f 2 0x60 0x22'
JHLYMZEWWT0x78
JHLYMZEWWT 0
root@arm:~# echo 'JAYC''ZELBHQ'
JAYCZELBHQ
root@arm:~# MARKER='VZVX''TMEHMG' run 'echo 1310000 1310000 > /sys/kernel/mva_tesst/regulators/buck2_set'
VZVXTMEHMGVZVXTMEHMG 0
root@arm:~# echo 'VEXC''OWYQFM'
VEXCOWYQFM
root@arm:~# MARKER='HKHM''LZQULK' run 'i2cget -f -y 2 0x60 0x29'
HKHMLZQULK0x55
HKHMLZQULK 0
root@arm:~# echo 'WKHV''EFLWWH'
WKHVEFLWWH
root@arm:~# MARKER='MNQA''GHVEHV' run 'i2cget -y -f 2 0x60 0x22'
MNQAGHVEHV0x78
MNQAGHVEHV 0
root@arm:~# echo 'AXTV''VKEZHQ'
AXTVVKEZHQ
root@arm:~# MARKER='AUMQ''OUKLLU' run 'i2cget -y -f 2 0x60 0x22'
AUMQOUKLLU0x78
AUMQOUKLLU 0
root@arm:~# echo 'WSFE''GGKFTG'
WSFEGGKFTG
root@arm:~# MARKER='FAVB''WMHBVQ' run 'echo 1320000 1320000 > /sys/kernel/mva_tesst/regulators/buck2_set'
FAVBWMHBVQFAVBWMHBVQ 0
root@arm:~# echo 'HQLV''XNZXAP'
HQLVXNZXAP
root@arm:~# MARKER='BQVE''XKPSSZ' run 'i2cget -f -y 2 0x60 0x29'
BQVEXKPSSZ0x56
BQVEXKPSSZ 0
root@arm:~# echo 'PTCH''YSBWWP'
PTCHYSBWWP
root@arm:~# MARKER='QJGA''UTPSEO' run 'i2cget -y -f 2 0x60 0x22'
QJGAUTPSEO0x78
QJGAUTPSEO 0
root@arm:~# echo 'FJOX''JUQBUE'
FJOXJUQBUE
root@arm:~# MARKER='BWUH''LOEXFW' run 'i2cget -y -f 2 0x60 0x22'
BWUHLOEXFW0x78
BWUHLOEXFW 0
root@arm:~# echo 'CBJA''KYTYMM'
CBJAKYTYMM
root@arm:~# MARKER='ZHNL''JXUGSZ' run 'echo 1330000 1330000 > /sys/kernel/mva_tesst/regulators/buck2_set'
ZHNLJXUGSZZHNLJXUGSZ 0
root@arm:~# echo 'PUCM''XAULTW'
PUCMXAULTW
root@arm:~# MARKER='KHFT''BHNTYQ' run 'i2cget -f -y 2 0x60 0x29'
KHFTBHNTYQ0x57
KHFTBHNTYQ 0
root@arm:~# echo 'FCUB''CBTBXB'
FCUBCBTBXB
root@arm:~# MARKER='JSBF''GSYVOH' run 'i2cget -y -f 2 0x60 0x22'
JSBFGSYVOH0x78
JSBFGSYVOH 0
root@arm:~# echo 'NMZA''OOSLCQ'
NMZAOOSLCQ
root@arm:~# MARKER='MKOK''OFSBPW' run 'i2cget -y -f 2 0x60 0x22'
MKOKOFSBPW0x78
MKOKOFSBPW 0
root@arm:~# echo 'TMMM''ZJTQXQ'
TMMMZJTQXQ
root@arm:~# MARKER='CCKM''PEESVB' run 'echo 1340000 1340000 > /sys/kernel/mva_tesst/regulators/buck2_set'
CCKMPEESVBCCKMPEESVB 0
root@arm:~# echo 'VWJW''GXEJST'
VWJWGXEJST
root@arm:~# MARKER='OYTY''VZEQNB' run 'i2cget -f -y 2 0x60 0x29'
OYTYVZEQNB0x58
OYTYVZEQNB 0
root@arm:~# echo 'MFEE''ECQKKP'
MFEEECQKKP
root@arm:~# MARKER='VOHH''SYNNGX' run 'i2cget -y -f 2 0x60 0x22'
VOHHSYNNGX0x78
VOHHSYNNGX 0
root@arm:~# echo 'NOVE''BCEKCV'
NOVEBCEKCV
root@arm:~# MARKER='MVLV''YAQCEX' run 'i2cget -y -f 2 0x60 0x22'
MVLVYAQCEX0x78
MVLVYAQCEX 0
root@arm:~# echo 'OFHN''MMFBKM'
OFHNMMFBKM
root@arm:~# MARKER='XTUH''MPTQZQ' run 'echo 1350000 1350000 > /sys/kernel/mva_tesst/regulators/buck2_set'
XTUHMPTQZQXTUHMPTQZQ 0
root@arm:~# echo 'PGNG''UGATXZ'
PGNGUGATXZ
root@arm:~# MARKER='AXWX''VBVFPU' run 'i2cget -f -y 2 0x60 0x29'
AXWXVBVFPU0x59
AXWXVBVFPU 0
root@arm:~# echo 'GEZW''SWCAOS'
GEZWSWCAOS
root@arm:~# MARKER='THHC''TTXOXC' run 'i2cget -y -f 2 0x60 0x22'
THHCTTXOXC0x78
THHCTTXOXC 0
root@arm:~# echo 'XBHB''UHUAVW'
XBHBUHUAVW
root@arm:~# MARKER='LOOB''OYXJKP' run 'i2cget -y -f 2 0x60 0x22'
LOOBOYXJKP0x78
LOOBOYXJKP 0
root@arm:~# echo 'GHGZ''UNUAWE'
GHGZUNUAWE
root@arm:~# MARKER='FKTP''MVKJVM' run 'echo 1360000 1360000 > /sys/kernel/mva_tesst/regulators/buck2_set'
FKTPMVKJVMFKTPMVKJVM 0
root@arm:~# echo 'EQBX''WJWKQU'
EQBXWJWKQU
root@arm:~# MARKER='GBQP''TNPMGM' run 'i2cget -f -y 2 0x60 0x29'
GBQPTNPMGM0x5a
GBQPTNPMGM 0
root@arm:~# echo 'TGLV''XPALUA'
TGLVXPALUA
root@arm:~# MARKER='GHCK''BMTUCZ' run 'i2cget -y -f 2 0x60 0x22'
GHCKBMTUCZ0x78
GHCKBMTUCZ 0
root@arm:~# echo 'SSTE''NSXVGW'
SSTENSXVGW
root@arm:~# MARKER='PVNZ''GECVSC' run 'i2cget -y -f 2 0x60 0x22'
PVNZGECVSC0x78
PVNZGECVSC 0
root@arm:~# echo 'NJYU''NMLEWE'
NJYUNMLEWE
root@arm:~# MARKER='WPEO''LTBQHN' run 'echo 1370000 1370000 > /sys/kernel/mva_tesst/regulators/buck2_set'
WPEOLTBQHNWPEOLTBQHN 0
root@arm:~# echo 'TCOX''GBBZPT'
TCOXGBBZPT
root@arm:~# MARKER='PQTZ''HWEJCF' run 'i2cget -f -y 2 0x60 0x29'
PQTZHWEJCF0x5b
PQTZHWEJCF 0
root@arm:~# echo 'ZVMH''OGMBYP'
ZVMHOGMBYP
root@arm:~# MARKER='OVVM''HOVPJY' run 'i2cget -y -f 2 0x60 0x22'
OVVMHOVPJY0x78
OVVMHOVPJY 0
root@arm:~# echo 'WZQT''BZTWQP'
WZQTBZTWQP
root@arm:~# MARKER='CZYH''CCTQPG' run 'i2cget -y -f 2 0x60 0x22'
CZYHCCTQPG0x78
CZYHCCTQPG 0
root@arm:~# echo 'ZVFS''VBNBPS'
ZVFSVBNBPS
root@arm:~# MARKER='OPNL''BCNWZT' run 'echo 1380000 1380000 > /sys/kernel/mva_tesst/regulators/buck2_set'
OPNLBCNWZTOPNLBCNWZT 0
root@arm:~# echo 'VSOA''GECJUQ'
VSOAGECJUQ
root@arm:~# MARKER='WWFX''WLAWKH' run 'i2cget -f -y 2 0x60 0x29'
WWFXWLAWKH0x5c
WWFXWLAWKH 0
root@arm:~# echo 'FLZZ''XMYJCV'
FLZZXMYJCV
root@arm:~# MARKER='EVOJ''BGKQBO' run 'i2cget -y -f 2 0x60 0x22'
EVOJBGKQBO0x78
EVOJBGKQBO 0
root@arm:~# echo 'KNFL''EOWHUQ'
KNFLEOWHUQ
root@arm:~# MARKER='BGWU''TTAVPT' run 'i2cget -y -f 2 0x60 0x22'
BGWUTTAVPT0x78
BGWUTTAVPT 0
root@arm:~# echo 'AJTS''CFYOXK'
AJTSCFYOXK
root@arm:~# MARKER='ZAHT''UWXJEY' run 'echo 1390000 1390000 > /sys/kernel/mva_tesst/regulators/buck2_set'
ZAHTUWXJEYZAHTUWXJEY 0
root@arm:~# echo 'XUFH''WVWQBE'
XUFHWVWQBE
root@arm:~# MARKER='JLSV''BHGHCL' run 'i2cget -f -y 2 0x60 0x29'
JLSVBHGHCL0x5d
JLSVBHGHCL 0
root@arm:~# echo 'KHXT''HOWNUX'
KHXTHOWNUX
root@arm:~# MARKER='QYZP''ONTEXK' run 'i2cget -y -f 2 0x60 0x22'
QYZPONTEXK0x78
QYZPONTEXK 0
root@arm:~# echo 'CSSH''ESSBUL'
CSSHESSBUL
root@arm:~# MARKER='EQWG''FJLZPH' run 'i2cget -y -f 2 0x60 0x22'
EQWGFJLZPH0x78
EQWGFJLZPH 0
root@arm:~# echo 'JYJU''KLYAQX'
JYJUKLYAQX
root@arm:~# MARKER='AYHV''WAAJNB' run 'echo 1400000 1400000 > /sys/kernel/mva_tesst/regulators/buck2_set'
AYHVWAAJNBAYHVWAAJNB 0
root@arm:~# echo 'MXLS''EEYUHS'
MXLSEEYUHS
root@arm:~# MARKER='ECNJ''JHZSVS' run 'i2cget -f -y 2 0x60 0x29'
ECNJJHZSVS0x5e
ECNJJHZSVS 0
root@arm:~# echo 'WKLL''ONPQFS'
WKLLONPQFS
root@arm:~# MARKER='MLKW''VTKJNJ' run 'i2cget -y -f 2 0x60 0x22'
MLKWVTKJNJ0x78
MLKWVTKJNJ 0
root@arm:~# echo 'ZULO''FYLTTG'
ZULOFYLTTG
root@arm:~# MARKER='MOOY''WOEZOC' run 'i2cget -y -f 2 0x60 0x22'
MOOYWOEZOC0x78
MOOYWOEZOC 0
root@arm:~# echo 'YFBY''CSZYYS'
YFBYCSZYYS
root@arm:~# MARKER='TJQK''BGNFMG' run 'echo 1410000 1410000 > /sys/kernel/mva_tesst/regulators/buck2_set'
TJQKBGNFMGTJQKBGNFMG 0
root@arm:~# echo 'FQMF''LNWBWM'
FQMFLNWBWM
root@arm:~# MARKER='HKWO''GKHPAN' run 'i2cget -f -y 2 0x60 0x29'
HKWOGKHPAN0x5f
HKWOGKHPAN 0
root@arm:~# echo 'AMWX''LGGTXV'
AMWXLGGTXV
root@arm:~# MARKER='CPCV''SAOYVM' run 'i2cget -y -f 2 0x60 0x22'
CPCVSAOYVM0x78
CPCVSAOYVM 0
root@arm:~# echo 'WGYS''LUTAWF'
WGYSLUTAWF
root@arm:~# MARKER='JHQW''EEYGBS' run 'i2cget -y -f 2 0x60 0x22'
JHQWEEYGBS0x78
JHQWEEYGBS 0
root@arm:~# echo 'YBOQ''JECULP'
YBOQJECULP
root@arm:~# MARKER='HMSY''MNGJBC' run 'echo 790000 790000 > /sys/kernel/mva_test//regulators/buck2_set'
HMSYMNGJBCHMSYMNGJBC 0
root@arm:~# echo 'BNPL''ZNOSEM'
BNPLZNOSEM
root@arm:~# MARKER='OBYG''QVJUNN' run 'i2cget -f -y 2 0x60 0x29'
OBYGQVJUNN0x60
OBYGQVJUNN 0
root@arm:~# echo 'OAQU''GFCOFM'
OAQUGFCOFM
root@arm:~# MARKER='ABVP''AMWSUT' run 'i2cget -y -f 2 0x60 0x22'
ABVPAMWSUT0x78
ABVPAMWSUT 0
root@arm:~# echo 'OTKQ''KEUQCS'
OTKQKEUQCS
root@arm:~# MARKER='TPZH''HEGVNT' run 'i2cget -y -f 2 0x60 0x22'
TPZHHEGVNT0x78
TPZHHEGVNT 0
root@arm:~# echo 'JBVT''BOEYXM'
JBVTBOEYXM
root@arm:~# MARKER='NHGJ''QQGVSO' run 'echo 800000 800000 > /sys/kernel/mva_test//regulators/buck2_set'
NHGJQQGVSONHGJQQGVSO 0
root@arm:~# echo 'XXME''WCGELY'
XXMEWCGELY
root@arm:~# MARKER='MFUY''UKKEPL' run 'i2cget -f -y 2 0x60 0x29'
MFUYUKKEPL0x61
MFUYUKKEPL 0
root@arm:~# echo 'XHFM''HLTFYF'
XHFMHLTFYF
root@arm:~# MARKER='LUTL''TMNCTW' run 'i2cget -y -f 2 0x60 0x22'
LUTLTMNCTW0x78
LUTLTMNCTW 0
root@arm:~# echo 'ZGAG''MLZXVJ'
ZGAGMLZXVJ
root@arm:~# MARKER='EULO''FXWQGL' run 'i2cget -y -f 2 0x60 0x22'
EULOFXWQGL0x78
EULOFXWQGL 0
root@arm:~# echo 'XGMS''VJEOYC'
XGMSVJEOYC
root@arm:~# MARKER='BAHY''CCUEJM' run 'echo 810000 810000 > /sys/kernel/mva_test//regulators/buck2_set'
BAHYCCUEJMBAHYCCUEJM 0
root@arm:~# echo 'JGFF''SBHOKL'
JGFFSBHOKL
root@arm:~# MARKER='HPWK''AGHCOC' run 'i2cget -f -y 2 0x60 0x29'
HPWKAGHCOC0x62
HPWKAGHCOC 0
root@arm:~# echo 'LCSN''PXBYGK'
LCSNPXBYGK
root@arm:~# MARKER='ULJM''JVCVNT' run 'i2cget -y -f 2 0x60 0x22'
ULJMJVCVNT0x78
ULJMJVCVNT 0
root@arm:~# echo 'YEGE''BTYFEG'
YEGEBTYFEG
root@arm:~# MARKER='OZGL''UQZBCM' run 'i2cget -y -f 2 0x60 0x22'
OZGLUQZBCM0x78
OZGLUQZBCM 0
root@arm:~# echo 'AKWQ''HQZUEJ'
AKWQHQZUEJ
root@arm:~# MARKER='QFJL''PFFMNF' run 'echo 820000 820000 > /sys/kernel/mva_test//regulators/buck2_set'
QFJLPFFMNFQFJLPFFMNF 0
root@arm:~# echo 'ETHB''JLCGKJ'
ETHBJLCGKJ
root@arm:~# MARKER='SOVZ''HHXOWW' run 'i2cget -f -y 2 0x60 0x29'
SOVZHHXOWW0x63
SOVZHHXOWW 0
root@arm:~# echo 'VWPY''XLLCHL'
VWPYXLLCHL
root@arm:~# MARKER='BCSM''UMWAKX' run 'i2cget -y -f 2 0x60 0x22'
BCSMUMWAKX0x78
BCSMUMWAKX 0
root@arm:~# echo 'HMUG''FFSNNE'
HMUGFFSNNE
root@arm:~# MARKER='EBHY''CQYPMV' run 'i2cget -y -f 2 0x60 0x22'
EBHYCQYPMV0x78
EBHYCQYPMV 0
root@arm:~# echo 'AQNH''SAHCJJ'
AQNHSAHCJJ
root@arm:~# MARKER='KOCW''EOLKYN' run 'echo 830000 830000 > /sys/kernel/mva_test//regulators/buck2_set'
KOCWEOLKYNKOCWEOLKYN 0
root@arm:~# echo 'PEMZ''OYSHBM'
PEMZOYSHBM
root@arm:~# MARKER='TTXJ''FYVTOA' run 'i2cget -f -y 2 0x60 0x29'
TTXJFYVTOA0x64
TTXJFYVTOA 0
root@arm:~# echo 'HJKH''KSTKUJ'
HJKHKSTKUJ
root@arm:~# MARKER='HFFM''YXOMZK' run 'i2cget -y -f 2 0x60 0x22'
HFFMYXOMZK0x78
HFFMYXOMZK 0
root@arm:~# echo 'OMWG''YHBXWX'
OMWGYHBXWX
root@arm:~# MARKER='WVTT''BZTCTC' run 'i2cget -y -f 2 0x60 0x22'
WVTTBZTCTC0x78
WVTTBZTCTC 0
root@arm:~# echo 'FLKW''BNZEAJ'
FLKWBNZEAJ
root@arm:~# MARKER='TTMF''JSAEEA' run 'echo 840000 840000 > /sys/kernel/mva_test//regulators/buck2_set'
TTMFJSAEEATTMFJSAEEA 0
root@arm:~# echo 'NWNO''UNKYPX'
NWNOUNKYPX
root@arm:~# MARKER='JLVP''AJBUAH' run 'i2cget -f -y 2 0x60 0x29'
JLVPAJBUAH0x65
JLVPAJBUAH 0
root@arm:~# echo 'TUHA''LZBPAB'
TUHALZBPAB
root@arm:~# MARKER='KLCH''VENCVW' run 'i2cget -y -f 2 0x60 0x22'
KLCHVENCVW0x78
KLCHVENCVW 0
root@arm:~# echo 'XEYJ''VSYUAJ'
XEYJVSYUAJ
root@arm:~# MARKER='QXLT''NNWOVJ' run 'i2cget -y -f 2 0x60 0x22'
QXLTNNWOVJ0x78
QXLTNNWOVJ 0
root@arm:~# echo 'AXAF''JQGFVC'
AXAFJQGFVC
root@arm:~# MARKER='ZXSB''CLGSAM' run 'echo 850000 850000 > /sys/kernel/mva_test//regulators/buck2_set'
ZXSBCLGSAMZXSBCLGSAM 0
root@arm:~# echo 'UHEZ''GOQBTS'
UHEZGOQBTS
root@arm:~# MARKER='XWGK''WCGJHT' run 'i2cget -f -y 2 0x60 0x29'
XWGKWCGJHT0x66
XWGKWCGJHT 0
root@arm:~# echo 'THFP''JQMJUE'
THFPJQMJUE
root@arm:~# MARKER='OMYV''HWAKYY' run 'i2cget -y -f 2 0x60 0x22'
OMYVHWAKYY0x78
OMYVHWAKYY 0
root@arm:~# echo 'LYBQ''HVBHGW'
LYBQHVBHGW
root@arm:~# MARKER='VZFY''MOXMBP' run 'i2cget -y -f 2 0x60 0x22'
VZFYMOXMBP0x78
VZFYMOXMBP 0
root@arm:~# echo 'XETN''OPKACS'
XETNOPKACS
root@arm:~# MARKER='FNYF''ZJKYQA' run 'echo 860000 860000 > /sys/kernel/mva_test//regulators/buck2_set'
FNYFZJKYQAFNYFZJKYQA 0
root@arm:~# echo 'LPPO''OUMLGM'
LPPOOUMLGM
root@arm:~# MARKER='UNHA''SBZULW' run 'i2cget -f -y 2 0x60 0x29'
UNHASBZULW0x67
UNHASBZULW 0
root@arm:~# echo 'MHVE''PNPLMA'
MHVEPNPLMA
root@arm:~# MARKER='OFBL''GKCVFQ' run 'i2cget -y -f 2 0x60 0x22'
OFBLGKCVFQ0x78
OFBLGKCVFQ 0
root@arm:~# echo 'MGYO''YLXYKJ'
MGYOYLXYKJ
root@arm:~# MARKER='GSTM''VQNTGJ' run 'i2cget -y -f 2 0x60 0x22'
GSTMVQNTGJ0x78
GSTMVQNTGJ 0
root@arm:~# echo 'PYWJ''AZGKEX'
PYWJAZGKEX
root@arm:~# MARKER='BMOB''JVYNKV' run 'echo 870000 870000 > /sys/kernel/mva_test//regulators/buck2_set'
BMOBJVYNKVBMOBJVYNKV 0
root@arm:~# echo 'LQYA''PSEGZO'
LQYAPSEGZO
root@arm:~# MARKER='PKYZ''LVCNUV' run 'i2cget -f -y 2 0x60 0x29'
PKYZLVCNUV0x68
PKYZLVCNUV 0
root@arm:~# echo 'NAQQ''OZXTEK'
NAQQOZXTEK
root@arm:~# MARKER='ZBKJ''VPLAKJ' run 'i2cget -y -f 2 0x60 0x22'
ZBKJVPLAKJ0x78
ZBKJVPLAKJ 0
root@arm:~# echo 'PQAF''GUSOLO'
PQAFGUSOLO
root@arm:~# MARKER='SMLH''ZAHWFK' run 'i2cget -y -f 2 0x60 0x22'
SMLHZAHWFK0x78
SMLHZAHWFK 0
root@arm:~# echo 'FHNM''NGPSKE'
FHNMNGPSKE
root@arm:~# MARKER='YNFG''WMMMXN' run 'echo 880000 880000 > /sys/kernel/mva_test//regulators/buck2_set'
YNFGWMMMXNYNFGWMMMXN 0
root@arm:~# echo 'CMJN''OFFNHY'
CMJNOFFNHY
root@arm:~# MARKER='MGWS''KBVLGO' run 'i2cget -f -y 2 0x60 0x29'
MGWSKBVLGO0x69
MGWSKBVLGO 0
root@arm:~# echo 'AFBW''LLYQFJ'
AFBWLLYQFJ
root@arm:~# MARKER='FOOU''NGEOLU' run 'i2cget -y -f 2 0x60 0x22'
FOOUNGEOLU0x78
FOOUNGEOLU 0
root@arm:~# echo 'UJVG''BVGACC'
UJVGBVGACC
root@arm:~# MARKER='SAUJ''ENSSTF' run 'i2cget -y -f 2 0x60 0x22'
SAUJENSSTF0x78
SAUJENSSTF 0
root@arm:~# echo 'EUMT''MTKVGW'
EUMTMTKVGW
root@arm:~# MARKER='OHNH''QACNZY' run 'echo 890000 890000 > /sys/kernel/mva_test//regulators/buck2_set'
OHNHQACNZYOHNHQACNZY 0
root@arm:~# echo 'NSTK''PACUUO'
NSTKPACUUO
root@arm:~# MARKER='KVTY''MXSLQA' run 'i2cget -f -y 2 0x60 0x29'
KVTYMXSLQA0x6a
KVTYMXSLQA 0
root@arm:~# echo 'LEFW''AOVUZA'
LEFWAOVUZA
root@arm:~# MARKER='EBSS''QSNTGH' run 'i2cget -y -f 2 0x60 0x22'
EBSSQSNTGH0x78
EBSSQSNTGH 0
root@arm:~# echo 'TPHO''YJWMKA'
TPHOYJWMKA
root@arm:~# MARKER='AVFF''UVSYGS' run 'i2cget -y -f 2 0x60 0x22'
AVFFUVSYGS0x78
AVFFUVSYGS 0
root@arm:~# echo 'VUVS''LAULSS'
VUVSLAULSS
root@arm:~# MARKER='OEAY''YALUGL' run 'echo 900000 900000 > /sys/kernel/mva_test//regulators/buck2_set'
OEAYYALUGLOEAYYALUGL 0
root@arm:~# echo 'OBVO''TMVEWB'
OBVOTMVEWB
root@arm:~# MARKER='PKWQ''ZLBJLM' run 'i2cget -f -y 2 0x60 0x29'
PKWQZLBJLM0x6b
PKWQZLBJLM 0
root@arm:~# echo 'CTSH''QCCTXW'
CTSHQCCTXW
root@arm:~# MARKER='WJAC''YOFYOB' run 'i2cget -y -f 2 0x60 0x22'
WJACYOFYOB0x78
WJACYOFYOB 0
root@arm:~# echo 'EWJC''SFELPY'
EWJCSFELPY
root@arm:~# MARKER='UTLU''PJYQPU' run 'i2cget -y -f 2 0x60 0x22'
UTLUPJYQPU0x78
UTLUPJYQPU 0
root@arm:~# echo 'JOVN''GMECQH'
JOVNGMECQH
root@arm:~# MARKER='HUJG''BHHXLX' run 'echo 910000 910000 > /sys/kernel/mva_test//regulators/buck2_set'
HUJGBHHXLXHUJGBHHXLX 0
root@arm:~# echo 'APPL''WKZHFQ'
APPLWKZHFQ
root@arm:~# MARKER='LEXG''CCZSKT' run 'i2cget -f -y 2 0x60 0x29'
LEXGCCZSKT0x6c
LEXGCCZSKT 0
root@arm:~# echo 'FWWC''PHETPQ'
FWWCPHETPQ
root@arm:~# MARKER='YJHG''LEBPUA' run 'i2cget -y -f 2 0x60 0x22'
YJHGLEBPUA0x78
YJHGLEBPUA 0
root@arm:~# echo 'GZEO''BPWUVA'
GZEOBPWUVA
root@arm:~# MARKER='VVSL''CLXMAV' run 'i2cget -y -f 2 0x60 0x22'
VVSLCLXMAV0x78
VVSLCLXMAV 0
root@arm:~# echo 'YCYN''YZOHHN'
YCYNYZOHHN
root@arm:~# MARKER='UXVO''BZNZBW' run 'echo 920000 920000 > /sys/kernel/mva_test//regulators/buck2_set'
UXVOBZNZBWUXVOBZNZBW 0
root@arm:~# echo 'OPEA''YPZWVA'
OPEAYPZWVA
root@arm:~# MARKER='GTWC''AQFYVY' run 'i2cget -f -y 2 0x60 0x29'
GTWCAQFYVY0x6d
GTWCAQFYVY 0
root@arm:~# echo 'XZZC''HMWQOX'
XZZCHMWQOX
root@arm:~# MARKER='HXCF''GHHWWJ' run 'i2cget -y -f 2 0x60 0x22'
HXCFGHHWWJ0x78
HXCFGHHWWJ 0
root@arm:~# echo 'FTWE''TALHFK'
FTWETALHFK
root@arm:~# MARKER='MFKO''ZPAVNB' run 'i2cget -y -f 2 0x60 0x22'
MFKOZPAVNB0x78
MFKOZPAVNB 0
root@arm:~# echo 'SNKS''JEFELH'
SNKSJEFELH
root@arm:~# MARKER='TAYN''XFPOHK' run 'echo 930000 930000 > /sys/kernel/mva_test//regulators/buck2_set'
TAYNXFPOHKTAYNXFPOHK 0
root@arm:~# echo 'LPTU''EEOUNC'
LPTUEEOUNC
root@arm:~# MARKER='ZGCA''HKFHUW' run 'i2cget -f -y 2 0x60 0x29'
ZGCAHKFHUW0x6e
ZGCAHKFHUW 0
root@arm:~# echo 'OGLT''XVHWGZ'
OGLTXVHWGZ
root@arm:~# MARKER='YKQA''WJLGKV' run 'i2cget -y -f 2 0x60 0x22'
YKQAWJLGKV0x78
YKQAWJLGKV 0
root@arm:~# echo 'CXQN''PYJFHT'
CXQNPYJFHT
root@arm:~# MARKER='GZJT''CKTYQV' run 'i2cget -y -f 2 0x60 0x22'
GZJTCKTYQV0x78
GZJTCKTYQV 0
root@arm:~# echo 'YZEJ''NMTMWY'
YZEJNMTMWY
root@arm:~# MARKER='QZLT''HAZBWK' run 'echo 940000 940000 > /sys/kernel/mva_test//regulators/buck2_set'
QZLTHAZBWKQZLTHAZBWK 0
root@arm:~# echo 'NVHF''HMZTTF'
NVHFHMZTTF
root@arm:~# MARKER='MSXL''HUVGFZ' run 'i2cget -f -y 2 0x60 0x29'
MSXLHUVGFZ0x6f
MSXLHUVGFZ 0
root@arm:~# echo 'ZOXU''VEMZFP'
ZOXUVEMZFP
root@arm:~# MARKER='HZFN''SJUCAT' run 'i2cget -y -f 2 0x60 0x22'
HZFNSJUCAT0x78
HZFNSJUCAT 0
root@arm:~# echo 'JYUK''GOXACJ'
JYUKGOXACJ
root@arm:~# MARKER='YUCG''GFQWOZ' run 'i2cget -y -f 2 0x60 0x22'
YUCGGFQWOZ0x78
YUCGGFQWOZ 0
root@arm:~# echo 'ESVB''HXBFUF'
ESVBHXBFUF
root@arm:~# MARKER='CXOP''UAPTKK' run 'echo 950000 950000 > /sys/kernel/mva_test//regulators/buck2_set'
CXOPUAPTKKCXOPUAPTKK 0
root@arm:~# echo 'GBXW''GUXJEM'
GBXWGUXJEM
root@arm:~# MARKER='UGWE''TFYJMK' run 'i2cget -f -y 2 0x60 0x29'
UGWETFYJMK0x70
UGWETFYJMK 0
root@arm:~# echo 'GOXX''MNTLEB'
GOXXMNTLEB
root@arm:~# MARKER='VJXY''QLSXMP' run 'i2cget -y -f 2 0x60 0x22'
VJXYQLSXMP0x78
VJXYQLSXMP 0
root@arm:~# echo 'JVHC''YWUWPH'
JVHCYWUWPH
root@arm:~# MARKER='WEJL''ABNYSQ' run 'i2cget -y -f 2 0x60 0x22'
WEJLABNYSQ0x78
WEJLABNYSQ 0
root@arm:~# echo 'JGWQ''EBVFUL'
JGWQEBVFUL
root@arm:~# MARKER='MFCX''AQBTYK' run 'echo 960000 960000 > /sys/kernel/mva_test//regulators/buck2_set'
MFCXAQBTYKMFCXAQBTYK 0
root@arm:~# echo 'EJPP''CLXWZX'
EJPPCLXWZX
root@arm:~# MARKER='AJCU''XPQHZP' run 'i2cget -f -y 2 0x60 0x29'
AJCUXPQHZP0x71
AJCUXPQHZP 0
root@arm:~# echo 'MAJO''QGHJNM'
MAJOQGHJNM
root@arm:~# MARKER='VBWM''MBNLFG' run 'i2cget -y -f 2 0x60 0x22'
VBWMMBNLFG0x78
VBWMMBNLFG 0
root@arm:~# echo 'GLSS''JMSSXO'
GLSSJMSSXO
root@arm:~# MARKER='AKWM''TQAAKX' run 'i2cget -y -f 2 0x60 0x22'
AKWMTQAAKX0x78
AKWMTQAAKX 0
root@arm:~# echo 'HVFY''UWUVEM'
HVFYUWUVEM
root@arm:~# MARKER='TQTS''MBSCHK' run 'echo 970000 970000 > /sys/kernel/mva_test//regulators/buck2_set'
TQTSMBSCHKTQTSMBSCHK 0
root@arm:~# echo 'VJNC''PCXXHA'
VJNCPCXXHA
root@arm:~# MARKER='VGLL''EQNQPX' run 'i2cget -f -y 2 0x60 0x29'
VGLLEQNQPX0x72
VGLLEQNQPX 0
root@arm:~# echo 'GMTF''TCJOMW'
GMTFTCJOMW
root@arm:~# MARKER='VFQF''ZGXJTM' run 'i2cget -y -f 2 0x60 0x22'
VFQFZGXJTM0x78
VFQFZGXJTM 0
root@arm:~# echo 'VGYT''MYANSG'
VGYTMYANSG
root@arm:~# MARKER='CZAC''QQYHYV' run 'i2cget -y -f 2 0x60 0x22'
CZACQQYHYV0x78
CZACQQYHYV 0
root@arm:~# echo 'HTUX''CWZOFZ'
HTUXCWZOFZ
root@arm:~# MARKER='ONOB''OYFLHL' run 'echo 980000 980000 > /sys/kernel/mva_test//regulators/buck2_set'
ONOBOYFLHLONOBOYFLHL 0
root@arm:~# echo 'TOAJ''VHCMYX'
TOAJVHCMYX
root@arm:~# MARKER='ZSHL''BVCLOQ' run 'i2cget -f -y 2 0x60 0x29'
ZSHLBVCLOQ0x73
ZSHLBVCLOQ 0
root@arm:~# echo 'QQYM''YZGXAU'
QQYMYZGXAU
root@arm:~# MARKER='AHFG''FMZEXS' run 'i2cget -y -f 2 0x60 0x22'
AHFGFMZEXS0x78
AHFGFMZEXS 0
root@arm:~# echo 'GJPZ''AGKCNT'
GJPZAGKCNT
root@arm:~# MARKER='GFLW''YGUUOZ' run 'i2cget -y -f 2 0x60 0x22'
GFLWYGUUOZ0x78
GFLWYGUUOZ 0
root@arm:~# echo 'MHGJ''WMNSVO'
MHGJWMNSVO
root@arm:~# MARKER='GXPK''UPQTOF' run 'echo 990000 990000 > /sys/kernel/mva_test//regulators/buck2_set'
GXPKUPQTOFGXPKUPQTOF 0
root@arm:~# echo 'ZHTC''JGXYUA'
ZHTCJGXYUA
root@arm:~# MARKER='WETM''QNUUYB' run 'i2cget -f -y 2 0x60 0x29'
WETMQNUUYB0x74
WETMQNUUYB 0
root@arm:~# echo 'HNTO''SXGMEG'
HNTOSXGMEG
root@arm:~# MARKER='VCOS''PJYMSB' run 'i2cget -y -f 2 0x60 0x22'
VCOSPJYMSB0x78
VCOSPJYMSB 0
root@arm:~# echo 'XNVF''BZNWAY'
XNVFBZNWAY
root@arm:~# MARKER='MAWG''LJANYE' run 'i2cget -y -f 2 0x60 0x22'
MAWGLJANYE0x78
MAWGLJANYE 0
root@arm:~# echo 'BAUY''LCCHMT'
BAUYLCCHMT
root@arm:~# MARKER='UQPY''UEEMNT' run 'echo 1000000 1000000 > /sys/kernel/mva_tesst/regulators/buck2_set'
UQPYUEEMNTUQPYUEEMNT 0
root@arm:~# echo 'QLSX''MMUYMS'
QLSXMMUYMS
root@arm:~# MARKER='MFYP''OLBWPH' run 'i2cget -f -y 2 0x60 0x29'
MFYPOLBWPH0x75
MFYPOLBWPH 0
root@arm:~# echo 'UQWL''GFLOZN'
UQWLGFLOZN
root@arm:~# MARKER='TZEY''MUWOXE' run 'i2cget -y -f 2 0x60 0x22'
TZEYMUWOXE0x78
TZEYMUWOXE 0
root@arm:~# echo 'WBTE''GJOKAM'
WBTEGJOKAM
root@arm:~# MARKER='XUOE''GQCULE' run 'i2cget -y -f 2 0x60 0x22'
XUOEGQCULE0x78
XUOEGQCULE 0
root@arm:~# echo 'ZQZF''ZSCSPJ'
ZQZFZSCSPJ
root@arm:~# MARKER='YQBT''FYCVEK' run 'echo 1010000 1010000 > /sys/kernel/mva_tesst/regulators/buck2_set'
YQBTFYCVEKYQBTFYCVEK 0
root@arm:~# echo 'KVSF''KUCNNL'
KVSFKUCNNL
root@arm:~# MARKER='NVAB''MSVHPZ' run 'i2cget -f -y 2 0x60 0x29'
NVABMSVHPZ0x76
NVABMSVHPZ 0
root@arm:~# echo 'NHYN''JLXWKF'
NHYNJLXWKF
root@arm:~# MARKER='BFME''VJAOXM' run 'i2cget -y -f 2 0x60 0x22'
BFMEVJAOXM0x78
BFMEVJAOXM 0
root@arm:~# echo 'UVVO''GPUJYT'
UVVOGPUJYT
root@arm:~# MARKER='BLSV''BVBVMW' run 'i2cget -y -f 2 0x60 0x22'
BLSVBVBVMW0x78
BLSVBVBVMW 0
root@arm:~# echo 'EYCT''QYWNWO'
EYCTQYWNWO
root@arm:~# MARKER='XNMS''JXMNYL' run 'echo 1020000 1020000 > /sys/kernel/mva_tesst/regulators/buck2_set'
XNMSJXMNYLXNMSJXMNYL 0
root@arm:~# echo 'CAZE''VTYMQU'
CAZEVTYMQU
root@arm:~# MARKER='XQJA''MPTXPX' run 'i2cget -f -y 2 0x60 0x29'
XQJAMPTXPX0x77
XQJAMPTXPX 0
root@arm:~# echo 'ZQMU''BEHCZP'
ZQMUBEHCZP
root@arm:~# MARKER='TOEY''YFKECW' run 'i2cget -y -f 2 0x60 0x22'
TOEYYFKECW0x78
TOEYYFKECW 0
root@arm:~# echo 'PEJM''UXMNGJ'
PEJMUXMNGJ
root@arm:~# MARKER='LFAQ''VWXZOQ' run 'i2cget -y -f 2 0x60 0x22'
LFAQVWXZOQ0x78
LFAQVWXZOQ 0
root@arm:~# echo 'ZQUN''OWFEKK'
ZQUNOWFEKK
root@arm:~# MARKER='PQTB''HKSOOT' run 'echo 1030000 1030000 > /sys/kernel/mva_tesst/regulators/buck2_set'
PQTBHKSOOTPQTBHKSOOT 0
root@arm:~# echo 'FQSC''MLOQGT'
FQSCMLOQGT
root@arm:~# MARKER='XTSG''OHWLZL' run 'i2cget -f -y 2 0x60 0x29'
XTSGOHWLZL0x78
XTSGOHWLZL 0
root@arm:~# echo 'NUWH''ZBUQVW'
NUWHZBUQVW
root@arm:~# MARKER='NZQA''VKPJPT' run 'i2cget -y -f 2 0x60 0x22'
NZQAVKPJPT0x78
NZQAVKPJPT 0
root@arm:~# echo 'SFQT''LAYGYM'
SFQTLAYGYM
root@arm:~# MARKER='UVMM''WTFNOM' run 'i2cget -y -f 2 0x60 0x22'
UVMMWTFNOM0x78
UVMMWTFNOM 0
root@arm:~# echo 'JJWG''JAKTHS'
JJWGJAKTHS
root@arm:~# MARKER='VNKY''NJYALL' run 'echo 1040000 1040000 > /sys/kernel/mva_tesst/regulators/buck2_set'
VNKYNJYALLVNKYNJYALL 0
root@arm:~# echo 'XJJA''CYYHHG'
XJJACYYHHG
root@arm:~# MARKER='POYA''BMYKYE' run 'i2cget -f -y 2 0x60 0x29'
POYABMYKYE0x79
POYABMYKYE 0
root@arm:~# echo 'ZZTK''UVKAYQ'
ZZTKUVKAYQ
root@arm:~# MARKER='BQWZ''KCZZCB' run 'i2cget -y -f 2 0x60 0x22'
BQWZKCZZCB0x78
BQWZKCZZCB 0
root@arm:~# echo 'APUH''JTWPFW'
APUHJTWPFW
root@arm:~# MARKER='CVHJ''MPPZGK' run 'i2cget -y -f 2 0x60 0x22'
CVHJMPPZGK0x78
CVHJMPPZGK 0
root@arm:~# echo 'FYKU''HYQPLM'
FYKUHYQPLM
root@arm:~# MARKER='WZEB''PBEAQF' run 'echo 1050000 1050000 > /sys/kernel/mva_tesst/regulators/buck2_set'
WZEBPBEAQFWZEBPBEAQF 0
root@arm:~# echo 'XWLL''UMPSWQ'
XWLLUMPSWQ
root@arm:~# MARKER='JZPP''EFCOZP' run 'i2cget -f -y 2 0x60 0x29'
JZPPEFCOZP0x7a
JZPPEFCOZP 0
root@arm:~# echo 'MSAB''LBBKMW'
MSABLBBKMW
root@arm:~# MARKER='LUBZ''GVLUPU' run 'i2cget -y -f 2 0x60 0x22'
LUBZGVLUPU0x78
LUBZGVLUPU 0
root@arm:~# echo 'VKPN''HUTOUX'
VKPNHUTOUX
root@arm:~# MARKER='HELM''PZGUGG' run 'i2cget -y -f 2 0x60 0x22'
HELMPZGUGG0x78
HELMPZGUGG 0
root@arm:~# echo 'ZCZY''PPFBZB'
ZCZYPPFBZB
root@arm:~# MARKER='HSWX''SCGQZS' run 'echo 1060000 1060000 > /sys/kernel/mva_tesst/regulators/buck2_set'
HSWXSCGQZSHSWXSCGQZS 0
root@arm:~# echo 'MEMK''OJVXNS'
MEMKOJVXNS
root@arm:~# MARKER='WCQW''TGHBFL' run 'i2cget -f -y 2 0x60 0x29'
WCQWTGHBFL0x7b
WCQWTGHBFL 0
root@arm:~# echo 'SJAA''WZHSUJ'
SJAAWZHSUJ
root@arm:~# MARKER='MUXA''CMSPYJ' run 'i2cget -y -f 2 0x60 0x22'
MUXACMSPYJ0x78
MUXACMSPYJ 0
root@arm:~# echo 'PPYS''EAOHSC'
PPYSEAOHSC
root@arm:~# MARKER='JJCE''JTCEQO' run 'i2cget -y -f 2 0x60 0x22'
JJCEJTCEQO0x78
JJCEJTCEQO 0
root@arm:~# echo 'GSSX''YSMUHV'
GSSXYSMUHV
root@arm:~# MARKER='NVXQ''WZMNVP' run 'echo 1070000 1070000 > /sys/kernel/mva_tesst/regulators/buck2_set'
NVXQWZMNVPNVXQWZMNVP 0
root@arm:~# echo 'KJKN''CCHEOC'
KJKNCCHEOC
root@arm:~# MARKER='GAXN''KLSHKU' run 'i2cget -f -y 2 0x60 0x29'
GAXNKLSHKU0x7c
GAXNKLSHKU 0
root@arm:~# echo 'GJPG''LBAAYG'
GJPGLBAAYG
root@arm:~# MARKER='NPHL''PKYHAQ' run 'i2cget -y -f 2 0x60 0x22'
NPHLPKYHAQ0x78
NPHLPKYHAQ 0
root@arm:~# echo 'TWLG''KNQCMH'
TWLGKNQCMH
root@arm:~# MARKER='VCGX''AXPJEX' run 'i2cget -y -f 2 0x60 0x22'
VCGXAXPJEX0x78
VCGXAXPJEX 0
root@arm:~# echo 'XSFM''VLATFL'
XSFMVLATFL
root@arm:~# MARKER='HHFG''HELOEA' run 'echo 1080000 1080000 > /sys/kernel/mva_tesst/regulators/buck2_set'
HHFGHELOEAHHFGHELOEA 0
root@arm:~# echo 'WJGX''NEPCVX'
WJGXNEPCVX
root@arm:~# MARKER='PUBH''CESZCG' run 'i2cget -f -y 2 0x60 0x29'
PUBHCESZCG0x7d
PUBHCESZCG 0
root@arm:~# echo 'ZVBO''QNYYNY'
ZVBOQNYYNY
root@arm:~# MARKER='BXWU''GWNWUC' run 'i2cget -y -f 2 0x60 0x22'
BXWUGWNWUC0x78
BXWUGWNWUC 0
root@arm:~# echo 'ENGT''SEQWNG'
ENGTSEQWNG
root@arm:~# MARKER='WABM''UOMPBM' run 'i2cget -y -f 2 0x60 0x22'
WABMUOMPBM0x78
WABMUOMPBM 0
root@arm:~# echo 'KFUA''LYVJWX'
KFUALYVJWX
root@arm:~# MARKER='XUEM''VNYOPK' run 'echo 1090000 1090000 > /sys/kernel/mva_tesst/regulators/buck2_set'
XUEMVNYOPKXUEMVNYOPK 0
root@arm:~# echo 'XZVY''LMBMWW'
XZVYLMBMWW
root@arm:~# MARKER='JEHB''JFTXKT' run 'i2cget -f -y 2 0x60 0x29'
JEHBJFTXKT0x7e
JEHBJFTXKT 0
root@arm:~# echo 'TLWQ''BNBZMA'
TLWQBNBZMA
root@arm:~# MARKER='YHYY''TKNTJV' run 'i2cget -y -f 2 0x60 0x22'
YHYYTKNTJV0x78
YHYYTKNTJV 0
root@arm:~# echo 'FZQO''SWUSSL'
FZQOSWUSSL
root@arm:~# MARKER='LTAU''UBHYQF' run 'i2cget -y -f 2 0x60 0x22'
LTAUUBHYQF0x78
LTAUUBHYQF 0
root@arm:~# echo 'JMLH''BWAAWT'
JMLHBWAAWT
root@arm:~# MARKER='YGPH''SVBFXX' run 'echo 1100000 1100000 > /sys/kernel/mva_tesst/regulators/buck2_set'
YGPHSVBFXXYGPHSVBFXX 0
root@arm:~# echo 'AQEP''JMLPLY'
AQEPJMLPLY
root@arm:~# MARKER='QKFY''YEQWQA' run 'i2cget -f -y 2 0x60 0x29'
QKFYYEQWQA0x40
QKFYYEQWQA 0
root@arm:~# echo 'HUYX''TFEABE'
HUYXTFEABE
root@arm:~# MARKER='MSOJ''GSUKMN' run 'i2cget -y -f 2 0x60 0x22'
MSOJGSUKMN0x78
MSOJGSUKMN 0
root@arm:~# echo 'BSEL''QPLFQN'
BSELQPLFQN
root@arm:~# MARKER='TQFC''ZLGSWL' run 'i2cget -y -f 2 0x60 0x23'
TQFCZLGSWL0x46
TQFCZLGSWL 0
root@arm:~# echo 'PVJC''VNEOHK'
PVJCVNEOHK
root@arm:~# MARKER='VWOS''WHYGNA' run 'echo 850000 850000 > /sys/kernel/mva_test//regulators/buck3_set'
VWOSWHYGNAVWOSWHYGNA 0
root@arm:~# echo 'QMPO''LAPYYP'
QMPOLAPYYP
root@arm:~# MARKER='XSTW''QZKFTZ' run 'i2cget -f -y 2 0x60 0x2a'
XSTWQZKFTZ0x80
XSTWQZKFTZ 0
root@arm:~# echo 'LPHX''YLLXCN'
LPHXYLLXCN
root@arm:~# MARKER='VBXH''VCGQJT' run 'i2cget -y -f 2 0x60 0x23'
VBXHVCGQJT0x46
VBXHVCGQJT 0
root@arm:~# echo 'ZKZC''VUZFPS'
ZKZCVUZFPS
root@arm:~# MARKER='HMBM''NPYUBU' run 'i2cget -y -f 2 0x60 0x23'
HMBMNPYUBU0x46
HMBMNPYUBU 0
root@arm:~# echo 'CFOB''XGKMFO'
CFOBXGKMFO
root@arm:~# MARKER='GNPS''EPVJNW' run 'echo 860000 860000 > /sys/kernel/mva_test//regulators/buck3_set'
GNPSEPVJNWGNPSEPVJNW 0
root@arm:~# echo 'VTAX''FZFYCS'
VTAXFZFYCS
root@arm:~# MARKER='VMXT''MTOFAE' run 'i2cget -f -y 2 0x60 0x2a'
VMXTMTOFAE0x81
VMXTMTOFAE 0
root@arm:~# echo 'UXKJ''AGNJUE'
UXKJAGNJUE
root@arm:~# MARKER='ZSPJ''YWJVNJ' run 'i2cget -y -f 2 0x60 0x23'
ZSPJYWJVNJ0x46
ZSPJYWJVNJ 0
root@arm:~# echo 'YCJX''TKBOMZ'
YCJXTKBOMZ
root@arm:~# MARKER='KTYK''KTUPLQ' run 'i2cget -y -f 2 0x60 0x23'
KTYKKTUPLQ0x46
KTYKKTUPLQ 0
root@arm:~# echo 'KSTH''YGVVGX'
KSTHYGVVGX
root@arm:~# MARKER='QSHT''OXGVET' run 'echo 870000 870000 > /sys/kernel/mva_test//regulators/buck3_set'
QSHTOXGVETQSHTOXGVET 0
root@arm:~# echo 'TGGM''CFNOJN'
TGGMCFNOJN
root@arm:~# MARKER='TJJY''LBKENB' run 'i2cget -f -y 2 0x60 0x2a'
TJJYLBKENB0x82
TJJYLBKENB 0
root@arm:~# echo 'ZHFX''VBFXCV'
ZHFXVBFXCV
root@arm:~# MARKER='ZYGJ''EBZXTY' run 'i2cget -y -f 2 0x60 0x23'
ZYGJEBZXTY0x46
ZYGJEBZXTY 0
root@arm:~# echo 'JVQL''XKJOJP'
JVQLXKJOJP
root@arm:~# MARKER='ENLL''UYBZJA' run 'i2cget -y -f 2 0x60 0x23'
ENLLUYBZJA0x46
ENLLUYBZJA 0
root@arm:~# echo 'UGHK''GBQAFK'
UGHKGBQAFK
root@arm:~# MARKER='LEPJ''JPEJJX' run 'echo 880000 880000 > /sys/kernel/mva_test//regulators/buck3_set'
LEPJJPEJJXLEPJJPEJJX 0
root@arm:~# echo 'PNTH''LPXYUF'
PNTHLPXYUF
root@arm:~# MARKER='NWPF''FKAAFV' run 'i2cget -f -y 2 0x60 0x2a'
NWPFFKAAFV0x83
NWPFFKAAFV 0
root@arm:~# echo 'MMMO''MXHVGE'
MMMOMXHVGE
root@arm:~# MARKER='PLNQ''XAOUTW' run 'i2cget -y -f 2 0x60 0x23'
PLNQXAOUTW0x46
PLNQXAOUTW 0
root@arm:~# echo 'YBJX''FFONMV'
YBJXFFONMV
root@arm:~# MARKER='UCSX''MCXQGW' run 'i2cget -y -f 2 0x60 0x23'
UCSXMCXQGW0x46
UCSXMCXQGW 0
root@arm:~# echo 'MEKC''BNHUUA'
MEKCBNHUUA
root@arm:~# MARKER='GCEH''HZNGVT' run 'echo 890000 890000 > /sys/kernel/mva_test//regulators/buck3_set'
GCEHHZNGVTGCEHHZNGVT 0
root@arm:~# echo 'GMTY''XXOBSK'
GMTYXXOBSK
root@arm:~# MARKER='AZSP''HGQXWG' run 'i2cget -f -y 2 0x60 0x2a'
AZSPHGQXWG0x84
AZSPHGQXWG 0
root@arm:~# echo 'UJAA''FVSBQL'
UJAAFVSBQL
root@arm:~# MARKER='KEEL''AKVHNL' run 'i2cget -y -f 2 0x60 0x23'
KEELAKVHNL0x46
KEELAKVHNL 0
root@arm:~# echo 'QFMZ''MWVGXQ'
QFMZMWVGXQ
root@arm:~# MARKER='GCUW''CAKKJC' run 'i2cget -y -f 2 0x60 0x23'
GCUWCAKKJC0x46
GCUWCAKKJC 0
root@arm:~# echo 'FBBA''CCSYZE'
FBBACCSYZE
root@arm:~# MARKER='LHOL''MTNSLT' run 'echo 900000 900000 > /sys/kernel/mva_test//regulators/buck3_set'
LHOLMTNSLTLHOLMTNSLT 0
root@arm:~# echo 'GMMX''NJATAO'
GMMXNJATAO
root@arm:~# MARKER='ZAAM''AAXLSC' run 'i2cget -f -y 2 0x60 0x2a'
ZAAMAAXLSC0x85
ZAAMAAXLSC 0
root@arm:~# echo 'XEXK''WKFZCB'
XEXKWKFZCB
root@arm:~# MARKER='SJEW''HKKBCX' run 'i2cget -y -f 2 0x60 0x23'
SJEWHKKBCX0x46
SJEWHKKBCX 0
root@arm:~# echo 'EUFA''JFCXZG'
EUFAJFCXZG
root@arm:~# MARKER='EWFF''YNANJM' run 'i2cget -y -f 2 0x60 0x23'
EWFFYNANJM0x46
EWFFYNANJM 0
root@arm:~# echo 'KXGG''XOECPF'
KXGGXOECPF
root@arm:~# MARKER='QSFP''UUHKYU' run 'echo 910000 910000 > /sys/kernel/mva_test//regulators/buck3_set'
QSFPUUHKYUQSFPUUHKYU 0
root@arm:~# echo 'PPZS''PABNOC'
PPZSPABNOC
root@arm:~# MARKER='KUKP''JGHGFA' run 'i2cget -f -y 2 0x60 0x2a'
KUKPJGHGFA0x86
KUKPJGHGFA 0
root@arm:~# echo 'FONC''PZGFUO'
FONCPZGFUO
root@arm:~# MARKER='TJFC''WYNXTL' run 'i2cget -y -f 2 0x60 0x23'
TJFCWYNXTL0x46
TJFCWYNXTL 0
root@arm:~# echo 'XBCJ''CBSOOJ'
XBCJCBSOOJ
root@arm:~# MARKER='XALB''FCTTOZ' run 'i2cget -y -f 2 0x60 0x23'
XALBFCTTOZ0x46
XALBFCTTOZ 0
root@arm:~# echo 'WXAJ''TSEMGW'
WXAJTSEMGW
root@arm:~# MARKER='BOXZ''ZAXOAM' run 'echo 920000 920000 > /sys/kernel/mva_test//regulators/buck3_set'
BOXZZAXOAMBOXZZAXOAM 0
root@arm:~# echo 'QZVQ''ZFQUGK'
QZVQZFQUGK
root@arm:~# MARKER='SWZQ''TBNMBL' run 'i2cget -f -y 2 0x60 0x2a'
SWZQTBNMBL0x87
SWZQTBNMBL 0
root@arm:~# echo 'CWOX''OUAPHH'
CWOXOUAPHH
root@arm:~# MARKER='QQXH''TBLYEH' run 'i2cget -y -f 2 0x60 0x23'
QQXHTBLYEH0x46
QQXHTBLYEH 0
root@arm:~# echo 'QZXM''NXHHZA'
QZXMNXHHZA
root@arm:~# MARKER='WTTY''SKQEMO' run 'i2cget -y -f 2 0x60 0x23'
WTTYSKQEMO0x46
WTTYSKQEMO 0
root@arm:~# echo 'GVHE''YNNCJG'
GVHEYNNCJG
root@arm:~# MARKER='VJHC''UGVMSE' run 'echo 930000 930000 > /sys/kernel/mva_test//regulators/buck3_set'
VJHCUGVMSEVJHCUGVMSE 0
root@arm:~# echo 'UGFE''GEYTMX'
UGFEGEYTMX
root@arm:~# MARKER='BVEH''MMKBXQ' run 'i2cget -f -y 2 0x60 0x2a'
BVEHMMKBXQ0x88
BVEHMMKBXQ 0
root@arm:~# echo 'XSQK''GPCEFJ'
XSQKGPCEFJ
root@arm:~# MARKER='BGYF''YASUVZ' run 'i2cget -y -f 2 0x60 0x23'
BGYFYASUVZ0x46
BGYFYASUVZ 0
root@arm:~# echo 'JLPN''FMBLZU'
JLPNFMBLZU
root@arm:~# MARKER='WNKQ''QZYTEP' run 'i2cget -y -f 2 0x60 0x23'
WNKQQZYTEP0x46
WNKQQZYTEP 0
root@arm:~# echo 'TKZU''KCCBMH'
TKZUKCCBMH
root@arm:~# MARKER='CTJV''AOJAMQ' run 'echo 940000 940000 > /sys/kernel/mva_test//regulators/buck3_set'
CTJVAOJAMQCTJVAOJAMQ 0
root@arm:~# echo 'ZHYS''NGLTGQ'
ZHYSNGLTGQ
root@arm:~# MARKER='YFVH''YBSYBW' run 'i2cget -f -y 2 0x60 0x2a'
YFVHYBSYBW0x89
YFVHYBSYBW 0
root@arm:~# echo 'LNXQ''FNQMKQ'
LNXQFNQMKQ
root@arm:~# MARKER='KMLM''CLCYTB' run 'i2cget -y -f 2 0x60 0x23'
KMLMCLCYTB0x46
KMLMCLCYTB 0
root@arm:~# echo 'MWVH''ZEUHAX'
MWVHZEUHAX
root@arm:~# MARKER='TVLJ''NLEPOV' run 'i2cget -y -f 2 0x60 0x23'
TVLJNLEPOV0x46
TVLJNLEPOV 0
root@arm:~# echo 'TTCS''EAYFYE'
TTCSEAYFYE
root@arm:~# MARKER='XQXA''EUWFGO' run 'echo 950000 950000 > /sys/kernel/mva_test//regulators/buck3_set'
XQXAEUWFGOXQXAEUWFGO 0
root@arm:~# echo 'OUWS''CYOVZA'
OUWSCYOVZA
root@arm:~# MARKER='KXSS''CWSFKJ' run 'i2cget -f -y 2 0x60 0x2a'
KXSSCWSFKJ0x8a
KXSSCWSFKJ 0
root@arm:~# echo 'PEZB''MCBKEV'
PEZBMCBKEV
root@arm:~# MARKER='SXUQ''NQCNAQ' run 'i2cget -y -f 2 0x60 0x23'
SXUQNQCNAQ0x46
SXUQNQCNAQ 0
root@arm:~# echo 'WEFW''HCKSFS'
WEFWHCKSFS
root@arm:~# MARKER='VFSK''MFLQJL' run 'i2cget -y -f 2 0x60 0x23'
VFSKMFLQJL0x46
VFSKMFLQJL 0
root@arm:~# echo 'MZUL''VLSJZL'
MZULVLSJZL
root@arm:~# MARKER='MUWE''JQQKFT' run 'echo 960000 960000 > /sys/kernel/mva_test//regulators/buck3_set'
MUWEJQQKFTMUWEJQQKFT 0
root@arm:~# echo 'SATH''HXQXOW'
SATHHXQXOW
root@arm:~# MARKER='GBBG''HOBTPT' run 'i2cget -f -y 2 0x60 0x2a'
GBBGHOBTPT0x8b
GBBGHOBTPT 0
root@arm:~# echo 'KLTB''KGLHYW'
KLTBKGLHYW
root@arm:~# MARKER='ESCS''ZKQCCN' run 'i2cget -y -f 2 0x60 0x23'
ESCSZKQCCN0x46
ESCSZKQCCN 0
root@arm:~# echo 'JFZV''AMQKME'
JFZVAMQKME
root@arm:~# MARKER='MMYH''AHMJXZ' run 'i2cget -y -f 2 0x60 0x23'
MMYHAHMJXZ0x46
MMYHAHMJXZ 0
root@arm:~# echo 'AZGQ''KUAQFO'
AZGQKUAQFO
root@arm:~# MARKER='SEBW''YPVUCA' run 'echo 970000 970000 > /sys/kernel/mva_test//regulators/buck3_set'
SEBWYPVUCASEBWYPVUCA 0
root@arm:~# echo 'YCNW''TBBWBE'
YCNWTBBWBE
root@arm:~# MARKER='PFPM''WJGSYQ' run 'i2cget -f -y 2 0x60 0x2a'
PFPMWJGSYQ0x8c
PFPMWJGSYQ 0
root@arm:~# echo 'PPTM''FHUAZB'
PPTMFHUAZB
root@arm:~# MARKER='GUKK''FNAGGH' run 'i2cget -y -f 2 0x60 0x23'
GUKKFNAGGH0x46
GUKKFNAGGH 0
root@arm:~# echo 'HWEU''PHYUNW'
HWEUPHYUNW
root@arm:~# MARKER='ZJOB''UTCQQN' run 'i2cget -y -f 2 0x60 0x23'
ZJOBUTCQQN0x46
ZJOBUTCQQN 0
root@arm:~# echo 'XMLP''LLSZKP'
XMLPLLSZKP
root@arm:~# MARKER='KBKW''GZBXWH' run 'echo 980000 980000 > /sys/kernel/mva_test//regulators/buck3_set'
KBKWGZBXWHKBKWGZBXWH 0
root@arm:~# echo 'QVWW''AGTZYX'
QVWWAGTZYX
root@arm:~# MARKER='OFTQ''WZFMSM' run 'i2cget -f -y 2 0x60 0x2a'
OFTQWZFMSM0x8d
OFTQWZFMSM 0
root@arm:~# echo 'JEBH''AOSFJT'
JEBHAOSFJT
root@arm:~# MARKER='UMOE''QVYUWT' run 'i2cget -y -f 2 0x60 0x23'
UMOEQVYUWT0x46
UMOEQVYUWT 0
root@arm:~# echo 'GJYE''WQEMXG'
GJYEWQEMXG
root@arm:~# MARKER='QJEN''EOEHVN' run 'i2cget -y -f 2 0x60 0x23'
QJENEOEHVN0x46
QJENEOEHVN 0
root@arm:~# echo 'APGG''PVNCQF'
APGGPVNCQF
root@arm:~# MARKER='NVLJ''MEWTFL' run 'echo 990000 990000 > /sys/kernel/mva_test//regulators/buck3_set'
NVLJMEWTFLNVLJMEWTFL 0
root@arm:~# echo 'LXFT''NHLCKH'
LXFTNHLCKH
root@arm:~# MARKER='FHLX''YJAZNH' run 'i2cget -f -y 2 0x60 0x2a'
FHLXYJAZNH0x8e
FHLXYJAZNH 0
root@arm:~# echo 'OYFJ''UMFQVW'
OYFJUMFQVW
root@arm:~# MARKER='EAKM''SZLJSK' run 'i2cget -y -f 2 0x60 0x23'
EAKMSZLJSK0x46
EAKMSZLJSK 0
root@arm:~# echo 'SWGA''SGEXCJ'
SWGASGEXCJ
root@arm:~# MARKER='KQAO''SXYYMQ' run 'i2cget -y -f 2 0x60 0x23'
KQAOSXYYMQ0x46
KQAOSXYYMQ 0
root@arm:~# echo 'VBWP''WWYMOS'
VBWPWWYMOS
root@arm:~# MARKER='PQZC''QTOBPJ' run 'echo 1000000 1000000 > /sys/kernel/mva_tesst/regulators/buck3_set'
PQZCQTOBPJPQZCQTOBPJ 0
root@arm:~# echo 'XGYV''GZUOUK'
XGYVGZUOUK
root@arm:~# MARKER='HEBE''AXNABG' run 'i2cget -f -y 2 0x60 0x2a'
HEBEAXNABG0x8f
HEBEAXNABG 0
root@arm:~# echo 'GQWA''AGPOWU'
GQWAAGPOWU
root@arm:~# MARKER='UNJN''YEOGXH' run 'i2cget -y -f 2 0x60 0x23'
UNJNYEOGXH0x46
UNJNYEOGXH 0
root@arm:~# echo 'MWVZ''GMBGLZ'
MWVZGMBGLZ
root@arm:~# MARKER='PKVE''CZQEWT' run 'i2cget -y -f 2 0x60 0x23'
PKVECZQEWT0x46
PKVECZQEWT 0
root@arm:~# echo 'ZQWP''PPVFXO'
ZQWPPPVFXO
root@arm:~# MARKER='UKHW''JQYFGW' run 'echo 1010000 1010000 > /sys/kernel/mva_tesst/regulators/buck3_set'
UKHWJQYFGWUKHWJQYFGW 0
root@arm:~# echo 'GKLB''UFHMLB'
GKLBUFHMLB
root@arm:~# MARKER='PNBN''VTCAKZ' run 'i2cget -f -y 2 0x60 0x2a'
PNBNVTCAKZ0x90
PNBNVTCAKZ 0
root@arm:~# echo 'VMJS''VEOWLP'
VMJSVEOWLP
root@arm:~# MARKER='PXUZ''XKGKLT' run 'i2cget -y -f 2 0x60 0x23'
PXUZXKGKLT0x46
PXUZXKGKLT 0
root@arm:~# echo 'TUJE''ZEQXBQ'
TUJEZEQXBQ
root@arm:~# MARKER='WEXN''XBYVEU' run 'i2cget -y -f 2 0x60 0x23'
WEXNXBYVEU0x46
WEXNXBYVEU 0
root@arm:~# echo 'LWCK''XVNESG'
LWCKXVNESG
root@arm:~# MARKER='TGJZ''WBYNBZ' run 'echo 1020000 1020000 > /sys/kernel/mva_tesst/regulators/buck3_set'
TGJZWBYNBZTGJZWBYNBZ 0
root@arm:~# echo 'ENLS''WKSSKV'
ENLSWKSSKV
root@arm:~# MARKER='VBWQ''BJPGXQ' run 'i2cget -f -y 2 0x60 0x2a'
VBWQBJPGXQ0x91
VBWQBJPGXQ 0
root@arm:~# echo 'CTZV''FKTMCU'
CTZVFKTMCU
root@arm:~# MARKER='YOZZ''CYZTTH' run 'i2cget -y -f 2 0x60 0x23'
YOZZCYZTTH0x46
YOZZCYZTTH 0
root@arm:~# echo 'EVPM''NPXEHN'
EVPMNPXEHN
root@arm:~# MARKER='EXJL''TUXLZN' run 'i2cget -y -f 2 0x60 0x23'
EXJLTUXLZN0x46
EXJLTUXLZN 0
root@arm:~# echo 'OJNA''JNWYPW'
OJNAJNWYPW
root@arm:~# MARKER='EAGL''XNZZBS' run 'echo 1030000 1030000 > /sys/kernel/mva_tesst/regulators/buck3_set'
EAGLXNZZBSEAGLXNZZBS 0
root@arm:~# echo 'ASLW''TJEFHG'
ASLWTJEFHG
root@arm:~# MARKER='YSLF''ZAVMTJ' run 'i2cget -f -y 2 0x60 0x2a'
YSLFZAVMTJ0x92
YSLFZAVMTJ 0
root@arm:~# echo 'PCWA''TQYNWJ'
PCWATQYNWJ
root@arm:~# MARKER='PAFC''WAPZST' run 'i2cget -y -f 2 0x60 0x23'
PAFCWAPZST0x46
PAFCWAPZST 0
root@arm:~# echo 'NLQS''HPHTZJ'
NLQSHPHTZJ
root@arm:~# MARKER='YYXK''OPSTTF' run 'i2cget -y -f 2 0x60 0x23'
YYXKOPSTTF0x46
YYXKOPSTTF 0
root@arm:~# echo 'MVOA''CHBCKL'
MVOACHBCKL
root@arm:~# MARKER='VAQH''OKGLPT' run 'echo 1040000 1040000 > /sys/kernel/mva_tesst/regulators/buck3_set'
VAQHOKGLPTVAQHOKGLPT 0
root@arm:~# echo 'BTAP''WAHOMO'
BTAPWAHOMO
root@arm:~# MARKER='GFAK''GNLENQ' run 'i2cget -f -y 2 0x60 0x2a'
GFAKGNLENQ0x93
GFAKGNLENQ 0
root@arm:~# echo 'YJKG''EKEHGP'
YJKGEKEHGP
root@arm:~# MARKER='GXHX''SSKJET' run 'i2cget -y -f 2 0x60 0x23'
GXHXSSKJET0x46
GXHXSSKJET 0
root@arm:~# echo 'ULLJ''FYQLFH'
ULLJFYQLFH
root@arm:~# MARKER='EAKU''PCSAKA' run 'i2cget -y -f 2 0x60 0x23'
EAKUPCSAKA0x46
EAKUPCSAKA 0
root@arm:~# echo 'PQFQ''MTGYWC'
PQFQMTGYWC
root@arm:~# MARKER='KHUT''SJPOGT' run 'echo 1050000 1050000 > /sys/kernel/mva_tesst/regulators/buck3_set'
KHUTSJPOGTKHUTSJPOGT 0
root@arm:~# echo 'PNCG''TPKYKL'
PNCGTPKYKL
root@arm:~# MARKER='BGOG''ASWGPQ' run 'i2cget -f -y 2 0x60 0x2a'
BGOGASWGPQ0x94
BGOGASWGPQ 0
root@arm:~# echo 'YBCK''OCEGJX'
YBCKOCEGJX
root@arm:~# MARKER='ZTGH''SMMMPQ' run 'i2cget -y -f 2 0x60 0x23'
ZTGHSMMMPQ0x46
ZTGHSMMMPQ 0
root@arm:~# echo 'LNBZ''LLQBBO'
LNBZLLQBBO
root@arm:~# MARKER='KEAZ''QEPHYV' run 'i2cget -y -f 2 0x60 0x23'
KEAZQEPHYV0x46
KEAZQEPHYV 0
root@arm:~# echo 'LZEY''NKKANX'
LZEYNKKANX
root@arm:~# MARKER='VMJA''WYNNTE' run 'echo 1060000 1060000 > /sys/kernel/mva_tesst/regulators/buck3_set'
VMJAWYNNTEVMJAWYNNTE 0
root@arm:~# echo 'KJYZ''KHTWNM'
KJYZKHTWNM
root@arm:~# MARKER='FPXO''WCJONY' run 'i2cget -f -y 2 0x60 0x2a'
FPXOWCJONY0x95
FPXOWCJONY 0
root@arm:~# echo 'JGXM''SNCWTH'
JGXMSNCWTH
root@arm:~# MARKER='BUEY''ANXULK' run 'i2cget -y -f 2 0x60 0x23'
BUEYANXULK0x46
BUEYANXULK 0
root@arm:~# echo 'KXWU''SXSJAQ'
KXWUSXSJAQ
root@arm:~# MARKER='CQZP''OLKUJN' run 'i2cget -y -f 2 0x60 0x23'
CQZPOLKUJN0x46
CQZPOLKUJN 0
root@arm:~# echo 'LYXQ''SOZEAA'
LYXQSOZEAA
root@arm:~# MARKER='BKEY''WKZCAS' run 'echo 1070000 1070000 > /sys/kernel/mva_tesst/regulators/buck3_set'
BKEYWKZCASBKEYWKZCAS 0
root@arm:~# echo 'SKKT''XKZTTN'
SKKTXKZTTN
root@arm:~# MARKER='VJOW''VONBMF' run 'i2cget -f -y 2 0x60 0x2a'
VJOWVONBMF0x96
VJOWVONBMF 0
root@arm:~# echo 'FZVB''JCOKVF'
FZVBJCOKVF
root@arm:~# MARKER='ZSJB''QXTAJX' run 'i2cget -y -f 2 0x60 0x23'
ZSJBQXTAJX0x46
ZSJBQXTAJX 0
root@arm:~# echo 'CVYH''MTKZWU'
CVYHMTKZWU
root@arm:~# MARKER='BCJT''LQQEUG' run 'i2cget -y -f 2 0x60 0x23'
BCJTLQQEUG0x46
BCJTLQQEUG 0
root@arm:~# echo 'HMNA''GPXXEZ'
HMNAGPXXEZ
root@arm:~# MARKER='FUGZ''QVZOPO' run 'echo 1080000 1080000 > /sys/kernel/mva_tesst/regulators/buck3_set'
FUGZQVZOPOFUGZQVZOPO 0
root@arm:~# echo 'NCBT''ZCPCCQ'
NCBTZCPCCQ
root@arm:~# MARKER='FKFQ''EUAGYG' run 'i2cget -f -y 2 0x60 0x2a'
FKFQEUAGYG0x97
FKFQEUAGYG 0
root@arm:~# echo 'JUBM''KFWPNM'
JUBMKFWPNM
root@arm:~# MARKER='LKZA''ZSNUBE' run 'i2cget -y -f 2 0x60 0x23'
LKZAZSNUBE0x46
LKZAZSNUBE 0
root@arm:~# echo 'UXOG''FBMQJY'
UXOGFBMQJY
root@arm:~# MARKER='AUPB''FMOXSP' run 'i2cget -y -f 2 0x60 0x23'
AUPBFMOXSP0x46
AUPBFMOXSP 0
root@arm:~# echo 'EXZX''QQNFQJ'
EXZXQQNFQJ
root@arm:~# MARKER='FUOT''TQTPXW' run 'echo 1090000 1090000 > /sys/kernel/mva_tesst/regulators/buck3_set'
FUOTTQTPXWFUOTTQTPXW 0
root@arm:~# echo 'EVEA''TTCCAP'
EVEATTCCAP
root@arm:~# MARKER='HJLU''LYULBH' run 'i2cget -f -y 2 0x60 0x2a'
HJLULYULBH0x98
HJLULYULBH 0
root@arm:~# echo 'ONFZ''FXAVSV'
ONFZFXAVSV
root@arm:~# MARKER='WOGZ''CAELSW' run 'i2cget -y -f 2 0x60 0x23'
WOGZCAELSW0x46
WOGZCAELSW 0
root@arm:~# echo 'GYOE''NNWPYG'
GYOENNWPYG
root@arm:~# MARKER='HKFC''FFBOSL' run 'i2cget -y -f 2 0x60 0x23'
HKFCFFBOSL0x46
HKFCFFBOSL 0
root@arm:~# echo 'TXES''MUBXKM'
TXESMUBXKM
root@arm:~# MARKER='STCP''YWYOEL' run 'echo 1100000 1100000 > /sys/kernel/mva_tesst/regulators/buck3_set'
STCPYWYOELSTCPYWYOEL 0
root@arm:~# echo 'XGGA''CZUGOZ'
XGGACZUGOZ
root@arm:~# MARKER='QGQY''ZHPFWJ' run 'i2cget -f -y 2 0x60 0x2a'
QGQYZHPFWJ0x99
QGQYZHPFWJ 0
root@arm:~# echo 'GWCY''PWZFYA'
GWCYPWZFYA
root@arm:~# MARKER='MXSZ''BJBXCG' run 'i2cget -y -f 2 0x60 0x23'
MXSZBJBXCG0x46
MXSZBJBXCG 0
root@arm:~# echo 'MHCZ''EJSAEU'
MHCZEJSAEU
