Labgrid Console Logfile for main
Logfile started at 2026-09-08 06:47:55.676734
=== Log starts here ===

root@arm:~# run() { echo -n "$MARKER"; sh -c "$@"; echo "$MARKER $?"; }
root@arm:~# echo 'LEGT''KSVFNA'
LEGTKSVFNA
root@arm:~# MARKER='EMHT''GZJPJZ' run 'grep -r -l rohm,bd96805 /proc/device-tree  | sed '"'"'s![^/]*$!!'"'"''
EMHTGZJPJZ/proc/device-tree/ocp/interconnect@48000000/segment@100000/target-module@9c000/i2c@0/pmic@60/
EMHTGZJPJZ 0
root@arm:~# echo 'TSYW''PVPEFB'
TSYWPVPEFB
root@arm:~# MARKER='JLEC''UZULTE' run 'test -f /proc/device-tree/ocp/interconnectt\@48000000/segment\@100000/target-module\@9c000/i2c\@0/pmic\@60/regulators/buck11/rohm,no-regulator-enable-control ;echo $?'
JLECUZULTE1
JLECUZULTE 0
root@arm:~# echo 'ETNU''BWYHMZ'
ETNUBWYHMZ
root@arm:~# MARKER='KFNT''NJLOJK' run 'i2cget -y -f 2 0x60 0xb'
KFNTNJLOJK0x00
KFNTNJLOJK 0
root@arm:~# echo 'NXAY''WYEPBW'
NXAYWYEPBW
root@arm:~# MARKER='TLWE''HSGWCB' run 'grep -r -l rohm,bd96805 /proc/device-tree  | sed '"'"'s![^/]*$!!'"'"''
TLWEHSGWCB/proc/device-tree/ocp/interconnect@48000000/segment@100000/target-module@9c000/i2c@0/pmic@60/
TLWEHSGWCB 0
root@arm:~# echo 'LKXY''HQCFAF'
LKXYHQCFAF
root@arm:~# MARKER='AFFC''HOHUVK' run 'test -f /proc/device-tree/ocp/interconnectt\@48000000/segment\@100000/target-module\@9c000/i2c\@0/pmic\@60/regulators/buck22/rohm,no-regulator-enable-control ;echo $?'
AFFCHOHUVK1
AFFCHOHUVK 0
root@arm:~# echo 'CGSS''CUHPTU'
CGSSCUHPTU
root@arm:~# MARKER='MPHG''JEAUFS' run 'i2cget -y -f 2 0x60 0xb'
MPHGJEAUFS0x00
MPHGJEAUFS 0
root@arm:~# echo 'SGWX''SZHYHB'
SGWXSZHYHB
root@arm:~# MARKER='NCHF''JGEKAN' run 'grep -r -l rohm,bd96805 /proc/device-tree  | sed '"'"'s![^/]*$!!'"'"''
NCHFJGEKAN/proc/device-tree/ocp/interconnect@48000000/segment@100000/target-module@9c000/i2c@0/pmic@60/
NCHFJGEKAN 0
root@arm:~# echo 'STZM''AHZWHW'
STZMAHZWHW
root@arm:~# MARKER='ZGTQ''NHZHLL' run 'test -f /proc/device-tree/ocp/interconnectt\@48000000/segment\@100000/target-module\@9c000/i2c\@0/pmic\@60/regulators/buck33/rohm,no-regulator-enable-control ;echo $?'
ZGTQNHZHLL1
ZGTQNHZHLL 0
root@arm:~# echo 'TATL''JXHTMU'
TATLJXHTMU
root@arm:~# MARKER='YCVV''BPHZWX' run 'i2cget -y -f 2 0x60 0xb'
YCVVBPHZWX0x00
YCVVBPHZWX 0
root@arm:~# echo 'GZYY''PLBAUQ'
GZYYPLBAUQ
root@arm:~# MARKER='NWPY''XYCWJU' run 'grep -r -l rohm,bd96805 /proc/device-tree  | sed '"'"'s![^/]*$!!'"'"''
NWPYXYCWJU/proc/device-tree/ocp/interconnect@48000000/segment@100000/target-module@9c000/i2c@0/pmic@60/
NWPYXYCWJU 0
root@arm:~# echo 'HVPO''KQUVKT'
HVPOKQUVKT
root@arm:~# MARKER='JSHP''AVYTAS' run 'test -f /proc/device-tree/ocp/interconnectt\@48000000/segment\@100000/target-module\@9c000/i2c\@0/pmic\@60/regulators/buck44/rohm,no-regulator-enable-control ;echo $?'
JSHPAVYTAS1
JSHPAVYTAS 0
root@arm:~# echo 'XZGE''NHVKWY'
XZGENHVKWY
root@arm:~# MARKER='TZSH''HQHXUL' run 'i2cget -y -f 2 0x60 0xb'
TZSHHQHXUL0x00
TZSHHQHXUL 0
root@arm:~# echo 'MCCM''ZWFEXM'
MCCMZWFEXM
root@arm:~# MARKER='HOKF''CLZPJE' run 'grep -r -l rohm,bd96805 /proc/device-tree  | sed '"'"'s![^/]*$!!'"'"''
HOKFCLZPJE/proc/device-tree/ocp/interconnect@48000000/segment@100000/target-module@9c000/i2c@0/pmic@60/
HOKFCLZPJE 0
root@arm:~# echo 'XNWZ''VABYMZ'
XNWZVABYMZ
root@arm:~# MARKER='BKAL''YJJVLZ' run 'test -f /proc/device-tree/ocp/interconnectt\@48000000/segment\@100000/target-module\@9c000/i2c\@0/pmic\@60/regulators/ldo5 /rohm,no-regulator-enable-control ;echo $?'
BKALYJJVLZ1
BKALYJJVLZ 0
root@arm:~# echo 'AHWU''JTQFWP'
AHWUJTQFWP
root@arm:~# MARKER='VGXU''PMWAYH' run 'i2cget -y -f 2 0x60 0xb'
VGXUPMWAYH0x00
VGXUPMWAYH 0
root@arm:~# echo 'SSSW''HHBWMC'
SSSWHHBWMC
root@arm:~# MARKER='SOFP''COSYYY' run 'grep -r -l rohm,bd96805 /proc/device-tree  | sed '"'"'s![^/]*$!!'"'"''
SOFPCOSYYY/proc/device-tree/ocp/interconnect@48000000/segment@100000/target-module@9c000/i2c@0/pmic@60/
SOFPCOSYYY 0
root@arm:~# echo 'EMTV''SLLAGY'
EMTVSLLAGY
root@arm:~# MARKER='VAYJ''MWJEWT' run 'test -f /proc/device-tree/ocp/interconnectt\@48000000/segment\@100000/target-module\@9c000/i2c\@0/pmic\@60/regulators/ldo6 /rohm,no-regulator-enable-control ;echo $?'
VAYJMWJEWT1
VAYJMWJEWT 0
root@arm:~# echo 'NCBA''PZMVLF'
NCBAPZMVLF
root@arm:~# MARKER='NFZG''ZEECFF' run 'i2cget -y -f 2 0x60 0xb'
NFZGZEECFF0x00
NFZGZEECFF 0
root@arm:~# echo 'CJTX''PAGCQL'
CJTXPAGCQL
root@arm:~# MARKER='GOSJ''ULHEOO' run 'grep -r -l rohm,bd96805 /proc/device-tree  | sed '"'"'s![^/]*$!!'"'"''
GOSJULHEOO/proc/device-tree/ocp/interconnect@48000000/segment@100000/target-module@9c000/i2c@0/pmic@60/
GOSJULHEOO 0
root@arm:~# echo 'OJEG''FJAUBA'
OJEGFJAUBA
root@arm:~# MARKER='WJPH''NQUVAQ' run 'test -f /proc/device-tree/ocp/interconnectt\@48000000/segment\@100000/target-module\@9c000/i2c\@0/pmic\@60/regulators/ldo7//rohm,no-regulator-enable-control ;echo $?'
WJPHNQUVAQ1
WJPHNQUVAQ 0
root@arm:~# echo 'HTPM''CNXWFS'
HTPMCNXWFS
root@arm:~# MARKER='VJBG''YMOGAJ' run 'i2cget -y -f 2 0x60 0xb'
VJBGYMOGAJ0x00
VJBGYMOGAJ 0
root@arm:~# Labgrid Console Logfile for main
Logfile started at 2026-09-08 06:48:03.117499
=== Log starts here ===

root@arm:~# run() { echo -n "$MARKER"; sh -c "$@"; echo "$MARKER $?"; }
root@arm:~# echo 'OSPQ''EBKFTL'
OSPQEBKFTL
root@arm:~# MARKER='GOGJ''PPAUOG' run 'cat /sys/kernel/mva_test/regulators/buck1__set'
GOGJPPAUOG1800000
GOGJPPAUOG 0
root@arm:~# echo 'AEAP''TAFZMG'
AEAPTAFZMG
root@arm:~# MARKER='GOSS''AAFAYX' run 'i2cget -y -f 2 0x60 0x21'
GOSSAAFAYX0xce
GOSSAAFAYX 0
root@arm:~# echo 'QSKG''JMAOYQ'
QSKGJMAOYQ
root@arm:~# MARKER='SJFV''MXEMWU' run 'cat /sys/kernel/mva_test/regulators/buck2__set'
SJFVMXEMWU1100000
SJFVMXEMWU 0
root@arm:~# echo 'ZBVV''CNHJEE'
ZBVVCNHJEE
root@arm:~# MARKER='AATL''WEJCMA' run 'i2cget -y -f 2 0x60 0x22'
AATLWEJCMA0x78
AATLWEJCMA 0
root@arm:~# echo 'HLVA''HZAECC'
HLVAHZAECC
root@arm:~# MARKER='JXJO''CXWZEH' run 'cat /sys/kernel/mva_test/regulators/buck3__set'
JXJOCXWZEH850000
JXJOCXWZEH 0
root@arm:~# echo 'QMFT''XVPHSE'
QMFTXVPHSE
root@arm:~# MARKER='WYSN''BYFUAG' run 'i2cget -y -f 2 0x60 0x23'
WYSNBYFUAG0x46
WYSNBYFUAG 0
root@arm:~# echo 'QQJF''JESPHB'
QQJFJESPHB
root@arm:~# MARKER='XWSZ''APBWLG' run 'cat /sys/kernel/mva_test/regulators/buck4__set'
XWSZAPBWLG850000
XWSZAPBWLG 0
root@arm:~# echo 'BGYK''KMCXMQ'
BGYKKMCXMQ
root@arm:~# MARKER='CFMT''ZQYHYW' run 'i2cget -y -f 2 0x60 0x24'
CFMTZQYHYW0x46
CFMTZQYHYW 0
root@arm:~# echo 'PVAF''JHAHQM'
PVAFJHAHQM
root@arm:~# MARKER='NSNX''BOMCZF' run 'cat /sys/kernel/mva_test/regulators/buck5__set'
NSNXBOMCZF900000
NSNXBOMCZF 0
root@arm:~# echo 'LGAA''GSSVVV'
LGAAGSSVVV
root@arm:~# MARKER='VSVS''VFTCLU' run 'i2cget -y -f 2 0x60 0x25'
VSVSVFTCLU0x18
VSVSVFTCLU 0
root@arm:~# echo 'GBCW''YSZNSF'
GBCWYSZNSF
root@arm:~# MARKER='ASUH''XBZYXZ' run 'cat /sys/kernel/mva_test/regulators/buck6__set'
ASUHXBZYXZ1200000
ASUHXBZYXZ 0
root@arm:~# echo 'HQCS''BMUVTY'
HQCSBMUVTY
root@arm:~# MARKER='QOJV''FZOTKY' run 'i2cget -y -f 2 0x60 0x26'
QOJVFZOTKY0x24
QOJVFZOTKY 0
root@arm:~# echo 'BSMJ''TQNMXM'
BSMJTQNMXM
root@arm:~# MARKER='USZL''EYHEZN' run 'cat /sys/kernel/mva_test/regulators/buck7__set'
USZLEYHEZN3300000
USZLEYHEZN 0
root@arm:~# echo 'FFNX''XAZAOW'
FFNXXAZAOW
root@arm:~# MARKER='NTCZ''BULXQE' run 'i2cget -y -f 2 0x60 0x27'
NTCZBULXQE0x78
NTCZBULXQE 0
root@arm:~# Labgrid Console Logfile for main
Logfile started at 2026-09-08 06:48:08.467796
=== Log starts here ===

root@arm:~# run() { echo -n "$MARKER"; sh -c "$@"; echo "$MARKER $?"; }
root@arm:~# echo 'HTOC''YUSSAG'
HTOCYUSSAG
root@arm:~# MARKER='HUCX''PAHHYG' run 'i2cget -y -f 2 0x60 0x21'
HUCXPAHHYG0xce
HUCXPAHHYG 0
root@arm:~# echo 'QFHU''CECAWA'
QFHUCECAWA
root@arm:~# MARKER='LMKU''VQKBBV' run 'echo 1800000 1800000 > /sys/kernel/mva_tesst/regulators/buck1_set'
LMKUVQKBBVLMKUVQKBBV 0
root@arm:~# echo 'WCGF''MYSLTU'
WCGFMYSLTU
root@arm:~# MARKER='LYBQ''WZKCNQ' run 'i2cget -f -y 2 0x60 0x28'
LYBQWZKCNQ0x00
LYBQWZKCNQ 0
root@arm:~# echo 'EJXZ''EEXEPA'
EJXZEEXEPA
root@arm:~# MARKER='FZZB''TMBVLG' run 'i2cget -y -f 2 0x60 0x21'
FZZBTMBVLG0xce
FZZBTMBVLG 0
root@arm:~# echo 'KHZG''KSZAXS'
KHZGKSZAXS
root@arm:~# MARKER='JHUX''NNSTZY' run 'i2cget -y -f 2 0x60 0x21'
JHUXNNSTZY0xce
JHUXNNSTZY 0
root@arm:~# echo 'AVAT''YNMZZA'
AVATYNMZZA
root@arm:~# MARKER='VEQL''LGELQX' run 'echo 1810000 1810000 > /sys/kernel/mva_tesst/regulators/buck1_set'
VEQLLGELQXVEQLLGELQX 0
root@arm:~# echo 'JJGV''OQOFZM'
JJGVOQOFZM
root@arm:~# MARKER='YQJY''HHSAHN' run 'i2cget -f -y 2 0x60 0x28'
YQJYHHSAHN0x01
YQJYHHSAHN 0
root@arm:~# echo 'BNAV''BQLLEO'
BNAVBQLLEO
root@arm:~# MARKER='WUHA''ZFUMMZ' run 'i2cget -y -f 2 0x60 0x21'
WUHAZFUMMZ0xce
WUHAZFUMMZ 0
root@arm:~# echo 'KBVM''HPXBFC'
KBVMHPXBFC
root@arm:~# MARKER='TSYM''FKPXPG' run 'i2cget -y -f 2 0x60 0x21'
TSYMFKPXPG0xce
TSYMFKPXPG 0
root@arm:~# echo 'TNFB''FBJOVM'
TNFBFBJOVM
root@arm:~# MARKER='PVUF''PACKUZ' run 'echo 1820000 1820000 > /sys/kernel/mva_tesst/regulators/buck1_set'
PVUFPACKUZPVUFPACKUZ 0
root@arm:~# echo 'HAES''FBUHLG'
HAESFBUHLG
root@arm:~# MARKER='AQUQ''JABGQC' run 'i2cget -f -y 2 0x60 0x28'
AQUQJABGQC0x02
AQUQJABGQC 0
root@arm:~# echo 'YCZP''AYCHAN'
YCZPAYCHAN
root@arm:~# MARKER='WVMK''ULWVVP' run 'i2cget -y -f 2 0x60 0x21'
WVMKULWVVP0xce
WVMKULWVVP 0
root@arm:~# echo 'MUEZ''AXFCLG'
MUEZAXFCLG
root@arm:~# MARKER='JEUS''HFQALF' run 'i2cget -y -f 2 0x60 0x21'
JEUSHFQALF0xce
JEUSHFQALF 0
root@arm:~# echo 'YJKF''EMGZYP'
YJKFEMGZYP
root@arm:~# MARKER='AGLV''XEEGUM' run 'echo 1830000 1830000 > /sys/kernel/mva_tesst/regulators/buck1_set'
AGLVXEEGUMAGLVXEEGUM 0
root@arm:~# echo 'THSP''VTBXBY'
THSPVTBXBY
root@arm:~# MARKER='WYWG''EEATJH' run 'i2cget -f -y 2 0x60 0x28'
WYWGEEATJH0x03
WYWGEEATJH 0
root@arm:~# echo 'BWFB''YZYWFG'
BWFBYZYWFG
root@arm:~# MARKER='SMWZ''YOCLBP' run 'i2cget -y -f 2 0x60 0x21'
SMWZYOCLBP0xce
SMWZYOCLBP 0
root@arm:~# echo 'MQVG''HFTTVE'
MQVGHFTTVE
root@arm:~# MARKER='TFTK''YQNTMN' run 'i2cget -y -f 2 0x60 0x21'
TFTKYQNTMN0xce
TFTKYQNTMN 0
root@arm:~# echo 'LJYM''MKUSKV'
LJYMMKUSKV
root@arm:~# MARKER='NZXO''JOGHQJ' run 'echo 1840000 1840000 > /sys/kernel/mva_tesst/regulators/buck1_set'
NZXOJOGHQJNZXOJOGHQJ 0
root@arm:~# echo 'LAYU''OKCWON'
LAYUOKCWON
root@arm:~# MARKER='NJKV''TFJQQL' run 'i2cget -f -y 2 0x60 0x28'
NJKVTFJQQL0x04
NJKVTFJQQL 0
root@arm:~# echo 'ZGXK''BKZYLZ'
ZGXKBKZYLZ
root@arm:~# MARKER='NUHM''ONWNCV' run 'i2cget -y -f 2 0x60 0x21'
NUHMONWNCV0xce
NUHMONWNCV 0
root@arm:~# echo 'YBBW''TOOCYY'
YBBWTOOCYY
root@arm:~# MARKER='AEWG''ZYSSQO' run 'i2cget -y -f 2 0x60 0x21'
AEWGZYSSQO0xce
AEWGZYSSQO 0
root@arm:~# echo 'UUZX''ZZBLAE'
UUZXZZBLAE
root@arm:~# MARKER='NCCS''THLMAJ' run 'echo 1850000 1850000 > /sys/kernel/mva_tesst/regulators/buck1_set'
NCCSTHLMAJNCCSTHLMAJ 0
root@arm:~# echo 'PYVS''OXQZME'
PYVSOXQZME
root@arm:~# MARKER='FCSP''GGHTXH' run 'i2cget -f -y 2 0x60 0x28'
FCSPGGHTXH0x05
FCSPGGHTXH 0
root@arm:~# echo 'MYXS''XWJTHH'
MYXSXWJTHH
root@arm:~# MARKER='PAJW''YMTZYH' run 'i2cget -y -f 2 0x60 0x21'
PAJWYMTZYH0xce
PAJWYMTZYH 0
root@arm:~# echo 'WLTP''ESASUU'
WLTPESASUU
root@arm:~# MARKER='LLVK''HKUFVS' run 'i2cget -y -f 2 0x60 0x21'
LLVKHKUFVS0xce
LLVKHKUFVS 0
root@arm:~# echo 'CATN''KAAALW'
CATNKAAALW
root@arm:~# MARKER='MVAO''AVATUT' run 'echo 1860000 1860000 > /sys/kernel/mva_tesst/regulators/buck1_set'
MVAOAVATUTMVAOAVATUT 0
root@arm:~# echo 'BFHE''WCCNBC'
BFHEWCCNBC
root@arm:~# MARKER='EKXK''YPHKEL' run 'i2cget -f -y 2 0x60 0x28'
EKXKYPHKEL0x06
EKXKYPHKEL 0
root@arm:~# echo 'BEHT''QUUAVZ'
BEHTQUUAVZ
root@arm:~# MARKER='BSTJ''QTCVNM' run 'i2cget -y -f 2 0x60 0x21'
BSTJQTCVNM0xce
BSTJQTCVNM 0
root@arm:~# echo 'BNWQ''AMOVPX'
BNWQAMOVPX
root@arm:~# MARKER='KKWG''KZLCAZ' run 'i2cget -y -f 2 0x60 0x21'
KKWGKZLCAZ0xce
KKWGKZLCAZ 0
root@arm:~# echo 'XKYY''WAFCFU'
XKYYWAFCFU
root@arm:~# MARKER='JCSF''TNXHFU' run 'echo 1870000 1870000 > /sys/kernel/mva_tesst/regulators/buck1_set'
JCSFTNXHFUJCSFTNXHFU 0
root@arm:~# echo 'TSBN''EAPZVC'
TSBNEAPZVC
root@arm:~# MARKER='KEJO''UJHLOV' run 'i2cget -f -y 2 0x60 0x28'
KEJOUJHLOV0x07
KEJOUJHLOV 0
root@arm:~# echo 'VGXG''QJLEPT'
VGXGQJLEPT
root@arm:~# MARKER='PLNO''QKSUPB' run 'i2cget -y -f 2 0x60 0x21'
PLNOQKSUPB0xce
PLNOQKSUPB 0
root@arm:~# echo 'HWGT''BJYMTY'
HWGTBJYMTY
root@arm:~# MARKER='TGAO''GHEXVJ' run 'i2cget -y -f 2 0x60 0x21'
TGAOGHEXVJ0xce
TGAOGHEXVJ 0
root@arm:~# echo 'LMUL''SPOABW'
LMULSPOABW
root@arm:~# MARKER='ZMOC''PCZTHX' run 'echo 1880000 1880000 > /sys/kernel/mva_tesst/regulators/buck1_set'
ZMOCPCZTHXZMOCPCZTHX 0
root@arm:~# echo 'SVXV''FFFSTH'
SVXVFFFSTH
root@arm:~# MARKER='BAAP''FXOJXF' run 'i2cget -f -y 2 0x60 0x28'
BAAPFXOJXF0x08
BAAPFXOJXF 0
root@arm:~# echo 'WUPV''AYOXSF'
WUPVAYOXSF
root@arm:~# MARKER='AKFW''GQNVCB' run 'i2cget -y -f 2 0x60 0x21'
AKFWGQNVCB0xce
AKFWGQNVCB 0
root@arm:~# echo 'CXCL''KFJFHL'
CXCLKFJFHL
root@arm:~# MARKER='EVVX''NMUHGK' run 'i2cget -y -f 2 0x60 0x21'
EVVXNMUHGK0xce
EVVXNMUHGK 0
root@arm:~# echo 'XFTN''CXKZTF'
XFTNCXKZTF
root@arm:~# MARKER='LKUT''CBGFBB' run 'echo 1890000 1890000 > /sys/kernel/mva_tesst/regulators/buck1_set'
LKUTCBGFBBLKUTCBGFBB 0
root@arm:~# echo 'ZZKB''XLFQKE'
ZZKBXLFQKE
root@arm:~# MARKER='TJWW''WKPLAC' run 'i2cget -f -y 2 0x60 0x28'
TJWWWKPLAC0x09
TJWWWKPLAC 0
root@arm:~# echo 'KGAG''BAFLXT'
KGAGBAFLXT
root@arm:~# MARKER='LQAF''KOLOYJ' run 'i2cget -y -f 2 0x60 0x21'
LQAFKOLOYJ0xce
LQAFKOLOYJ 0
root@arm:~# echo 'OTHT''GLGXEX'
OTHTGLGXEX
root@arm:~# MARKER='PCQC''SBTGYN' run 'i2cget -y -f 2 0x60 0x21'
PCQCSBTGYN0xce
PCQCSBTGYN 0
root@arm:~# echo 'NFHV''VWVCXG'
NFHVVWVCXG
root@arm:~# MARKER='VVJY''PWHKNB' run 'echo 1900000 1900000 > /sys/kernel/mva_tesst/regulators/buck1_set'
VVJYPWHKNBVVJYPWHKNB 0
root@arm:~# echo 'OZTO''GCHEAQ'
OZTOGCHEAQ
root@arm:~# MARKER='PKAK''VAAHXN' run 'i2cget -f -y 2 0x60 0x28'
PKAKVAAHXN0x0a
PKAKVAAHXN 0
root@arm:~# echo 'KXAJ''OBSJJK'
KXAJOBSJJK
root@arm:~# MARKER='EVTY''WGVOQG' run 'i2cget -y -f 2 0x60 0x21'
EVTYWGVOQG0xce
EVTYWGVOQG 0
root@arm:~# echo 'BEJM''TCTETH'
BEJMTCTETH
root@arm:~# MARKER='YJGY''UCMWFL' run 'i2cget -y -f 2 0x60 0x21'
YJGYUCMWFL0xce
YJGYUCMWFL 0
root@arm:~# echo 'PPEQ''ZEOTGH'
PPEQZEOTGH
root@arm:~# MARKER='KCHN''YFYONK' run 'echo 1910000 1910000 > /sys/kernel/mva_tesst/regulators/buck1_set'
KCHNYFYONKKCHNYFYONK 0
root@arm:~# echo 'GZQH''YVGAPF'
GZQHYVGAPF
root@arm:~# MARKER='VSMY''WZMJLV' run 'i2cget -f -y 2 0x60 0x28'
VSMYWZMJLV0x0b
VSMYWZMJLV 0
root@arm:~# echo 'HSYQ''ZWHTAV'
HSYQZWHTAV
root@arm:~# MARKER='NZXW''QJMLBW' run 'i2cget -y -f 2 0x60 0x21'
NZXWQJMLBW0xce
NZXWQJMLBW 0
root@arm:~# echo 'PCSJ''UVLEXJ'
PCSJUVLEXJ
root@arm:~# MARKER='XUFU''VVHPKW' run 'i2cget -y -f 2 0x60 0x21'
XUFUVVHPKW0xce
XUFUVVHPKW 0
root@arm:~# echo 'BXNF''QFCMGF'
BXNFQFCMGF
root@arm:~# MARKER='CTQU''FCSZUF' run 'echo 1920000 1920000 > /sys/kernel/mva_tesst/regulators/buck1_set'
CTQUFCSZUFCTQUFCSZUF 0
root@arm:~# echo 'XJWX''JWYYXT'
XJWXJWYYXT
root@arm:~# MARKER='CGPB''MLGUES' run 'i2cget -f -y 2 0x60 0x28'
CGPBMLGUES0x0c
CGPBMLGUES 0
root@arm:~# echo 'CPYX''MPLBQG'
CPYXMPLBQG
root@arm:~# MARKER='FXNS''GYCBEH' run 'i2cget -y -f 2 0x60 0x21'
FXNSGYCBEH0xce
FXNSGYCBEH 0
root@arm:~# echo 'XTWL''EFVFVU'
XTWLEFVFVU
root@arm:~# MARKER='KYAM''CWQCNY' run 'i2cget -y -f 2 0x60 0x21'
KYAMCWQCNY0xce
KYAMCWQCNY 0
root@arm:~# echo 'QVOU''CMBMPZ'
QVOUCMBMPZ
root@arm:~# MARKER='MPJZ''QWOOLF' run 'echo 1930000 1930000 > /sys/kernel/mva_tesst/regulators/buck1_set'
MPJZQWOOLFMPJZQWOOLF 0
root@arm:~# echo 'JPVZ''CSKTES'
JPVZCSKTES
root@arm:~# MARKER='TAYQ''GCBBXK' run 'i2cget -f -y 2 0x60 0x28'
TAYQGCBBXK0x0d
TAYQGCBBXK 0
root@arm:~# echo 'SFAK''OXZSYF'
SFAKOXZSYF
root@arm:~# MARKER='EBMS''YZHJHB' run 'i2cget -y -f 2 0x60 0x21'
EBMSYZHJHB0xce
EBMSYZHJHB 0
root@arm:~# echo 'XGYS''FLLGFK'
XGYSFLLGFK
root@arm:~# MARKER='ENFX''WPQFEP' run 'i2cget -y -f 2 0x60 0x21'
ENFXWPQFEP0xce
ENFXWPQFEP 0
root@arm:~# echo 'TPWX''OAQTMY'
TPWXOAQTMY
root@arm:~# MARKER='SVSF''VUTSTN' run 'echo 1940000 1940000 > /sys/kernel/mva_tesst/regulators/buck1_set'
SVSFVUTSTNSVSFVUTSTN 0
root@arm:~# echo 'JLCY''AUNSHL'
JLCYAUNSHL
root@arm:~# MARKER='SEGU''QJYTQY' run 'i2cget -f -y 2 0x60 0x28'
SEGUQJYTQY0x0e
SEGUQJYTQY 0
root@arm:~# echo 'SJGN''ZFSQFE'
SJGNZFSQFE
root@arm:~# MARKER='SENA''VAVMQK' run 'i2cget -y -f 2 0x60 0x21'
SENAVAVMQK0xce
SENAVAVMQK 0
root@arm:~# echo 'SABY''FZZSAM'
SABYFZZSAM
root@arm:~# MARKER='CYBY''AJSUYA' run 'i2cget -y -f 2 0x60 0x21'
CYBYAJSUYA0xce
CYBYAJSUYA 0
root@arm:~# echo 'TXQC''MTSTEN'
TXQCMTSTEN
root@arm:~# MARKER='UHWN''BXVFLO' run 'echo 1950000 1950000 > /sys/kernel/mva_tesst/regulators/buck1_set'
UHWNBXVFLOUHWNBXVFLO 0
root@arm:~# echo 'BYSB''YWLNEN'
BYSBYWLNEN
root@arm:~# MARKER='VQAK''QJPOMC' run 'i2cget -f -y 2 0x60 0x28'
VQAKQJPOMC0x0f
VQAKQJPOMC 0
root@arm:~# echo 'FMMA''MCFYMP'
FMMAMCFYMP
root@arm:~# MARKER='SKPS''ONWVGG' run 'i2cget -y -f 2 0x60 0x21'
SKPSONWVGG0xce
SKPSONWVGG 0
root@arm:~# echo 'SOQF''SEAOQJ'
SOQFSEAOQJ
root@arm:~# MARKER='GXJC''KKZHJG' run 'i2cget -y -f 2 0x60 0x21'
GXJCKKZHJG0xce
GXJCKKZHJG 0
root@arm:~# echo 'LAJK''UUEWPQ'
LAJKUUEWPQ
root@arm:~# MARKER='ESPU''ZAQMMP' run 'echo 1960000 1960000 > /sys/kernel/mva_tesst/regulators/buck1_set'
ESPUZAQMMPESPUZAQMMP 0
root@arm:~# echo 'XYVY''UZNUTH'
XYVYUZNUTH
root@arm:~# MARKER='OTSV''JFMXPS' run 'i2cget -f -y 2 0x60 0x28'
OTSVJFMXPS0x10
OTSVJFMXPS 0
root@arm:~# echo 'BSOG''JUQULC'
BSOGJUQULC
root@arm:~# MARKER='EQVZ''ETNQQV' run 'i2cget -y -f 2 0x60 0x21'
EQVZETNQQV0xce
EQVZETNQQV 0
root@arm:~# echo 'LHUK''UXUGOG'
LHUKUXUGOG
root@arm:~# MARKER='YYXW''HFVJQP' run 'i2cget -y -f 2 0x60 0x21'
YYXWHFVJQP0xce
YYXWHFVJQP 0
root@arm:~# echo 'UQBS''WBETUW'
UQBSWBETUW
root@arm:~# MARKER='TSHT''ZUWWQB' run 'echo 1970000 1970000 > /sys/kernel/mva_tesst/regulators/buck1_set'
TSHTZUWWQBTSHTZUWWQB 0
root@arm:~# echo 'PXXL''ELXAFK'
PXXLELXAFK
root@arm:~# MARKER='VEXK''GWBVEO' run 'i2cget -f -y 2 0x60 0x28'
VEXKGWBVEO0x11
VEXKGWBVEO 0
root@arm:~# echo 'MOSS''WLASMQ'
MOSSWLASMQ
root@arm:~# MARKER='ZMLA''TVGGVC' run 'i2cget -y -f 2 0x60 0x21'
ZMLATVGGVC0xce
ZMLATVGGVC 0
root@arm:~# echo 'KNHK''WSKQQO'
KNHKWSKQQO
root@arm:~# MARKER='LMHM''ZPQXLT' run 'i2cget -y -f 2 0x60 0x21'
LMHMZPQXLT0xce
LMHMZPQXLT 0
root@arm:~# echo 'MLQE''KBQXOG'
MLQEKBQXOG
root@arm:~# MARKER='TTLM''PMJHSK' run 'echo 1980000 1980000 > /sys/kernel/mva_tesst/regulators/buck1_set'
TTLMPMJHSKTTLMPMJHSK 0
root@arm:~# echo 'KHSN''FCXUNA'
KHSNFCXUNA
root@arm:~# MARKER='YHPC''FUJOYM' run 'i2cget -f -y 2 0x60 0x28'
YHPCFUJOYM0x12
YHPCFUJOYM 0
root@arm:~# echo 'AUZF''APUGXW'
AUZFAPUGXW
root@arm:~# MARKER='ZZYJ''FVZZMT' run 'i2cget -y -f 2 0x60 0x21'
ZZYJFVZZMT0xce
ZZYJFVZZMT 0
root@arm:~# echo 'VTJU''UCMNOG'
VTJUUCMNOG
root@arm:~# MARKER='XFAM''EAVVNH' run 'i2cget -y -f 2 0x60 0x21'
XFAMEAVVNH0xce
XFAMEAVVNH 0
root@arm:~# echo 'NATA''EQGHXZ'
NATAEQGHXZ
root@arm:~# MARKER='FEHN''ZONPKV' run 'echo 1990000 1990000 > /sys/kernel/mva_tesst/regulators/buck1_set'
FEHNZONPKVFEHNZONPKV 0
root@arm:~# echo 'OMKX''WNJUBN'
OMKXWNJUBN
root@arm:~# MARKER='ZPBX''LSPHMY' run 'i2cget -f -y 2 0x60 0x28'
ZPBXLSPHMY0x13
ZPBXLSPHMY 0
root@arm:~# echo 'GJWV''KEPUYJ'
GJWVKEPUYJ
root@arm:~# MARKER='WJTN''JKLGCQ' run 'i2cget -y -f 2 0x60 0x21'
WJTNJKLGCQ0xce
WJTNJKLGCQ 0
root@arm:~# echo 'YFHE''ZFWMWK'
YFHEZFWMWK
root@arm:~# MARKER='TUGX''JPJTSS' run 'i2cget -y -f 2 0x60 0x21'
TUGXJPJTSS0xce
TUGXJPJTSS 0
root@arm:~# echo 'XWYT''SBVTCX'
XWYTSBVTCX
root@arm:~# MARKER='CKKE''KKBELK' run 'echo 2000000 2000000 > /sys/kernel/mva_tesst/regulators/buck1_set'
CKKEKKBELKCKKEKKBELK 0
root@arm:~# echo 'BUYL''VZFGSX'
BUYLVZFGSX
root@arm:~# MARKER='YLNM''TCWBJG' run 'i2cget -f -y 2 0x60 0x28'
YLNMTCWBJG0x14
YLNMTCWBJG 0
root@arm:~# echo 'KGEX''FNJWZN'
KGEXFNJWZN
root@arm:~# MARKER='EOXJ''ZVEZBP' run 'i2cget -y -f 2 0x60 0x21'
EOXJZVEZBP0xce
EOXJZVEZBP 0
root@arm:~# echo 'XHQQ''AHJMPK'
XHQQAHJMPK
root@arm:~# MARKER='QOGH''UQFXNE' run 'i2cget -y -f 2 0x60 0x21'
QOGHUQFXNE0xce
QOGHUQFXNE 0
root@arm:~# echo 'GOLZ''LUWBBH'
GOLZLUWBBH
root@arm:~# MARKER='SJXY''EEZHAA' run 'echo 2010000 2010000 > /sys/kernel/mva_tesst/regulators/buck1_set'
SJXYEEZHAASJXYEEZHAA 0
root@arm:~# echo 'XFFQ''UOEJNG'
XFFQUOEJNG
root@arm:~# MARKER='EWUJ''LTZTUE' run 'i2cget -f -y 2 0x60 0x28'
EWUJLTZTUE0x15
EWUJLTZTUE 0
root@arm:~# echo 'UOAS''AXBOAZ'
UOASAXBOAZ
root@arm:~# MARKER='BLVE''CWUPLX' run 'i2cget -y -f 2 0x60 0x21'
BLVECWUPLX0xce
BLVECWUPLX 0
root@arm:~# echo 'NUCU''FCTQOH'
NUCUFCTQOH
root@arm:~# MARKER='CGMK''LQWBKF' run 'i2cget -y -f 2 0x60 0x21'
CGMKLQWBKF0xce
CGMKLQWBKF 0
root@arm:~# echo 'TUZT''UXTKWK'
TUZTUXTKWK
root@arm:~# MARKER='LOBG''TAYSXZ' run 'echo 2020000 2020000 > /sys/kernel/mva_tesst/regulators/buck1_set'
LOBGTAYSXZLOBGTAYSXZ 0
root@arm:~# echo 'TGTP''ZBKBKB'
TGTPZBKBKB
root@arm:~# MARKER='TPYW''POOGFX' run 'i2cget -f -y 2 0x60 0x28'
TPYWPOOGFX0x16
TPYWPOOGFX 0
root@arm:~# echo 'GBNF''TBVHTQ'
GBNFTBVHTQ
root@arm:~# MARKER='WHVP''YBUJQW' run 'i2cget -y -f 2 0x60 0x21'
WHVPYBUJQW0xce
WHVPYBUJQW 0
root@arm:~# echo 'LVBJ''OKXSLP'
LVBJOKXSLP
root@arm:~# MARKER='CHTH''FZAZUQ' run 'i2cget -y -f 2 0x60 0x21'
CHTHFZAZUQ0xce
CHTHFZAZUQ 0
root@arm:~# echo 'FVVK''ONYASY'
FVVKONYASY
root@arm:~# MARKER='VVPC''THFPTZ' run 'echo 2030000 2030000 > /sys/kernel/mva_tesst/regulators/buck1_set'
VVPCTHFPTZVVPCTHFPTZ 0
root@arm:~# echo 'QZNK''UWUKXY'
QZNKUWUKXY
root@arm:~# MARKER='YCJN''TMSEJH' run 'i2cget -f -y 2 0x60 0x28'
YCJNTMSEJH0x17
YCJNTMSEJH 0
root@arm:~# echo 'LQSH''TJMUXT'
LQSHTJMUXT
root@arm:~# MARKER='KHLH''QCLTLG' run 'i2cget -y -f 2 0x60 0x21'
KHLHQCLTLG0xce
KHLHQCLTLG 0
root@arm:~# echo 'YGPA''HMJWUL'
YGPAHMJWUL
root@arm:~# MARKER='UECC''UQJGVQ' run 'i2cget -y -f 2 0x60 0x21'
UECCUQJGVQ0xce
UECCUQJGVQ 0
root@arm:~# echo 'WMFG''TLEYLA'
WMFGTLEYLA
root@arm:~# MARKER='KVGP''ZFBVXK' run 'echo 2040000 2040000 > /sys/kernel/mva_tesst/regulators/buck1_set'
KVGPZFBVXKKVGPZFBVXK 0
root@arm:~# echo 'FZTQ''JCFHCY'
FZTQJCFHCY
root@arm:~# MARKER='HCEL''BFZOVV' run 'i2cget -f -y 2 0x60 0x28'
HCELBFZOVV0x18
HCELBFZOVV 0
root@arm:~# echo 'JUWB''JGKNLX'
JUWBJGKNLX
root@arm:~# MARKER='ZPJT''MFXCJU' run 'i2cget -y -f 2 0x60 0x21'
ZPJTMFXCJU0xce
ZPJTMFXCJU 0
root@arm:~# echo 'EFVQ''XVMYQV'
EFVQXVMYQV
root@arm:~# MARKER='OWBM''YXNJJH' run 'i2cget -y -f 2 0x60 0x21'
OWBMYXNJJH0xce
OWBMYXNJJH 0
root@arm:~# echo 'VLOB''KOUVFT'
VLOBKOUVFT
root@arm:~# MARKER='CLPT''EJVVCX' run 'echo 2050000 2050000 > /sys/kernel/mva_tesst/regulators/buck1_set'
CLPTEJVVCXCLPTEJVVCX 0
root@arm:~# echo 'MHZC''TJSQXP'
MHZCTJSQXP
root@arm:~# MARKER='VZTN''ENVLBA' run 'i2cget -f -y 2 0x60 0x28'
VZTNENVLBA0x19
VZTNENVLBA 0
root@arm:~# echo 'BWOC''ENNGGV'
BWOCENNGGV
root@arm:~# MARKER='WBNG''HVQQBO' run 'i2cget -y -f 2 0x60 0x21'
WBNGHVQQBO0xce
WBNGHVQQBO 0
root@arm:~# echo 'CUWZ''AWYNPV'
CUWZAWYNPV
root@arm:~# MARKER='CFVY''JFVBJB' run 'i2cget -y -f 2 0x60 0x21'
CFVYJFVBJB0xce
CFVYJFVBJB 0
root@arm:~# echo 'CVCC''KEHZFJ'
CVCCKEHZFJ
root@arm:~# MARKER='UCLO''XAOJEN' run 'echo 2060000 2060000 > /sys/kernel/mva_tesst/regulators/buck1_set'
UCLOXAOJENUCLOXAOJEN 0
root@arm:~# echo 'PJKP''OYYMBQ'
PJKPOYYMBQ
root@arm:~# MARKER='VPEN''BXLEWO' run 'i2cget -f -y 2 0x60 0x28'
VPENBXLEWO0x1a
VPENBXLEWO 0
root@arm:~# echo 'ZOYB''QMAJFV'
ZOYBQMAJFV
root@arm:~# MARKER='LEEY''APHOOX' run 'i2cget -y -f 2 0x60 0x21'
LEEYAPHOOX0xce
LEEYAPHOOX 0
root@arm:~# echo 'JLAW''XSZVNJ'
JLAWXSZVNJ
root@arm:~# MARKER='SAMT''KJWZVU' run 'i2cget -y -f 2 0x60 0x21'
SAMTKJWZVU0xce
SAMTKJWZVU 0
root@arm:~# echo 'NKAF''ENWBPL'
NKAFENWBPL
root@arm:~# MARKER='PTXT''LAKEHP' run 'echo 2070000 2070000 > /sys/kernel/mva_tesst/regulators/buck1_set'
PTXTLAKEHPPTXTLAKEHP 0
root@arm:~# echo 'CFUQ''XXKTGH'
CFUQXXKTGH
root@arm:~# MARKER='SEHT''QCGKOX' run 'i2cget -f -y 2 0x60 0x28'
SEHTQCGKOX0x1b
SEHTQCGKOX 0
root@arm:~# echo 'EJSA''PVGVQL'
EJSAPVGVQL
root@arm:~# MARKER='FZYK''AHHSPH' run 'i2cget -y -f 2 0x60 0x21'
FZYKAHHSPH0xce
FZYKAHHSPH 0
root@arm:~# echo 'UOQS''EQVSNC'
UOQSEQVSNC
root@arm:~# MARKER='KMQJ''QWHWTT' run 'i2cget -y -f 2 0x60 0x21'
KMQJQWHWTT0xce
KMQJQWHWTT 0
root@arm:~# echo 'LNLZ''PWQHQJ'
LNLZPWQHQJ
root@arm:~# MARKER='QZVF''GTSCPP' run 'echo 2080000 2080000 > /sys/kernel/mva_tesst/regulators/buck1_set'
QZVFGTSCPPQZVFGTSCPP 0
root@arm:~# echo 'BHKU''TXTGGJ'
BHKUTXTGGJ
root@arm:~# MARKER='SWEF''PMZAEK' run 'i2cget -f -y 2 0x60 0x28'
SWEFPMZAEK0x1c
SWEFPMZAEK 0
root@arm:~# echo 'CFKT''BPMXBG'
CFKTBPMXBG
root@arm:~# MARKER='MOBQ''MHYUXV' run 'i2cget -y -f 2 0x60 0x21'
MOBQMHYUXV0xce
MOBQMHYUXV 0
root@arm:~# echo 'WQKA''QCQQKT'
WQKAQCQQKT
root@arm:~# MARKER='PJAC''HXMSAV' run 'i2cget -y -f 2 0x60 0x21'
PJACHXMSAV0xce
PJACHXMSAV 0
root@arm:~# echo 'UJUM''POJSTV'
UJUMPOJSTV
root@arm:~# MARKER='LZXF''ZXCEXB' run 'echo 2090000 2090000 > /sys/kernel/mva_tesst/regulators/buck1_set'
LZXFZXCEXBLZXFZXCEXB 0
root@arm:~# echo 'NVQQ''KVOEBO'
NVQQKVOEBO
root@arm:~# MARKER='ESYZ''XQWCPY' run 'i2cget -f -y 2 0x60 0x28'
ESYZXQWCPY0x1d
ESYZXQWCPY 0
root@arm:~# echo 'JTKE''AXEJFM'
JTKEAXEJFM
root@arm:~# MARKER='XOCH''QLYQEO' run 'i2cget -y -f 2 0x60 0x21'
XOCHQLYQEO0xce
XOCHQLYQEO 0
root@arm:~# echo 'NUUL''SMAVHK'
NUULSMAVHK
root@arm:~# MARKER='UPFN''GAVNAM' run 'i2cget -y -f 2 0x60 0x21'
UPFNGAVNAM0xce
UPFNGAVNAM 0
root@arm:~# echo 'QHKK''XYENFU'
QHKKXYENFU
root@arm:~# MARKER='OTHP''VPKOTA' run 'echo 2100000 2100000 > /sys/kernel/mva_tesst/regulators/buck1_set'
OTHPVPKOTAOTHPVPKOTA 0
root@arm:~# echo 'EMVX''HXWNKG'
EMVXHXWNKG
root@arm:~# MARKER='FGEK''KVJHAZ' run 'i2cget -f -y 2 0x60 0x28'
FGEKKVJHAZ0x1e
FGEKKVJHAZ 0
root@arm:~# echo 'UHWS''HNYNUJ'
UHWSHNYNUJ
root@arm:~# MARKER='KLFL''EJMGEO' run 'i2cget -y -f 2 0x60 0x21'
KLFLEJMGEO0xce
KLFLEJMGEO 0
root@arm:~# echo 'VGES''EATCQJ'
VGESEATCQJ
root@arm:~# MARKER='TCEW''MVJUPP' run 'i2cget -y -f 2 0x60 0x21'
TCEWMVJUPP0xce
TCEWMVJUPP 0
root@arm:~# echo 'JGKO''FMLCYK'
JGKOFMLCYK
root@arm:~# MARKER='ZLMW''JJETWT' run 'echo 2110000 2110000 > /sys/kernel/mva_tesst/regulators/buck1_set'
ZLMWJJETWTZLMWJJETWT 0
root@arm:~# echo 'NAYN''YWEWFE'
NAYNYWEWFE
root@arm:~# MARKER='MAQS''LBMWMC' run 'i2cget -f -y 2 0x60 0x28'
MAQSLBMWMC0x1f
MAQSLBMWMC 0
root@arm:~# echo 'LFAN''LCUSMZ'
LFANLCUSMZ
root@arm:~# MARKER='ULWL''XNYJSO' run 'i2cget -y -f 2 0x60 0x21'
ULWLXNYJSO0xce
ULWLXNYJSO 0
root@arm:~# echo 'KZLP''OOOGQX'
KZLPOOOGQX
root@arm:~# MARKER='AKGJ''MBLYVZ' run 'i2cget -y -f 2 0x60 0x21'
AKGJMBLYVZ0xce
AKGJMBLYVZ 0
root@arm:~# echo 'HYLO''MNTBCQ'
HYLOMNTBCQ
root@arm:~# MARKER='SGCG''XYCBYE' run 'echo 1490000 1490000 > /sys/kernel/mva_tesst/regulators/buck1_set'
SGCGXYCBYESGCGXYCBYE 0
root@arm:~# echo 'JPUL''TEGVCL'
JPULTEGVCL
root@arm:~# MARKER='PZOT''UXQEYA' run 'i2cget -f -y 2 0x60 0x28'
PZOTUXQEYA0x20
PZOTUXQEYA 0
root@arm:~# echo 'PXWF''HMEMLJ'
PXWFHMEMLJ
root@arm:~# MARKER='ULUK''MPXOYX' run 'i2cget -y -f 2 0x60 0x21'
ULUKMPXOYX0xce
ULUKMPXOYX 0
root@arm:~# echo 'VCPX''ZMBJVC'
VCPXZMBJVC
root@arm:~# MARKER='USTQ''GFFKCJ' run 'i2cget -y -f 2 0x60 0x21'
USTQGFFKCJ0xce
USTQGFFKCJ 0
root@arm:~# echo 'KQEX''PWBLWW'
KQEXPWBLWW
root@arm:~# MARKER='KXZV''AJUMKN' run 'echo 1500000 1500000 > /sys/kernel/mva_tesst/regulators/buck1_set'
KXZVAJUMKNKXZVAJUMKN 0
root@arm:~# echo 'CJXQ''BENTUZ'
CJXQBENTUZ
root@arm:~# MARKER='MFJV''PAOLMA' run 'i2cget -f -y 2 0x60 0x28'
MFJVPAOLMA0x21
MFJVPAOLMA 0
root@arm:~# echo 'KFAF''PKAMHW'
KFAFPKAMHW
root@arm:~# MARKER='UKBE''PAWPJU' run 'i2cget -y -f 2 0x60 0x21'
UKBEPAWPJU0xce
UKBEPAWPJU 0
root@arm:~# echo 'XLTZ''TXYJPO'
XLTZTXYJPO
root@arm:~# MARKER='ACQJ''GMVSZO' run 'i2cget -y -f 2 0x60 0x21'
ACQJGMVSZO0xce
ACQJGMVSZO 0
root@arm:~# echo 'ZFGP''JUKTJP'
ZFGPJUKTJP
root@arm:~# MARKER='FEVT''YHOVYJ' run 'echo 1510000 1510000 > /sys/kernel/mva_tesst/regulators/buck1_set'
FEVTYHOVYJFEVTYHOVYJ 0
root@arm:~# echo 'WVOX''MWCEQE'
WVOXMWCEQE
root@arm:~# MARKER='CLVL''AJMXPQ' run 'i2cget -f -y 2 0x60 0x28'
CLVLAJMXPQ0x22
CLVLAJMXPQ 0
root@arm:~# echo 'XCHO''GAJFQY'
XCHOGAJFQY
root@arm:~# MARKER='NCEQ''LHWUKY' run 'i2cget -y -f 2 0x60 0x21'
NCEQLHWUKY0xce
NCEQLHWUKY 0
root@arm:~# echo 'ZYTC''HMSYYA'
ZYTCHMSYYA
root@arm:~# MARKER='SFNH''NSQWEG' run 'i2cget -y -f 2 0x60 0x21'
SFNHNSQWEG0xce
SFNHNSQWEG 0
root@arm:~# echo 'VUTK''JUOAUA'
VUTKJUOAUA
root@arm:~# MARKER='TGNK''TAKFCW' run 'echo 1520000 1520000 > /sys/kernel/mva_tesst/regulators/buck1_set'
TGNKTAKFCWTGNKTAKFCW 0
root@arm:~# echo 'WMHM''HFZBQS'
WMHMHFZBQS
root@arm:~# MARKER='ZZSM''TQWPCB' run 'i2cget -f -y 2 0x60 0x28'
ZZSMTQWPCB0x23
ZZSMTQWPCB 0
root@arm:~# echo 'AJCL''OAYFYM'
AJCLOAYFYM
root@arm:~# MARKER='BTLX''LAAQCY' run 'i2cget -y -f 2 0x60 0x21'
BTLXLAAQCY0xce
BTLXLAAQCY 0
root@arm:~# echo 'FQQW''UCOAVZ'
FQQWUCOAVZ
root@arm:~# MARKER='SUTX''ONFYYS' run 'i2cget -y -f 2 0x60 0x21'
SUTXONFYYS0xce
SUTXONFYYS 0
root@arm:~# echo 'CCZK''QGXNVF'
CCZKQGXNVF
root@arm:~# MARKER='EEQB''VAGCAY' run 'echo 1530000 1530000 > /sys/kernel/mva_tesst/regulators/buck1_set'
EEQBVAGCAYEEQBVAGCAY 0
root@arm:~# echo 'KOVW''QAWAJA'
KOVWQAWAJA
root@arm:~# MARKER='ZUYW''XJECEC' run 'i2cget -f -y 2 0x60 0x28'
ZUYWXJECEC0x24
ZUYWXJECEC 0
root@arm:~# echo 'LNTK''CJGTQB'
LNTKCJGTQB
root@arm:~# MARKER='GTFP''KJVJGJ' run 'i2cget -y -f 2 0x60 0x21'
GTFPKJVJGJ0xce
GTFPKJVJGJ 0
root@arm:~# echo 'CQKY''JJQVZL'
CQKYJJQVZL
root@arm:~# MARKER='WJGQ''JHNOBV' run 'i2cget -y -f 2 0x60 0x21'
WJGQJHNOBV0xce
WJGQJHNOBV 0
root@arm:~# echo 'AGUC''STQLPK'
AGUCSTQLPK
root@arm:~# MARKER='GCMQ''HVAPQY' run 'echo 1540000 1540000 > /sys/kernel/mva_tesst/regulators/buck1_set'
GCMQHVAPQYGCMQHVAPQY 0
root@arm:~# echo 'ZPTH''NENZBL'
ZPTHNENZBL
root@arm:~# MARKER='THJN''TEPWHU' run 'i2cget -f -y 2 0x60 0x28'
THJNTEPWHU0x25
THJNTEPWHU 0
root@arm:~# echo 'SPWU''FZHYKP'
SPWUFZHYKP
root@arm:~# MARKER='AFNW''BKTUZT' run 'i2cget -y -f 2 0x60 0x21'
AFNWBKTUZT0xce
AFNWBKTUZT 0
root@arm:~# echo 'EOKK''WTGEZH'
EOKKWTGEZH
root@arm:~# MARKER='VGPQ''JXTUOQ' run 'i2cget -y -f 2 0x60 0x21'
VGPQJXTUOQ0xce
VGPQJXTUOQ 0
root@arm:~# echo 'ZBKW''OGCEWT'
ZBKWOGCEWT
root@arm:~# MARKER='LSXS''BJCHTF' run 'echo 1550000 1550000 > /sys/kernel/mva_tesst/regulators/buck1_set'
LSXSBJCHTFLSXSBJCHTF 0
root@arm:~# echo 'XCQQ''VSBUYS'
XCQQVSBUYS
root@arm:~# MARKER='YXSU''YJMEWW' run 'i2cget -f -y 2 0x60 0x28'
YXSUYJMEWW0x26
YXSUYJMEWW 0
root@arm:~# echo 'CNWN''KXVAVK'
CNWNKXVAVK
root@arm:~# MARKER='ULZA''JXSQVN' run 'i2cget -y -f 2 0x60 0x21'
ULZAJXSQVN0xce
ULZAJXSQVN 0
root@arm:~# echo 'ZCOO''WFBXWM'
ZCOOWFBXWM
root@arm:~# MARKER='TSPP''MHZJGK' run 'i2cget -y -f 2 0x60 0x21'
TSPPMHZJGK0xce
TSPPMHZJGK 0
root@arm:~# echo 'VXAY''PWEFVB'
VXAYPWEFVB
root@arm:~# MARKER='UYYQ''FSBZAV' run 'echo 1560000 1560000 > /sys/kernel/mva_tesst/regulators/buck1_set'
UYYQFSBZAVUYYQFSBZAV 0
root@arm:~# echo 'VYVW''FBQVST'
VYVWFBQVST
root@arm:~# MARKER='UWWO''MUEYKS' run 'i2cget -f -y 2 0x60 0x28'
UWWOMUEYKS0x27
UWWOMUEYKS 0
root@arm:~# echo 'CTJF''MGSAKL'
CTJFMGSAKL
root@arm:~# MARKER='CPFB''VUQUPK' run 'i2cget -y -f 2 0x60 0x21'
CPFBVUQUPK0xce
CPFBVUQUPK 0
root@arm:~# echo 'GGPM''NBXBLX'
GGPMNBXBLX
root@arm:~# MARKER='QYZM''KCTLHL' run 'i2cget -y -f 2 0x60 0x21'
QYZMKCTLHL0xce
QYZMKCTLHL 0
root@arm:~# echo 'NJZJ''OBFTJG'
NJZJOBFTJG
root@arm:~# MARKER='WWYN''WOYQHK' run 'echo 1570000 1570000 > /sys/kernel/mva_tesst/regulators/buck1_set'
WWYNWOYQHKWWYNWOYQHK 0
root@arm:~# echo 'BAZN''VOTXEE'
BAZNVOTXEE
root@arm:~# MARKER='XQMT''LZYSVP' run 'i2cget -f -y 2 0x60 0x28'
XQMTLZYSVP0x28
XQMTLZYSVP 0
root@arm:~# echo 'XKZK''CNOSJO'
XKZKCNOSJO
root@arm:~# MARKER='SYMM''UNLTFZ' run 'i2cget -y -f 2 0x60 0x21'
SYMMUNLTFZ0xce
SYMMUNLTFZ 0
root@arm:~# echo 'TWAV''CNBGHT'
TWAVCNBGHT
root@arm:~# MARKER='QJGE''ONPPLP' run 'i2cget -y -f 2 0x60 0x21'
QJGEONPPLP0xce
QJGEONPPLP 0
root@arm:~# echo 'JXYZ''SAUVPX'
JXYZSAUVPX
root@arm:~# MARKER='ZYPE''FAVZJA' run 'echo 1580000 1580000 > /sys/kernel/mva_tesst/regulators/buck1_set'
ZYPEFAVZJAZYPEFAVZJA 0
root@arm:~# echo 'OFFQ''SGOWST'
OFFQSGOWST
root@arm:~# MARKER='EHUT''QQPWQE' run 'i2cget -f -y 2 0x60 0x28'
EHUTQQPWQE0x29
EHUTQQPWQE 0
root@arm:~# echo 'KXZH''YTGCLT'
KXZHYTGCLT
root@arm:~# MARKER='CUPY''JOCVLZ' run 'i2cget -y -f 2 0x60 0x21'
CUPYJOCVLZ0xce
CUPYJOCVLZ 0
root@arm:~# echo 'HLUJ''QQJVPK'
HLUJQQJVPK
root@arm:~# MARKER='GAFM''MBFNKJ' run 'i2cget -y -f 2 0x60 0x21'
GAFMMBFNKJ0xce
GAFMMBFNKJ 0
root@arm:~# echo 'EUQP''WVZUHX'
EUQPWVZUHX
root@arm:~# MARKER='JZMJ''SXNYXB' run 'echo 1590000 1590000 > /sys/kernel/mva_tesst/regulators/buck1_set'
JZMJSXNYXBJZMJSXNYXB 0
root@arm:~# echo 'XJCP''GTXYTF'
XJCPGTXYTF
root@arm:~# MARKER='SYFH''FOYKFS' run 'i2cget -f -y 2 0x60 0x28'
SYFHFOYKFS0x2a
SYFHFOYKFS 0
root@arm:~# echo 'NWZW''ZFUMFO'
NWZWZFUMFO
root@arm:~# MARKER='SHOH''GFMUNJ' run 'i2cget -y -f 2 0x60 0x21'
SHOHGFMUNJ0xce
SHOHGFMUNJ 0
root@arm:~# echo 'TMLL''QVAWGY'
TMLLQVAWGY
root@arm:~# MARKER='VNYZ''QCMJBL' run 'i2cget -y -f 2 0x60 0x21'
VNYZQCMJBL0xce
VNYZQCMJBL 0
root@arm:~# echo 'NLEK''ETAXMW'
NLEKETAXMW
root@arm:~# MARKER='NPBN''UFVBOM' run 'echo 1600000 1600000 > /sys/kernel/mva_tesst/regulators/buck1_set'
NPBNUFVBOMNPBNUFVBOM 0
root@arm:~# echo 'MVCJ''QXPYGJ'
MVCJQXPYGJ
root@arm:~# MARKER='SGET''FLZSHZ' run 'i2cget -f -y 2 0x60 0x28'
SGETFLZSHZ0x2b
SGETFLZSHZ 0
root@arm:~# echo 'UQWX''GOUGKJ'
UQWXGOUGKJ
root@arm:~# MARKER='NNOH''GTPWME' run 'i2cget -y -f 2 0x60 0x21'
NNOHGTPWME0xce
NNOHGTPWME 0
root@arm:~# echo 'UOKE''EHXYHK'
UOKEEHXYHK
root@arm:~# MARKER='HVSL''QGTQTZ' run 'i2cget -y -f 2 0x60 0x21'
HVSLQGTQTZ0xce
HVSLQGTQTZ 0
root@arm:~# echo 'AVTQ''GOGSEW'
AVTQGOGSEW
root@arm:~# MARKER='WCKF''BXGPWN' run 'echo 1610000 1610000 > /sys/kernel/mva_tesst/regulators/buck1_set'
WCKFBXGPWNWCKFBXGPWN 0
root@arm:~# echo 'UGTE''BJXALL'
UGTEBJXALL
root@arm:~# MARKER='FOUK''VKJZUS' run 'i2cget -f -y 2 0x60 0x28'
FOUKVKJZUS0x2c
FOUKVKJZUS 0
root@arm:~# echo 'FGKK''GESSWC'
FGKKGESSWC
root@arm:~# MARKER='GTFZ''XBXACL' run 'i2cget -y -f 2 0x60 0x21'
GTFZXBXACL0xce
GTFZXBXACL 0
root@arm:~# echo 'QZCA''EJTXOB'
QZCAEJTXOB
root@arm:~# MARKER='GQBV''SZQUAP' run 'i2cget -y -f 2 0x60 0x21'
GQBVSZQUAP0xce
GQBVSZQUAP 0
root@arm:~# echo 'QQMG''JFBMFS'
QQMGJFBMFS
root@arm:~# MARKER='YUCW''QWBZCF' run 'echo 1620000 1620000 > /sys/kernel/mva_tesst/regulators/buck1_set'
YUCWQWBZCFYUCWQWBZCF 0
root@arm:~# echo 'GGNS''YGFZWF'
GGNSYGFZWF
root@arm:~# MARKER='TZZY''BYWNBT' run 'i2cget -f -y 2 0x60 0x28'
TZZYBYWNBT0x2d
TZZYBYWNBT 0
root@arm:~# echo 'CTSU''KUPSGH'
CTSUKUPSGH
root@arm:~# MARKER='ENOQ''QWEJOT' run 'i2cget -y -f 2 0x60 0x21'
ENOQQWEJOT0xce
ENOQQWEJOT 0
root@arm:~# echo 'CKYJ''EVQUWM'
CKYJEVQUWM
root@arm:~# MARKER='ATZS''KBFVBU' run 'i2cget -y -f 2 0x60 0x21'
ATZSKBFVBU0xce
ATZSKBFVBU 0
root@arm:~# echo 'EMOA''HNZPUT'
EMOAHNZPUT
root@arm:~# MARKER='QUJU''PQBQSU' run 'echo 1630000 1630000 > /sys/kernel/mva_tesst/regulators/buck1_set'
QUJUPQBQSUQUJUPQBQSU 0
root@arm:~# echo 'VNVL''HUOPEC'
VNVLHUOPEC
root@arm:~# MARKER='BOYZ''ZHTYWB' run 'i2cget -f -y 2 0x60 0x28'
BOYZZHTYWB0x2e
BOYZZHTYWB 0
root@arm:~# echo 'CQKE''WUTSPO'
CQKEWUTSPO
root@arm:~# MARKER='HHMG''BBVVMS' run 'i2cget -y -f 2 0x60 0x21'
HHMGBBVVMS0xce
HHMGBBVVMS 0
root@arm:~# echo 'ZWFY''BZVKYT'
ZWFYBZVKYT
root@arm:~# MARKER='TPJM''QHTUWM' run 'i2cget -y -f 2 0x60 0x21'
TPJMQHTUWM0xce
TPJMQHTUWM 0
root@arm:~# echo 'OQVN''PNHZLM'
OQVNPNHZLM
root@arm:~# MARKER='YJPJ''YXMXYU' run 'echo 1640000 1640000 > /sys/kernel/mva_tesst/regulators/buck1_set'
YJPJYXMXYUYJPJYXMXYU 0
root@arm:~# echo 'HXQS''QYOVZX'
HXQSQYOVZX
root@arm:~# MARKER='MQBZ''JXNNBG' run 'i2cget -f -y 2 0x60 0x28'
MQBZJXNNBG0x2f
MQBZJXNNBG 0
root@arm:~# echo 'BOYU''VHHQLX'
BOYUVHHQLX
root@arm:~# MARKER='JTKM''YVGZZN' run 'i2cget -y -f 2 0x60 0x21'
JTKMYVGZZN0xce
JTKMYVGZZN 0
root@arm:~# echo 'KCLM''JVJXHZ'
KCLMJVJXHZ
root@arm:~# MARKER='HSYX''JWMXSE' run 'i2cget -y -f 2 0x60 0x21'
HSYXJWMXSE0xce
HSYXJWMXSE 0
root@arm:~# echo 'UZLU''HEZLAF'
UZLUHEZLAF
root@arm:~# MARKER='YXQL''VAZGHT' run 'echo 1650000 1650000 > /sys/kernel/mva_tesst/regulators/buck1_set'
YXQLVAZGHTYXQLVAZGHT 0
root@arm:~# echo 'OHAO''AUQPPK'
OHAOAUQPPK
root@arm:~# MARKER='MBUT''YWXFHJ' run 'i2cget -f -y 2 0x60 0x28'
MBUTYWXFHJ0x30
MBUTYWXFHJ 0
root@arm:~# echo 'KFUM''LCQUEQ'
KFUMLCQUEQ
root@arm:~# MARKER='PQGY''NFLQTU' run 'i2cget -y -f 2 0x60 0x21'
PQGYNFLQTU0xce
PQGYNFLQTU 0
root@arm:~# echo 'WLAE''CTVVCP'
WLAECTVVCP
root@arm:~# MARKER='LAMO''QZQQAE' run 'i2cget -y -f 2 0x60 0x21'
LAMOQZQQAE0xce
LAMOQZQQAE 0
root@arm:~# echo 'UJNW''BWEKUV'
UJNWBWEKUV
root@arm:~# MARKER='VLAX''YTHFCW' run 'echo 1660000 1660000 > /sys/kernel/mva_tesst/regulators/buck1_set'
VLAXYTHFCWVLAXYTHFCW 0
root@arm:~# echo 'VPCV''ZACCUU'
VPCVZACCUU
root@arm:~# MARKER='KAVH''FJXSUC' run 'i2cget -f -y 2 0x60 0x28'
KAVHFJXSUC0x31
KAVHFJXSUC 0
root@arm:~# echo 'TNUT''ZAEHTP'
TNUTZAEHTP
root@arm:~# MARKER='BNJV''VHHSSV' run 'i2cget -y -f 2 0x60 0x21'
BNJVVHHSSV0xce
BNJVVHHSSV 0
root@arm:~# echo 'XBFY''WLCSEA'
XBFYWLCSEA
root@arm:~# MARKER='FCVP''BCGECP' run 'i2cget -y -f 2 0x60 0x21'
FCVPBCGECP0xce
FCVPBCGECP 0
root@arm:~# echo 'USZH''JAUAYG'
USZHJAUAYG
root@arm:~# MARKER='THMK''GLYKJM' run 'echo 1670000 1670000 > /sys/kernel/mva_tesst/regulators/buck1_set'
THMKGLYKJMTHMKGLYKJM 0
root@arm:~# echo 'OWQS''VOENLU'
OWQSVOENLU
root@arm:~# MARKER='UUKG''SGYEPC' run 'i2cget -f -y 2 0x60 0x28'
UUKGSGYEPC0x32
UUKGSGYEPC 0
root@arm:~# echo 'ZBJL''ATUGWH'
ZBJLATUGWH
root@arm:~# MARKER='SNGA''BWGESF' run 'i2cget -y -f 2 0x60 0x21'
SNGABWGESF0xce
SNGABWGESF 0
root@arm:~# echo 'CTQN''WCOGYJ'
CTQNWCOGYJ
root@arm:~# MARKER='XGGP''YTSNZJ' run 'i2cget -y -f 2 0x60 0x21'
XGGPYTSNZJ0xce
XGGPYTSNZJ 0
root@arm:~# echo 'GNZV''WBZBNQ'
GNZVWBZBNQ
root@arm:~# MARKER='JNTM''TGTMME' run 'echo 1680000 1680000 > /sys/kernel/mva_tesst/regulators/buck1_set'
JNTMTGTMMEJNTMTGTMME 0
root@arm:~# echo 'JGWX''JEJXFY'
JGWXJEJXFY
root@arm:~# MARKER='QHML''QJZEHV' run 'i2cget -f -y 2 0x60 0x28'
QHMLQJZEHV0x33
QHMLQJZEHV 0
root@arm:~# echo 'PMLK''CZMVJQ'
PMLKCZMVJQ
root@arm:~# MARKER='XQGB''NNXQSO' run 'i2cget -y -f 2 0x60 0x21'
XQGBNNXQSO0xce
XQGBNNXQSO 0
root@arm:~# echo 'UJPN''BENQVE'
UJPNBENQVE
root@arm:~# MARKER='KFHE''ELVSNH' run 'i2cget -y -f 2 0x60 0x21'
KFHEELVSNH0xce
KFHEELVSNH 0
root@arm:~# echo 'WYZA''ACCAUY'
WYZAACCAUY
root@arm:~# MARKER='MYFF''XOPJVU' run 'echo 1690000 1690000 > /sys/kernel/mva_tesst/regulators/buck1_set'
MYFFXOPJVUMYFFXOPJVU 0
root@arm:~# echo 'ATEO''YBOVMX'
ATEOYBOVMX
root@arm:~# MARKER='MECN''XPCHLS' run 'i2cget -f -y 2 0x60 0x28'
MECNXPCHLS0x34
MECNXPCHLS 0
root@arm:~# echo 'XEHC''QAHGCC'
XEHCQAHGCC
root@arm:~# MARKER='BFHE''AJYVYU' run 'i2cget -y -f 2 0x60 0x21'
BFHEAJYVYU0xce
BFHEAJYVYU 0
root@arm:~# echo 'XSVW''QKPQTQ'
XSVWQKPQTQ
root@arm:~# MARKER='UUYK''COBMCF' run 'i2cget -y -f 2 0x60 0x21'
UUYKCOBMCF0xce
UUYKCOBMCF 0
root@arm:~# echo 'FHYE''UYNWSU'
FHYEUYNWSU
root@arm:~# MARKER='HXCY''YENFEQ' run 'echo 1700000 1700000 > /sys/kernel/mva_tesst/regulators/buck1_set'
HXCYYENFEQHXCYYENFEQ 0
root@arm:~# echo 'GMGP''AHAKLA'
GMGPAHAKLA
root@arm:~# MARKER='MGGG''AGFNPJ' run 'i2cget -f -y 2 0x60 0x28'
MGGGAGFNPJ0x35
MGGGAGFNPJ 0
root@arm:~# echo 'QYNH''BABGVZ'
QYNHBABGVZ
root@arm:~# MARKER='MXSG''CXTHVJ' run 'i2cget -y -f 2 0x60 0x21'
MXSGCXTHVJ0xce
MXSGCXTHVJ 0
root@arm:~# echo 'KUKW''MKCFWO'
KUKWMKCFWO
root@arm:~# MARKER='NJHB''ZWAUGZ' run 'i2cget -y -f 2 0x60 0x21'
NJHBZWAUGZ0xce
NJHBZWAUGZ 0
root@arm:~# echo 'BQUO''YJYEUX'
BQUOYJYEUX
root@arm:~# MARKER='ALGM''VNPGNB' run 'echo 1710000 1710000 > /sys/kernel/mva_tesst/regulators/buck1_set'
ALGMVNPGNBALGMVNPGNB 0
root@arm:~# echo 'YHTX''TTXOYV'
YHTXTTXOYV
root@arm:~# MARKER='PHPA''OGNWVV' run 'i2cget -f -y 2 0x60 0x28'
PHPAOGNWVV0x36
PHPAOGNWVV 0
root@arm:~# echo 'JFGF''GZGQMO'
JFGFGZGQMO
root@arm:~# MARKER='UOFW''ZQVQFJ' run 'i2cget -y -f 2 0x60 0x21'
UOFWZQVQFJ0xce
UOFWZQVQFJ 0
root@arm:~# echo 'KQWF''TATZFV'
KQWFTATZFV
root@arm:~# MARKER='HMGF''HKCLHH' run 'i2cget -y -f 2 0x60 0x21'
HMGFHKCLHH0xce
HMGFHKCLHH 0
root@arm:~# echo 'WMCQ''SQOWTF'
WMCQSQOWTF
root@arm:~# MARKER='XCQA''HZBHKB' run 'echo 1720000 1720000 > /sys/kernel/mva_tesst/regulators/buck1_set'
XCQAHZBHKBXCQAHZBHKB 0
root@arm:~# echo 'OFEJ''JZNGFB'
OFEJJZNGFB
root@arm:~# MARKER='WTXQ''SLEWWB' run 'i2cget -f -y 2 0x60 0x28'
WTXQSLEWWB0x37
WTXQSLEWWB 0
root@arm:~# echo 'UFQT''ZLCGTG'
UFQTZLCGTG
root@arm:~# MARKER='YEVB''LEJYXU' run 'i2cget -y -f 2 0x60 0x21'
YEVBLEJYXU0xce
YEVBLEJYXU 0
root@arm:~# echo 'CWSB''PKAMLS'
CWSBPKAMLS
root@arm:~# MARKER='GWNV''QYOOGX' run 'i2cget -y -f 2 0x60 0x21'
GWNVQYOOGX0xce
GWNVQYOOGX 0
root@arm:~# echo 'ANNC''MLGQKG'
ANNCMLGQKG
root@arm:~# MARKER='BWQJ''SFKUWX' run 'echo 1730000 1730000 > /sys/kernel/mva_tesst/regulators/buck1_set'
BWQJSFKUWXBWQJSFKUWX 0
root@arm:~# echo 'PNWH''VPSUSA'
PNWHVPSUSA
root@arm:~# MARKER='YWMX''ZJNLAC' run 'i2cget -f -y 2 0x60 0x28'
YWMXZJNLAC0x38
YWMXZJNLAC 0
root@arm:~# echo 'UCNG''NSUOBV'
UCNGNSUOBV
root@arm:~# MARKER='KHTX''CSMCXJ' run 'i2cget -y -f 2 0x60 0x21'
KHTXCSMCXJ0xce
KHTXCSMCXJ 0
root@arm:~# echo 'MZUE''ZPKUCX'
MZUEZPKUCX
root@arm:~# MARKER='XCVH''JHLXEE' run 'i2cget -y -f 2 0x60 0x21'
XCVHJHLXEE0xce
XCVHJHLXEE 0
root@arm:~# echo 'OCAB''BMFHHP'
OCABBMFHHP
root@arm:~# MARKER='AFGN''JTOLQA' run 'echo 1740000 1740000 > /sys/kernel/mva_tesst/regulators/buck1_set'
AFGNJTOLQAAFGNJTOLQA 0
root@arm:~# echo 'AKSU''PZSZJA'
AKSUPZSZJA
root@arm:~# MARKER='NNFO''OBHSGB' run 'i2cget -f -y 2 0x60 0x28'
NNFOOBHSGB0x39
NNFOOBHSGB 0
root@arm:~# echo 'YVFZ''LVXZGL'
YVFZLVXZGL
root@arm:~# MARKER='ZUML''FGTOKA' run 'i2cget -y -f 2 0x60 0x21'
ZUMLFGTOKA0xce
ZUMLFGTOKA 0
root@arm:~# echo 'UVUA''GZCAFF'
UVUAGZCAFF
root@arm:~# MARKER='QKON''LNBJUQ' run 'i2cget -y -f 2 0x60 0x21'
QKONLNBJUQ0xce
QKONLNBJUQ 0
root@arm:~# echo 'ZTEA''MBMVTG'
ZTEAMBMVTG
root@arm:~# MARKER='BLPE''LSZEFZ' run 'echo 1750000 1750000 > /sys/kernel/mva_tesst/regulators/buck1_set'
BLPELSZEFZBLPELSZEFZ 0
root@arm:~# echo 'SYQE''FJAXVZ'
SYQEFJAXVZ
root@arm:~# MARKER='VPKN''JJXXUQ' run 'i2cget -f -y 2 0x60 0x28'
VPKNJJXXUQ0x3a
VPKNJJXXUQ 0
root@arm:~# echo 'NPTH''HBFJFS'
NPTHHBFJFS
root@arm:~# MARKER='QPEE''VMTLOV' run 'i2cget -y -f 2 0x60 0x21'
QPEEVMTLOV0xce
QPEEVMTLOV 0
root@arm:~# echo 'BTCB''HELHZV'
BTCBHELHZV
root@arm:~# MARKER='XNNX''CHZFVW' run 'i2cget -y -f 2 0x60 0x21'
XNNXCHZFVW0xce
XNNXCHZFVW 0
root@arm:~# echo 'SBYL''AWXXHK'
SBYLAWXXHK
root@arm:~# MARKER='CVYC''CWUWKJ' run 'echo 1760000 1760000 > /sys/kernel/mva_tesst/regulators/buck1_set'
CVYCCWUWKJCVYCCWUWKJ 0
root@arm:~# echo 'XZCB''NPESLK'
XZCBNPESLK
root@arm:~# MARKER='GKJS''KVLTLU' run 'i2cget -f -y 2 0x60 0x28'
GKJSKVLTLU0x3b
GKJSKVLTLU 0
root@arm:~# echo 'FJLL''AYJJFZ'
FJLLAYJJFZ
root@arm:~# MARKER='OPUM''KCBCAT' run 'i2cget -y -f 2 0x60 0x21'
OPUMKCBCAT0xce
OPUMKCBCAT 0
root@arm:~# echo 'VVNQ''NZVVNL'
VVNQNZVVNL
root@arm:~# MARKER='OVNY''CZMTNW' run 'i2cget -y -f 2 0x60 0x21'
OVNYCZMTNW0xce
OVNYCZMTNW 0
root@arm:~# echo 'QOQT''OAEYYP'
QOQTOAEYYP
root@arm:~# MARKER='AHEW''BJTCZC' run 'echo 1770000 1770000 > /sys/kernel/mva_tesst/regulators/buck1_set'
AHEWBJTCZCAHEWBJTCZC 0
root@arm:~# echo 'KQSJ''KSELEU'
KQSJKSELEU
root@arm:~# MARKER='TCEK''ZMHBJX' run 'i2cget -f -y 2 0x60 0x28'
TCEKZMHBJX0x3c
TCEKZMHBJX 0
root@arm:~# echo 'TFZH''OFAPWN'
TFZHOFAPWN
root@arm:~# MARKER='KNNJ''PKKEUQ' run 'i2cget -y -f 2 0x60 0x21'
KNNJPKKEUQ0xce
KNNJPKKEUQ 0
root@arm:~# echo 'XKKY''VGWUXV'
XKKYVGWUXV
root@arm:~# MARKER='LFOC''HNKTOX' run 'i2cget -y -f 2 0x60 0x21'
LFOCHNKTOX0xce
LFOCHNKTOX 0
root@arm:~# echo 'SPMG''SHWVXP'
SPMGSHWVXP
root@arm:~# MARKER='VNKY''HKKWKW' run 'echo 1780000 1780000 > /sys/kernel/mva_tesst/regulators/buck1_set'
VNKYHKKWKWVNKYHKKWKW 0
root@arm:~# echo 'XSCP''HZTLFW'
XSCPHZTLFW
root@arm:~# MARKER='WUTE''FNLGOW' run 'i2cget -f -y 2 0x60 0x28'
WUTEFNLGOW0x3d
WUTEFNLGOW 0
root@arm:~# echo 'VAES''BKGGJW'
VAESBKGGJW
root@arm:~# MARKER='MSAQ''HGGMAJ' run 'i2cget -y -f 2 0x60 0x21'
MSAQHGGMAJ0xce
MSAQHGGMAJ 0
root@arm:~# echo 'ESYP''CLPCXU'
ESYPCLPCXU
root@arm:~# MARKER='JGLL''JUKPEC' run 'i2cget -y -f 2 0x60 0x21'
JGLLJUKPEC0xce
JGLLJUKPEC 0
root@arm:~# echo 'PQHX''LLFXGV'
PQHXLLFXGV
root@arm:~# MARKER='GCFQ''BPQUGF' run 'echo 1790000 1790000 > /sys/kernel/mva_tesst/regulators/buck1_set'
GCFQBPQUGFGCFQBPQUGF 0
root@arm:~# echo 'HEVS''QCNHQF'
HEVSQCNHQF
root@arm:~# MARKER='TXCT''SEPPPY' run 'i2cget -f -y 2 0x60 0x28'
TXCTSEPPPY0x3e
TXCTSEPPPY 0
root@arm:~# echo 'QXWX''QNWEHZ'
QXWXQNWEHZ
root@arm:~# MARKER='YPFP''VGJAMP' run 'i2cget -y -f 2 0x60 0x21'
YPFPVGJAMP0xce
YPFPVGJAMP 0
root@arm:~# echo 'XLBJ''NEHBHU'
XLBJNEHBHU
root@arm:~# MARKER='OWQF''QTNTUC' run 'i2cget -y -f 2 0x60 0x21'
OWQFQTNTUC0xce
OWQFQTNTUC 0
root@arm:~# echo 'EEZH''NSOPKX'
EEZHNSOPKX
root@arm:~# MARKER='CWKE''EZVHUN' run 'echo 1800000 1800000 > /sys/kernel/mva_tesst/regulators/buck1_set'
CWKEEZVHUNCWKEEZVHUN 0
root@arm:~# echo 'OKYS''KYJFPV'
OKYSKYJFPV
root@arm:~# MARKER='XLAK''PQKGYG' run 'i2cget -f -y 2 0x60 0x28'
XLAKPQKGYG0x00
XLAKPQKGYG 0
root@arm:~# echo 'XHNM''VONZAL'
XHNMVONZAL
root@arm:~# MARKER='LBFJ''GEQFTB' run 'i2cget -y -f 2 0x60 0x21'
LBFJGEQFTB0xce
LBFJGEQFTB 0
root@arm:~# echo 'NXZP''WGUYJP'
NXZPWGUYJP
root@arm:~# MARKER='JOMH''PZABXL' run 'i2cget -y -f 2 0x60 0x22'
JOMHPZABXL0x78
JOMHPZABXL 0
root@arm:~# echo 'OPBQ''JWMEAK'
OPBQJWMEAK
root@arm:~# MARKER='EBUG''SOABEX' run 'echo 1100000 1100000 > /sys/kernel/mva_tesst/regulators/buck2_set'
EBUGSOABEXEBUGSOABEX 0
root@arm:~# echo 'MAAB''HPJQXL'
MAABHPJQXL
root@arm:~# MARKER='HCQF''YAVEAC' run 'i2cget -f -y 2 0x60 0x29'
HCQFYAVEAC0x40
HCQFYAVEAC 0
root@arm:~# echo 'MOVP''UNTTLS'
MOVPUNTTLS
root@arm:~# MARKER='PTAC''HHXXJX' run 'i2cget -y -f 2 0x60 0x22'
PTACHHXXJX0x78
PTACHHXXJX 0
root@arm:~# echo 'WUSU''LVAEXT'
WUSULVAEXT
root@arm:~# MARKER='VPZX''JBUSEC' run 'i2cget -y -f 2 0x60 0x22'
VPZXJBUSEC0x78
VPZXJBUSEC 0
root@arm:~# echo 'JSQM''VCHOKX'
JSQMVCHOKX
root@arm:~# MARKER='NSZM''MQJPVN' run 'echo 1110000 1110000 > /sys/kernel/mva_tesst/regulators/buck2_set'
NSZMMQJPVNNSZMMQJPVN 0
root@arm:~# echo 'CUHT''HNEKKE'
CUHTHNEKKE
root@arm:~# MARKER='HJLW''XTYPYS' run 'i2cget -f -y 2 0x60 0x29'
HJLWXTYPYS0x41
HJLWXTYPYS 0
root@arm:~# echo 'YFNL''MJZUWH'
YFNLMJZUWH
root@arm:~# MARKER='YQNJ''CZOVBQ' run 'i2cget -y -f 2 0x60 0x22'
YQNJCZOVBQ0x78
YQNJCZOVBQ 0
root@arm:~# echo 'CHWZ''XVKUUT'
CHWZXVKUUT
root@arm:~# MARKER='XMPL''BBPPJT' run 'i2cget -y -f 2 0x60 0x22'
XMPLBBPPJT0x78
XMPLBBPPJT 0
root@arm:~# echo 'WYJV''TCGPWU'
WYJVTCGPWU
root@arm:~# MARKER='WOLU''ZFAYZV' run 'echo 1120000 1120000 > /sys/kernel/mva_tesst/regulators/buck2_set'
WOLUZFAYZVWOLUZFAYZV 0
root@arm:~# echo 'KFVX''KPJFBV'
KFVXKPJFBV
root@arm:~# MARKER='AFZU''ESPMZX' run 'i2cget -f -y 2 0x60 0x29'
AFZUESPMZX0x42
AFZUESPMZX 0
root@arm:~# echo 'XTJL''JHTECY'
XTJLJHTECY
root@arm:~# MARKER='OFKA''VJHFPX' run 'i2cget -y -f 2 0x60 0x22'
OFKAVJHFPX0x78
OFKAVJHFPX 0
root@arm:~# echo 'PWLE''LNCYHL'
PWLELNCYHL
root@arm:~# MARKER='OXSU''PXNVJA' run 'i2cget -y -f 2 0x60 0x22'
OXSUPXNVJA0x78
OXSUPXNVJA 0
root@arm:~# echo 'QZFX''MLXJGN'
QZFXMLXJGN
root@arm:~# MARKER='NSYU''THXHLA' run 'echo 1130000 1130000 > /sys/kernel/mva_tesst/regulators/buck2_set'
NSYUTHXHLANSYUTHXHLA 0
root@arm:~# echo 'BMXL''WAVMYK'
BMXLWAVMYK
root@arm:~# MARKER='WSKA''XHQCVX' run 'i2cget -f -y 2 0x60 0x29'
WSKAXHQCVX0x43
WSKAXHQCVX 0
root@arm:~# echo 'ZSKZ''VKMGZY'
ZSKZVKMGZY
root@arm:~# MARKER='HHBB''JVHQMP' run 'i2cget -y -f 2 0x60 0x22'
HHBBJVHQMP0x78
HHBBJVHQMP 0
root@arm:~# echo 'SEQU''AKVUJU'
SEQUAKVUJU
root@arm:~# MARKER='GAVP''TXCFJX' run 'i2cget -y -f 2 0x60 0x22'
GAVPTXCFJX0x78
GAVPTXCFJX 0
root@arm:~# echo 'FEAB''EVWFWG'
FEABEVWFWG
root@arm:~# MARKER='JHJU''CZFOVG' run 'echo 1140000 1140000 > /sys/kernel/mva_tesst/regulators/buck2_set'
JHJUCZFOVGJHJUCZFOVG 0
root@arm:~# echo 'UPWO''QSTEPH'
UPWOQSTEPH
root@arm:~# MARKER='LYMN''HHEPZE' run 'i2cget -f -y 2 0x60 0x29'
LYMNHHEPZE0x44
LYMNHHEPZE 0
root@arm:~# echo 'VLAA''AATFKV'
VLAAAATFKV
root@arm:~# MARKER='KACW''KWZAWV' run 'i2cget -y -f 2 0x60 0x22'
KACWKWZAWV0x78
KACWKWZAWV 0
root@arm:~# echo 'WLJK''QVAPGC'
WLJKQVAPGC
root@arm:~# MARKER='ZKXO''AKHJJW' run 'i2cget -y -f 2 0x60 0x22'
ZKXOAKHJJW0x78
ZKXOAKHJJW 0
root@arm:~# echo 'CHHJ''SKUTXB'
CHHJSKUTXB
root@arm:~# MARKER='LKWO''HOMHTU' run 'echo 1150000 1150000 > /sys/kernel/mva_tesst/regulators/buck2_set'
LKWOHOMHTULKWOHOMHTU 0
root@arm:~# echo 'QXTG''OJFHSV'
QXTGOJFHSV
root@arm:~# MARKER='MOBY''VVBBFP' run 'i2cget -f -y 2 0x60 0x29'
MOBYVVBBFP0x45
MOBYVVBBFP 0
root@arm:~# echo 'FYGL''FQMXUB'
FYGLFQMXUB
root@arm:~# MARKER='BGGF''FZLXZT' run 'i2cget -y -f 2 0x60 0x22'
BGGFFZLXZT0x78
BGGFFZLXZT 0
root@arm:~# echo 'TCZS''NJGKZN'
TCZSNJGKZN
root@arm:~# MARKER='KPNS''XCBAYC' run 'i2cget -y -f 2 0x60 0x22'
KPNSXCBAYC0x78
KPNSXCBAYC 0
root@arm:~# echo 'ECLC''LGSFHV'
ECLCLGSFHV
root@arm:~# MARKER='TWNZ''XHFSSV' run 'echo 1160000 1160000 > /sys/kernel/mva_tesst/regulators/buck2_set'
TWNZXHFSSVTWNZXHFSSV 0
root@arm:~# echo 'YPJQ''XKECHU'
YPJQXKECHU
root@arm:~# MARKER='ZWAL''FGOVXK' run 'i2cget -f -y 2 0x60 0x29'
ZWALFGOVXK0x46
ZWALFGOVXK 0
root@arm:~# echo 'KTFU''SYLSCB'
KTFUSYLSCB
root@arm:~# MARKER='SPBO''VXHMBB' run 'i2cget -y -f 2 0x60 0x22'
SPBOVXHMBB0x78
SPBOVXHMBB 0
root@arm:~# echo 'ZHCK''NYTEYL'
ZHCKNYTEYL
root@arm:~# MARKER='SSJM''YNCJGB' run 'i2cget -y -f 2 0x60 0x22'
SSJMYNCJGB0x78
SSJMYNCJGB 0
root@arm:~# echo 'NYUU''NSOJBA'
NYUUNSOJBA
root@arm:~# MARKER='BVQJ''EXHPFT' run 'echo 1170000 1170000 > /sys/kernel/mva_tesst/regulators/buck2_set'
BVQJEXHPFTBVQJEXHPFT 0
root@arm:~# echo 'GFKJ''XTBJJF'
GFKJXTBJJF
root@arm:~# MARKER='CCKK''LKVAEF' run 'i2cget -f -y 2 0x60 0x29'
CCKKLKVAEF0x47
CCKKLKVAEF 0
root@arm:~# echo 'PNHB''OLPBYF'
PNHBOLPBYF
root@arm:~# MARKER='CEHT''JANWQM' run 'i2cget -y -f 2 0x60 0x22'
CEHTJANWQM0x78
CEHTJANWQM 0
root@arm:~# echo 'EPEF''FCMUOL'
EPEFFCMUOL
root@arm:~# MARKER='PPUM''GKYCEB' run 'i2cget -y -f 2 0x60 0x22'
PPUMGKYCEB0x78
PPUMGKYCEB 0
root@arm:~# echo 'XYCT''YTYGBT'
XYCTYTYGBT
root@arm:~# MARKER='BBBJ''USAKSK' run 'echo 1180000 1180000 > /sys/kernel/mva_tesst/regulators/buck2_set'
BBBJUSAKSKBBBJUSAKSK 0
root@arm:~# echo 'QENK''FOCHXM'
QENKFOCHXM
root@arm:~# MARKER='HMZC''UMAPOE' run 'i2cget -f -y 2 0x60 0x29'
HMZCUMAPOE0x48
HMZCUMAPOE 0
root@arm:~# echo 'GVQT''MPQGQQ'
GVQTMPQGQQ
root@arm:~# MARKER='ABMW''KLTJVW' run 'i2cget -y -f 2 0x60 0x22'
ABMWKLTJVW0x78
ABMWKLTJVW 0
root@arm:~# echo 'UBAF''LPFLLN'
UBAFLPFLLN
root@arm:~# MARKER='YUTX''PKMQWL' run 'i2cget -y -f 2 0x60 0x22'
YUTXPKMQWL0x78
YUTXPKMQWL 0
root@arm:~# echo 'WTBB''NGAHHB'
WTBBNGAHHB
root@arm:~# MARKER='SNXU''AGSMYY' run 'echo 1190000 1190000 > /sys/kernel/mva_tesst/regulators/buck2_set'
SNXUAGSMYYSNXUAGSMYY 0
root@arm:~# echo 'KYGC''QCHPQV'
KYGCQCHPQV
root@arm:~# MARKER='MCEF''MKTFPX' run 'i2cget -f -y 2 0x60 0x29'
MCEFMKTFPX0x49
MCEFMKTFPX 0
root@arm:~# echo 'QUHO''XEEQHC'
QUHOXEEQHC
root@arm:~# MARKER='WNEZ''CMVENJ' run 'i2cget -y -f 2 0x60 0x22'
WNEZCMVENJ0x78
WNEZCMVENJ 0
root@arm:~# echo 'THMA''GJUAKV'
THMAGJUAKV
root@arm:~# MARKER='BBPZ''EQVWTY' run 'i2cget -y -f 2 0x60 0x22'
BBPZEQVWTY0x78
BBPZEQVWTY 0
root@arm:~# echo 'BYHU''CLLLPA'
BYHUCLLLPA
root@arm:~# MARKER='LYYA''AEMPWH' run 'echo 1200000 1200000 > /sys/kernel/mva_tesst/regulators/buck2_set'
LYYAAEMPWHLYYAAEMPWH 0
root@arm:~# echo 'MULW''YBQNJW'
MULWYBQNJW
root@arm:~# MARKER='THBQ''ZPLNMN' run 'i2cget -f -y 2 0x60 0x29'
THBQZPLNMN0x4a
THBQZPLNMN 0
root@arm:~# echo 'FUJH''WHYTWK'
FUJHWHYTWK
root@arm:~# MARKER='PQWF''UAPOZE' run 'i2cget -y -f 2 0x60 0x22'
PQWFUAPOZE0x78
PQWFUAPOZE 0
root@arm:~# echo 'XKQN''HBUGOA'
XKQNHBUGOA
root@arm:~# MARKER='TYQM''SOWXTV' run 'i2cget -y -f 2 0x60 0x22'
TYQMSOWXTV0x78
TYQMSOWXTV 0
root@arm:~# echo 'MXFU''HJLVCQ'
MXFUHJLVCQ
root@arm:~# MARKER='JNTJ''QLAFPF' run 'echo 1210000 1210000 > /sys/kernel/mva_tesst/regulators/buck2_set'
JNTJQLAFPFJNTJQLAFPF 0
root@arm:~# echo 'FXJQ''ACZYXV'
FXJQACZYXV
root@arm:~# MARKER='UOPA''BAYCOF' run 'i2cget -f -y 2 0x60 0x29'
UOPABAYCOF0x4b
UOPABAYCOF 0
root@arm:~# echo 'MVVZ''NWCGEF'
MVVZNWCGEF
root@arm:~# MARKER='VUQF''UYLBLV' run 'i2cget -y -f 2 0x60 0x22'
VUQFUYLBLV0x78
VUQFUYLBLV 0
root@arm:~# echo 'XWQN''QTHHQJ'
XWQNQTHHQJ
root@arm:~# MARKER='SAKQ''JZPAGQ' run 'i2cget -y -f 2 0x60 0x22'
SAKQJZPAGQ0x78
SAKQJZPAGQ 0
root@arm:~# echo 'JKUG''QZYLMB'
JKUGQZYLMB
root@arm:~# MARKER='JGKB''UFNUGP' run 'echo 1220000 1220000 > /sys/kernel/mva_tesst/regulators/buck2_set'
JGKBUFNUGPJGKBUFNUGP 0
root@arm:~# echo 'QUSS''GWVUTE'
QUSSGWVUTE
root@arm:~# MARKER='ETJL''VUSPNO' run 'i2cget -f -y 2 0x60 0x29'
ETJLVUSPNO0x4c
ETJLVUSPNO 0
root@arm:~# echo 'FMYJ''XKYBNJ'
FMYJXKYBNJ
root@arm:~# MARKER='YKJV''FTJSNH' run 'i2cget -y -f 2 0x60 0x22'
YKJVFTJSNH0x78
YKJVFTJSNH 0
root@arm:~# echo 'KPWF''WMKMFL'
KPWFWMKMFL
root@arm:~# MARKER='SHXG''FSGNHM' run 'i2cget -y -f 2 0x60 0x22'
SHXGFSGNHM0x78
SHXGFSGNHM 0
root@arm:~# echo 'CXVW''CJOWMT'
CXVWCJOWMT
root@arm:~# MARKER='UWSO''LGQKBU' run 'echo 1230000 1230000 > /sys/kernel/mva_tesst/regulators/buck2_set'
UWSOLGQKBUUWSOLGQKBU 0
root@arm:~# echo 'GNPT''VAKZGK'
GNPTVAKZGK
root@arm:~# MARKER='VKXX''VEQXFT' run 'i2cget -f -y 2 0x60 0x29'
VKXXVEQXFT0x4d
VKXXVEQXFT 0
root@arm:~# echo 'EVSO''ZTWTYX'
EVSOZTWTYX
root@arm:~# MARKER='SAVM''VMOHFS' run 'i2cget -y -f 2 0x60 0x22'
SAVMVMOHFS0x78
SAVMVMOHFS 0
root@arm:~# echo 'KYMA''BNNXFX'
KYMABNNXFX
root@arm:~# MARKER='NAQG''PJGPCJ' run 'i2cget -y -f 2 0x60 0x22'
NAQGPJGPCJ0x78
NAQGPJGPCJ 0
root@arm:~# echo 'KZZG''PABVCJ'
KZZGPABVCJ
root@arm:~# MARKER='PUHF''NVQGPE' run 'echo 1240000 1240000 > /sys/kernel/mva_tesst/regulators/buck2_set'
PUHFNVQGPEPUHFNVQGPE 0
root@arm:~# echo 'SPCB''TCFTMG'
SPCBTCFTMG
root@arm:~# MARKER='USSX''KOWBGX' run 'i2cget -f -y 2 0x60 0x29'
USSXKOWBGX0x4e
USSXKOWBGX 0
root@arm:~# echo 'OOJC''XPETSU'
OOJCXPETSU
root@arm:~# MARKER='NXBC''AOHJEZ' run 'i2cget -y -f 2 0x60 0x22'
NXBCAOHJEZ0x78
NXBCAOHJEZ 0
root@arm:~# echo 'WFXU''CNBFKK'
WFXUCNBFKK
root@arm:~# MARKER='YGXF''MXEPGG' run 'i2cget -y -f 2 0x60 0x22'
YGXFMXEPGG0x78
YGXFMXEPGG 0
root@arm:~# echo 'PEPP''UHSMVG'
PEPPUHSMVG
root@arm:~# MARKER='CYVE''KUMWOK' run 'echo 1250000 1250000 > /sys/kernel/mva_tesst/regulators/buck2_set'
CYVEKUMWOKCYVEKUMWOK 0
root@arm:~# echo 'VGVX''OLZAYL'
VGVXOLZAYL
root@arm:~# MARKER='UQTY''HSXWNS' run 'i2cget -f -y 2 0x60 0x29'
UQTYHSXWNS0x4f
UQTYHSXWNS 0
root@arm:~# echo 'ZMCO''PUYSGG'
ZMCOPUYSGG
root@arm:~# MARKER='BLPV''UMZUBP' run 'i2cget -y -f 2 0x60 0x22'
BLPVUMZUBP0x78
BLPVUMZUBP 0
root@arm:~# echo 'TKQJ''TSAWTA'
TKQJTSAWTA
root@arm:~# MARKER='AUVV''JPBGAK' run 'i2cget -y -f 2 0x60 0x22'
AUVVJPBGAK0x78
AUVVJPBGAK 0
root@arm:~# echo 'YPTW''YPMSHW'
YPTWYPMSHW
root@arm:~# MARKER='NKTO''BOYUYT' run 'echo 1260000 1260000 > /sys/kernel/mva_tesst/regulators/buck2_set'
NKTOBOYUYTNKTOBOYUYT 0
root@arm:~# echo 'HVXU''BFLYVN'
HVXUBFLYVN
root@arm:~# MARKER='HWJM''ZGXSXA' run 'i2cget -f -y 2 0x60 0x29'
HWJMZGXSXA0x50
HWJMZGXSXA 0
root@arm:~# echo 'JSWZ''JMEFCY'
JSWZJMEFCY
root@arm:~# MARKER='JPMQ''JXNUOY' run 'i2cget -y -f 2 0x60 0x22'
JPMQJXNUOY0x78
JPMQJXNUOY 0
root@arm:~# echo 'HZQM''MPPHQG'
HZQMMPPHQG
root@arm:~# MARKER='NJKZ''MFQPAQ' run 'i2cget -y -f 2 0x60 0x22'
NJKZMFQPAQ0x78
NJKZMFQPAQ 0
root@arm:~# echo 'OCJN''NPJWOK'
OCJNNPJWOK
root@arm:~# MARKER='PSWS''ZCJCML' run 'echo 1270000 1270000 > /sys/kernel/mva_tesst/regulators/buck2_set'
PSWSZCJCMLPSWSZCJCML 0
root@arm:~# echo 'TFPQ''FHNXNY'
TFPQFHNXNY
root@arm:~# MARKER='EVVT''XYQBKB' run 'i2cget -f -y 2 0x60 0x29'
EVVTXYQBKB0x51
EVVTXYQBKB 0
root@arm:~# echo 'ABFY''JSNFLO'
ABFYJSNFLO
root@arm:~# MARKER='GTGT''YZAMFG' run 'i2cget -y -f 2 0x60 0x22'
GTGTYZAMFG0x78
GTGTYZAMFG 0
root@arm:~# echo 'GFVF''HGVCJV'
GFVFHGVCJV
root@arm:~# MARKER='HFLZ''YQFTJQ' run 'i2cget -y -f 2 0x60 0x22'
HFLZYQFTJQ0x78
HFLZYQFTJQ 0
root@arm:~# echo 'UJYK''UFUJOU'
UJYKUFUJOU
root@arm:~# MARKER='JEAP''TSZVBK' run 'echo 1280000 1280000 > /sys/kernel/mva_tesst/regulators/buck2_set'
JEAPTSZVBKJEAPTSZVBK 0
root@arm:~# echo 'UQYX''JKLJLK'
UQYXJKLJLK
root@arm:~# MARKER='JVJF''EYPTFU' run 'i2cget -f -y 2 0x60 0x29'
JVJFEYPTFU0x52
JVJFEYPTFU 0
root@arm:~# echo 'AOPM''JVKEJX'
AOPMJVKEJX
root@arm:~# MARKER='SVKM''HFCQPA' run 'i2cget -y -f 2 0x60 0x22'
SVKMHFCQPA0x78
SVKMHFCQPA 0
root@arm:~# echo 'PGZT''UAWKGG'
PGZTUAWKGG
root@arm:~# MARKER='SFFB''GALBWQ' run 'i2cget -y -f 2 0x60 0x22'
SFFBGALBWQ0x78
SFFBGALBWQ 0
root@arm:~# echo 'HBEJ''VUOFZU'
HBEJVUOFZU
root@arm:~# MARKER='SCAK''XYLJBO' run 'echo 1290000 1290000 > /sys/kernel/mva_tesst/regulators/buck2_set'
SCAKXYLJBOSCAKXYLJBO 0
root@arm:~# echo 'MTVP''BYQUFP'
MTVPBYQUFP
root@arm:~# MARKER='ZVXH''WWWZNH' run 'i2cget -f -y 2 0x60 0x29'
ZVXHWWWZNH0x53
ZVXHWWWZNH 0
root@arm:~# echo 'WXAJ''NHTPTM'
WXAJNHTPTM
root@arm:~# MARKER='PEAM''XZXOFJ' run 'i2cget -y -f 2 0x60 0x22'
PEAMXZXOFJ0x78
PEAMXZXOFJ 0
root@arm:~# echo 'LXGB''UOYPEX'
LXGBUOYPEX
root@arm:~# MARKER='FQAC''JGVZVW' run 'i2cget -y -f 2 0x60 0x22'
FQACJGVZVW0x78
FQACJGVZVW 0
root@arm:~# echo 'CSFL''WUPXES'
CSFLWUPXES
root@arm:~# MARKER='NZPU''GJVCUJ' run 'echo 1300000 1300000 > /sys/kernel/mva_tesst/regulators/buck2_set'
NZPUGJVCUJNZPUGJVCUJ 0
root@arm:~# echo 'OUUH''FCPJEO'
OUUHFCPJEO
root@arm:~# MARKER='PAUB''CVHQUJ' run 'i2cget -f -y 2 0x60 0x29'
PAUBCVHQUJ0x54
PAUBCVHQUJ 0
root@arm:~# echo 'XMVH''LPZBJE'
XMVHLPZBJE
root@arm:~# MARKER='WNOV''AELOZX' run 'i2cget -y -f 2 0x60 0x22'
WNOVAELOZX0x78
WNOVAELOZX 0
root@arm:~# echo 'BLHE''KKMLUH'
BLHEKKMLUH
root@arm:~# MARKER='PKTW''FGAXLS' run 'i2cget -y -f 2 0x60 0x22'
PKTWFGAXLS0x78
PKTWFGAXLS 0
root@arm:~# echo 'HJWN''GZFASE'
HJWNGZFASE
root@arm:~# MARKER='NBUN''ZZEOEK' run 'echo 1310000 1310000 > /sys/kernel/mva_tesst/regulators/buck2_set'
NBUNZZEOEKNBUNZZEOEK 0
root@arm:~# echo 'WTLW''EAXOHG'
WTLWEAXOHG
root@arm:~# MARKER='XZLY''UZTOAP' run 'i2cget -f -y 2 0x60 0x29'
XZLYUZTOAP0x55
XZLYUZTOAP 0
root@arm:~# echo 'WUQG''UHUFWB'
WUQGUHUFWB
root@arm:~# MARKER='JONK''UZFTKM' run 'i2cget -y -f 2 0x60 0x22'
JONKUZFTKM0x78
JONKUZFTKM 0
root@arm:~# echo 'PLFG''FMPUHA'
PLFGFMPUHA
root@arm:~# MARKER='GXYE''CSGUCZ' run 'i2cget -y -f 2 0x60 0x22'
GXYECSGUCZ0x78
GXYECSGUCZ 0
root@arm:~# echo 'GYLH''CQJBBE'
GYLHCQJBBE
root@arm:~# MARKER='TJXX''OJSXBB' run 'echo 1320000 1320000 > /sys/kernel/mva_tesst/regulators/buck2_set'
TJXXOJSXBBTJXXOJSXBB 0
root@arm:~# echo 'PSYG''KKXAQE'
PSYGKKXAQE
root@arm:~# MARKER='WMKN''FGJUTK' run 'i2cget -f -y 2 0x60 0x29'
WMKNFGJUTK0x56
WMKNFGJUTK 0
root@arm:~# echo 'SOBV''NVQFOW'
SOBVNVQFOW
root@arm:~# MARKER='AJPX''YWOYJS' run 'i2cget -y -f 2 0x60 0x22'
AJPXYWOYJS0x78
AJPXYWOYJS 0
root@arm:~# echo 'SCGY''XTWVVC'
SCGYXTWVVC
root@arm:~# MARKER='VAOT''TUQWJV' run 'i2cget -y -f 2 0x60 0x22'
VAOTTUQWJV0x78
VAOTTUQWJV 0
root@arm:~# echo 'VEEN''YBECYQ'
VEENYBECYQ
root@arm:~# MARKER='BKEV''OXZMZE' run 'echo 1330000 1330000 > /sys/kernel/mva_tesst/regulators/buck2_set'
BKEVOXZMZEBKEVOXZMZE 0
root@arm:~# echo 'WXKE''TGXHSH'
WXKETGXHSH
root@arm:~# MARKER='WZAE''VBKJCG' run 'i2cget -f -y 2 0x60 0x29'
WZAEVBKJCG0x57
WZAEVBKJCG 0
root@arm:~# echo 'UQUH''AAGCEW'
UQUHAAGCEW
root@arm:~# MARKER='XOMH''EJYOLY' run 'i2cget -y -f 2 0x60 0x22'
XOMHEJYOLY0x78
XOMHEJYOLY 0
root@arm:~# echo 'FKPZ''TZJOLP'
FKPZTZJOLP
root@arm:~# MARKER='BQLO''TYESVF' run 'i2cget -y -f 2 0x60 0x22'
BQLOTYESVF0x78
BQLOTYESVF 0
root@arm:~# echo 'LWCU''ZYLGJW'
LWCUZYLGJW
root@arm:~# MARKER='EEYV''HVZUWF' run 'echo 1340000 1340000 > /sys/kernel/mva_tesst/regulators/buck2_set'
EEYVHVZUWFEEYVHVZUWF 0
root@arm:~# echo 'HLUW''VGVPWL'
HLUWVGVPWL
root@arm:~# MARKER='PVWN''UOCUNF' run 'i2cget -f -y 2 0x60 0x29'
PVWNUOCUNF0x58
PVWNUOCUNF 0
root@arm:~# echo 'XKMJ''MVKSJV'
XKMJMVKSJV
root@arm:~# MARKER='VAHW''QMKWWM' run 'i2cget -y -f 2 0x60 0x22'
VAHWQMKWWM0x78
VAHWQMKWWM 0
root@arm:~# echo 'SFSH''KHSUVX'
SFSHKHSUVX
root@arm:~# MARKER='YTAC''BNJZHG' run 'i2cget -y -f 2 0x60 0x22'
YTACBNJZHG0x78
YTACBNJZHG 0
root@arm:~# echo 'AGFW''SZMJAF'
AGFWSZMJAF
root@arm:~# MARKER='HMHP''PGBNCW' run 'echo 1350000 1350000 > /sys/kernel/mva_tesst/regulators/buck2_set'
HMHPPGBNCWHMHPPGBNCW 0
root@arm:~# echo 'MVZY''CFWLGV'
MVZYCFWLGV
root@arm:~# MARKER='HEEZ''CTLBBM' run 'i2cget -f -y 2 0x60 0x29'
HEEZCTLBBM0x59
HEEZCTLBBM 0
root@arm:~# echo 'QMNW''PVFUHK'
QMNWPVFUHK
root@arm:~# MARKER='XNEX''UAVZTV' run 'i2cget -y -f 2 0x60 0x22'
XNEXUAVZTV0x78
XNEXUAVZTV 0
root@arm:~# echo 'NYBC''ACYLMS'
NYBCACYLMS
root@arm:~# MARKER='GWXE''HXECGA' run 'i2cget -y -f 2 0x60 0x22'
GWXEHXECGA0x78
GWXEHXECGA 0
root@arm:~# echo 'KFLW''UZMXKC'
KFLWUZMXKC
root@arm:~# MARKER='ECZK''PAUBPQ' run 'echo 1360000 1360000 > /sys/kernel/mva_tesst/regulators/buck2_set'
ECZKPAUBPQECZKPAUBPQ 0
root@arm:~# echo 'KXLN''SEOLNK'
KXLNSEOLNK
root@arm:~# MARKER='JMYU''NNWBOV' run 'i2cget -f -y 2 0x60 0x29'
JMYUNNWBOV0x5a
JMYUNNWBOV 0
root@arm:~# echo 'HCHO''GJUMBE'
HCHOGJUMBE
root@arm:~# MARKER='MYSH''MOXKXE' run 'i2cget -y -f 2 0x60 0x22'
MYSHMOXKXE0x78
MYSHMOXKXE 0
root@arm:~# echo 'PFKP''CHLQEF'
PFKPCHLQEF
root@arm:~# MARKER='TYUC''TTNNJN' run 'i2cget -y -f 2 0x60 0x22'
TYUCTTNNJN0x78
TYUCTTNNJN 0
root@arm:~# echo 'BXVK''YBPNYO'
BXVKYBPNYO
root@arm:~# MARKER='OKTT''HFATTH' run 'echo 1370000 1370000 > /sys/kernel/mva_tesst/regulators/buck2_set'
OKTTHFATTHOKTTHFATTH 0
root@arm:~# echo 'AFTB''YEUGOF'
AFTBYEUGOF
root@arm:~# MARKER='CTXP''CMPBLG' run 'i2cget -f -y 2 0x60 0x29'
CTXPCMPBLG0x5b
CTXPCMPBLG 0
root@arm:~# echo 'FCGT''WHBWBO'
FCGTWHBWBO
root@arm:~# MARKER='FTPE''YCLXTS' run 'i2cget -y -f 2 0x60 0x22'
FTPEYCLXTS0x78
FTPEYCLXTS 0
root@arm:~# echo 'SZJP''AWYXLZ'
SZJPAWYXLZ
root@arm:~# MARKER='OSUN''QWQXGA' run 'i2cget -y -f 2 0x60 0x22'
OSUNQWQXGA0x78
OSUNQWQXGA 0
root@arm:~# echo 'BEPX''GGCUQH'
BEPXGGCUQH
root@arm:~# MARKER='FCSY''EGHSOY' run 'echo 1380000 1380000 > /sys/kernel/mva_tesst/regulators/buck2_set'
FCSYEGHSOYFCSYEGHSOY 0
root@arm:~# echo 'PELC''TTEQEV'
PELCTTEQEV
root@arm:~# MARKER='MQGA''WWQLSV' run 'i2cget -f -y 2 0x60 0x29'
MQGAWWQLSV0x5c
MQGAWWQLSV 0
root@arm:~# echo 'OPQC''JTBJBB'
OPQCJTBJBB
root@arm:~# MARKER='GSQL''UMZZVU' run 'i2cget -y -f 2 0x60 0x22'
GSQLUMZZVU0x78
GSQLUMZZVU 0
root@arm:~# echo 'NFWU''BQLXLM'
NFWUBQLXLM
root@arm:~# MARKER='OVFZ''QTSPEO' run 'i2cget -y -f 2 0x60 0x22'
OVFZQTSPEO0x78
OVFZQTSPEO 0
root@arm:~# echo 'OPHE''OTUMKM'
OPHEOTUMKM
root@arm:~# MARKER='WSUT''TMYGQP' run 'echo 1390000 1390000 > /sys/kernel/mva_tesst/regulators/buck2_set'
WSUTTMYGQPWSUTTMYGQP 0
root@arm:~# echo 'WJBV''ESOFYJ'
WJBVESOFYJ
root@arm:~# MARKER='OFMP''OZFSLE' run 'i2cget -f -y 2 0x60 0x29'
OFMPOZFSLE0x5d
OFMPOZFSLE 0
root@arm:~# echo 'GMCQ''BENCUT'
GMCQBENCUT
root@arm:~# MARKER='OLSG''HWSYZC' run 'i2cget -y -f 2 0x60 0x22'
OLSGHWSYZC0x78
OLSGHWSYZC 0
root@arm:~# echo 'ASKS''YHJTKU'
ASKSYHJTKU
root@arm:~# MARKER='WAOZ''BCFLQC' run 'i2cget -y -f 2 0x60 0x22'
WAOZBCFLQC0x78
WAOZBCFLQC 0
root@arm:~# echo 'FPQV''TTWSAC'
FPQVTTWSAC
root@arm:~# MARKER='TPSN''LWPXMV' run 'echo 1400000 1400000 > /sys/kernel/mva_tesst/regulators/buck2_set'
TPSNLWPXMVTPSNLWPXMV 0
root@arm:~# echo 'YJTM''QLPLUG'
YJTMQLPLUG
root@arm:~# MARKER='HNEZ''SLENMQ' run 'i2cget -f -y 2 0x60 0x29'
HNEZSLENMQ0x5e
HNEZSLENMQ 0
root@arm:~# echo 'OPYT''HNSMVK'
OPYTHNSMVK
root@arm:~# MARKER='TPBH''WXWOTT' run 'i2cget -y -f 2 0x60 0x22'
TPBHWXWOTT0x78
TPBHWXWOTT 0
root@arm:~# echo 'JPSU''SJGLPN'
JPSUSJGLPN
root@arm:~# MARKER='EKZV''TFWHJU' run 'i2cget -y -f 2 0x60 0x22'
EKZVTFWHJU0x78
EKZVTFWHJU 0
root@arm:~# echo 'MUAU''ZOZXPN'
MUAUZOZXPN
root@arm:~# MARKER='WNBE''ZQLXEO' run 'echo 1410000 1410000 > /sys/kernel/mva_tesst/regulators/buck2_set'
WNBEZQLXEOWNBEZQLXEO 0
root@arm:~# echo 'TYOY''NYPFWJ'
TYOYNYPFWJ
root@arm:~# MARKER='HSFX''APQBBT' run 'i2cget -f -y 2 0x60 0x29'
HSFXAPQBBT0x5f
HSFXAPQBBT 0
root@arm:~# echo 'VVJX''UPUSCE'
VVJXUPUSCE
root@arm:~# MARKER='EGCW''GLXHKJ' run 'i2cget -y -f 2 0x60 0x22'
EGCWGLXHKJ0x78
EGCWGLXHKJ 0
root@arm:~# echo 'QGLG''MBFGBU'
QGLGMBFGBU
root@arm:~# MARKER='KOXN''EYCUKU' run 'i2cget -y -f 2 0x60 0x22'
KOXNEYCUKU0x78
KOXNEYCUKU 0
root@arm:~# echo 'GPML''GPSNQL'
GPMLGPSNQL
root@arm:~# MARKER='JZAC''WLLPVM' run 'echo 790000 790000 > /sys/kernel/mva_test//regulators/buck2_set'
JZACWLLPVMJZACWLLPVM 0
root@arm:~# echo 'SXXX''JTTKQY'
SXXXJTTKQY
root@arm:~# MARKER='AUPT''HUTCBC' run 'i2cget -f -y 2 0x60 0x29'
AUPTHUTCBC0x60
AUPTHUTCBC 0
root@arm:~# echo 'HOQA''GKEBBF'
HOQAGKEBBF
root@arm:~# MARKER='GXTG''QJKHLF' run 'i2cget -y -f 2 0x60 0x22'
GXTGQJKHLF0x78
GXTGQJKHLF 0
root@arm:~# echo 'CPQL''LLUXWV'
CPQLLLUXWV
root@arm:~# MARKER='PJLO''MLBWAQ' run 'i2cget -y -f 2 0x60 0x22'
PJLOMLBWAQ0x78
PJLOMLBWAQ 0
root@arm:~# echo 'GAJQ''ZHEGMA'
GAJQZHEGMA
root@arm:~# MARKER='ONXK''PKCTQM' run 'echo 800000 800000 > /sys/kernel/mva_test//regulators/buck2_set'
ONXKPKCTQMONXKPKCTQM 0
root@arm:~# echo 'QQMX''MBWTHO'
QQMXMBWTHO
root@arm:~# MARKER='VETF''PGQJJX' run 'i2cget -f -y 2 0x60 0x29'
VETFPGQJJX0x61
VETFPGQJJX 0
root@arm:~# echo 'MZLJ''SNWMEQ'
MZLJSNWMEQ
root@arm:~# MARKER='FLGP''QLOGWT' run 'i2cget -y -f 2 0x60 0x22'
FLGPQLOGWT0x78
FLGPQLOGWT 0
root@arm:~# echo 'JOGM''YGCABY'
JOGMYGCABY
root@arm:~# MARKER='WVNC''NLMBHJ' run 'i2cget -y -f 2 0x60 0x22'
WVNCNLMBHJ0x78
WVNCNLMBHJ 0
root@arm:~# echo 'ZJPN''NQMMYX'
ZJPNNQMMYX
root@arm:~# MARKER='QAAL''HSKPVC' run 'echo 810000 810000 > /sys/kernel/mva_test//regulators/buck2_set'
QAALHSKPVCQAALHSKPVC 0
root@arm:~# echo 'YHFU''SWXEAM'
YHFUSWXEAM
root@arm:~# MARKER='GPBV''ZOTMJH' run 'i2cget -f -y 2 0x60 0x29'
GPBVZOTMJH0x62
GPBVZOTMJH 0
root@arm:~# echo 'OUHU''EQAJEC'
OUHUEQAJEC
root@arm:~# MARKER='EYCG''JHOQUT' run 'i2cget -y -f 2 0x60 0x22'
EYCGJHOQUT0x78
EYCGJHOQUT 0
root@arm:~# echo 'TQWK''TSSCAE'
TQWKTSSCAE
root@arm:~# MARKER='NTBH''UAYHHS' run 'i2cget -y -f 2 0x60 0x22'
NTBHUAYHHS0x78
NTBHUAYHHS 0
root@arm:~# echo 'CQUQ''WUABNC'
CQUQWUABNC
root@arm:~# MARKER='JLCV''NTCUCG' run 'echo 820000 820000 > /sys/kernel/mva_test//regulators/buck2_set'
JLCVNTCUCGJLCVNTCUCG 0
root@arm:~# echo 'EXXU''JHFLGB'
EXXUJHFLGB
root@arm:~# MARKER='CWTF''ZUOMAH' run 'i2cget -f -y 2 0x60 0x29'
CWTFZUOMAH0x63
CWTFZUOMAH 0
root@arm:~# echo 'SVOB''HUWXCO'
SVOBHUWXCO
root@arm:~# MARKER='EMZW''TGXSUS' run 'i2cget -y -f 2 0x60 0x22'
EMZWTGXSUS0x78
EMZWTGXSUS 0
root@arm:~# echo 'TFTN''WXWEYQ'
TFTNWXWEYQ
root@arm:~# MARKER='WGVK''YWAEKO' run 'i2cget -y -f 2 0x60 0x22'
WGVKYWAEKO0x78
WGVKYWAEKO 0
root@arm:~# echo 'GLFN''GTMOLF'
GLFNGTMOLF
root@arm:~# MARKER='XJGF''JXUJVF' run 'echo 830000 830000 > /sys/kernel/mva_test//regulators/buck2_set'
XJGFJXUJVFXJGFJXUJVF 0
root@arm:~# echo 'EEWV''NZNHFK'
EEWVNZNHFK
root@arm:~# MARKER='ENNQ''OPFTBS' run 'i2cget -f -y 2 0x60 0x29'
ENNQOPFTBS0x64
ENNQOPFTBS 0
root@arm:~# echo 'ETCC''QTSQTN'
ETCCQTSQTN
root@arm:~# MARKER='MLFM''WAJWAG' run 'i2cget -y -f 2 0x60 0x22'
MLFMWAJWAG0x78
MLFMWAJWAG 0
root@arm:~# echo 'CGSG''MNBHZF'
CGSGMNBHZF
root@arm:~# MARKER='YVOE''VFBXHX' run 'i2cget -y -f 2 0x60 0x22'
YVOEVFBXHX0x78
YVOEVFBXHX 0
root@arm:~# echo 'GWLN''LWEMNP'
GWLNLWEMNP
root@arm:~# MARKER='YKUF''CBUWFK' run 'echo 840000 840000 > /sys/kernel/mva_test//regulators/buck2_set'
YKUFCBUWFKYKUFCBUWFK 0
root@arm:~# echo 'FVXT''TCBGFV'
FVXTTCBGFV
root@arm:~# MARKER='LHQF''SNKXCS' run 'i2cget -f -y 2 0x60 0x29'
LHQFSNKXCS0x65
LHQFSNKXCS 0
root@arm:~# echo 'SQCM''VKBTBL'
SQCMVKBTBL
root@arm:~# MARKER='GJUN''YOSGZK' run 'i2cget -y -f 2 0x60 0x22'
GJUNYOSGZK0x78
GJUNYOSGZK 0
root@arm:~# echo 'GFJQ''LSFMNP'
GFJQLSFMNP
root@arm:~# MARKER='GZXO''PFXYUU' run 'i2cget -y -f 2 0x60 0x22'
GZXOPFXYUU0x78
GZXOPFXYUU 0
root@arm:~# echo 'ZGKA''QYOTQE'
ZGKAQYOTQE
root@arm:~# MARKER='NCTB''YEZCHP' run 'echo 850000 850000 > /sys/kernel/mva_test//regulators/buck2_set'
NCTBYEZCHPNCTBYEZCHP 0
root@arm:~# echo 'JMJZ''XLAHLM'
JMJZXLAHLM
root@arm:~# MARKER='XXST''GGFGKM' run 'i2cget -f -y 2 0x60 0x29'
XXSTGGFGKM0x66
XXSTGGFGKM 0
root@arm:~# echo 'FNPJ''KLFZHP'
FNPJKLFZHP
root@arm:~# MARKER='HSVU''GMHKVV' run 'i2cget -y -f 2 0x60 0x22'
HSVUGMHKVV0x78
HSVUGMHKVV 0
root@arm:~# echo 'WOGU''LZZWNF'
WOGULZZWNF
root@arm:~# MARKER='JNWB''HTJGJQ' run 'i2cget -y -f 2 0x60 0x22'
JNWBHTJGJQ0x78
JNWBHTJGJQ 0
root@arm:~# echo 'ZCAZ''ZAEUXY'
ZCAZZAEUXY
root@arm:~# MARKER='ZGWK''BKMEJB' run 'echo 860000 860000 > /sys/kernel/mva_test//regulators/buck2_set'
ZGWKBKMEJBZGWKBKMEJB 0
root@arm:~# echo 'XWWL''ESPEPG'
XWWLESPEPG
root@arm:~# MARKER='JGAU''EPYGHG' run 'i2cget -f -y 2 0x60 0x29'
JGAUEPYGHG0x67
JGAUEPYGHG 0
root@arm:~# echo 'TBFU''LKYMGB'
TBFULKYMGB
root@arm:~# MARKER='QFYP''FBHTCA' run 'i2cget -y -f 2 0x60 0x22'
QFYPFBHTCA0x78
QFYPFBHTCA 0
root@arm:~# echo 'KVVO''OCVVKN'
KVVOOCVVKN
root@arm:~# MARKER='FWHM''ZMJOHM' run 'i2cget -y -f 2 0x60 0x22'
FWHMZMJOHM0x78
FWHMZMJOHM 0
root@arm:~# echo 'GHWW''XCTQYO'
GHWWXCTQYO
root@arm:~# MARKER='QAWB''MHSHGB' run 'echo 870000 870000 > /sys/kernel/mva_test//regulators/buck2_set'
QAWBMHSHGBQAWBMHSHGB 0
root@arm:~# echo 'NKNT''XAWKAZ'
NKNTXAWKAZ
root@arm:~# MARKER='AVAS''TFYCNN' run 'i2cget -f -y 2 0x60 0x29'
AVASTFYCNN0x68
AVASTFYCNN 0
root@arm:~# echo 'WQKV''TLQUXL'
WQKVTLQUXL
root@arm:~# MARKER='QTKT''NGMKPP' run 'i2cget -y -f 2 0x60 0x22'
QTKTNGMKPP0x78
QTKTNGMKPP 0
root@arm:~# echo 'TNYT''FJFEMP'
TNYTFJFEMP
root@arm:~# MARKER='UAYY''LZJNTG' run 'i2cget -y -f 2 0x60 0x22'
UAYYLZJNTG0x78
UAYYLZJNTG 0
root@arm:~# echo 'AKVC''ATUYQB'
AKVCATUYQB
root@arm:~# MARKER='NOSK''QSMBCY' run 'echo 880000 880000 > /sys/kernel/mva_test//regulators/buck2_set'
NOSKQSMBCYNOSKQSMBCY 0
root@arm:~# echo 'VALK''MOZFFS'
VALKMOZFFS
root@arm:~# MARKER='KBVA''BAGMYN' run 'i2cget -f -y 2 0x60 0x29'
KBVABAGMYN0x69
KBVABAGMYN 0
root@arm:~# echo 'TVXO''EXJTFF'
TVXOEXJTFF
root@arm:~# MARKER='VZLQ''UXTFXJ' run 'i2cget -y -f 2 0x60 0x22'
VZLQUXTFXJ0x78
VZLQUXTFXJ 0
root@arm:~# echo 'HHNM''XHPKBV'
HHNMXHPKBV
root@arm:~# MARKER='AQXU''FJQCXJ' run 'i2cget -y -f 2 0x60 0x22'
AQXUFJQCXJ0x78
AQXUFJQCXJ 0
root@arm:~# echo 'PYKZ''OVENMQ'
PYKZOVENMQ
root@arm:~# MARKER='HUOC''YNMFZP' run 'echo 890000 890000 > /sys/kernel/mva_test//regulators/buck2_set'
HUOCYNMFZPHUOCYNMFZP 0
root@arm:~# echo 'NWHF''EJTKKS'
NWHFEJTKKS
root@arm:~# MARKER='LCQT''FTWVFP' run 'i2cget -f -y 2 0x60 0x29'
LCQTFTWVFP0x6a
LCQTFTWVFP 0
root@arm:~# echo 'VGKT''APWKMM'
VGKTAPWKMM
root@arm:~# MARKER='XVFZ''BCOBOY' run 'i2cget -y -f 2 0x60 0x22'
XVFZBCOBOY0x78
XVFZBCOBOY 0
root@arm:~# echo 'ECLJ''UYFQWA'
ECLJUYFQWA
root@arm:~# MARKER='TGZP''JZJSCJ' run 'i2cget -y -f 2 0x60 0x22'
TGZPJZJSCJ0x78
TGZPJZJSCJ 0
root@arm:~# echo 'QPMP''CEFAQJ'
QPMPCEFAQJ
root@arm:~# MARKER='QJSE''EKUCHS' run 'echo 900000 900000 > /sys/kernel/mva_test//regulators/buck2_set'
QJSEEKUCHSQJSEEKUCHS 0
root@arm:~# echo 'MMXL''HBXZCZ'
MMXLHBXZCZ
root@arm:~# MARKER='HFNS''WAXLUT' run 'i2cget -f -y 2 0x60 0x29'
HFNSWAXLUT0x6b
HFNSWAXLUT 0
root@arm:~# echo 'MTHM''AEMUBT'
MTHMAEMUBT
root@arm:~# MARKER='JJBG''HUBWEN' run 'i2cget -y -f 2 0x60 0x22'
JJBGHUBWEN0x78
JJBGHUBWEN 0
root@arm:~# echo 'ZFOH''FUFZNZ'
ZFOHFUFZNZ
root@arm:~# MARKER='GYTK''JCSHPY' run 'i2cget -y -f 2 0x60 0x22'
GYTKJCSHPY0x78
GYTKJCSHPY 0
root@arm:~# echo 'FQVU''BZAZBE'
FQVUBZAZBE
root@arm:~# MARKER='HJEE''SSBKBO' run 'echo 910000 910000 > /sys/kernel/mva_test//regulators/buck2_set'
HJEESSBKBOHJEESSBKBO 0
root@arm:~# echo 'CQKK''TQLHZO'
CQKKTQLHZO
root@arm:~# MARKER='FTXM''XQHMAH' run 'i2cget -f -y 2 0x60 0x29'
FTXMXQHMAH0x6c
FTXMXQHMAH 0
root@arm:~# echo 'CBJT''ZMJNNU'
CBJTZMJNNU
root@arm:~# MARKER='TVVS''WYLWXM' run 'i2cget -y -f 2 0x60 0x22'
TVVSWYLWXM0x78
TVVSWYLWXM 0
root@arm:~# echo 'WZON''OJPJJC'
WZONOJPJJC
root@arm:~# MARKER='WENZ''VPXKYK' run 'i2cget -y -f 2 0x60 0x22'
WENZVPXKYK0x78
WENZVPXKYK 0
root@arm:~# echo 'HXNZ''NCKVTP'
HXNZNCKVTP
root@arm:~# MARKER='LEMU''LAQKEA' run 'echo 920000 920000 > /sys/kernel/mva_test//regulators/buck2_set'
LEMULAQKEALEMULAQKEA 0
root@arm:~# echo 'LSJG''BZYHUA'
LSJGBZYHUA
root@arm:~# MARKER='FLOF''HSTSYO' run 'i2cget -f -y 2 0x60 0x29'
FLOFHSTSYO0x6d
FLOFHSTSYO 0
root@arm:~# echo 'UGNN''YKUZJY'
UGNNYKUZJY
root@arm:~# MARKER='CAVS''FTHYGW' run 'i2cget -y -f 2 0x60 0x22'
CAVSFTHYGW0x78
CAVSFTHYGW 0
root@arm:~# echo 'XKJV''UHAQPE'
XKJVUHAQPE
root@arm:~# MARKER='EKVX''TYXQWF' run 'i2cget -y -f 2 0x60 0x22'
EKVXTYXQWF0x78
EKVXTYXQWF 0
root@arm:~# echo 'KOXL''XYWEGP'
KOXLXYWEGP
root@arm:~# MARKER='FGTT''UJGKSW' run 'echo 930000 930000 > /sys/kernel/mva_test//regulators/buck2_set'
FGTTUJGKSWFGTTUJGKSW 0
root@arm:~# echo 'FYAE''HCEAHA'
FYAEHCEAHA
root@arm:~# MARKER='YABH''APKKFC' run 'i2cget -f -y 2 0x60 0x29'
YABHAPKKFC0x6e
YABHAPKKFC 0
root@arm:~# echo 'EGZE''WPLCBG'
EGZEWPLCBG
root@arm:~# MARKER='MQUW''QSLEVO' run 'i2cget -y -f 2 0x60 0x22'
MQUWQSLEVO0x78
MQUWQSLEVO 0
root@arm:~# echo 'NHEJ''MGGLUN'
NHEJMGGLUN
root@arm:~# MARKER='EAWZ''AKLGWO' run 'i2cget -y -f 2 0x60 0x22'
EAWZAKLGWO0x78
EAWZAKLGWO 0
root@arm:~# echo 'YZWN''APBYMN'
YZWNAPBYMN
root@arm:~# MARKER='BWXH''VPKMYM' run 'echo 940000 940000 > /sys/kernel/mva_test//regulators/buck2_set'
BWXHVPKMYMBWXHVPKMYM 0
root@arm:~# echo 'ZSYZ''AQSGVZ'
ZSYZAQSGVZ
root@arm:~# MARKER='FFVU''QNMPZV' run 'i2cget -f -y 2 0x60 0x29'
FFVUQNMPZV0x6f
FFVUQNMPZV 0
root@arm:~# echo 'ZNVM''ACLSEP'
ZNVMACLSEP
root@arm:~# MARKER='HXJM''TXPUQK' run 'i2cget -y -f 2 0x60 0x22'
HXJMTXPUQK0x78
HXJMTXPUQK 0
root@arm:~# echo 'XQBT''GCKEXX'
XQBTGCKEXX
root@arm:~# MARKER='ZMSC''PXLEKG' run 'i2cget -y -f 2 0x60 0x22'
ZMSCPXLEKG0x78
ZMSCPXLEKG 0
root@arm:~# echo 'GVUZ''CHECQC'
GVUZCHECQC
root@arm:~# MARKER='VCYG''LFJLZF' run 'echo 950000 950000 > /sys/kernel/mva_test//regulators/buck2_set'
VCYGLFJLZFVCYGLFJLZF 0
root@arm:~# echo 'UCZZ''CSEKCE'
UCZZCSEKCE
root@arm:~# MARKER='YNHC''GOLAXO' run 'i2cget -f -y 2 0x60 0x29'
YNHCGOLAXO0x70
YNHCGOLAXO 0
root@arm:~# echo 'FKJJ''LVCXLB'
FKJJLVCXLB
root@arm:~# MARKER='FJMS''LHXEGG' run 'i2cget -y -f 2 0x60 0x22'
FJMSLHXEGG0x78
FJMSLHXEGG 0
root@arm:~# echo 'WJSQ''JXTAML'
WJSQJXTAML
root@arm:~# MARKER='MLHY''LLKSET' run 'i2cget -y -f 2 0x60 0x22'
MLHYLLKSET0x78
MLHYLLKSET 0
root@arm:~# echo 'WQUA''XETZLH'
WQUAXETZLH
root@arm:~# MARKER='NJUV''BOHEXQ' run 'echo 960000 960000 > /sys/kernel/mva_test//regulators/buck2_set'
NJUVBOHEXQNJUVBOHEXQ 0
root@arm:~# echo 'USTS''VOSMYF'
USTSVOSMYF
root@arm:~# MARKER='JNSO''UNXGBJ' run 'i2cget -f -y 2 0x60 0x29'
JNSOUNXGBJ0x71
JNSOUNXGBJ 0
root@arm:~# echo 'YGOP''FPBGNU'
YGOPFPBGNU
root@arm:~# MARKER='LEOU''FZNNTW' run 'i2cget -y -f 2 0x60 0x22'
LEOUFZNNTW0x78
LEOUFZNNTW 0
root@arm:~# echo 'TELM''HBXUAQ'
TELMHBXUAQ
root@arm:~# MARKER='VBVQ''BMAKHF' run 'i2cget -y -f 2 0x60 0x22'
VBVQBMAKHF0x78
VBVQBMAKHF 0
root@arm:~# echo 'CZAB''AVAXLJ'
CZABAVAXLJ
root@arm:~# MARKER='ZSKF''TYWBVF' run 'echo 970000 970000 > /sys/kernel/mva_test//regulators/buck2_set'
ZSKFTYWBVFZSKFTYWBVF 0
root@arm:~# echo 'UNPV''ANXOVM'
UNPVANXOVM
root@arm:~# MARKER='GBPO''UXGZGT' run 'i2cget -f -y 2 0x60 0x29'
GBPOUXGZGT0x72
GBPOUXGZGT 0
root@arm:~# echo 'KKEZ''MWECBQ'
KKEZMWECBQ
root@arm:~# MARKER='OQVS''SULLJA' run 'i2cget -y -f 2 0x60 0x22'
OQVSSULLJA0x78
OQVSSULLJA 0
root@arm:~# echo 'UELJ''MVJPSE'
UELJMVJPSE
root@arm:~# MARKER='HTJJ''QCJSNB' run 'i2cget -y -f 2 0x60 0x22'
HTJJQCJSNB0x78
HTJJQCJSNB 0
root@arm:~# echo 'XPCG''AZMMFJ'
XPCGAZMMFJ
root@arm:~# MARKER='SAWH''HMGFGA' run 'echo 980000 980000 > /sys/kernel/mva_test//regulators/buck2_set'
SAWHHMGFGASAWHHMGFGA 0
root@arm:~# echo 'KYHX''HXVUHK'
KYHXHXVUHK
root@arm:~# MARKER='UHFG''QUNHXJ' run 'i2cget -f -y 2 0x60 0x29'
UHFGQUNHXJ0x73
UHFGQUNHXJ 0
root@arm:~# echo 'WXBL''QGLJZE'
WXBLQGLJZE
root@arm:~# MARKER='WYCE''LGCPVS' run 'i2cget -y -f 2 0x60 0x22'
WYCELGCPVS0x78
WYCELGCPVS 0
root@arm:~# echo 'TEFE''KZLUQA'
TEFEKZLUQA
root@arm:~# MARKER='PZUT''YSUVQN' run 'i2cget -y -f 2 0x60 0x22'
PZUTYSUVQN0x78
PZUTYSUVQN 0
root@arm:~# echo 'SCFX''FNEKMQ'
SCFXFNEKMQ
root@arm:~# MARKER='AWTO''HKPHAC' run 'echo 990000 990000 > /sys/kernel/mva_test//regulators/buck2_set'
AWTOHKPHACAWTOHKPHAC 0
root@arm:~# echo 'NMGK''ENFZWE'
NMGKENFZWE
root@arm:~# MARKER='SLBE''OKWJBL' run 'i2cget -f -y 2 0x60 0x29'
SLBEOKWJBL0x74
SLBEOKWJBL 0
root@arm:~# echo 'THLH''MPFZPV'
THLHMPFZPV
root@arm:~# MARKER='JAEP''UTWBKQ' run 'i2cget -y -f 2 0x60 0x22'
JAEPUTWBKQ0x78
JAEPUTWBKQ 0
root@arm:~# echo 'EUPE''OJYQBC'
EUPEOJYQBC
root@arm:~# MARKER='LNOC''BEEYXG' run 'i2cget -y -f 2 0x60 0x22'
LNOCBEEYXG0x78
LNOCBEEYXG 0
root@arm:~# echo 'SYQN''QKSYWU'
SYQNQKSYWU
root@arm:~# MARKER='OJBP''KEFKXL' run 'echo 1000000 1000000 > /sys/kernel/mva_tesst/regulators/buck2_set'
OJBPKEFKXLOJBPKEFKXL 0
root@arm:~# echo 'UFJX''JUJPBQ'
UFJXJUJPBQ
root@arm:~# MARKER='HPNU''PVHCWC' run 'i2cget -f -y 2 0x60 0x29'
HPNUPVHCWC0x75
HPNUPVHCWC 0
root@arm:~# echo 'VCUY''BXVWFA'
VCUYBXVWFA
root@arm:~# MARKER='YBGH''MHJLCV' run 'i2cget -y -f 2 0x60 0x22'
YBGHMHJLCV0x78
YBGHMHJLCV 0
root@arm:~# echo 'VBAO''WYLLHS'
VBAOWYLLHS
root@arm:~# MARKER='JWXX''QSWQCJ' run 'i2cget -y -f 2 0x60 0x22'
JWXXQSWQCJ0x78
JWXXQSWQCJ 0
root@arm:~# echo 'OXAA''VLBEVG'
OXAAVLBEVG
root@arm:~# MARKER='LUYM''SSLVFM' run 'echo 1010000 1010000 > /sys/kernel/mva_tesst/regulators/buck2_set'
LUYMSSLVFMLUYMSSLVFM 0
root@arm:~# echo 'LVZZ''XVKOET'
LVZZXVKOET
root@arm:~# MARKER='CLWQ''NWFXGN' run 'i2cget -f -y 2 0x60 0x29'
CLWQNWFXGN0x76
CLWQNWFXGN 0
root@arm:~# echo 'QSTA''CVKAUK'
QSTACVKAUK
root@arm:~# MARKER='OHAV''JZZPAJ' run 'i2cget -y -f 2 0x60 0x22'
OHAVJZZPAJ0x78
OHAVJZZPAJ 0
root@arm:~# echo 'CSKC''ZSWEYS'
CSKCZSWEYS
root@arm:~# MARKER='VGKC''BAFOWZ' run 'i2cget -y -f 2 0x60 0x22'
VGKCBAFOWZ0x78
VGKCBAFOWZ 0
root@arm:~# echo 'WTTB''MVHFVU'
WTTBMVHFVU
root@arm:~# MARKER='NGVU''KPSUKV' run 'echo 1020000 1020000 > /sys/kernel/mva_tesst/regulators/buck2_set'
NGVUKPSUKVNGVUKPSUKV 0
root@arm:~# echo 'LZVX''KPOZUU'
LZVXKPOZUU
root@arm:~# MARKER='PXBJ''LTTKUE' run 'i2cget -f -y 2 0x60 0x29'
PXBJLTTKUE0x77
PXBJLTTKUE 0
root@arm:~# echo 'MHSX''UCHKUW'
MHSXUCHKUW
root@arm:~# MARKER='YGCK''EMGMWH' run 'i2cget -y -f 2 0x60 0x22'
YGCKEMGMWH0x78
YGCKEMGMWH 0
root@arm:~# echo 'AVUW''GWNLQO'
AVUWGWNLQO
root@arm:~# MARKER='HLEJ''WBEWWG' run 'i2cget -y -f 2 0x60 0x22'
HLEJWBEWWG0x78
HLEJWBEWWG 0
root@arm:~# echo 'SAQX''BBEEVT'
SAQXBBEEVT
root@arm:~# MARKER='MJCT''PUJESZ' run 'echo 1030000 1030000 > /sys/kernel/mva_tesst/regulators/buck2_set'
MJCTPUJESZMJCTPUJESZ 0
root@arm:~# echo 'QOVQ''USPKGB'
QOVQUSPKGB
root@arm:~# MARKER='KAWH''OMXCAG' run 'i2cget -f -y 2 0x60 0x29'
KAWHOMXCAG0x78
KAWHOMXCAG 0
root@arm:~# echo 'NUWY''KUBZLC'
NUWYKUBZLC
root@arm:~# MARKER='FLNV''XLLYPH' run 'i2cget -y -f 2 0x60 0x22'
FLNVXLLYPH0x78
FLNVXLLYPH 0
root@arm:~# echo 'GVBX''WAAXNT'
GVBXWAAXNT
root@arm:~# MARKER='MMSH''FLFGLX' run 'i2cget -y -f 2 0x60 0x22'
MMSHFLFGLX0x78
MMSHFLFGLX 0
root@arm:~# echo 'FCEA''CQNQUU'
FCEACQNQUU
root@arm:~# MARKER='GSOL''EBYZVE' run 'echo 1040000 1040000 > /sys/kernel/mva_tesst/regulators/buck2_set'
GSOLEBYZVEGSOLEBYZVE 0
root@arm:~# echo 'JFXP''XQHWXN'
JFXPXQHWXN
root@arm:~# MARKER='XSEU''LFFOCU' run 'i2cget -f -y 2 0x60 0x29'
XSEULFFOCU0x79
XSEULFFOCU 0
root@arm:~# echo 'NBNQ''PPHMGY'
NBNQPPHMGY
root@arm:~# MARKER='CNPE''OZJOLW' run 'i2cget -y -f 2 0x60 0x22'
CNPEOZJOLW0x78
CNPEOZJOLW 0
root@arm:~# echo 'JVWT''KZYCHP'
JVWTKZYCHP
root@arm:~# MARKER='QTVM''BNXZGB' run 'i2cget -y -f 2 0x60 0x22'
QTVMBNXZGB0x78
QTVMBNXZGB 0
root@arm:~# echo 'NNLO''MUZEPF'
NNLOMUZEPF
root@arm:~# MARKER='ZAQE''UZKJEU' run 'echo 1050000 1050000 > /sys/kernel/mva_tesst/regulators/buck2_set'
ZAQEUZKJEUZAQEUZKJEU 0
root@arm:~# echo 'YYZH''SHGZCK'
YYZHSHGZCK
root@arm:~# MARKER='NYOA''HGOGJO' run 'i2cget -f -y 2 0x60 0x29'
NYOAHGOGJO0x7a
NYOAHGOGJO 0
root@arm:~# echo 'AXOJ''OGSCSV'
AXOJOGSCSV
root@arm:~# MARKER='LHKQ''BBBZYX' run 'i2cget -y -f 2 0x60 0x22'
LHKQBBBZYX0x78
LHKQBBBZYX 0
root@arm:~# echo 'PSAM''SHVKGQ'
PSAMSHVKGQ
root@arm:~# MARKER='VWFQ''OBGVFX' run 'i2cget -y -f 2 0x60 0x22'
VWFQOBGVFX0x78
VWFQOBGVFX 0
root@arm:~# echo 'YUQO''XZNUSF'
YUQOXZNUSF
root@arm:~# MARKER='VNKA''NWCTBK' run 'echo 1060000 1060000 > /sys/kernel/mva_tesst/regulators/buck2_set'
VNKANWCTBKVNKANWCTBK 0
root@arm:~# echo 'WBMX''FGQHPB'
WBMXFGQHPB
root@arm:~# MARKER='LQQW''YYSWTO' run 'i2cget -f -y 2 0x60 0x29'
LQQWYYSWTO0x7b
LQQWYYSWTO 0
root@arm:~# echo 'SCLH''BSHFGF'
SCLHBSHFGF
root@arm:~# MARKER='SXXV''YTMYTO' run 'i2cget -y -f 2 0x60 0x22'
SXXVYTMYTO0x78
SXXVYTMYTO 0
root@arm:~# echo 'UUEO''JNPSST'
UUEOJNPSST
root@arm:~# MARKER='CTEW''XPKBSV' run 'i2cget -y -f 2 0x60 0x22'
CTEWXPKBSV0x78
CTEWXPKBSV 0
root@arm:~# echo 'GAEL''QFUKQU'
GAELQFUKQU
root@arm:~# MARKER='VUWW''SXOFPO' run 'echo 1070000 1070000 > /sys/kernel/mva_tesst/regulators/buck2_set'
VUWWSXOFPOVUWWSXOFPO 0
root@arm:~# echo 'WVSE''TMCUUQ'
WVSETMCUUQ
root@arm:~# MARKER='XVLW''HPJAEA' run 'i2cget -f -y 2 0x60 0x29'
XVLWHPJAEA0x7c
XVLWHPJAEA 0
root@arm:~# echo 'STJZ''BSEOZL'
STJZBSEOZL
root@arm:~# MARKER='VXVT''NCWZVN' run 'i2cget -y -f 2 0x60 0x22'
VXVTNCWZVN0x78
VXVTNCWZVN 0
root@arm:~# echo 'XPKK''JKQTUS'
XPKKJKQTUS
root@arm:~# MARKER='ONCS''KJYEFM' run 'i2cget -y -f 2 0x60 0x22'
ONCSKJYEFM0x78
ONCSKJYEFM 0
root@arm:~# echo 'YEHH''QVANYU'
YEHHQVANYU
root@arm:~# MARKER='FGKO''UFCTNC' run 'echo 1080000 1080000 > /sys/kernel/mva_tesst/regulators/buck2_set'
FGKOUFCTNCFGKOUFCTNC 0
root@arm:~# echo 'TMOG''NVWXJC'
TMOGNVWXJC
root@arm:~# MARKER='BCKM''OLLQMF' run 'i2cget -f -y 2 0x60 0x29'
BCKMOLLQMF0x7d
BCKMOLLQMF 0
root@arm:~# echo 'ECYB''QLKXKU'
ECYBQLKXKU
root@arm:~# MARKER='MMLN''QKFVVP' run 'i2cget -y -f 2 0x60 0x22'
MMLNQKFVVP0x78
MMLNQKFVVP 0
root@arm:~# echo 'MQOQ''ECEQLW'
MQOQECEQLW
root@arm:~# MARKER='CZEZ''YVBEOZ' run 'i2cget -y -f 2 0x60 0x22'
CZEZYVBEOZ0x78
CZEZYVBEOZ 0
root@arm:~# echo 'YXON''EFEWJX'
YXONEFEWJX
root@arm:~# MARKER='JXWZ''HXAZYV' run 'echo 1090000 1090000 > /sys/kernel/mva_tesst/regulators/buck2_set'
JXWZHXAZYVJXWZHXAZYV 0
root@arm:~# echo 'HUPY''XUFKOF'
HUPYXUFKOF
root@arm:~# MARKER='GSLT''CEJSXN' run 'i2cget -f -y 2 0x60 0x29'
GSLTCEJSXN0x7e
GSLTCEJSXN 0
root@arm:~# echo 'PSYV''ZLNLAX'
PSYVZLNLAX
root@arm:~# MARKER='XJBG''JZSCTZ' run 'i2cget -y -f 2 0x60 0x22'
XJBGJZSCTZ0x78
XJBGJZSCTZ 0
root@arm:~# echo 'ENLG''EPQCHF'
ENLGEPQCHF
root@arm:~# MARKER='FFQJ''PKSGYH' run 'i2cget -y -f 2 0x60 0x22'
FFQJPKSGYH0x78
FFQJPKSGYH 0
root@arm:~# echo 'EVEW''SOUAOU'
EVEWSOUAOU
root@arm:~# MARKER='SHQL''LMVNNC' run 'echo 1100000 1100000 > /sys/kernel/mva_tesst/regulators/buck2_set'
SHQLLMVNNCSHQLLMVNNC 0
root@arm:~# echo 'SETN''WELYSV'
SETNWELYSV
root@arm:~# MARKER='SVHK''QHFUFX' run 'i2cget -f -y 2 0x60 0x29'
SVHKQHFUFX0x40
SVHKQHFUFX 0
root@arm:~# echo 'XEVY''ZMMVVL'
XEVYZMMVVL
root@arm:~# MARKER='BOQS''KWEZCB' run 'i2cget -y -f 2 0x60 0x22'
BOQSKWEZCB0x78
BOQSKWEZCB 0
root@arm:~# echo 'EAMJ''HTFCBJ'
EAMJHTFCBJ
root@arm:~# MARKER='JFGG''VOHFZW' run 'i2cget -y -f 2 0x60 0x23'
JFGGVOHFZW0x46
JFGGVOHFZW 0
root@arm:~# echo 'EOTB''ZMVBFQ'
EOTBZMVBFQ
root@arm:~# MARKER='NVZK''MMLZFV' run 'echo 850000 850000 > /sys/kernel/mva_test//regulators/buck3_set'
NVZKMMLZFVNVZKMMLZFV 0
root@arm:~# echo 'LUXG''VNQANK'
LUXGVNQANK
root@arm:~# MARKER='MWFP''MSHJZG' run 'i2cget -f -y 2 0x60 0x2a'
MWFPMSHJZG0x80
MWFPMSHJZG 0
root@arm:~# echo 'PXKX''QOENZC'
PXKXQOENZC
root@arm:~# MARKER='QPUX''ZSKAWU' run 'i2cget -y -f 2 0x60 0x23'
QPUXZSKAWU0x46
QPUXZSKAWU 0
root@arm:~# echo 'GTAL''TYKZEP'
GTALTYKZEP
root@arm:~# MARKER='WXEK''MSAWPS' run 'i2cget -y -f 2 0x60 0x23'
WXEKMSAWPS0x46
WXEKMSAWPS 0
root@arm:~# echo 'NLJW''NVWJSK'
NLJWNVWJSK
root@arm:~# MARKER='KZGQ''HEJHSP' run 'echo 860000 860000 > /sys/kernel/mva_test//regulators/buck3_set'
KZGQHEJHSPKZGQHEJHSP 0
root@arm:~# echo 'CLWG''GBGESX'
CLWGGBGESX
root@arm:~# MARKER='QFQE''COHYUU' run 'i2cget -f -y 2 0x60 0x2a'
QFQECOHYUU0x81
QFQECOHYUU 0
root@arm:~# echo 'WXPB''JLQLHE'
WXPBJLQLHE
root@arm:~# MARKER='PMJF''VOJTAF' run 'i2cget -y -f 2 0x60 0x23'
PMJFVOJTAF0x46
PMJFVOJTAF 0
root@arm:~# echo 'PXBS''FWSLBU'
PXBSFWSLBU
root@arm:~# MARKER='CBGJ''AKQAZQ' run 'i2cget -y -f 2 0x60 0x23'
CBGJAKQAZQ0x46
CBGJAKQAZQ 0
root@arm:~# echo 'VUGX''WSAZSA'
VUGXWSAZSA
root@arm:~# MARKER='TULX''HAGJWK' run 'echo 870000 870000 > /sys/kernel/mva_test//regulators/buck3_set'
TULXHAGJWKTULXHAGJWK 0
root@arm:~# echo 'BYWJ''VQTCKO'
BYWJVQTCKO
root@arm:~# MARKER='QVVA''NAGHSW' run 'i2cget -f -y 2 0x60 0x2a'
QVVANAGHSW0x82
QVVANAGHSW 0
root@arm:~# echo 'ZAKG''CZMABE'
ZAKGCZMABE
root@arm:~# MARKER='USTM''YMFVOZ' run 'i2cget -y -f 2 0x60 0x23'
USTMYMFVOZ0x46
USTMYMFVOZ 0
root@arm:~# echo 'ZVTG''HHVNUV'
ZVTGHHVNUV
root@arm:~# MARKER='ZTQL''WHZLGF' run 'i2cget -y -f 2 0x60 0x23'
ZTQLWHZLGF0x46
ZTQLWHZLGF 0
root@arm:~# echo 'KAZV''PUHEXM'
KAZVPUHEXM
root@arm:~# MARKER='CCXG''FBYGZA' run 'echo 880000 880000 > /sys/kernel/mva_test//regulators/buck3_set'
CCXGFBYGZACCXGFBYGZA 0
root@arm:~# echo 'ZTUH''UGXOUF'
ZTUHUGXOUF
root@arm:~# MARKER='YZZP''YTEAOH' run 'i2cget -f -y 2 0x60 0x2a'
YZZPYTEAOH0x83
YZZPYTEAOH 0
root@arm:~# echo 'WMJE''OECOKE'
WMJEOECOKE
root@arm:~# MARKER='CBPM''HTQHSO' run 'i2cget -y -f 2 0x60 0x23'
CBPMHTQHSO0x46
CBPMHTQHSO 0
root@arm:~# echo 'QVMY''WVGXHN'
QVMYWVGXHN
root@arm:~# MARKER='OXLT''MHPBFT' run 'i2cget -y -f 2 0x60 0x23'
OXLTMHPBFT0x46
OXLTMHPBFT 0
root@arm:~# echo 'UUYE''NEAMMC'
UUYENEAMMC
root@arm:~# MARKER='LGUO''UVNQGV' run 'echo 890000 890000 > /sys/kernel/mva_test//regulators/buck3_set'
LGUOUVNQGVLGUOUVNQGV 0
root@arm:~# echo 'PEUH''LZKOQG'
PEUHLZKOQG
root@arm:~# MARKER='ASHT''OOVWEV' run 'i2cget -f -y 2 0x60 0x2a'
ASHTOOVWEV0x84
ASHTOOVWEV 0
root@arm:~# echo 'AQEQ''FYHBNG'
AQEQFYHBNG
root@arm:~# MARKER='WFSS''EFCMAF' run 'i2cget -y -f 2 0x60 0x23'
WFSSEFCMAF0x46
WFSSEFCMAF 0
root@arm:~# echo 'YLXM''KFHGMZ'
YLXMKFHGMZ
root@arm:~# MARKER='OASF''HWHVVE' run 'i2cget -y -f 2 0x60 0x23'
OASFHWHVVE0x46
OASFHWHVVE 0
root@arm:~# echo 'LKXT''ZTLFXX'
LKXTZTLFXX
root@arm:~# MARKER='CKVK''CNNGXH' run 'echo 900000 900000 > /sys/kernel/mva_test//regulators/buck3_set'
CKVKCNNGXHCKVKCNNGXH 0
root@arm:~# echo 'CNOL''OYJOQZ'
CNOLOYJOQZ
root@arm:~# MARKER='ASHH''PSUSLP' run 'i2cget -f -y 2 0x60 0x2a'
ASHHPSUSLP0x85
ASHHPSUSLP 0
root@arm:~# echo 'MLZJ''PGFGEZ'
MLZJPGFGEZ
root@arm:~# MARKER='CTFH''GNMNYA' run 'i2cget -y -f 2 0x60 0x23'
CTFHGNMNYA0x46
CTFHGNMNYA 0
root@arm:~# echo 'CQZG''XWETQP'
CQZGXWETQP
root@arm:~# MARKER='FZSP''BZYUSX' run 'i2cget -y -f 2 0x60 0x23'
FZSPBZYUSX0x46
FZSPBZYUSX 0
root@arm:~# echo 'OSZO''FCSENQ'
OSZOFCSENQ
root@arm:~# MARKER='ONHP''GHHNVX' run 'echo 910000 910000 > /sys/kernel/mva_test//regulators/buck3_set'
ONHPGHHNVXONHPGHHNVX 0
root@arm:~# echo 'HEHG''WHUMEY'
HEHGWHUMEY
root@arm:~# MARKER='FQSF''SEUOOE' run 'i2cget -f -y 2 0x60 0x2a'
FQSFSEUOOE0x86
FQSFSEUOOE 0
root@arm:~# echo 'OVPC''LJFCUW'
OVPCLJFCUW
root@arm:~# MARKER='JBSB''BQZYQG' run 'i2cget -y -f 2 0x60 0x23'
JBSBBQZYQG0x46
JBSBBQZYQG 0
root@arm:~# echo 'BGTN''JAAEUW'
BGTNJAAEUW
root@arm:~# MARKER='PVZQ''PFGJGU' run 'i2cget -y -f 2 0x60 0x23'
PVZQPFGJGU0x46
PVZQPFGJGU 0
root@arm:~# echo 'ASCF''UWTSUE'
ASCFUWTSUE
root@arm:~# MARKER='JHPY''KCTSNA' run 'echo 920000 920000 > /sys/kernel/mva_test//regulators/buck3_set'
JHPYKCTSNAJHPYKCTSNA 0
root@arm:~# echo 'VETJ''BCHUBL'
VETJBCHUBL
root@arm:~# MARKER='YBJZ''HQMUZH' run 'i2cget -f -y 2 0x60 0x2a'
YBJZHQMUZH0x87
YBJZHQMUZH 0
root@arm:~# echo 'XGSJ''SHEFLP'
XGSJSHEFLP
root@arm:~# MARKER='APUA''CEVYGM' run 'i2cget -y -f 2 0x60 0x23'
APUACEVYGM0x46
APUACEVYGM 0
root@arm:~# echo 'EUWB''XETOKK'
EUWBXETOKK
root@arm:~# MARKER='LBNG''VPAZTC' run 'i2cget -y -f 2 0x60 0x23'
LBNGVPAZTC0x46
LBNGVPAZTC 0
root@arm:~# echo 'YXKV''GWYSSQ'
YXKVGWYSSQ
root@arm:~# MARKER='UQYF''HMEKUL' run 'echo 930000 930000 > /sys/kernel/mva_test//regulators/buck3_set'
UQYFHMEKULUQYFHMEKUL 0
root@arm:~# echo 'XKNZ''NQNEBL'
XKNZNQNEBL
root@arm:~# MARKER='LFXS''HALCWU' run 'i2cget -f -y 2 0x60 0x2a'
LFXSHALCWU0x88
LFXSHALCWU 0
root@arm:~# echo 'JNKC''KMNEKY'
JNKCKMNEKY
root@arm:~# MARKER='SSHB''JXOFTE' run 'i2cget -y -f 2 0x60 0x23'
SSHBJXOFTE0x46
SSHBJXOFTE 0
root@arm:~# echo 'LOGG''EXPTFY'
LOGGEXPTFY
root@arm:~# MARKER='ZSUG''OOVPXE' run 'i2cget -y -f 2 0x60 0x23'
ZSUGOOVPXE0x46
ZSUGOOVPXE 0
root@arm:~# echo 'TGFW''SOBJWN'
TGFWSOBJWN
root@arm:~# MARKER='MSHM''JTLNHE' run 'echo 940000 940000 > /sys/kernel/mva_test//regulators/buck3_set'
MSHMJTLNHEMSHMJTLNHE 0
root@arm:~# echo 'QJVY''MTAZGQ'
QJVYMTAZGQ
root@arm:~# MARKER='UMKO''WZXCKO' run 'i2cget -f -y 2 0x60 0x2a'
UMKOWZXCKO0x89
UMKOWZXCKO 0
root@arm:~# echo 'JMBC''CMAJXA'
JMBCCMAJXA
root@arm:~# MARKER='KFZW''VMZGEN' run 'i2cget -y -f 2 0x60 0x23'
KFZWVMZGEN0x46
KFZWVMZGEN 0
root@arm:~# echo 'VMMF''TKYLOA'
VMMFTKYLOA
root@arm:~# MARKER='HNLU''YAQYKN' run 'i2cget -y -f 2 0x60 0x23'
HNLUYAQYKN0x46
HNLUYAQYKN 0
root@arm:~# echo 'YEMA''VZAZKV'
YEMAVZAZKV
root@arm:~# MARKER='ELPC''TTHHCM' run 'echo 950000 950000 > /sys/kernel/mva_test//regulators/buck3_set'
ELPCTTHHCMELPCTTHHCM 0
root@arm:~# echo 'LUQU''XWBANY'
LUQUXWBANY
root@arm:~# MARKER='WKMF''GVOTFK' run 'i2cget -f -y 2 0x60 0x2a'
WKMFGVOTFK0x8a
WKMFGVOTFK 0
root@arm:~# echo 'GXEW''EXSSLK'
GXEWEXSSLK
root@arm:~# MARKER='EPBL''VOONBH' run 'i2cget -y -f 2 0x60 0x23'
EPBLVOONBH0x46
EPBLVOONBH 0
root@arm:~# echo 'VCAL''UTKOYV'
VCALUTKOYV
root@arm:~# MARKER='PXYQ''WWTVHM' run 'i2cget -y -f 2 0x60 0x23'
PXYQWWTVHM0x46
PXYQWWTVHM 0
root@arm:~# echo 'JCEH''FLYXVX'
JCEHFLYXVX
root@arm:~# MARKER='WWBO''MMKASC' run 'echo 960000 960000 > /sys/kernel/mva_test//regulators/buck3_set'
WWBOMMKASCWWBOMMKASC 0
root@arm:~# echo 'BLJU''SXAZFC'
BLJUSXAZFC
root@arm:~# MARKER='OTWP''TFNWSU' run 'i2cget -f -y 2 0x60 0x2a'
OTWPTFNWSU0x8b
OTWPTFNWSU 0
root@arm:~# echo 'SXZJ''CFYSEL'
SXZJCFYSEL
root@arm:~# MARKER='OWOY''VCZPNM' run 'i2cget -y -f 2 0x60 0x23'
OWOYVCZPNM0x46
OWOYVCZPNM 0
root@arm:~# echo 'TNGM''LJCJTQ'
TNGMLJCJTQ
root@arm:~# MARKER='CPWV''ZZQVAU' run 'i2cget -y -f 2 0x60 0x23'
CPWVZZQVAU0x46
CPWVZZQVAU 0
root@arm:~# echo 'XZBA''ELBLHT'
XZBAELBLHT
root@arm:~# MARKER='YNVZ''NBQYYX' run 'echo 970000 970000 > /sys/kernel/mva_test//regulators/buck3_set'
YNVZNBQYYXYNVZNBQYYX 0
root@arm:~# echo 'VGKO''WZMGOG'
VGKOWZMGOG
root@arm:~# MARKER='ZHAU''HUXJVV' run 'i2cget -f -y 2 0x60 0x2a'
ZHAUHUXJVV0x8c
ZHAUHUXJVV 0
root@arm:~# echo 'XXAN''JZUATE'
XXANJZUATE
root@arm:~# MARKER='EOMK''WYXXCY' run 'i2cget -y -f 2 0x60 0x23'
EOMKWYXXCY0x46
EOMKWYXXCY 0
root@arm:~# echo 'LCOK''ZLVAPV'
LCOKZLVAPV
root@arm:~# MARKER='WMJH''OQSVXP' run 'i2cget -y -f 2 0x60 0x23'
WMJHOQSVXP0x46
WMJHOQSVXP 0
root@arm:~# echo 'MTYJ''NNXSNT'
MTYJNNXSNT
root@arm:~# MARKER='LJAT''USGUNF' run 'echo 980000 980000 > /sys/kernel/mva_test//regulators/buck3_set'
LJATUSGUNFLJATUSGUNF 0
root@arm:~# echo 'UPPU''EPSTQM'
UPPUEPSTQM
root@arm:~# MARKER='AXAJ''SZEFWH' run 'i2cget -f -y 2 0x60 0x2a'
AXAJSZEFWH0x8d
AXAJSZEFWH 0
root@arm:~# echo 'LYXM''SOSTFG'
LYXMSOSTFG
root@arm:~# MARKER='TLMN''VMTZLN' run 'i2cget -y -f 2 0x60 0x23'
TLMNVMTZLN0x46
TLMNVMTZLN 0
root@arm:~# echo 'WFEB''EPVLYS'
WFEBEPVLYS
root@arm:~# MARKER='BSEA''JNTSKL' run 'i2cget -y -f 2 0x60 0x23'
BSEAJNTSKL0x46
BSEAJNTSKL 0
root@arm:~# echo 'GSKT''BSXJOS'
GSKTBSXJOS
root@arm:~# MARKER='FAYO''AYWYQZ' run 'echo 990000 990000 > /sys/kernel/mva_test//regulators/buck3_set'
FAYOAYWYQZFAYOAYWYQZ 0
root@arm:~# echo 'GPVW''MKLWVE'
GPVWMKLWVE
root@arm:~# MARKER='SYEA''PQTVCY' run 'i2cget -f -y 2 0x60 0x2a'
SYEAPQTVCY0x8e
SYEAPQTVCY 0
root@arm:~# echo 'NEEC''OWUJHE'
NEECOWUJHE
root@arm:~# MARKER='ZPMW''LUUPGN' run 'i2cget -y -f 2 0x60 0x23'
ZPMWLUUPGN0x46
ZPMWLUUPGN 0
root@arm:~# echo 'TGCQ''YTSPSU'
TGCQYTSPSU
root@arm:~# MARKER='VJTU''OTXYNL' run 'i2cget -y -f 2 0x60 0x23'
VJTUOTXYNL0x46
VJTUOTXYNL 0
root@arm:~# echo 'GNOM''LFNBYP'
GNOMLFNBYP
root@arm:~# MARKER='GWMF''TMEQMM' run 'echo 1000000 1000000 > /sys/kernel/mva_tesst/regulators/buck3_set'
GWMFTMEQMMGWMFTMEQMM 0
root@arm:~# echo 'EHTV''OXCBJY'
EHTVOXCBJY
root@arm:~# MARKER='NLMS''ESBTCX' run 'i2cget -f -y 2 0x60 0x2a'
NLMSESBTCX0x8f
NLMSESBTCX 0
root@arm:~# echo 'BWMF''ALSHZF'
BWMFALSHZF
root@arm:~# MARKER='BNXK''WSUZLZ' run 'i2cget -y -f 2 0x60 0x23'
BNXKWSUZLZ0x46
BNXKWSUZLZ 0
root@arm:~# echo 'PFWO''QBXZJM'
PFWOQBXZJM
root@arm:~# MARKER='WXYH''LYMVQQ' run 'i2cget -y -f 2 0x60 0x23'
WXYHLYMVQQ0x46
WXYHLYMVQQ 0
root@arm:~# echo 'CUWM''ZQSNJX'
CUWMZQSNJX
root@arm:~# MARKER='JKOQ''OMHYKJ' run 'echo 1010000 1010000 > /sys/kernel/mva_tesst/regulators/buck3_set'
JKOQOMHYKJJKOQOMHYKJ 0
root@arm:~# echo 'NBXJ''STNMKC'
NBXJSTNMKC
root@arm:~# MARKER='ELXO''CMEYLH' run 'i2cget -f -y 2 0x60 0x2a'
ELXOCMEYLH0x90
ELXOCMEYLH 0
root@arm:~# echo 'YSAE''LTLWTX'
YSAELTLWTX
root@arm:~# MARKER='XUAB''NWLNVH' run 'i2cget -y -f 2 0x60 0x23'
XUABNWLNVH0x46
XUABNWLNVH 0
root@arm:~# echo 'UGNK''NPOTJT'
UGNKNPOTJT
root@arm:~# MARKER='HZBA''TLASYJ' run 'i2cget -y -f 2 0x60 0x23'
HZBATLASYJ0x46
HZBATLASYJ 0
root@arm:~# echo 'KJNB''HCMJOS'
KJNBHCMJOS
root@arm:~# MARKER='FEAM''PLOVAL' run 'echo 1020000 1020000 > /sys/kernel/mva_tesst/regulators/buck3_set'
FEAMPLOVALFEAMPLOVAL 0
root@arm:~# echo 'HGUS''QTHMAQ'
HGUSQTHMAQ
root@arm:~# MARKER='XQJE''HPMLAK' run 'i2cget -f -y 2 0x60 0x2a'
XQJEHPMLAK0x91
XQJEHPMLAK 0
root@arm:~# echo 'JWBE''QGHMWA'
JWBEQGHMWA
root@arm:~# MARKER='ZMNJ''KJLNSC' run 'i2cget -y -f 2 0x60 0x23'
ZMNJKJLNSC0x46
ZMNJKJLNSC 0
root@arm:~# echo 'ULGE''GEOZTN'
ULGEGEOZTN
root@arm:~# MARKER='QKOK''EYGWOP' run 'i2cget -y -f 2 0x60 0x23'
QKOKEYGWOP0x46
QKOKEYGWOP 0
root@arm:~# echo 'VMMC''JUCJSG'
VMMCJUCJSG
root@arm:~# MARKER='HBBW''ZUPHGJ' run 'echo 1030000 1030000 > /sys/kernel/mva_tesst/regulators/buck3_set'
HBBWZUPHGJHBBWZUPHGJ 0
root@arm:~# echo 'STVM''HTZHVL'
STVMHTZHVL
root@arm:~# MARKER='VHZZ''XQGCSJ' run 'i2cget -f -y 2 0x60 0x2a'
VHZZXQGCSJ0x92
VHZZXQGCSJ 0
root@arm:~# echo 'FSPS''ZPMSYB'
FSPSZPMSYB
root@arm:~# MARKER='BVEZ''FGVWNH' run 'i2cget -y -f 2 0x60 0x23'
BVEZFGVWNH0x46
BVEZFGVWNH 0
root@arm:~# echo 'ZTEP''LLJGYP'
ZTEPLLJGYP
root@arm:~# MARKER='LUBT''TNZLAX' run 'i2cget -y -f 2 0x60 0x23'
LUBTTNZLAX0x46
LUBTTNZLAX 0
root@arm:~# echo 'JWXF''GQBQXY'
JWXFGQBQXY
root@arm:~# MARKER='QEWM''EUTXVF' run 'echo 1040000 1040000 > /sys/kernel/mva_tesst/regulators/buck3_set'
QEWMEUTXVFQEWMEUTXVF 0
root@arm:~# echo 'STGB''PLMPVZ'
STGBPLMPVZ
root@arm:~# MARKER='LZGS''VCGQFB' run 'i2cget -f -y 2 0x60 0x2a'
LZGSVCGQFB0x93
LZGSVCGQFB 0
root@arm:~# echo 'XCHO''VYMJBU'
XCHOVYMJBU
root@arm:~# MARKER='HGLS''QYTOAK' run 'i2cget -y -f 2 0x60 0x23'
HGLSQYTOAK0x46
HGLSQYTOAK 0
root@arm:~# echo 'KTKU''MCJOVK'
KTKUMCJOVK
root@arm:~# MARKER='ZFOS''WVCLSJ' run 'i2cget -y -f 2 0x60 0x23'
ZFOSWVCLSJ0x46
ZFOSWVCLSJ 0
root@arm:~# echo 'LXUQ''KOMAQF'
LXUQKOMAQF
root@arm:~# MARKER='ZKYQ''ZPTGZT' run 'echo 1050000 1050000 > /sys/kernel/mva_tesst/regulators/buck3_set'
ZKYQZPTGZTZKYQZPTGZT 0
root@arm:~# echo 'VCPO''ZFEGGV'
VCPOZFEGGV
root@arm:~# MARKER='SMMV''HGKJFL' run 'i2cget -f -y 2 0x60 0x2a'
SMMVHGKJFL0x94
SMMVHGKJFL 0
root@arm:~# echo 'JUAB''GGCFOQ'
JUABGGCFOQ
root@arm:~# MARKER='QZFG''CJGMOF' run 'i2cget -y -f 2 0x60 0x23'
QZFGCJGMOF0x46
QZFGCJGMOF 0
root@arm:~# echo 'EBAU''XEZOPZ'
EBAUXEZOPZ
root@arm:~# MARKER='VBSV''UQYBTZ' run 'i2cget -y -f 2 0x60 0x23'
VBSVUQYBTZ0x46
VBSVUQYBTZ 0
root@arm:~# echo 'PXHB''VKZHEZ'
PXHBVKZHEZ
root@arm:~# MARKER='QEQF''WSLMTY' run 'echo 1060000 1060000 > /sys/kernel/mva_tesst/regulators/buck3_set'
QEQFWSLMTYQEQFWSLMTY 0
root@arm:~# echo 'EJWE''CZOTXU'
EJWECZOTXU
root@arm:~# MARKER='UXMF''SXVJHK' run 'i2cget -f -y 2 0x60 0x2a'
UXMFSXVJHK0x95
UXMFSXVJHK 0
root@arm:~# echo 'GOJJ''HESCPG'
GOJJHESCPG
root@arm:~# MARKER='BNHY''VWFGXA' run 'i2cget -y -f 2 0x60 0x23'
BNHYVWFGXA0x46
BNHYVWFGXA 0
root@arm:~# echo 'SGFY''ZEFJYP'
SGFYZEFJYP
root@arm:~# MARKER='BZLW''ZAHQAL' run 'i2cget -y -f 2 0x60 0x23'
BZLWZAHQAL0x46
BZLWZAHQAL 0
root@arm:~# echo 'JWFZ''XBYFOT'
JWFZXBYFOT
root@arm:~# MARKER='YGVJ''UHVSNN' run 'echo 1070000 1070000 > /sys/kernel/mva_tesst/regulators/buck3_set'
YGVJUHVSNNYGVJUHVSNN 0
root@arm:~# echo 'PZKL''PVNVUC'
PZKLPVNVUC
root@arm:~# MARKER='BOQZ''ZBPNWB' run 'i2cget -f -y 2 0x60 0x2a'
BOQZZBPNWB0x96
BOQZZBPNWB 0
root@arm:~# echo 'NWYO''ECVHFV'
NWYOECVHFV
root@arm:~# MARKER='ZNQU''WCVQSC' run 'i2cget -y -f 2 0x60 0x23'
ZNQUWCVQSC0x46
ZNQUWCVQSC 0
root@arm:~# echo 'NTHQ''BHLWJP'
NTHQBHLWJP
root@arm:~# MARKER='YSBH''AHNFKB' run 'i2cget -y -f 2 0x60 0x23'
YSBHAHNFKB0x46
YSBHAHNFKB 0
root@arm:~# echo 'QKSZ''NBCCUL'
QKSZNBCCUL
root@arm:~# MARKER='TBFS''KAWVXH' run 'echo 1080000 1080000 > /sys/kernel/mva_tesst/regulators/buck3_set'
TBFSKAWVXHTBFSKAWVXH 0
root@arm:~# echo 'QVKB''WMBYZE'
QVKBWMBYZE
root@arm:~# MARKER='VQBH''CZETHJ' run 'i2cget -f -y 2 0x60 0x2a'
VQBHCZETHJ0x97
VQBHCZETHJ 0
root@arm:~# echo 'WLHM''YPOWQW'
WLHMYPOWQW
root@arm:~# MARKER='XOQL''KUGGWZ' run 'i2cget -y -f 2 0x60 0x23'
XOQLKUGGWZ0x46
XOQLKUGGWZ 0
root@arm:~# echo 'TLBG''VHSWEL'
TLBGVHSWEL
root@arm:~# MARKER='MQXT''JCTZWT' run 'i2cget -y -f 2 0x60 0x23'
MQXTJCTZWT0x46
MQXTJCTZWT 0
root@arm:~# echo 'ESZX''FVGTQN'
ESZXFVGTQN
root@arm:~# MARKER='PHBM''OXVSZQ' run 'echo 1090000 1090000 > /sys/kernel/mva_tesst/regulators/buck3_set'
PHBMOXVSZQPHBMOXVSZQ 0
root@arm:~# echo 'OGVF''QOPCGO'
OGVFQOPCGO
root@arm:~# MARKER='VHFF''WTTSGT' run 'i2cget -f -y 2 0x60 0x2a'
VHFFWTTSGT0x98
VHFFWTTSGT 0
root@arm:~# echo 'CNAP''JFGBZM'
CNAPJFGBZM
root@arm:~# MARKER='UMWT''KVCCNW' run 'i2cget -y -f 2 0x60 0x23'
UMWTKVCCNW0x46
UMWTKVCCNW 0
root@arm:~# echo 'LXOM''HXAVJT'
LXOMHXAVJT
root@arm:~# MARKER='QMPV''BYPGVT' run 'i2cget -y -f 2 0x60 0x23'
QMPVBYPGVT0x46
QMPVBYPGVT 0
root@arm:~# echo 'SXCC''NMBZNP'
SXCCNMBZNP
root@arm:~# MARKER='LWQJ''YEVHOG' run 'echo 1100000 1100000 > /sys/kernel/mva_tesst/regulators/buck3_set'
LWQJYEVHOGLWQJYEVHOG 0
root@arm:~# echo 'HHXO''HWLMQN'
HHXOHWLMQN
root@arm:~# MARKER='YAHB''APUQCN' run 'i2cget -f -y 2 0x60 0x2a'
YAHBAPUQCN0x99
YAHBAPUQCN 0
root@arm:~# echo 'GLJZ''AJEONW'
GLJZAJEONW
root@arm:~# MARKER='LKUO''TWUJES' run 'i2cget -y -f 2 0x60 0x23'
LKUOTWUJES0x46
LKUOTWUJES 0
root@arm:~# echo 'YWXP''QZZBNU'
YWXPQZZBNU
