Labgrid Console Logfile for main
Logfile started at 2025-11-02 16:46:41.152847
=== Log starts here ===

root@arm:~# run() { echo -n "$MARKER"; sh -c "$@"; echo "$MARKER $?"; }
root@arm:~# echo 'YCUZ''MPWOPT'
YCUZMPWOPT
root@arm:~# MARKER='EAVE''CFFPPX' run 'grep -r -l rohm,bd71847 /proc/device-tree  | sed '"'"'s![^/]*$!!'"'"''
EAVECFFPPX/proc/device-tree/ocp/interconnect@48000000/segment@0/target-module@2a000/i2c@0/pmic@4b/
EAVECFFPPX 0
root@arm:~# echo 'HSQM''QOHWQT'
HSQMQOHWQT
root@arm:~# MARKER='NVEG''UONNUA' run 'test -f /proc/device-tree/ocp/interconnectt\@48000000/segment\@0/target-module\@2a000/i2c\@0/pmic\@4b/regulators/BUCK1/rohmm,no-regulator-enable-control ;echo $?'
NVEGUONNUA1
NVEGUONNUA 0
root@arm:~# echo 'SAJZ''GSYLKG'
SAJZGSYLKG
root@arm:~# MARKER='ACKL''MUUFFE' run 'echo 1 > /sys/kernel/mva_test/regulators/bbuck1_en'
ACKLMUUFFEACKLMUUFFE 0
root@arm:~# echo 'GOHX''EGYMEO'
GOHXEGYMEO
root@arm:~# MARKER='SFGX''BZTCYG' run 'i2cget -y -f 1 0x4b 0x5'
SFGXBZTCYG0x03
SFGXBZTCYG 0
root@arm:~# echo 'NXGL''WBAWYF'
NXGLWBAWYF
root@arm:~# MARKER='CXST''TVAMTS' run 'grep -r -l rohm,bd71847 /proc/device-tree  | sed '"'"'s![^/]*$!!'"'"''
CXSTTVAMTS/proc/device-tree/ocp/interconnect@48000000/segment@0/target-module@2a000/i2c@0/pmic@4b/
CXSTTVAMTS 0
root@arm:~# echo 'ONOT''PLGQVS'
ONOTPLGQVS
root@arm:~# MARKER='GYLY''BJJVAN' run 'test -f /proc/device-tree/ocp/interconnectt\@48000000/segment\@0/target-module\@2a000/i2c\@0/pmic\@4b/regulators/BUCK1/rohmm,no-regulator-enable-control ;echo $?'
GYLYBJJVAN1
GYLYBJJVAN 0
root@arm:~# echo 'YVVY''WEMOEG'
YVVYWEMOEG
root@arm:~# MARKER='WOCE''CLZBXX' run 'grep -r -l rohm,bd71847 /proc/device-tree  | sed '"'"'s![^/]*$!!'"'"''
WOCECLZBXX/proc/device-tree/ocp/interconnect@48000000/segment@0/target-module@2a000/i2c@0/pmic@4b/
WOCECLZBXX 0
root@arm:~# echo 'STGM''JCAWCZ'
STGMJCAWCZ
root@arm:~# MARKER='EBWJ''MEBGNW' run 'test -f /proc/device-tree/ocp/interconnectt\@48000000/segment\@0/target-module\@2a000/i2c\@0/pmic\@4b/regulators/BUCK1/reguulator-always-on ;echo $?'
EBWJMEBGNW1
EBWJMEBGNW 0
root@arm:~# echo 'AXXX''OYYGGO'
AXXXOYYGGO
root@arm:~# MARKER='OFEQ''VAUPBL' run 'echo 0 > /sys/kernel/mva_test/regulators/bbuck1_en'
OFEQVAUPBLOFEQVAUPBL 0
root@arm:~# echo 'ZWUW''VKMWBH'
ZWUWVKMWBH
root@arm:~# MARKER='LLEC''TTAAZL' run 'i2cget -y -f 1 0x4b 0x5'
LLECTTAAZL0x02
LLECTTAAZL 0
root@arm:~# echo 'HFUW''NAGLFV'
HFUWNAGLFV
root@arm:~# MARKER='TKEA''SBGNOJ' run 'grep -r -l rohm,bd71847 /proc/device-tree  | sed '"'"'s![^/]*$!!'"'"''
TKEASBGNOJ/proc/device-tree/ocp/interconnect@48000000/segment@0/target-module@2a000/i2c@0/pmic@4b/
TKEASBGNOJ 0
root@arm:~# echo 'KTMW''SJNWJT'
KTMWSJNWJT
root@arm:~# MARKER='EJTW''OLZAST' run 'test -f /proc/device-tree/ocp/interconnectt\@48000000/segment\@0/target-module\@2a000/i2c\@0/pmic\@4b/regulators/BUCK2/rohmm,no-regulator-enable-control ;echo $?'
EJTWOLZAST1
EJTWOLZAST 0
root@arm:~# echo 'USVZ''JVEVHJ'
USVZJVEVHJ
root@arm:~# MARKER='HQMN''KUHQLG' run 'echo 1 > /sys/kernel/mva_test/regulators/bbuck2_en'
HQMNKUHQLGHQMNKUHQLG 0
root@arm:~# echo 'EXAN''SVGQAU'
EXANSVGQAU
root@arm:~# MARKER='SVXE''EWULEE' run 'i2cget -y -f 1 0x4b 0x6'
SVXEEWULEE0x43
SVXEEWULEE 0
root@arm:~# echo 'QHZQ''AZNJHC'
QHZQAZNJHC
root@arm:~# MARKER='FUXL''WBTUPG' run 'grep -r -l rohm,bd71847 /proc/device-tree  | sed '"'"'s![^/]*$!!'"'"''
FUXLWBTUPG/proc/device-tree/ocp/interconnect@48000000/segment@0/target-module@2a000/i2c@0/pmic@4b/
FUXLWBTUPG 0
root@arm:~# echo 'CKCW''UJNNTT'
CKCWUJNNTT
root@arm:~# MARKER='KWVY''KACVUS' run 'test -f /proc/device-tree/ocp/interconnectt\@48000000/segment\@0/target-module\@2a000/i2c\@0/pmic\@4b/regulators/BUCK2/rohmm,no-regulator-enable-control ;echo $?'
KWVYKACVUS1
KWVYKACVUS 0
root@arm:~# echo 'VNVC''OCEFAN'
VNVCOCEFAN
root@arm:~# MARKER='GJJN''AKPCEM' run 'grep -r -l rohm,bd71847 /proc/device-tree  | sed '"'"'s![^/]*$!!'"'"''
GJJNAKPCEM/proc/device-tree/ocp/interconnect@48000000/segment@0/target-module@2a000/i2c@0/pmic@4b/
GJJNAKPCEM 0
root@arm:~# echo 'KYSN''UWGXNZ'
KYSNUWGXNZ
root@arm:~# MARKER='LVCS''EWSXZH' run 'test -f /proc/device-tree/ocp/interconnectt\@48000000/segment\@0/target-module\@2a000/i2c\@0/pmic\@4b/regulators/BUCK2/reguulator-always-on ;echo $?'
LVCSEWSXZH0
LVCSEWSXZH 0
root@arm:~# echo 'HZOC''VPCUME'
HZOCVPCUME
root@arm:~# MARKER='UJJC''ZOVVZO' run 'grep -r -l rohm,bd71847 /proc/device-tree  | sed '"'"'s![^/]*$!!'"'"''
UJJCZOVVZO/proc/device-tree/ocp/interconnect@48000000/segment@0/target-module@2a000/i2c@0/pmic@4b/
UJJCZOVVZO 0
root@arm:~# echo 'ESVM''VZOGHV'
ESVMVZOGHV
root@arm:~# MARKER='GBEC''CUOUGA' run 'test -f /proc/device-tree/ocp/interconnectt\@48000000/segment\@0/target-module\@2a000/i2c\@0/pmic\@4b/regulators/BUCK3/rohmm,no-regulator-enable-control ;echo $?'
GBECCUOUGA0
GBECCUOUGA 0
root@arm:~# echo 'LKYW''SUCCUE'
LKYWSUCCUE
root@arm:~# MARKER='TKXE''BVJLOP' run 'grep -r -l rohm,bd71847 /proc/device-tree  | sed '"'"'s![^/]*$!!'"'"''
TKXEBVJLOP/proc/device-tree/ocp/interconnect@48000000/segment@0/target-module@2a000/i2c@0/pmic@4b/
TKXEBVJLOP 0
root@arm:~# echo 'OPCK''HGQCGN'
OPCKHGQCGN
root@arm:~# MARKER='SCFW''FJXXZY' run 'test -f /proc/device-tree/ocp/interconnectt\@48000000/segment\@0/target-module\@2a000/i2c\@0/pmic\@4b/regulators/BUCK3/rohmm,no-regulator-enable-control ;echo $?'
SCFWFJXXZY0
SCFWFJXXZY 0
root@arm:~# echo 'FHXG''UPFQVT'
FHXGUPFQVT
root@arm:~# MARKER='BGYV''YHSPXX' run 'grep -r -l rohm,bd71847 /proc/device-tree  | sed '"'"'s![^/]*$!!'"'"''
BGYVYHSPXX/proc/device-tree/ocp/interconnect@48000000/segment@0/target-module@2a000/i2c@0/pmic@4b/
BGYVYHSPXX 0
root@arm:~# echo 'MCVE''UWQBLL'
MCVEUWQBLL
root@arm:~# MARKER='JJGX''YKWBLH' run 'test -f /proc/device-tree/ocp/interconnectt\@48000000/segment\@0/target-module\@2a000/i2c\@0/pmic\@4b/regulators/BUCK4/rohmm,no-regulator-enable-control ;echo $?'
JJGXYKWBLH1
JJGXYKWBLH 0
root@arm:~# echo 'JYAA''LUTXZE'
JYAALUTXZE
root@arm:~# MARKER='BAMA''FZCVUT' run 'echo 1 > /sys/kernel/mva_test/regulators/bbuck4_en'
BAMAFZCVUTBAMAFZCVUT 0
root@arm:~# echo 'HOYZ''OZVTGJ'
HOYZOZVTGJ
root@arm:~# MARKER='KLES''WSCQTA' run 'i2cget -y -f 1 0x4b 0xa'
KLESWSCQTA0x03
KLESWSCQTA 0
root@arm:~# echo 'EGQO''BGQCJV'
EGQOBGQCJV
root@arm:~# MARKER='TQLK''GPMUJP' run 'grep -r -l rohm,bd71847 /proc/device-tree  | sed '"'"'s![^/]*$!!'"'"''
TQLKGPMUJP/proc/device-tree/ocp/interconnect@48000000/segment@0/target-module@2a000/i2c@0/pmic@4b/
TQLKGPMUJP 0
root@arm:~# echo 'XLKH''ZEZZKG'
XLKHZEZZKG
root@arm:~# MARKER='FYLW''NAMHUG' run 'test -f /proc/device-tree/ocp/interconnectt\@48000000/segment\@0/target-module\@2a000/i2c\@0/pmic\@4b/regulators/BUCK4/rohmm,no-regulator-enable-control ;echo $?'
FYLWNAMHUG1
FYLWNAMHUG 0
root@arm:~# echo 'BZOT''CFZATJ'
BZOTCFZATJ
root@arm:~# MARKER='ZKNB''ZCOFPH' run 'grep -r -l rohm,bd71847 /proc/device-tree  | sed '"'"'s![^/]*$!!'"'"''
ZKNBZCOFPH/proc/device-tree/ocp/interconnect@48000000/segment@0/target-module@2a000/i2c@0/pmic@4b/
ZKNBZCOFPH 0
root@arm:~# echo 'TZPG''KYNFZH'
TZPGKYNFZH
root@arm:~# MARKER='GVAF''FEUUFU' run 'test -f /proc/device-tree/ocp/interconnectt\@48000000/segment\@0/target-module\@2a000/i2c\@0/pmic\@4b/regulators/BUCK4/reguulator-always-on ;echo $?'
GVAFFEUUFU1
GVAFFEUUFU 0
root@arm:~# echo 'YYPF''EGFBGV'
YYPFEGFBGV
root@arm:~# MARKER='EOVX''VWGMTJ' run 'echo 0 > /sys/kernel/mva_test/regulators/bbuck4_en'
EOVXVWGMTJEOVXVWGMTJ 0
root@arm:~# echo 'EFVA''QBFVBX'
EFVAQBFVBX
root@arm:~# MARKER='TVUY''CVFJTX' run 'i2cget -y -f 1 0x4b 0xa'
TVUYCVFJTX0x02
TVUYCVFJTX 0
root@arm:~# echo 'HHPJ''TVYATH'
HHPJTVYATH
root@arm:~# MARKER='EPYJ''GLESKL' run 'grep -r -l rohm,bd71847 /proc/device-tree  | sed '"'"'s![^/]*$!!'"'"''
EPYJGLESKL/proc/device-tree/ocp/interconnect@48000000/segment@0/target-module@2a000/i2c@0/pmic@4b/
EPYJGLESKL 0
root@arm:~# echo 'VCSG''ZWYFGM'
VCSGZWYFGM
root@arm:~# MARKER='YVVG''AJQXLU' run 'test -f /proc/device-tree/ocp/interconnectt\@48000000/segment\@0/target-module\@2a000/i2c\@0/pmic\@4b/regulators/BUCK5/rohmm,no-regulator-enable-control ;echo $?'
YVVGAJQXLU1
YVVGAJQXLU 0
root@arm:~# echo 'FZTF''CVWFLQ'
FZTFCVWFLQ
root@arm:~# MARKER='HLHW''LCXBVQ' run 'echo 1 > /sys/kernel/mva_test/regulators/bbuck5_en'
HLHWLCXBVQHLHWLCXBVQ 0
root@arm:~# echo 'JPYH''OBLAGJ'
JPYHOBLAGJ
root@arm:~# MARKER='OUSC''UYAPSF' run 'i2cget -y -f 1 0x4b 0xb'
OUSCUYAPSF0x03
OUSCUYAPSF 0
root@arm:~# echo 'XUYV''BYMZKQ'
XUYVBYMZKQ
root@arm:~# MARKER='AGYH''FHJNMM' run 'grep -r -l rohm,bd71847 /proc/device-tree  | sed '"'"'s![^/]*$!!'"'"''
AGYHFHJNMM/proc/device-tree/ocp/interconnect@48000000/segment@0/target-module@2a000/i2c@0/pmic@4b/
AGYHFHJNMM 0
root@arm:~# echo 'FXQK''GJWLYY'
FXQKGJWLYY
root@arm:~# MARKER='GJHL''YTOKEK' run 'test -f /proc/device-tree/ocp/interconnectt\@48000000/segment\@0/target-module\@2a000/i2c\@0/pmic\@4b/regulators/BUCK5/rohmm,no-regulator-enable-control ;echo $?'
GJHLYTOKEK1
GJHLYTOKEK 0
root@arm:~# echo 'CPCV''PUCGSQ'
CPCVPUCGSQ
root@arm:~# MARKER='NTSO''CXTQXA' run 'grep -r -l rohm,bd71847 /proc/device-tree  | sed '"'"'s![^/]*$!!'"'"''
NTSOCXTQXA/proc/device-tree/ocp/interconnect@48000000/segment@0/target-module@2a000/i2c@0/pmic@4b/
NTSOCXTQXA 0
root@arm:~# echo 'BPHJ''LUKJSE'
BPHJLUKJSE
root@arm:~# MARKER='KJZT''LWBCHA' run 'test -f /proc/device-tree/ocp/interconnectt\@48000000/segment\@0/target-module\@2a000/i2c\@0/pmic\@4b/regulators/BUCK5/reguulator-always-on ;echo $?'
KJZTLWBCHA1
KJZTLWBCHA 0
root@arm:~# echo 'ZLQV''SEUSLS'
ZLQVSEUSLS
root@arm:~# MARKER='QQCZ''CLKJYP' run 'echo 0 > /sys/kernel/mva_test/regulators/bbuck5_en'
QQCZCLKJYPQQCZCLKJYP 0
root@arm:~# echo 'YUBM''LCCNGG'
YUBMLCCNGG
root@arm:~# MARKER='YYFZ''MYKXWZ' run 'i2cget -y -f 1 0x4b 0xb'
YYFZMYKXWZ0x02
YYFZMYKXWZ 0
root@arm:~# echo 'BSWU''VXZKOC'
BSWUVXZKOC
root@arm:~# MARKER='PLFH''OLWPCP' run 'grep -r -l rohm,bd71847 /proc/device-tree  | sed '"'"'s![^/]*$!!'"'"''
PLFHOLWPCP/proc/device-tree/ocp/interconnect@48000000/segment@0/target-module@2a000/i2c@0/pmic@4b/
PLFHOLWPCP 0
root@arm:~# echo 'SWXG''QTMKMQ'
SWXGQTMKMQ
root@arm:~# MARKER='QXZK''WHHYGS' run 'test -f /proc/device-tree/ocp/interconnectt\@48000000/segment\@0/target-module\@2a000/i2c\@0/pmic\@4b/regulators/BUCK6/rohmm,no-regulator-enable-control ;echo $?'
QXZKWHHYGS1
QXZKWHHYGS 0
root@arm:~# echo 'YQCM''XWZMKU'
YQCMXWZMKU
root@arm:~# MARKER='UGTC''KNSXTM' run 'echo 1 > /sys/kernel/mva_test/regulators/bbuck6_en'
UGTCKNSXTMUGTCKNSXTM 0
root@arm:~# echo 'MXFH''BEWPEQ'
MXFHBEWPEQ
root@arm:~# MARKER='CNUV''SWYMCV' run 'i2cget -y -f 1 0x4b 0xc'
CNUVSWYMCV0x03
CNUVSWYMCV 0
root@arm:~# echo 'OHEC''FMVNYN'
OHECFMVNYN
root@arm:~# MARKER='BLCJ''LXSJQU' run 'grep -r -l rohm,bd71847 /proc/device-tree  | sed '"'"'s![^/]*$!!'"'"''
BLCJLXSJQU/proc/device-tree/ocp/interconnect@48000000/segment@0/target-module@2a000/i2c@0/pmic@4b/
BLCJLXSJQU 0
root@arm:~# echo 'JSMW''PXFUXY'
JSMWPXFUXY
root@arm:~# MARKER='HSXB''CYLJQQ' run 'test -f /proc/device-tree/ocp/interconnectt\@48000000/segment\@0/target-module\@2a000/i2c\@0/pmic\@4b/regulators/BUCK6/rohmm,no-regulator-enable-control ;echo $?'
HSXBCYLJQQ1
HSXBCYLJQQ 0
root@arm:~# echo 'KWPQ''FPWYSX'
KWPQFPWYSX
root@arm:~# MARKER='PBFC''KGUSPO' run 'grep -r -l rohm,bd71847 /proc/device-tree  | sed '"'"'s![^/]*$!!'"'"''
PBFCKGUSPO/proc/device-tree/ocp/interconnect@48000000/segment@0/target-module@2a000/i2c@0/pmic@4b/
PBFCKGUSPO 0
root@arm:~# echo 'NKHX''NKZCUT'
NKHXNKZCUT
root@arm:~# MARKER='EMYH''UYETYH' run 'test -f /proc/device-tree/ocp/interconnectt\@48000000/segment\@0/target-module\@2a000/i2c\@0/pmic\@4b/regulators/BUCK6/reguulator-always-on ;echo $?'
EMYHUYETYH1
EMYHUYETYH 0
root@arm:~# echo 'EQXE''JAHKUA'
EQXEJAHKUA
root@arm:~# MARKER='KBSA''TFUNPB' run 'echo 0 > /sys/kernel/mva_test/regulators/bbuck6_en'
KBSATFUNPBKBSATFUNPB 0
root@arm:~# echo 'JYOU''TBJNBK'
JYOUTBJNBK
root@arm:~# MARKER='GSJB''OATEQZ' run 'i2cget -y -f 1 0x4b 0xc'
GSJBOATEQZ0x02
GSJBOATEQZ 0
root@arm:~# echo 'YGNO''VHMWEY'
YGNOVHMWEY
root@arm:~# MARKER='EMTZ''FYAUVN' run 'grep -r -l rohm,bd71847 /proc/device-tree  | sed '"'"'s![^/]*$!!'"'"''
EMTZFYAUVN/proc/device-tree/ocp/interconnect@48000000/segment@0/target-module@2a000/i2c@0/pmic@4b/
EMTZFYAUVN 0
root@arm:~# echo 'KBGV''HWUJQK'
KBGVHWUJQK
root@arm:~# MARKER='LTLG''PXSXVK' run 'test -f /proc/device-tree/ocp/interconnectt\@48000000/segment\@0/target-module\@2a000/i2c\@0/pmic\@4b/regulators/LDO1/rohm,,no-regulator-enable-control ;echo $?'
LTLGPXSXVK1
LTLGPXSXVK 0
root@arm:~# echo 'QUPP''OOLSFX'
QUPPOOLSFX
root@arm:~# MARKER='ZZQL''FLKTBV' run 'echo 1 > /sys/kernel/mva_test/regulators/bbuck7_en'
ZZQLFLKTBVZZQLFLKTBV 0
root@arm:~# echo 'MEGK''JAGPMC'
MEGKJAGPMC
root@arm:~# MARKER='SMSW''BZPYTZ' run 'i2cget -y -f 1 0x4b 0x18'
SMSWBZPYTZ0xe2
SMSWBZPYTZ 0
root@arm:~# echo 'UTNP''KBAELY'
UTNPKBAELY
root@arm:~# MARKER='GAZQ''EBKECQ' run 'grep -r -l rohm,bd71847 /proc/device-tree  | sed '"'"'s![^/]*$!!'"'"''
GAZQEBKECQ/proc/device-tree/ocp/interconnect@48000000/segment@0/target-module@2a000/i2c@0/pmic@4b/
GAZQEBKECQ 0
root@arm:~# echo 'NKWT''FHONVJ'
NKWTFHONVJ
root@arm:~# MARKER='PVPB''WBPSKN' run 'test -f /proc/device-tree/ocp/interconnectt\@48000000/segment\@0/target-module\@2a000/i2c\@0/pmic\@4b/regulators/LDO1/rohm,,no-regulator-enable-control ;echo $?'
PVPBWBPSKN1
PVPBWBPSKN 0
root@arm:~# echo 'FAZA''WSQWXA'
FAZAWSQWXA
root@arm:~# MARKER='OVCZ''JEZFBF' run 'grep -r -l rohm,bd71847 /proc/device-tree  | sed '"'"'s![^/]*$!!'"'"''
OVCZJEZFBF/proc/device-tree/ocp/interconnect@48000000/segment@0/target-module@2a000/i2c@0/pmic@4b/
OVCZJEZFBF 0
root@arm:~# echo 'UOYS''QHKTWT'
UOYSQHKTWT
root@arm:~# MARKER='EFVJ''NJTPPJ' run 'test -f /proc/device-tree/ocp/interconnectt\@48000000/segment\@0/target-module\@2a000/i2c\@0/pmic\@4b/regulators/LDO1/regullator-always-on ;echo $?'
EFVJNJTPPJ1
EFVJNJTPPJ 0
root@arm:~# echo 'AQEM''MGUEGG'
AQEMMGUEGG
root@arm:~# MARKER='WQQQ''QCXTBK' run 'echo 0 > /sys/kernel/mva_test/regulators/bbuck7_en'
WQQQQCXTBKWQQQQCXTBK 0
root@arm:~# echo 'TZNC''KJAXGE'
TZNCKJAXGE
root@arm:~# MARKER='TEOK''BZJSXA' run 'i2cget -y -f 1 0x4b 0x18'
TEOKBZJSXA0xa2
TEOKBZJSXA 0
root@arm:~# echo 'THFO''KWJBTO'
THFOKWJBTO
root@arm:~# MARKER='YFQC''UHGQUB' run 'grep -r -l rohm,bd71847 /proc/device-tree  | sed '"'"'s![^/]*$!!'"'"''
YFQCUHGQUB/proc/device-tree/ocp/interconnect@48000000/segment@0/target-module@2a000/i2c@0/pmic@4b/
YFQCUHGQUB 0
root@arm:~# echo 'MLNH''YXHOGB'
MLNHYXHOGB
root@arm:~# MARKER='YECP''ZPFNLF' run 'test -f /proc/device-tree/ocp/interconnectt\@48000000/segment\@0/target-module\@2a000/i2c\@0/pmic\@4b/regulators/LDO2/rohm,,no-regulator-enable-control ;echo $?'
YECPZPFNLF1
YECPZPFNLF 0
root@arm:~# echo 'OTJX''SFBGUY'
OTJXSFBGUY
root@arm:~# MARKER='GTLG''WBHUNJ' run 'echo 1 > /sys/kernel/mva_test/regulators/bbuck8_en'
GTLGWBHUNJGTLGWBHUNJ 0
root@arm:~# echo 'XXCJ''OAAAZJ'
XXCJOAAAZJ
root@arm:~# MARKER='AOPE''HBUQVK' run 'i2cget -y -f 1 0x4b 0x19'
AOPEHBUQVK0xe0
AOPEHBUQVK 0
root@arm:~# echo 'SZZC''NBKFAV'
SZZCNBKFAV
root@arm:~# MARKER='NMNF''HCXNUM' run 'grep -r -l rohm,bd71847 /proc/device-tree  | sed '"'"'s![^/]*$!!'"'"''
NMNFHCXNUM/proc/device-tree/ocp/interconnect@48000000/segment@0/target-module@2a000/i2c@0/pmic@4b/
NMNFHCXNUM 0
root@arm:~# echo 'TEHV''FNBOUB'
TEHVFNBOUB
root@arm:~# MARKER='QPPZ''MQNCMA' run 'test -f /proc/device-tree/ocp/interconnectt\@48000000/segment\@0/target-module\@2a000/i2c\@0/pmic\@4b/regulators/LDO2/rohm,,no-regulator-enable-control ;echo $?'
QPPZMQNCMA1
QPPZMQNCMA 0
root@arm:~# echo 'YPBS''LNKGVN'
YPBSLNKGVN
root@arm:~# MARKER='WLMB''BBKUGL' run 'grep -r -l rohm,bd71847 /proc/device-tree  | sed '"'"'s![^/]*$!!'"'"''
WLMBBBKUGL/proc/device-tree/ocp/interconnect@48000000/segment@0/target-module@2a000/i2c@0/pmic@4b/
WLMBBBKUGL 0
root@arm:~# echo 'QQXG''KAAVTQ'
QQXGKAAVTQ
root@arm:~# MARKER='JVGN''KBPMHU' run 'test -f /proc/device-tree/ocp/interconnectt\@48000000/segment\@0/target-module\@2a000/i2c\@0/pmic\@4b/regulators/LDO2/regullator-always-on ;echo $?'
JVGNKBPMHU1
JVGNKBPMHU 0
root@arm:~# echo 'UQES''VKQQMN'
UQESVKQQMN
root@arm:~# MARKER='YBJL''MZTFKK' run 'echo 0 > /sys/kernel/mva_test/regulators/bbuck8_en'
YBJLMZTFKKYBJLMZTFKK 0
root@arm:~# echo 'PYOU''MVZZUE'
PYOUMVZZUE
root@arm:~# MARKER='OEPF''ZYTKVY' run 'i2cget -y -f 1 0x4b 0x19'
OEPFZYTKVY0xa0
OEPFZYTKVY 0
root@arm:~# echo 'MOOA''BUEASL'
MOOABUEASL
root@arm:~# MARKER='FFHM''YFWAMZ' run 'grep -r -l rohm,bd71847 /proc/device-tree  | sed '"'"'s![^/]*$!!'"'"''
FFHMYFWAMZ/proc/device-tree/ocp/interconnect@48000000/segment@0/target-module@2a000/i2c@0/pmic@4b/
FFHMYFWAMZ 0
root@arm:~# echo 'GQEK''KLLCUN'
GQEKKLLCUN
root@arm:~# MARKER='FLCU''MEFMEL' run 'test -f /proc/device-tree/ocp/interconnectt\@48000000/segment\@0/target-module\@2a000/i2c\@0/pmic\@4b/regulators/LDO3/rohm,,no-regulator-enable-control ;echo $?'
FLCUMEFMEL1
FLCUMEFMEL 0
root@arm:~# echo 'TQKU''BMFVOG'
TQKUBMFVOG
root@arm:~# MARKER='JAHY''VCCHKV' run 'echo 1 > /sys/kernel/mva_test/regulators/bbuck9_en'
JAHYVCCHKVJAHYVCCHKV 0
root@arm:~# echo 'ULZU''PZQSFS'
ULZUPZQSFS
root@arm:~# MARKER='HVLP''TPPNAT' run 'i2cget -y -f 1 0x4b 0x1a'
HVLPTPPNAT0xc0
HVLPTPPNAT 0
root@arm:~# echo 'VHFF''WOCLYX'
VHFFWOCLYX
root@arm:~# MARKER='SEMK''NNCLME' run 'grep -r -l rohm,bd71847 /proc/device-tree  | sed '"'"'s![^/]*$!!'"'"''
SEMKNNCLME/proc/device-tree/ocp/interconnect@48000000/segment@0/target-module@2a000/i2c@0/pmic@4b/
SEMKNNCLME 0
root@arm:~# echo 'UYGH''OPWTAM'
UYGHOPWTAM
root@arm:~# MARKER='TPYT''PLBYKQ' run 'test -f /proc/device-tree/ocp/interconnectt\@48000000/segment\@0/target-module\@2a000/i2c\@0/pmic\@4b/regulators/LDO3/rohm,,no-regulator-enable-control ;echo $?'
TPYTPLBYKQ1
TPYTPLBYKQ 0
root@arm:~# echo 'OZVW''UWQVFM'
OZVWUWQVFM
root@arm:~# MARKER='HNCO''OHXAFH' run 'grep -r -l rohm,bd71847 /proc/device-tree  | sed '"'"'s![^/]*$!!'"'"''
HNCOOHXAFH/proc/device-tree/ocp/interconnect@48000000/segment@0/target-module@2a000/i2c@0/pmic@4b/
HNCOOHXAFH 0
root@arm:~# echo 'OXUW''COXZUJ'
OXUWCOXZUJ
root@arm:~# MARKER='POBT''KCCAST' run 'test -f /proc/device-tree/ocp/interconnectt\@48000000/segment\@0/target-module\@2a000/i2c\@0/pmic\@4b/regulators/LDO3/regullator-always-on ;echo $?'
POBTKCCAST1
POBTKCCAST 0
root@arm:~# echo 'NPUS''SKCNXF'
NPUSSKCNXF
root@arm:~# MARKER='PLBE''OPYQPL' run 'echo 0 > /sys/kernel/mva_test/regulators/bbuck9_en'
PLBEOPYQPLPLBEOPYQPL 0
root@arm:~# echo 'TKOK''LTLOWC'
TKOKLTLOWC
root@arm:~# MARKER='ALXO''GAGEEJ' run 'i2cget -y -f 1 0x4b 0x1a'
ALXOGAGEEJ0x80
ALXOGAGEEJ 0
root@arm:~# echo 'NOSO''HNJHEE'
NOSOHNJHEE
root@arm:~# MARKER='UHLL''YXHSZV' run 'grep -r -l rohm,bd71847 /proc/device-tree  | sed '"'"'s![^/]*$!!'"'"''
UHLLYXHSZV/proc/device-tree/ocp/interconnect@48000000/segment@0/target-module@2a000/i2c@0/pmic@4b/
UHLLYXHSZV 0
root@arm:~# echo 'WQLZ''WKQYFA'
WQLZWKQYFA
root@arm:~# MARKER='JYTO''JXGYXH' run 'test -f /proc/device-tree/ocp/interconnectt\@48000000/segment\@0/target-module\@2a000/i2c\@0/pmic\@4b/regulators/LDO4/rohm,,no-regulator-enable-control ;echo $?'
JYTOJXGYXH1
JYTOJXGYXH 0
root@arm:~# echo 'PUMC''LFTQVQ'
PUMCLFTQVQ
root@arm:~# MARKER='XTBV''LGEFBX' run 'echo 1 > /sys/kernel/mva_test/regulators/bbuck10_en'
XTBVLGEFBXXTBVLGEFBX 0
root@arm:~# echo 'NMLN''ZEKLZZ'
NMLNZEKLZZ
root@arm:~# MARKER='SJYK''USTEAX' run 'i2cget -y -f 1 0x4b 0x1b'
SJYKUSTEAX0xc0
SJYKUSTEAX 0
root@arm:~# echo 'HOGG''KENQTL'
HOGGKENQTL
root@arm:~# MARKER='SYUO''HKXGTK' run 'grep -r -l rohm,bd71847 /proc/device-tree  | sed '"'"'s![^/]*$!!'"'"''
SYUOHKXGTK/proc/device-tree/ocp/interconnect@48000000/segment@0/target-module@2a000/i2c@0/pmic@4b/
SYUOHKXGTK 0
root@arm:~# echo 'XUGS''CETWYJ'
XUGSCETWYJ
root@arm:~# MARKER='HLGZ''MSZFTC' run 'test -f /proc/device-tree/ocp/interconnectt\@48000000/segment\@0/target-module\@2a000/i2c\@0/pmic\@4b/regulators/LDO4/rohm,,no-regulator-enable-control ;echo $?'
HLGZMSZFTC1
HLGZMSZFTC 0
root@arm:~# echo 'XMQP''HFKMBB'
XMQPHFKMBB
root@arm:~# MARKER='ZUQN''FQLHPS' run 'grep -r -l rohm,bd71847 /proc/device-tree  | sed '"'"'s![^/]*$!!'"'"''
ZUQNFQLHPS/proc/device-tree/ocp/interconnect@48000000/segment@0/target-module@2a000/i2c@0/pmic@4b/
ZUQNFQLHPS 0
root@arm:~# echo 'LXPG''NEHXJG'
LXPGNEHXJG
root@arm:~# MARKER='WEVH''MJEGCK' run 'test -f /proc/device-tree/ocp/interconnectt\@48000000/segment\@0/target-module\@2a000/i2c\@0/pmic\@4b/regulators/LDO4/regullator-always-on ;echo $?'
WEVHMJEGCK1
WEVHMJEGCK 0
root@arm:~# echo 'SHGK''KCFFQS'
SHGKKCFFQS
root@arm:~# MARKER='NQXL''PHNOCS' run 'echo 0 > /sys/kernel/mva_test/regulators/bbuck10_en'
NQXLPHNOCSNQXLPHNOCS 0
root@arm:~# echo 'AMLB''AHPSAO'
AMLBAHPSAO
root@arm:~# MARKER='XSVO''YPGBFM' run 'i2cget -y -f 1 0x4b 0x1b'
XSVOYPGBFM0x80
XSVOYPGBFM 0
root@arm:~# echo 'PWYL''GKUJPM'
PWYLGKUJPM
root@arm:~# MARKER='NGEN''TZAHQJ' run 'grep -r -l rohm,bd71847 /proc/device-tree  | sed '"'"'s![^/]*$!!'"'"''
NGENTZAHQJ/proc/device-tree/ocp/interconnect@48000000/segment@0/target-module@2a000/i2c@0/pmic@4b/
NGENTZAHQJ 0
root@arm:~# echo 'NZGA''WGVMVV'
NZGAWGVMVV
root@arm:~# MARKER='FXCO''JUGKHS' run 'test -f /proc/device-tree/ocp/interconnectt\@48000000/segment\@0/target-module\@2a000/i2c\@0/pmic\@4b/regulators/LDO5/rohm,,no-regulator-enable-control ;echo $?'
FXCOJUGKHS0
FXCOJUGKHS 0
root@arm:~# echo 'MXLT''TQCUEV'
MXLTTQCUEV
root@arm:~# MARKER='UHLO''TASGLH' run 'grep -r -l rohm,bd71847 /proc/device-tree  | sed '"'"'s![^/]*$!!'"'"''
UHLOTASGLH/proc/device-tree/ocp/interconnect@48000000/segment@0/target-module@2a000/i2c@0/pmic@4b/
UHLOTASGLH 0
root@arm:~# echo 'JZKP''CBJBOO'
JZKPCBJBOO
root@arm:~# MARKER='SHGO''OJFZWB' run 'test -f /proc/device-tree/ocp/interconnectt\@48000000/segment\@0/target-module\@2a000/i2c\@0/pmic\@4b/regulators/LDO5/rohm,,no-regulator-enable-control ;echo $?'
SHGOOJFZWB0
SHGOOJFZWB 0
root@arm:~# echo 'JZVU''NMKSFM'
JZVUNMKSFM
root@arm:~# MARKER='JBBW''UOLAZE' run 'grep -r -l rohm,bd71847 /proc/device-tree  | sed '"'"'s![^/]*$!!'"'"''
JBBWUOLAZE/proc/device-tree/ocp/interconnect@48000000/segment@0/target-module@2a000/i2c@0/pmic@4b/
JBBWUOLAZE 0
root@arm:~# echo 'ABJU''VYYQAP'
ABJUVYYQAP
root@arm:~# MARKER='WCBY''ACMZZV' run 'test -f /proc/device-tree/ocp/interconnectt\@48000000/segment\@0/target-module\@2a000/i2c\@0/pmic\@4b/regulators/LDO6/rohm,,no-regulator-enable-control ;echo $?'
WCBYACMZZV1
WCBYACMZZV 0
root@arm:~# echo 'LTUN''AZKJVM'
LTUNAZKJVM
root@arm:~# MARKER='LZHL''HFLKSB' run 'echo 1 > /sys/kernel/mva_test/regulators/bbuck12_en'
LZHLHFLKSBLZHLHFLKSB 0
root@arm:~# echo 'UZCM''EYMQZN'
UZCMEYMQZN
root@arm:~# MARKER='TPZZ''BYHLCA' run 'i2cget -y -f 1 0x4b 0x1d'
TPZZBYHLCA0xc3
TPZZBYHLCA 0
root@arm:~# echo 'GHYE''VAWETM'
GHYEVAWETM
root@arm:~# MARKER='TFVV''TYOAFC' run 'grep -r -l rohm,bd71847 /proc/device-tree  | sed '"'"'s![^/]*$!!'"'"''
TFVVTYOAFC/proc/device-tree/ocp/interconnect@48000000/segment@0/target-module@2a000/i2c@0/pmic@4b/
TFVVTYOAFC 0
root@arm:~# echo 'YJMS''KSYBNG'
YJMSKSYBNG
root@arm:~# MARKER='KYEP''HKAEOQ' run 'test -f /proc/device-tree/ocp/interconnectt\@48000000/segment\@0/target-module\@2a000/i2c\@0/pmic\@4b/regulators/LDO6/rohm,,no-regulator-enable-control ;echo $?'
KYEPHKAEOQ1
KYEPHKAEOQ 0
root@arm:~# echo 'SKFJ''OUGJHX'
SKFJOUGJHX
root@arm:~# MARKER='YFCW''LOHLUW' run 'grep -r -l rohm,bd71847 /proc/device-tree  | sed '"'"'s![^/]*$!!'"'"''
YFCWLOHLUW/proc/device-tree/ocp/interconnect@48000000/segment@0/target-module@2a000/i2c@0/pmic@4b/
YFCWLOHLUW 0
root@arm:~# echo 'XFUY''CSNSAZ'
XFUYCSNSAZ
root@arm:~# MARKER='CFVU''JBSYHM' run 'test -f /proc/device-tree/ocp/interconnectt\@48000000/segment\@0/target-module\@2a000/i2c\@0/pmic\@4b/regulators/LDO6/regullator-always-on ;echo $?'
CFVUJBSYHM1
CFVUJBSYHM 0
root@arm:~# echo 'HOBC''KXHKNT'
HOBCKXHKNT
root@arm:~# MARKER='OSNM''HBHLKA' run 'echo 0 > /sys/kernel/mva_test/regulators/bbuck12_en'
OSNMHBHLKAOSNMHBHLKA 0
root@arm:~# echo 'XXGC''NAGUNV'
XXGCNAGUNV
root@arm:~# MARKER='BYBP''YGBMNX' run 'i2cget -y -f 1 0x4b 0x1d'
BYBPYGBMNX0x83
BYBPYGBMNX 0
root@arm:~# Labgrid Console Logfile for main
Logfile started at 2025-11-02 16:47:14.670317
=== Log starts here ===

root@arm:~# run() { echo -n "$MARKER"; sh -c "$@"; echo "$MARKER $?"; }
root@arm:~# echo 'QYWK''XKCCVT'
QYWKXKCCVT
root@arm:~# MARKER='JNPM''EPSLGJ' run 'grep -r -l rohm,bd71847 /proc/device-tree  | sed '"'"'s![^/]*$!!'"'"''
JNPMEPSLGJ/proc/device-tree/ocp/interconnect@48000000/segment@0/target-module@2a000/i2c@0/pmic@4b/
JNPMEPSLGJ 0
root@arm:~# echo 'WBMJ''KCFOLP'
WBMJKCFOLP
root@arm:~# MARKER='NKAC''ZZZNOC' run 'test -f /proc/device-tree/ocp/interconnectt\@48000000/segment\@0/target-module\@2a000/i2c\@0/pmic\@4b/regulators/BUCK1/rohmm,no-regulator-enable-control ;echo $?'
NKACZZZNOC1
NKACZZZNOC 0
root@arm:~# echo 'KGPC''GKNEXK'
KGPCGKNEXK
root@arm:~# MARKER='NSEH''TPHGLA' run 'i2cget -y -f 1 0x4b 0x5'
NSEHTPHGLA0x02
NSEHTPHGLA 0
root@arm:~# echo 'WBNP''JVAYNO'
WBNPJVAYNO
root@arm:~# MARKER='GSAZ''SHJFHS' run 'echo 700000 700000 > /sys/kernel/mva_test//regulators/buck1_set'
GSAZSHJFHSGSAZSHJFHS 0
root@arm:~# echo 'ABZY''LHWCKY'
ABZYLHWCKY
root@arm:~# MARKER='CTMF''UVXOQN' run 'i2cget -y -f 1 0x4b 0xd'
CTMFUVXOQN0x00
CTMFUVXOQN 0
root@arm:~# echo 'OEAH''LKEAYN'
OEAHLKEAYN
root@arm:~# MARKER='ZXCT''LOFZNX' run 'echo 710000 710000 > /sys/kernel/mva_test//regulators/buck1_set'
ZXCTLOFZNXZXCTLOFZNX 0
root@arm:~# echo 'VZWV''PBTMEB'
VZWVPBTMEB
root@arm:~# MARKER='QTCB''SCVBPL' run 'i2cget -y -f 1 0x4b 0xd'
QTCBSCVBPL0x01
QTCBSCVBPL 0
root@arm:~# echo 'CNFO''VSPSUB'
CNFOVSPSUB
root@arm:~# MARKER='JPEZ''MYSFGF' run 'echo 720000 720000 > /sys/kernel/mva_test//regulators/buck1_set'
JPEZMYSFGFJPEZMYSFGF 0
root@arm:~# echo 'UYCW''EGBMUB'
UYCWEGBMUB
root@arm:~# MARKER='NVMX''TZMVTW' run 'i2cget -y -f 1 0x4b 0xd'
NVMXTZMVTW0x02
NVMXTZMVTW 0
root@arm:~# echo 'PLPX''GTSTQN'
PLPXGTSTQN
root@arm:~# MARKER='TAKU''HUBMCQ' run 'echo 730000 730000 > /sys/kernel/mva_test//regulators/buck1_set'
TAKUHUBMCQTAKUHUBMCQ 0
root@arm:~# echo 'WSGP''FWOPQT'
WSGPFWOPQT
root@arm:~# MARKER='UAXQ''XXGSMC' run 'i2cget -y -f 1 0x4b 0xd'
UAXQXXGSMC0x03
UAXQXXGSMC 0
root@arm:~# echo 'CJPQ''TNVTVS'
CJPQTNVTVS
root@arm:~# MARKER='KCOC''CWTUYX' run 'echo 740000 740000 > /sys/kernel/mva_test//regulators/buck1_set'
KCOCCWTUYXKCOCCWTUYX 0
root@arm:~# echo 'FFGB''SQNPJU'
FFGBSQNPJU
root@arm:~# MARKER='QPVV''SUQEVV' run 'i2cget -y -f 1 0x4b 0xd'
QPVVSUQEVV0x04
QPVVSUQEVV 0
root@arm:~# echo 'CFJX''ANKYAE'
CFJXANKYAE
root@arm:~# MARKER='JQZC''XGEWFZ' run 'echo 750000 750000 > /sys/kernel/mva_test//regulators/buck1_set'
JQZCXGEWFZJQZCXGEWFZ 0
root@arm:~# echo 'APNK''KUYAKB'
APNKKUYAKB
root@arm:~# MARKER='GXTQ''PUNHLK' run 'i2cget -y -f 1 0x4b 0xd'
GXTQPUNHLK0x05
GXTQPUNHLK 0
root@arm:~# echo 'VJNV''HETMSF'
VJNVHETMSF
root@arm:~# MARKER='AAQP''VQCBLF' run 'echo 760000 760000 > /sys/kernel/mva_test//regulators/buck1_set'
AAQPVQCBLFAAQPVQCBLF 0
root@arm:~# echo 'VJKS''EQWSPT'
VJKSEQWSPT
root@arm:~# MARKER='ZXQB''AQSQUS' run 'i2cget -y -f 1 0x4b 0xd'
ZXQBAQSQUS0x06
ZXQBAQSQUS 0
root@arm:~# echo 'CLLO''YLTGKH'
CLLOYLTGKH
root@arm:~# MARKER='CJGG''PKEQGL' run 'echo 770000 770000 > /sys/kernel/mva_test//regulators/buck1_set'
CJGGPKEQGLCJGGPKEQGL 0
root@arm:~# echo 'NTCA''QKAFTO'
NTCAQKAFTO
root@arm:~# MARKER='KGPS''BAUGVP' run 'i2cget -y -f 1 0x4b 0xd'
KGPSBAUGVP0x07
KGPSBAUGVP 0
root@arm:~# echo 'UCWZ''YNMVAJ'
UCWZYNMVAJ
root@arm:~# MARKER='ETVM''GNOPQO' run 'echo 780000 780000 > /sys/kernel/mva_test//regulators/buck1_set'
ETVMGNOPQOETVMGNOPQO 0
root@arm:~# echo 'UCAS''KGPQNW'
UCASKGPQNW
root@arm:~# MARKER='EYUF''NBOYLH' run 'i2cget -y -f 1 0x4b 0xd'
EYUFNBOYLH0x08
EYUFNBOYLH 0
root@arm:~# echo 'FEGX''FTZMBE'
FEGXFTZMBE
root@arm:~# MARKER='AGMG''VFQKGA' run 'echo 790000 790000 > /sys/kernel/mva_test//regulators/buck1_set'
AGMGVFQKGAAGMGVFQKGA 0
root@arm:~# echo 'UKKY''TVVYCQ'
UKKYTVVYCQ
root@arm:~# MARKER='KKKU''PFGYSF' run 'i2cget -y -f 1 0x4b 0xd'
KKKUPFGYSF0x09
KKKUPFGYSF 0
root@arm:~# echo 'TUHO''NXTTAY'
TUHONXTTAY
root@arm:~# MARKER='ZBYZ''BYFQVV' run 'echo 800000 800000 > /sys/kernel/mva_test//regulators/buck1_set'
ZBYZBYFQVVZBYZBYFQVV 0
root@arm:~# echo 'UCAL''ETHWAZ'
UCALETHWAZ
root@arm:~# MARKER='UOQE''JNAHXK' run 'i2cget -y -f 1 0x4b 0xd'
UOQEJNAHXK0x0a
UOQEJNAHXK 0
root@arm:~# echo 'MNKA''ESHCZO'
MNKAESHCZO
root@arm:~# MARKER='XANX''YTALWV' run 'echo 810000 810000 > /sys/kernel/mva_test//regulators/buck1_set'
XANXYTALWVXANXYTALWV 0
root@arm:~# echo 'HWZF''UJYXWG'
HWZFUJYXWG
root@arm:~# MARKER='GSQT''YJQYAA' run 'i2cget -y -f 1 0x4b 0xd'
GSQTYJQYAA0x0b
GSQTYJQYAA 0
root@arm:~# echo 'LXYF''JSBMTH'
LXYFJSBMTH
root@arm:~# MARKER='BTZJ''HTYNXP' run 'echo 820000 820000 > /sys/kernel/mva_test//regulators/buck1_set'
BTZJHTYNXPBTZJHTYNXP 0
root@arm:~# echo 'UVAG''OENXTK'
UVAGOENXTK
root@arm:~# MARKER='EETT''LTZZVB' run 'i2cget -y -f 1 0x4b 0xd'
EETTLTZZVB0x0c
EETTLTZZVB 0
root@arm:~# echo 'GJLX''STBVTQ'
GJLXSTBVTQ
root@arm:~# MARKER='TVFU''CMMEWJ' run 'echo 830000 830000 > /sys/kernel/mva_test//regulators/buck1_set'
TVFUCMMEWJTVFUCMMEWJ 0
root@arm:~# echo 'GTPY''VPXMUL'
GTPYVPXMUL
root@arm:~# MARKER='WHTT''MSAGQL' run 'i2cget -y -f 1 0x4b 0xd'
WHTTMSAGQL0x0d
WHTTMSAGQL 0
root@arm:~# echo 'WAAB''ZNHFOC'
WAABZNHFOC
root@arm:~# MARKER='SWVC''NUXFCB' run 'echo 840000 840000 > /sys/kernel/mva_test//regulators/buck1_set'
SWVCNUXFCBSWVCNUXFCB 0
root@arm:~# echo 'LBTA''WJNWCH'
LBTAWJNWCH
root@arm:~# MARKER='ZYVF''ESMXMT' run 'i2cget -y -f 1 0x4b 0xd'
ZYVFESMXMT0x0e
ZYVFESMXMT 0
root@arm:~# echo 'CMXA''XSHCVQ'
CMXAXSHCVQ
root@arm:~# MARKER='MPHL''WHKYJG' run 'echo 850000 850000 > /sys/kernel/mva_test//regulators/buck1_set'
MPHLWHKYJGMPHLWHKYJG 0
root@arm:~# echo 'HLXZ''BLPPJO'
HLXZBLPPJO
root@arm:~# MARKER='UAWW''WOKTUG' run 'i2cget -y -f 1 0x4b 0xd'
UAWWWOKTUG0x0f
UAWWWOKTUG 0
root@arm:~# echo 'UJFP''BZOQKX'
UJFPBZOQKX
root@arm:~# MARKER='NEXH''YJSMEK' run 'echo 860000 860000 > /sys/kernel/mva_test//regulators/buck1_set'
NEXHYJSMEKNEXHYJSMEK 0
root@arm:~# echo 'ULEY''NAQNGY'
ULEYNAQNGY
root@arm:~# MARKER='CKVL''WUTFAH' run 'i2cget -y -f 1 0x4b 0xd'
CKVLWUTFAH0x10
CKVLWUTFAH 0
root@arm:~# echo 'UETW''QEZPTS'
UETWQEZPTS
root@arm:~# MARKER='NKYM''VUPNAB' run 'echo 870000 870000 > /sys/kernel/mva_test//regulators/buck1_set'
NKYMVUPNABNKYMVUPNAB 0
root@arm:~# echo 'PTKG''XUKYWE'
PTKGXUKYWE
root@arm:~# MARKER='CHHU''GETVBB' run 'i2cget -y -f 1 0x4b 0xd'
CHHUGETVBB0x11
CHHUGETVBB 0
root@arm:~# echo 'CUPX''EQYWPK'
CUPXEQYWPK
root@arm:~# MARKER='YKQB''FSQQEC' run 'echo 880000 880000 > /sys/kernel/mva_test//regulators/buck1_set'
YKQBFSQQECYKQBFSQQEC 0
root@arm:~# echo 'QHNK''AAQGHA'
QHNKAAQGHA
root@arm:~# MARKER='USYH''XUXZGT' run 'i2cget -y -f 1 0x4b 0xd'
USYHXUXZGT0x12
USYHXUXZGT 0
root@arm:~# echo 'GPNC''HEWXYP'
GPNCHEWXYP
root@arm:~# MARKER='ECML''JZVHKS' run 'echo 890000 890000 > /sys/kernel/mva_test//regulators/buck1_set'
ECMLJZVHKSECMLJZVHKS 0
root@arm:~# echo 'CQQY''UPOFQH'
CQQYUPOFQH
root@arm:~# MARKER='TKGS''TCCZTU' run 'i2cget -y -f 1 0x4b 0xd'
TKGSTCCZTU0x13
TKGSTCCZTU 0
root@arm:~# echo 'UPEG''JVVACE'
UPEGJVVACE
root@arm:~# MARKER='BYMJ''EFXAEP' run 'echo 900000 900000 > /sys/kernel/mva_test//regulators/buck1_set'
BYMJEFXAEPBYMJEFXAEP 0
root@arm:~# echo 'MXTY''LJOWZU'
MXTYLJOWZU
root@arm:~# MARKER='TZBJ''UCHKQL' run 'i2cget -y -f 1 0x4b 0xd'
TZBJUCHKQL0x14
TZBJUCHKQL 0
root@arm:~# echo 'JVHK''ZNKBWX'
JVHKZNKBWX
root@arm:~# MARKER='ZAJN''FHSJVL' run 'echo 910000 910000 > /sys/kernel/mva_test//regulators/buck1_set'
ZAJNFHSJVLZAJNFHSJVL 0
root@arm:~# echo 'MBKE''FWTTOZ'
MBKEFWTTOZ
root@arm:~# MARKER='YYVG''NKMELW' run 'i2cget -y -f 1 0x4b 0xd'
YYVGNKMELW0x15
YYVGNKMELW 0
root@arm:~# echo 'ZGHG''KNKETE'
ZGHGKNKETE
root@arm:~# MARKER='VXLF''AENMTS' run 'echo 920000 920000 > /sys/kernel/mva_test//regulators/buck1_set'
VXLFAENMTSVXLFAENMTS 0
root@arm:~# echo 'FPAK''BXKAOL'
FPAKBXKAOL
root@arm:~# MARKER='OQBC''LPSTYE' run 'i2cget -y -f 1 0x4b 0xd'
OQBCLPSTYE0x16
OQBCLPSTYE 0
root@arm:~# echo 'HXLW''PCYHOK'
HXLWPCYHOK
root@arm:~# MARKER='FEFN''KEFBTJ' run 'echo 930000 930000 > /sys/kernel/mva_test//regulators/buck1_set'
FEFNKEFBTJFEFNKEFBTJ 0
root@arm:~# echo 'KZMB''XOVCBP'
KZMBXOVCBP
root@arm:~# MARKER='OFZL''TBTELA' run 'i2cget -y -f 1 0x4b 0xd'
OFZLTBTELA0x17
OFZLTBTELA 0
root@arm:~# echo 'WKHM''QMUKGC'
WKHMQMUKGC
root@arm:~# MARKER='CWGY''SSSMGC' run 'echo 940000 940000 > /sys/kernel/mva_test//regulators/buck1_set'
CWGYSSSMGCCWGYSSSMGC 0
root@arm:~# echo 'USUB''NXWJJS'
USUBNXWJJS
root@arm:~# MARKER='CAPJ''VWZQMP' run 'i2cget -y -f 1 0x4b 0xd'
CAPJVWZQMP0x18
CAPJVWZQMP 0
root@arm:~# echo 'BMJQ''PYVPFK'
BMJQPYVPFK
root@arm:~# MARKER='HJTJ''NLBTWQ' run 'echo 950000 950000 > /sys/kernel/mva_test//regulators/buck1_set'
HJTJNLBTWQHJTJNLBTWQ 0
root@arm:~# echo 'BMLT''TYHXLL'
BMLTTYHXLL
root@arm:~# MARKER='AQZG''SUTMKF' run 'i2cget -y -f 1 0x4b 0xd'
AQZGSUTMKF0x19
AQZGSUTMKF 0
root@arm:~# echo 'FHHP''AXCVLY'
FHHPAXCVLY
root@arm:~# MARKER='LTYA''LLFSTO' run 'echo 960000 960000 > /sys/kernel/mva_test//regulators/buck1_set'
LTYALLFSTOLTYALLFSTO 0
root@arm:~# echo 'TCBO''XOQHFO'
TCBOXOQHFO
root@arm:~# MARKER='YSXM''GKZWJL' run 'i2cget -y -f 1 0x4b 0xd'
YSXMGKZWJL0x1a
YSXMGKZWJL 0
root@arm:~# echo 'JFNS''USATFU'
JFNSUSATFU
root@arm:~# MARKER='TEQB''UJMXOL' run 'echo 970000 970000 > /sys/kernel/mva_test//regulators/buck1_set'
TEQBUJMXOLTEQBUJMXOL 0
root@arm:~# echo 'SUGL''KCATWQ'
SUGLKCATWQ
root@arm:~# MARKER='TAKL''GYHWZC' run 'i2cget -y -f 1 0x4b 0xd'
TAKLGYHWZC0x1b
TAKLGYHWZC 0
root@arm:~# echo 'KLMX''NGATPU'
KLMXNGATPU
root@arm:~# MARKER='JBSL''VKEETA' run 'echo 980000 980000 > /sys/kernel/mva_test//regulators/buck1_set'
JBSLVKEETAJBSLVKEETA 0
root@arm:~# echo 'FFCV''MBNSPA'
FFCVMBNSPA
root@arm:~# MARKER='GACN''WOHGXX' run 'i2cget -y -f 1 0x4b 0xd'
GACNWOHGXX0x1c
GACNWOHGXX 0
root@arm:~# echo 'MVUJ''QMPOQT'
MVUJQMPOQT
root@arm:~# MARKER='KOLP''AFBVGA' run 'echo 990000 990000 > /sys/kernel/mva_test//regulators/buck1_set'
KOLPAFBVGAKOLPAFBVGA 0
root@arm:~# echo 'EPFZ''NVEHXG'
EPFZNVEHXG
root@arm:~# MARKER='HQOQ''HBTTGB' run 'i2cget -y -f 1 0x4b 0xd'
HQOQHBTTGB0x1d
HQOQHBTTGB 0
root@arm:~# echo 'FMFK''FYKJWT'
FMFKFYKJWT
root@arm:~# MARKER='JVYU''GJAVNK' run 'echo 1000000 1000000 > /sys/kernel/mva_tesst/regulators/buck1_set'
JVYUGJAVNKJVYUGJAVNK 0
root@arm:~# echo 'PJQS''OEKBWW'
PJQSOEKBWW
root@arm:~# MARKER='GEOV''XSMKVE' run 'i2cget -y -f 1 0x4b 0xd'
GEOVXSMKVE0x1e
GEOVXSMKVE 0
root@arm:~# echo 'GKEB''OSEGTA'
GKEBOSEGTA
root@arm:~# MARKER='WELE''BHSEYV' run 'echo 1010000 1010000 > /sys/kernel/mva_tesst/regulators/buck1_set'
WELEBHSEYVWELEBHSEYV 0
root@arm:~# echo 'LZNQ''VBZWXC'
LZNQVBZWXC
root@arm:~# MARKER='XPGQ''FGOEZB' run 'i2cget -y -f 1 0x4b 0xd'
XPGQFGOEZB0x1f
XPGQFGOEZB 0
root@arm:~# echo 'ZXBU''PGCUXE'
ZXBUPGCUXE
root@arm:~# MARKER='CJPM''QEABTG' run 'echo 1020000 1020000 > /sys/kernel/mva_tesst/regulators/buck1_set'
CJPMQEABTGCJPMQEABTG 0
root@arm:~# echo 'NVVJ''MSLLUY'
NVVJMSLLUY
root@arm:~# MARKER='NYAA''UUEHNE' run 'i2cget -y -f 1 0x4b 0xd'
NYAAUUEHNE0x20
NYAAUUEHNE 0
root@arm:~# echo 'KGUK''CNTOPU'
KGUKCNTOPU
root@arm:~# MARKER='YGQS''BFXFSB' run 'echo 1030000 1030000 > /sys/kernel/mva_tesst/regulators/buck1_set'
YGQSBFXFSBYGQSBFXFSB 0
root@arm:~# echo 'NWUP''PFTAMS'
NWUPPFTAMS
root@arm:~# MARKER='NESA''MGBSUS' run 'i2cget -y -f 1 0x4b 0xd'
NESAMGBSUS0x21
NESAMGBSUS 0
root@arm:~# echo 'UVUW''HVWTPJ'
UVUWHVWTPJ
root@arm:~# MARKER='FOEX''OEXPUU' run 'echo 1040000 1040000 > /sys/kernel/mva_tesst/regulators/buck1_set'
FOEXOEXPUUFOEXOEXPUU 0
root@arm:~# echo 'JLKX''XFXVMH'
JLKXXFXVMH
root@arm:~# MARKER='JMLU''KACAUL' run 'i2cget -y -f 1 0x4b 0xd'
JMLUKACAUL0x22
JMLUKACAUL 0
root@arm:~# echo 'OZEC''VCSLTM'
OZECVCSLTM
root@arm:~# MARKER='TVLS''QXGCMM' run 'echo 1050000 1050000 > /sys/kernel/mva_tesst/regulators/buck1_set'
TVLSQXGCMMTVLSQXGCMM 0
root@arm:~# echo 'GWSZ''LQBBOU'
GWSZLQBBOU
root@arm:~# MARKER='PHMF''KZPYQQ' run 'i2cget -y -f 1 0x4b 0xd'
PHMFKZPYQQ0x23
PHMFKZPYQQ 0
root@arm:~# echo 'ZMVK''BWHLTM'
ZMVKBWHLTM
root@arm:~# MARKER='VQJM''TLMKBO' run 'echo 1060000 1060000 > /sys/kernel/mva_tesst/regulators/buck1_set'
VQJMTLMKBOVQJMTLMKBO 0
root@arm:~# echo 'QMXW''TZVBHQ'
QMXWTZVBHQ
root@arm:~# MARKER='UZHJ''SNMHFK' run 'i2cget -y -f 1 0x4b 0xd'
UZHJSNMHFK0x24
UZHJSNMHFK 0
root@arm:~# echo 'NOCZ''TJLPQY'
NOCZTJLPQY
root@arm:~# MARKER='FJEK''TBXNYZ' run 'echo 1070000 1070000 > /sys/kernel/mva_tesst/regulators/buck1_set'
FJEKTBXNYZFJEKTBXNYZ 0
root@arm:~# echo 'TSGO''FNCQOA'
TSGOFNCQOA
root@arm:~# MARKER='SEGP''VEFZKN' run 'i2cget -y -f 1 0x4b 0xd'
SEGPVEFZKN0x25
SEGPVEFZKN 0
root@arm:~# echo 'MUAE''MAWFXB'
MUAEMAWFXB
root@arm:~# MARKER='MVZX''XAPFML' run 'echo 1080000 1080000 > /sys/kernel/mva_tesst/regulators/buck1_set'
MVZXXAPFMLMVZXXAPFML 0
root@arm:~# echo 'MVYX''OCOXST'
MVYXOCOXST
root@arm:~# MARKER='GLKY''BFFSUL' run 'i2cget -y -f 1 0x4b 0xd'
GLKYBFFSUL0x26
GLKYBFFSUL 0
root@arm:~# echo 'LPTH''XPTAFH'
LPTHXPTAFH
root@arm:~# MARKER='PPWG''JEOEJC' run 'echo 1090000 1090000 > /sys/kernel/mva_tesst/regulators/buck1_set'
PPWGJEOEJCPPWGJEOEJC 0
root@arm:~# echo 'CGFA''SXFVEX'
CGFASXFVEX
root@arm:~# MARKER='ASKY''OLMFQY' run 'i2cget -y -f 1 0x4b 0xd'
ASKYOLMFQY0x27
ASKYOLMFQY 0
root@arm:~# echo 'MGYP''NWHPOG'
MGYPNWHPOG
root@arm:~# MARKER='JVSC''YMQBZJ' run 'echo 1100000 1100000 > /sys/kernel/mva_tesst/regulators/buck1_set'
JVSCYMQBZJJVSCYMQBZJ 0
root@arm:~# echo 'CZOJ''EUOJEG'
CZOJEUOJEG
root@arm:~# MARKER='KXSF''OTAZZJ' run 'i2cget -y -f 1 0x4b 0xd'
KXSFOTAZZJ0x28
KXSFOTAZZJ 0
root@arm:~# echo 'NLFG''YHKCYK'
NLFGYHKCYK
root@arm:~# MARKER='AJSH''XMHMKN' run 'echo 1110000 1110000 > /sys/kernel/mva_tesst/regulators/buck1_set'
AJSHXMHMKNAJSHXMHMKN 0
root@arm:~# echo 'ZUBP''ATXTZU'
ZUBPATXTZU
root@arm:~# MARKER='ULXA''KLQNPB' run 'i2cget -y -f 1 0x4b 0xd'
ULXAKLQNPB0x29
ULXAKLQNPB 0
root@arm:~# echo 'OKCU''KYXBVS'
OKCUKYXBVS
root@arm:~# MARKER='LBVC''QSBVJZ' run 'echo 1120000 1120000 > /sys/kernel/mva_tesst/regulators/buck1_set'
LBVCQSBVJZLBVCQSBVJZ 0
root@arm:~# echo 'CZVF''SZNCOE'
CZVFSZNCOE
root@arm:~# MARKER='WKTE''YWGUFF' run 'i2cget -y -f 1 0x4b 0xd'
WKTEYWGUFF0x2a
WKTEYWGUFF 0
root@arm:~# echo 'KQEW''JWVCCH'
KQEWJWVCCH
root@arm:~# MARKER='QWEB''AKHOXY' run 'echo 1130000 1130000 > /sys/kernel/mva_tesst/regulators/buck1_set'
QWEBAKHOXYQWEBAKHOXY 0
root@arm:~# echo 'ZFMA''GKYMVV'
ZFMAGKYMVV
root@arm:~# MARKER='OYSC''KYSOGS' run 'i2cget -y -f 1 0x4b 0xd'
OYSCKYSOGS0x2b
OYSCKYSOGS 0
root@arm:~# echo 'AVKB''YMWJTG'
AVKBYMWJTG
root@arm:~# MARKER='LQJB''KEPHLY' run 'echo 1140000 1140000 > /sys/kernel/mva_tesst/regulators/buck1_set'
LQJBKEPHLYLQJBKEPHLY 0
root@arm:~# echo 'TOYQ''NPSXAP'
TOYQNPSXAP
root@arm:~# MARKER='OWZF''BYGZZO' run 'i2cget -y -f 1 0x4b 0xd'
OWZFBYGZZO0x2c
OWZFBYGZZO 0
root@arm:~# echo 'YCGZ''KXGJBN'
YCGZKXGJBN
root@arm:~# MARKER='AHSC''WOTWHY' run 'echo 1150000 1150000 > /sys/kernel/mva_tesst/regulators/buck1_set'
AHSCWOTWHYAHSCWOTWHY 0
root@arm:~# echo 'CMEJ''NEVEUL'
CMEJNEVEUL
root@arm:~# MARKER='PCHJ''YMSVMG' run 'i2cget -y -f 1 0x4b 0xd'
PCHJYMSVMG0x2d
PCHJYMSVMG 0
root@arm:~# echo 'KOEV''EWELSL'
KOEVEWELSL
root@arm:~# MARKER='WZFY''VLBUBN' run 'echo 1160000 1160000 > /sys/kernel/mva_tesst/regulators/buck1_set'
WZFYVLBUBNWZFYVLBUBN 0
root@arm:~# echo 'QNNZ''ASYSQM'
QNNZASYSQM
root@arm:~# MARKER='GHEE''UYNFCM' run 'i2cget -y -f 1 0x4b 0xd'
GHEEUYNFCM0x2e
GHEEUYNFCM 0
root@arm:~# echo 'CMYS''LOPQMO'
CMYSLOPQMO
root@arm:~# MARKER='SVPU''UEWBEN' run 'echo 1170000 1170000 > /sys/kernel/mva_tesst/regulators/buck1_set'
SVPUUEWBENSVPUUEWBEN 0
root@arm:~# echo 'BGHC''UHQQVN'
BGHCUHQQVN
root@arm:~# MARKER='CJWM''GEXNHE' run 'i2cget -y -f 1 0x4b 0xd'
CJWMGEXNHE0x2f
CJWMGEXNHE 0
root@arm:~# echo 'LOWX''PWTJWS'
LOWXPWTJWS
root@arm:~# MARKER='AUGF''YCSHMM' run 'echo 1180000 1180000 > /sys/kernel/mva_tesst/regulators/buck1_set'
AUGFYCSHMMAUGFYCSHMM 0
root@arm:~# echo 'ZLMZ''XYSTXG'
ZLMZXYSTXG
root@arm:~# MARKER='FKFN''VJZZWK' run 'i2cget -y -f 1 0x4b 0xd'
FKFNVJZZWK0x30
FKFNVJZZWK 0
root@arm:~# echo 'QSSE''FEWPFS'
QSSEFEWPFS
root@arm:~# MARKER='QFLP''EAJXFH' run 'echo 1190000 1190000 > /sys/kernel/mva_tesst/regulators/buck1_set'
QFLPEAJXFHQFLPEAJXFH 0
root@arm:~# echo 'HCCM''PBYCLF'
HCCMPBYCLF
root@arm:~# MARKER='MNQL''NUZEXE' run 'i2cget -y -f 1 0x4b 0xd'
MNQLNUZEXE0x31
MNQLNUZEXE 0
root@arm:~# echo 'JYJG''TPPLTW'
JYJGTPPLTW
root@arm:~# MARKER='TKAF''FZMOPP' run 'echo 1200000 1200000 > /sys/kernel/mva_tesst/regulators/buck1_set'
TKAFFZMOPPTKAFFZMOPP 0
root@arm:~# echo 'WJQK''JKENUW'
WJQKJKENUW
root@arm:~# MARKER='LPQB''GWKBMY' run 'i2cget -y -f 1 0x4b 0xd'
LPQBGWKBMY0x32
LPQBGWKBMY 0
root@arm:~# echo 'QFMM''KLOHZP'
QFMMKLOHZP
root@arm:~# MARKER='LOFX''UTUVEY' run 'echo 1210000 1210000 > /sys/kernel/mva_tesst/regulators/buck1_set'
LOFXUTUVEYLOFXUTUVEY 0
root@arm:~# echo 'KWHX''UXEMAP'
KWHXUXEMAP
root@arm:~# MARKER='LBEO''AMCVKV' run 'i2cget -y -f 1 0x4b 0xd'
LBEOAMCVKV0x33
LBEOAMCVKV 0
root@arm:~# echo 'WMST''VWLCAL'
WMSTVWLCAL
root@arm:~# MARKER='WTGT''QNATKK' run 'echo 1220000 1220000 > /sys/kernel/mva_tesst/regulators/buck1_set'
WTGTQNATKKWTGTQNATKK 0
root@arm:~# echo 'MESO''XUXMVB'
MESOXUXMVB
root@arm:~# MARKER='STAN''ETMNCG' run 'i2cget -y -f 1 0x4b 0xd'
STANETMNCG0x34
STANETMNCG 0
root@arm:~# echo 'AAZQ''POVHAT'
AAZQPOVHAT
root@arm:~# MARKER='EZJA''BSFKCB' run 'echo 1230000 1230000 > /sys/kernel/mva_tesst/regulators/buck1_set'
EZJABSFKCBEZJABSFKCB 0
root@arm:~# echo 'KTWY''LEWXLZ'
KTWYLEWXLZ
root@arm:~# MARKER='TZPA''LSUKTA' run 'i2cget -y -f 1 0x4b 0xd'
TZPALSUKTA0x35
TZPALSUKTA 0
root@arm:~# echo 'YLAO''OLGCHT'
YLAOOLGCHT
root@arm:~# MARKER='UFOJ''QBJVOX' run 'echo 1240000 1240000 > /sys/kernel/mva_tesst/regulators/buck1_set'
UFOJQBJVOXUFOJQBJVOX 0
root@arm:~# echo 'TOJC''EJOBSC'
TOJCEJOBSC
root@arm:~# MARKER='VTNH''ESSOVW' run 'i2cget -y -f 1 0x4b 0xd'
VTNHESSOVW0x36
VTNHESSOVW 0
root@arm:~# echo 'OKME''WHKPTW'
OKMEWHKPTW
root@arm:~# MARKER='ZZYQ''FQTSBN' run 'echo 1250000 1250000 > /sys/kernel/mva_tesst/regulators/buck1_set'
ZZYQFQTSBNZZYQFQTSBN 0
root@arm:~# echo 'OOEW''HMYOQF'
OOEWHMYOQF
root@arm:~# MARKER='MCQC''QGEPKK' run 'i2cget -y -f 1 0x4b 0xd'
MCQCQGEPKK0x37
MCQCQGEPKK 0
root@arm:~# echo 'MYHE''BQUCZC'
MYHEBQUCZC
root@arm:~# MARKER='OQEP''WMPULC' run 'echo 1260000 1260000 > /sys/kernel/mva_tesst/regulators/buck1_set'
OQEPWMPULCOQEPWMPULC 0
root@arm:~# echo 'AYYF''UOAMVT'
AYYFUOAMVT
root@arm:~# MARKER='PJVA''UAEABX' run 'i2cget -y -f 1 0x4b 0xd'
PJVAUAEABX0x38
PJVAUAEABX 0
root@arm:~# echo 'ZABV''NXAXLU'
ZABVNXAXLU
root@arm:~# MARKER='FHEV''SVMNNN' run 'echo 1270000 1270000 > /sys/kernel/mva_tesst/regulators/buck1_set'
FHEVSVMNNNFHEVSVMNNN 0
root@arm:~# echo 'HFFH''GSGBCU'
HFFHGSGBCU
root@arm:~# MARKER='PVCK''GXHJLM' run 'i2cget -y -f 1 0x4b 0xd'
PVCKGXHJLM0x39
PVCKGXHJLM 0
root@arm:~# echo 'YAXM''QBSLVF'
YAXMQBSLVF
root@arm:~# MARKER='OUWW''XSEYME' run 'echo 1280000 1280000 > /sys/kernel/mva_tesst/regulators/buck1_set'
OUWWXSEYMEOUWWXSEYME 0
root@arm:~# echo 'VTJX''VTZKHC'
VTJXVTZKHC
root@arm:~# MARKER='SGJY''PCLTUG' run 'i2cget -y -f 1 0x4b 0xd'
SGJYPCLTUG0x3a
SGJYPCLTUG 0
root@arm:~# echo 'VUSP''KJYYBA'
VUSPKJYYBA
root@arm:~# MARKER='FNHP''BVFNSL' run 'echo 1290000 1290000 > /sys/kernel/mva_tesst/regulators/buck1_set'
FNHPBVFNSLFNHPBVFNSL 0
root@arm:~# echo 'LZWX''LKPEKQ'
LZWXLKPEKQ
root@arm:~# MARKER='JOVF''SEGOEB' run 'i2cget -y -f 1 0x4b 0xd'
JOVFSEGOEB0x3b
JOVFSEGOEB 0
root@arm:~# echo 'PUNL''FTTMZK'
PUNLFTTMZK
root@arm:~# MARKER='OSQV''TWKLPS' run 'echo 1300000 1300000 > /sys/kernel/mva_tesst/regulators/buck1_set'
OSQVTWKLPSOSQVTWKLPS 0
root@arm:~# echo 'ZHFP''BVFSXS'
ZHFPBVFSXS
root@arm:~# MARKER='WVXA''ULVAZA' run 'i2cget -y -f 1 0x4b 0xd'
WVXAULVAZA0x3c
WVXAULVAZA 0
root@arm:~# echo 'NKHZ''QHXFST'
NKHZQHXFST
root@arm:~# MARKER='LGVG''PAZUZQ' run 'grep -r -l rohm,bd71847 /proc/device-tree  | sed '"'"'s![^/]*$!!'"'"''
LGVGPAZUZQ/proc/device-tree/ocp/interconnect@48000000/segment@0/target-module@2a000/i2c@0/pmic@4b/
LGVGPAZUZQ 0
root@arm:~# echo 'MWFW''UVXWMG'
MWFWUVXWMG
root@arm:~# MARKER='MAPS''GGBMWO' run 'test -f /proc/device-tree/ocp/interconnectt\@48000000/segment\@0/target-module\@2a000/i2c\@0/pmic\@4b/regulators/BUCK2/rohmm,no-regulator-enable-control ;echo $?'
MAPSGGBMWO1
MAPSGGBMWO 0
root@arm:~# echo 'WXAU''VTMFMA'
WXAUVTMFMA
root@arm:~# MARKER='LQZO''GSBPLE' run 'i2cget -y -f 1 0x4b 0x6'
LQZOGSBPLE0x43
LQZOGSBPLE 0
root@arm:~# echo 'PKWF''WEXCVB'
PKWFWEXCVB
root@arm:~# MARKER='XGGQ''SGJYMJ' run 'echo 700000 700000 > /sys/kernel/mva_test//regulators/buck2_set'
XGGQSGJYMJXGGQSGJYMJ 0
root@arm:~# echo 'ENLL''TCSUGG'
ENLLTCSUGG
root@arm:~# MARKER='HTSM''HHSXWE' run 'i2cget -y -f 1 0x4b 0x10'
HTSMHHSXWE0x00
HTSMHHSXWE 0
root@arm:~# echo 'UWZQ''GXXSOC'
UWZQGXXSOC
root@arm:~# MARKER='HZHO''JEEMML' run 'echo 710000 710000 > /sys/kernel/mva_test//regulators/buck2_set'
HZHOJEEMMLHZHOJEEMML 0
root@arm:~# echo 'AWEB''OQPSMJ'
AWEBOQPSMJ
root@arm:~# MARKER='MZYN''BXLOHX' run 'i2cget -y -f 1 0x4b 0x10'
MZYNBXLOHX0x01
MZYNBXLOHX 0
root@arm:~# echo 'XXPL''SMJCAN'
XXPLSMJCAN
root@arm:~# MARKER='YAKB''QFJMBE' run 'echo 720000 720000 > /sys/kernel/mva_test//regulators/buck2_set'
YAKBQFJMBEYAKBQFJMBE 0
root@arm:~# echo 'NONP''ASTXBM'
NONPASTXBM
root@arm:~# MARKER='HVMZ''XMJUHC' run 'i2cget -y -f 1 0x4b 0x10'
HVMZXMJUHC0x02
HVMZXMJUHC 0
root@arm:~# echo 'AYVE''EMXCWV'
AYVEEMXCWV
root@arm:~# MARKER='VXUB''ETFQLA' run 'echo 730000 730000 > /sys/kernel/mva_test//regulators/buck2_set'
VXUBETFQLAVXUBETFQLA 0
root@arm:~# echo 'XUEF''BYOOKZ'
XUEFBYOOKZ
root@arm:~# MARKER='YKXU''KNEYZA' run 'i2cget -y -f 1 0x4b 0x10'
YKXUKNEYZA0x03
YKXUKNEYZA 0
root@arm:~# echo 'YOXN''MMZYOQ'
YOXNMMZYOQ
root@arm:~# MARKER='CXZZ''FALGBQ' run 'echo 740000 740000 > /sys/kernel/mva_test//regulators/buck2_set'
CXZZFALGBQCXZZFALGBQ 0
root@arm:~# echo 'MTHB''KJEUTL'
MTHBKJEUTL
root@arm:~# MARKER='OWSB''PMXMLL' run 'i2cget -y -f 1 0x4b 0x10'
OWSBPMXMLL0x04
OWSBPMXMLL 0
root@arm:~# echo 'YMTW''SBYFAV'
YMTWSBYFAV
root@arm:~# MARKER='YGCC''UNQEZX' run 'echo 750000 750000 > /sys/kernel/mva_test//regulators/buck2_set'
YGCCUNQEZXYGCCUNQEZX 0
root@arm:~# echo 'TTFU''VNOVPT'
TTFUVNOVPT
root@arm:~# MARKER='JVJT''MKMOQK' run 'i2cget -y -f 1 0x4b 0x10'
JVJTMKMOQK0x05
JVJTMKMOQK 0
root@arm:~# echo 'LZXU''KBFWXQ'
LZXUKBFWXQ
root@arm:~# MARKER='XANU''XBJGVY' run 'echo 760000 760000 > /sys/kernel/mva_test//regulators/buck2_set'
XANUXBJGVYXANUXBJGVY 0
root@arm:~# echo 'BKAP''HPNEVJ'
BKAPHPNEVJ
root@arm:~# MARKER='QABY''KKCQYW' run 'i2cget -y -f 1 0x4b 0x10'
QABYKKCQYW0x06
QABYKKCQYW 0
root@arm:~# echo 'XJXV''ECZGGJ'
XJXVECZGGJ
root@arm:~# MARKER='BQAG''CFVTAL' run 'echo 770000 770000 > /sys/kernel/mva_test//regulators/buck2_set'
BQAGCFVTALBQAGCFVTAL 0
root@arm:~# echo 'JPSM''TPFCFO'
JPSMTPFCFO
root@arm:~# MARKER='QLMH''YVSNOJ' run 'i2cget -y -f 1 0x4b 0x10'
QLMHYVSNOJ0x07
QLMHYVSNOJ 0
root@arm:~# echo 'OOPF''EUYUZF'
OOPFEUYUZF
root@arm:~# MARKER='CQGE''ZWWSJH' run 'echo 780000 780000 > /sys/kernel/mva_test//regulators/buck2_set'
CQGEZWWSJHCQGEZWWSJH 0
root@arm:~# echo 'QEJJ''QVKGBH'
QEJJQVKGBH
root@arm:~# MARKER='EELC''MOXTYN' run 'i2cget -y -f 1 0x4b 0x10'
EELCMOXTYN0x08
EELCMOXTYN 0
root@arm:~# echo 'PWBL''QKEHZW'
PWBLQKEHZW
root@arm:~# MARKER='TOLE''PGEESC' run 'echo 790000 790000 > /sys/kernel/mva_test//regulators/buck2_set'
TOLEPGEESCTOLEPGEESC 0
root@arm:~# echo 'CGTM''HNYJSW'
CGTMHNYJSW
root@arm:~# MARKER='SVQX''QAAMVZ' run 'i2cget -y -f 1 0x4b 0x10'
SVQXQAAMVZ0x09
SVQXQAAMVZ 0
root@arm:~# echo 'VGVE''BVSBBE'
VGVEBVSBBE
root@arm:~# MARKER='AWGH''UKBQVQ' run 'echo 800000 800000 > /sys/kernel/mva_test//regulators/buck2_set'
AWGHUKBQVQAWGHUKBQVQ 0
root@arm:~# echo 'EAQX''KSPPEO'
EAQXKSPPEO
root@arm:~# MARKER='GVOJ''CXNTJZ' run 'i2cget -y -f 1 0x4b 0x10'
GVOJCXNTJZ0x0a
GVOJCXNTJZ 0
root@arm:~# echo 'OWBG''TAOKVL'
OWBGTAOKVL
root@arm:~# MARKER='APMJ''EBKWOV' run 'echo 810000 810000 > /sys/kernel/mva_test//regulators/buck2_set'
APMJEBKWOVAPMJEBKWOV 0
root@arm:~# echo 'UMCE''KUHOKQ'
UMCEKUHOKQ
root@arm:~# MARKER='AUNY''QTTABX' run 'i2cget -y -f 1 0x4b 0x10'
AUNYQTTABX0x0b
AUNYQTTABX 0
root@arm:~# echo 'YGFX''HLVVNL'
YGFXHLVVNL
root@arm:~# MARKER='SEYG''CSZTNN' run 'echo 820000 820000 > /sys/kernel/mva_test//regulators/buck2_set'
SEYGCSZTNNSEYGCSZTNN 0
root@arm:~# echo 'SQUK''ZSUCNS'
SQUKZSUCNS
root@arm:~# MARKER='TONF''FONYTW' run 'i2cget -y -f 1 0x4b 0x10'
TONFFONYTW0x0c
TONFFONYTW 0
root@arm:~# echo 'XEKH''PCAUEG'
XEKHPCAUEG
root@arm:~# MARKER='BQOV''BVNHZT' run 'echo 830000 830000 > /sys/kernel/mva_test//regulators/buck2_set'
BQOVBVNHZTBQOVBVNHZT 0
root@arm:~# echo 'SHKV''CNMMWS'
SHKVCNMMWS
root@arm:~# MARKER='GLQE''OJTUUL' run 'i2cget -y -f 1 0x4b 0x10'
GLQEOJTUUL0x0d
GLQEOJTUUL 0
root@arm:~# echo 'ONGM''AHHOXE'
ONGMAHHOXE
root@arm:~# MARKER='XCLL''HUAGOP' run 'echo 840000 840000 > /sys/kernel/mva_test//regulators/buck2_set'
XCLLHUAGOPXCLLHUAGOP 0
root@arm:~# echo 'KKOE''JSNQNO'
KKOEJSNQNO
root@arm:~# MARKER='WJYE''GCGGHY' run 'i2cget -y -f 1 0x4b 0x10'
WJYEGCGGHY0x0e
WJYEGCGGHY 0
root@arm:~# echo 'PGOT''OGKCLF'
PGOTOGKCLF
root@arm:~# MARKER='NKYU''MNGWPO' run 'echo 850000 850000 > /sys/kernel/mva_test//regulators/buck2_set'
NKYUMNGWPONKYUMNGWPO 0
root@arm:~# echo 'GFQF''TUJZLC'
GFQFTUJZLC
root@arm:~# MARKER='JYSP''GYLVMY' run 'i2cget -y -f 1 0x4b 0x10'
JYSPGYLVMY0x0f
JYSPGYLVMY 0
root@arm:~# echo 'YWCG''ZLFEXO'
YWCGZLFEXO
root@arm:~# MARKER='SBEX''SFJEKH' run 'echo 860000 860000 > /sys/kernel/mva_test//regulators/buck2_set'
SBEXSFJEKHSBEXSFJEKH 0
root@arm:~# echo 'NXHZ''TCNVHU'
NXHZTCNVHU
root@arm:~# MARKER='HOLH''LQXPHA' run 'i2cget -y -f 1 0x4b 0x10'
HOLHLQXPHA0x10
HOLHLQXPHA 0
root@arm:~# echo 'OZNG''WUMAAE'
OZNGWUMAAE
root@arm:~# MARKER='OTGX''KMOSUO' run 'echo 870000 870000 > /sys/kernel/mva_test//regulators/buck2_set'
OTGXKMOSUOOTGXKMOSUO 0
root@arm:~# echo 'QQJV''THLTVM'
QQJVTHLTVM
root@arm:~# MARKER='LSOY''TNZYQF' run 'i2cget -y -f 1 0x4b 0x10'
LSOYTNZYQF0x11
LSOYTNZYQF 0
root@arm:~# echo 'COJF''LSYNET'
COJFLSYNET
root@arm:~# MARKER='OUZP''MYGLJM' run 'echo 880000 880000 > /sys/kernel/mva_test//regulators/buck2_set'
OUZPMYGLJMOUZPMYGLJM 0
root@arm:~# echo 'FLPE''HJFOYL'
FLPEHJFOYL
root@arm:~# MARKER='YUAX''ZFFPJO' run 'i2cget -y -f 1 0x4b 0x10'
YUAXZFFPJO0x12
YUAXZFFPJO 0
root@arm:~# echo 'NNNX''ZPMGJH'
NNNXZPMGJH
root@arm:~# MARKER='TKQS''BVZKNV' run 'echo 890000 890000 > /sys/kernel/mva_test//regulators/buck2_set'
TKQSBVZKNVTKQSBVZKNV 0
root@arm:~# echo 'GUSX''KHCTOA'
GUSXKHCTOA
root@arm:~# MARKER='CECN''SUNLKJ' run 'i2cget -y -f 1 0x4b 0x10'
CECNSUNLKJ0x13
CECNSUNLKJ 0
root@arm:~# echo 'TYFU''UBUGGF'
TYFUUBUGGF
root@arm:~# MARKER='VBKF''EQNYEK' run 'echo 900000 900000 > /sys/kernel/mva_test//regulators/buck2_set'
VBKFEQNYEKVBKFEQNYEK 0
root@arm:~# echo 'NYAT''BHTCSH'
NYATBHTCSH
root@arm:~# MARKER='GNMW''BNXNOK' run 'i2cget -y -f 1 0x4b 0x10'
GNMWBNXNOK0x14
GNMWBNXNOK 0
root@arm:~# echo 'WLKS''ATQNYF'
WLKSATQNYF
root@arm:~# MARKER='ZCOX''UZJKKA' run 'echo 910000 910000 > /sys/kernel/mva_test//regulators/buck2_set'
ZCOXUZJKKAZCOXUZJKKA 0
root@arm:~# echo 'EEHK''BVLYZG'
EEHKBVLYZG
root@arm:~# MARKER='FQGJ''TKZGKT' run 'i2cget -y -f 1 0x4b 0x10'
FQGJTKZGKT0x15
FQGJTKZGKT 0
root@arm:~# echo 'LMCF''AFVFYC'
LMCFAFVFYC
root@arm:~# MARKER='ZKFZ''VYCXZU' run 'echo 920000 920000 > /sys/kernel/mva_test//regulators/buck2_set'
ZKFZVYCXZUZKFZVYCXZU 0
root@arm:~# echo 'JAEJ''QMQOMG'
JAEJQMQOMG
root@arm:~# MARKER='AQEJ''SLWHMV' run 'i2cget -y -f 1 0x4b 0x10'
AQEJSLWHMV0x16
AQEJSLWHMV 0
root@arm:~# echo 'UKWN''QZSUJT'
UKWNQZSUJT
root@arm:~# MARKER='TEVA''JCPGXJ' run 'echo 930000 930000 > /sys/kernel/mva_test//regulators/buck2_set'
TEVAJCPGXJTEVAJCPGXJ 0
root@arm:~# echo 'PXXV''KFFCNG'
PXXVKFFCNG
root@arm:~# MARKER='ASLV''JVBXJE' run 'i2cget -y -f 1 0x4b 0x10'
ASLVJVBXJE0x17
ASLVJVBXJE 0
root@arm:~# echo 'FEXE''LFHHPX'
FEXELFHHPX
root@arm:~# MARKER='OVYO''FEHLXB' run 'echo 940000 940000 > /sys/kernel/mva_test//regulators/buck2_set'
OVYOFEHLXBOVYOFEHLXB 0
root@arm:~# echo 'EVXZ''HEJZCT'
EVXZHEJZCT
root@arm:~# MARKER='YZVU''QKTLNA' run 'i2cget -y -f 1 0x4b 0x10'
YZVUQKTLNA0x18
YZVUQKTLNA 0
root@arm:~# echo 'SUCQ''QFEVPH'
SUCQQFEVPH
root@arm:~# MARKER='TAHJ''LCFPBE' run 'echo 950000 950000 > /sys/kernel/mva_test//regulators/buck2_set'
TAHJLCFPBETAHJLCFPBE 0
root@arm:~# echo 'HWJM''ZKZPTZ'
HWJMZKZPTZ
root@arm:~# MARKER='AYXE''EGKYEC' run 'i2cget -y -f 1 0x4b 0x10'
AYXEEGKYEC0x19
AYXEEGKYEC 0
root@arm:~# echo 'MTSE''FYQOLP'
MTSEFYQOLP
root@arm:~# MARKER='UMGH''OBWMEP' run 'echo 960000 960000 > /sys/kernel/mva_test//regulators/buck2_set'
UMGHOBWMEPUMGHOBWMEP 0
root@arm:~# echo 'LXMN''HVUKLZ'
LXMNHVUKLZ
root@arm:~# MARKER='WLQC''VUWMUZ' run 'i2cget -y -f 1 0x4b 0x10'
WLQCVUWMUZ0x1a
WLQCVUWMUZ 0
root@arm:~# echo 'QBGJ''TXCYSS'
QBGJTXCYSS
root@arm:~# MARKER='FLOQ''HQUESJ' run 'echo 970000 970000 > /sys/kernel/mva_test//regulators/buck2_set'
FLOQHQUESJFLOQHQUESJ 0
root@arm:~# echo 'WBVU''PKZONA'
WBVUPKZONA
root@arm:~# MARKER='CEVA''YWUHPF' run 'i2cget -y -f 1 0x4b 0x10'
CEVAYWUHPF0x1b
CEVAYWUHPF 0
root@arm:~# echo 'WLLG''ASMJLA'
WLLGASMJLA
root@arm:~# MARKER='PBPL''WVXOOB' run 'echo 980000 980000 > /sys/kernel/mva_test//regulators/buck2_set'
PBPLWVXOOBPBPLWVXOOB 0
root@arm:~# echo 'TFWC''OYMMCU'
TFWCOYMMCU
root@arm:~# MARKER='NPAX''MEUQWO' run 'i2cget -y -f 1 0x4b 0x10'
NPAXMEUQWO0x1c
NPAXMEUQWO 0
root@arm:~# echo 'CLSX''YGZBZA'
CLSXYGZBZA
root@arm:~# MARKER='NGCC''YTGPFE' run 'echo 990000 990000 > /sys/kernel/mva_test//regulators/buck2_set'
NGCCYTGPFENGCCYTGPFE 0
root@arm:~# echo 'QQJS''APBSSA'
QQJSAPBSSA
root@arm:~# MARKER='WUYQ''MEBAMK' run 'i2cget -y -f 1 0x4b 0x10'
WUYQMEBAMK0x1d
WUYQMEBAMK 0
root@arm:~# echo 'LCPJ''WVFLEV'
LCPJWVFLEV
root@arm:~# MARKER='VZFA''EMVNLT' run 'echo 1000000 1000000 > /sys/kernel/mva_tesst/regulators/buck2_set'
VZFAEMVNLTVZFAEMVNLT 0
root@arm:~# echo 'QHBF''KFLZLF'
QHBFKFLZLF
root@arm:~# MARKER='BNJA''TLEKCG' run 'i2cget -y -f 1 0x4b 0x10'
BNJATLEKCG0x1e
BNJATLEKCG 0
root@arm:~# echo 'EYVV''UGSGEQ'
EYVVUGSGEQ
root@arm:~# MARKER='HLNA''VXNQFJ' run 'echo 1010000 1010000 > /sys/kernel/mva_tesst/regulators/buck2_set'
HLNAVXNQFJHLNAVXNQFJ 0
root@arm:~# echo 'HCZL''PMLMWX'
HCZLPMLMWX
root@arm:~# MARKER='TFFN''MFFQSV' run 'i2cget -y -f 1 0x4b 0x10'
TFFNMFFQSV0x1f
TFFNMFFQSV 0
root@arm:~# echo 'XXUZ''QBMXNQ'
XXUZQBMXNQ
root@arm:~# MARKER='ATPP''COWWLU' run 'echo 1020000 1020000 > /sys/kernel/mva_tesst/regulators/buck2_set'
ATPPCOWWLUATPPCOWWLU 0
root@arm:~# echo 'PPZA''TATTPM'
PPZATATTPM
root@arm:~# MARKER='SYXS''YATJZS' run 'i2cget -y -f 1 0x4b 0x10'
SYXSYATJZS0x20
SYXSYATJZS 0
root@arm:~# echo 'HMNT''CEFBCZ'
HMNTCEFBCZ
root@arm:~# MARKER='AGVY''VYMYOT' run 'echo 1030000 1030000 > /sys/kernel/mva_tesst/regulators/buck2_set'
AGVYVYMYOTAGVYVYMYOT 0
root@arm:~# echo 'MCLA''JOYUUM'
MCLAJOYUUM
root@arm:~# MARKER='VMTP''UGOUAJ' run 'i2cget -y -f 1 0x4b 0x10'
VMTPUGOUAJ0x21
VMTPUGOUAJ 0
root@arm:~# echo 'OJAP''EOOCGV'
OJAPEOOCGV
root@arm:~# MARKER='TTPE''ECWTEH' run 'echo 1040000 1040000 > /sys/kernel/mva_tesst/regulators/buck2_set'
TTPEECWTEHTTPEECWTEH 0
root@arm:~# echo 'UVBH''TSAWBX'
UVBHTSAWBX
root@arm:~# MARKER='VQVA''OCXXOE' run 'i2cget -y -f 1 0x4b 0x10'
VQVAOCXXOE0x22
VQVAOCXXOE 0
root@arm:~# echo 'LPQL''CHXJUS'
LPQLCHXJUS
root@arm:~# MARKER='JLBY''NLQZMU' run 'echo 1050000 1050000 > /sys/kernel/mva_tesst/regulators/buck2_set'
JLBYNLQZMUJLBYNLQZMU 0
root@arm:~# echo 'CASY''GVMVUC'
CASYGVMVUC
root@arm:~# MARKER='SFNE''ASEFTB' run 'i2cget -y -f 1 0x4b 0x10'
SFNEASEFTB0x23
SFNEASEFTB 0
root@arm:~# echo 'XQZF''USNOVQ'
XQZFUSNOVQ
root@arm:~# MARKER='QBEE''FNEOBY' run 'echo 1060000 1060000 > /sys/kernel/mva_tesst/regulators/buck2_set'
QBEEFNEOBYQBEEFNEOBY 0
root@arm:~# echo 'NEKY''APXGKC'
NEKYAPXGKC
root@arm:~# MARKER='KCVL''TMXSFG' run 'i2cget -y -f 1 0x4b 0x10'
KCVLTMXSFG0x24
KCVLTMXSFG 0
root@arm:~# echo 'SBTA''THFHSU'
SBTATHFHSU
root@arm:~# MARKER='AKYT''ZXAKCZ' run 'echo 1070000 1070000 > /sys/kernel/mva_tesst/regulators/buck2_set'
AKYTZXAKCZAKYTZXAKCZ 0
root@arm:~# echo 'CHMA''FHJZPN'
CHMAFHJZPN
root@arm:~# MARKER='KQLV''JMAGBK' run 'i2cget -y -f 1 0x4b 0x10'
KQLVJMAGBK0x25
KQLVJMAGBK 0
root@arm:~# echo 'OKMG''WSEKPK'
OKMGWSEKPK
root@arm:~# MARKER='PTNX''TYOZBU' run 'echo 1080000 1080000 > /sys/kernel/mva_tesst/regulators/buck2_set'
PTNXTYOZBUPTNXTYOZBU 0
root@arm:~# echo 'NGKV''ESCSLC'
NGKVESCSLC
root@arm:~# MARKER='WWPJ''ZQKYOL' run 'i2cget -y -f 1 0x4b 0x10'
WWPJZQKYOL0x26
WWPJZQKYOL 0
root@arm:~# echo 'MUQN''BMQZPG'
MUQNBMQZPG
root@arm:~# MARKER='PCQH''TAUKCT' run 'echo 1090000 1090000 > /sys/kernel/mva_tesst/regulators/buck2_set'
PCQHTAUKCTPCQHTAUKCT 0
root@arm:~# echo 'JUBN''FJFOAX'
JUBNFJFOAX
root@arm:~# MARKER='FKYL''KKGFFU' run 'i2cget -y -f 1 0x4b 0x10'
FKYLKKGFFU0x27
FKYLKKGFFU 0
root@arm:~# echo 'BYQZ''YGUWCQ'
BYQZYGUWCQ
root@arm:~# MARKER='NWWT''SAMLPX' run 'echo 1100000 1100000 > /sys/kernel/mva_tesst/regulators/buck2_set'
NWWTSAMLPXNWWTSAMLPX 0
root@arm:~# echo 'USGS''VWPHET'
USGSVWPHET
root@arm:~# MARKER='VFHU''XQLOON' run 'i2cget -y -f 1 0x4b 0x10'
VFHUXQLOON0x28
VFHUXQLOON 0
root@arm:~# echo 'KWCU''TMJYVP'
KWCUTMJYVP
root@arm:~# MARKER='JHZA''YZKEHT' run 'echo 1110000 1110000 > /sys/kernel/mva_tesst/regulators/buck2_set'
JHZAYZKEHTJHZAYZKEHT 0
root@arm:~# echo 'SYJC''JQQVHS'
SYJCJQQVHS
root@arm:~# MARKER='JLJT''OUXBLA' run 'i2cget -y -f 1 0x4b 0x10'
JLJTOUXBLA0x29
JLJTOUXBLA 0
root@arm:~# echo 'UTZV''WYLCWU'
UTZVWYLCWU
root@arm:~# MARKER='WFNX''XGJVVC' run 'echo 1120000 1120000 > /sys/kernel/mva_tesst/regulators/buck2_set'
WFNXXGJVVCWFNXXGJVVC 0
root@arm:~# echo 'SBNY''BOWCHY'
SBNYBOWCHY
root@arm:~# MARKER='HCQU''ANBKGM' run 'i2cget -y -f 1 0x4b 0x10'
HCQUANBKGM0x2a
HCQUANBKGM 0
root@arm:~# echo 'PSSA''FOTWVA'
PSSAFOTWVA
root@arm:~# MARKER='SLVJ''YUKHGE' run 'echo 1130000 1130000 > /sys/kernel/mva_tesst/regulators/buck2_set'
SLVJYUKHGESLVJYUKHGE 0
root@arm:~# echo 'UGKT''FZMYUS'
UGKTFZMYUS
root@arm:~# MARKER='YGWN''SCOKNA' run 'i2cget -y -f 1 0x4b 0x10'
YGWNSCOKNA0x2b
YGWNSCOKNA 0
root@arm:~# echo 'YNKX''KHFAHP'
YNKXKHFAHP
root@arm:~# MARKER='JXUH''KNKOWY' run 'echo 1140000 1140000 > /sys/kernel/mva_tesst/regulators/buck2_set'
JXUHKNKOWYJXUHKNKOWY 0
root@arm:~# echo 'JPUS''KOZBPQ'
JPUSKOZBPQ
root@arm:~# MARKER='EUMO''UTBLTB' run 'i2cget -y -f 1 0x4b 0x10'
EUMOUTBLTB0x2c
EUMOUTBLTB 0
root@arm:~# echo 'MKMZ''PVYYWU'
MKMZPVYYWU
root@arm:~# MARKER='HQKX''EMSKXG' run 'echo 1150000 1150000 > /sys/kernel/mva_tesst/regulators/buck2_set'
HQKXEMSKXGHQKXEMSKXG 0
root@arm:~# echo 'TUUU''XXBPHA'
TUUUXXBPHA
root@arm:~# MARKER='KUNW''PQKWLK' run 'i2cget -y -f 1 0x4b 0x10'
KUNWPQKWLK0x2d
KUNWPQKWLK 0
root@arm:~# echo 'XXJV''SBYVWM'
XXJVSBYVWM
root@arm:~# MARKER='TGBA''BEKECG' run 'echo 1160000 1160000 > /sys/kernel/mva_tesst/regulators/buck2_set'
TGBABEKECGTGBABEKECG 0
root@arm:~# echo 'KBVZ''TGXKJZ'
KBVZTGXKJZ
root@arm:~# MARKER='AZLC''XQAAKV' run 'i2cget -y -f 1 0x4b 0x10'
AZLCXQAAKV0x2e
AZLCXQAAKV 0
root@arm:~# echo 'HWWZ''LBVEOM'
HWWZLBVEOM
root@arm:~# MARKER='YBLQ''JKSGKZ' run 'echo 1170000 1170000 > /sys/kernel/mva_tesst/regulators/buck2_set'
YBLQJKSGKZYBLQJKSGKZ 0
root@arm:~# echo 'HAOU''YNYFEW'
HAOUYNYFEW
root@arm:~# MARKER='ANQG''CWZVLU' run 'i2cget -y -f 1 0x4b 0x10'
ANQGCWZVLU0x2f
ANQGCWZVLU 0
root@arm:~# echo 'UBKJ''TUSFOL'
UBKJTUSFOL
root@arm:~# MARKER='ZEPE''KFZSQU' run 'echo 1180000 1180000 > /sys/kernel/mva_tesst/regulators/buck2_set'
ZEPEKFZSQUZEPEKFZSQU 0
root@arm:~# echo 'BVNQ''PWBVQG'
BVNQPWBVQG
root@arm:~# MARKER='YEHX''FTQWJB' run 'i2cget -y -f 1 0x4b 0x10'
YEHXFTQWJB0x30
YEHXFTQWJB 0
root@arm:~# echo 'SHXG''WHEMSC'
SHXGWHEMSC
root@arm:~# MARKER='ZXPW''CSJXNZ' run 'echo 1190000 1190000 > /sys/kernel/mva_tesst/regulators/buck2_set'
ZXPWCSJXNZZXPWCSJXNZ 0
root@arm:~# echo 'KPSJ''LGYCTK'
KPSJLGYCTK
root@arm:~# MARKER='JZOS''VLNNYO' run 'i2cget -y -f 1 0x4b 0x10'
JZOSVLNNYO0x31
JZOSVLNNYO 0
root@arm:~# echo 'ASAV''YUMKQC'
ASAVYUMKQC
root@arm:~# MARKER='SZGB''QAWWMC' run 'echo 1200000 1200000 > /sys/kernel/mva_tesst/regulators/buck2_set'
SZGBQAWWMCSZGBQAWWMC 0
root@arm:~# echo 'AJYQ''QNGOOQ'
AJYQQNGOOQ
root@arm:~# MARKER='QWYP''BXKWQZ' run 'i2cget -y -f 1 0x4b 0x10'
QWYPBXKWQZ0x32
QWYPBXKWQZ 0
root@arm:~# echo 'NSCS''XFNLGE'
NSCSXFNLGE
root@arm:~# MARKER='MFXW''SJNJKZ' run 'echo 1210000 1210000 > /sys/kernel/mva_tesst/regulators/buck2_set'
MFXWSJNJKZMFXWSJNJKZ 0
root@arm:~# echo 'THVH''QAXYQY'
THVHQAXYQY
root@arm:~# MARKER='QZJO''EAOKYT' run 'i2cget -y -f 1 0x4b 0x10'
QZJOEAOKYT0x33
QZJOEAOKYT 0
root@arm:~# echo 'AEJZ''LTNSML'
AEJZLTNSML
root@arm:~# MARKER='LYUZ''EMUFFN' run 'echo 1220000 1220000 > /sys/kernel/mva_tesst/regulators/buck2_set'
LYUZEMUFFNLYUZEMUFFN 0
root@arm:~# echo 'FYPH''WNFJOP'
FYPHWNFJOP
root@arm:~# MARKER='ZCGU''MJVLXY' run 'i2cget -y -f 1 0x4b 0x10'
ZCGUMJVLXY0x34
ZCGUMJVLXY 0
root@arm:~# echo 'HMTW''JMKKOJ'
HMTWJMKKOJ
root@arm:~# MARKER='WGFG''CJXYKT' run 'echo 1230000 1230000 > /sys/kernel/mva_tesst/regulators/buck2_set'
WGFGCJXYKTWGFGCJXYKT 0
root@arm:~# echo 'JPPW''LGYESJ'
JPPWLGYESJ
root@arm:~# MARKER='XMFG''YPOPYP' run 'i2cget -y -f 1 0x4b 0x10'
XMFGYPOPYP0x35
XMFGYPOPYP 0
root@arm:~# echo 'FXPU''NJTJEN'
FXPUNJTJEN
root@arm:~# MARKER='XATU''JHGJPU' run 'echo 1240000 1240000 > /sys/kernel/mva_tesst/regulators/buck2_set'
XATUJHGJPUXATUJHGJPU 0
root@arm:~# echo 'CLGV''OMXEJS'
CLGVOMXEJS
root@arm:~# MARKER='VEWX''SKHZBK' run 'i2cget -y -f 1 0x4b 0x10'
VEWXSKHZBK0x36
VEWXSKHZBK 0
root@arm:~# echo 'CAGT''JXLZUT'
CAGTJXLZUT
root@arm:~# MARKER='FJSY''FEVPEF' run 'echo 1250000 1250000 > /sys/kernel/mva_tesst/regulators/buck2_set'
FJSYFEVPEFFJSYFEVPEF 0
root@arm:~# echo 'EVBE''WEYSWJ'
EVBEWEYSWJ
root@arm:~# MARKER='TKBJ''VZFUHK' run 'i2cget -y -f 1 0x4b 0x10'
TKBJVZFUHK0x37
TKBJVZFUHK 0
root@arm:~# echo 'ZXSU''NMVPYB'
ZXSUNMVPYB
root@arm:~# MARKER='NYNX''TWUUCB' run 'echo 1260000 1260000 > /sys/kernel/mva_tesst/regulators/buck2_set'
NYNXTWUUCBNYNXTWUUCB 0
root@arm:~# echo 'HWHX''SWVOGA'
HWHXSWVOGA
root@arm:~# MARKER='TMXO''USPELS' run 'i2cget -y -f 1 0x4b 0x10'
TMXOUSPELS0x38
TMXOUSPELS 0
root@arm:~# echo 'FNNE''BBPPSW'
FNNEBBPPSW
root@arm:~# MARKER='OOWL''FCXLBJ' run 'echo 1270000 1270000 > /sys/kernel/mva_tesst/regulators/buck2_set'
OOWLFCXLBJOOWLFCXLBJ 0
root@arm:~# echo 'PZEN''UFPUNX'
PZENUFPUNX
root@arm:~# MARKER='NLXX''ZMQWZG' run 'i2cget -y -f 1 0x4b 0x10'
NLXXZMQWZG0x39
NLXXZMQWZG 0
root@arm:~# echo 'QCWH''VHXCCF'
QCWHVHXCCF
root@arm:~# MARKER='FVJQ''GANEHO' run 'echo 1280000 1280000 > /sys/kernel/mva_tesst/regulators/buck2_set'
FVJQGANEHOFVJQGANEHO 0
root@arm:~# echo 'HFQK''WEKQZX'
HFQKWEKQZX
root@arm:~# MARKER='BTBO''NALWFH' run 'i2cget -y -f 1 0x4b 0x10'
BTBONALWFH0x3a
BTBONALWFH 0
root@arm:~# echo 'ABZB''ANMXQT'
ABZBANMXQT
root@arm:~# MARKER='CBEV''ESECPV' run 'echo 1290000 1290000 > /sys/kernel/mva_tesst/regulators/buck2_set'
CBEVESECPVCBEVESECPV 0
root@arm:~# echo 'GXVA''ESOBCP'
GXVAESOBCP
root@arm:~# MARKER='JZUG''HCOKVJ' run 'i2cget -y -f 1 0x4b 0x10'
JZUGHCOKVJ0x3b
JZUGHCOKVJ 0
root@arm:~# echo 'GEPZ''NOSHXP'
GEPZNOSHXP
root@arm:~# MARKER='VAFL''OFXMZL' run 'echo 1300000 1300000 > /sys/kernel/mva_tesst/regulators/buck2_set'
VAFLOFXMZLVAFLOFXMZL 0
root@arm:~# echo 'EOGG''HXFHEV'
EOGGHXFHEV
root@arm:~# MARKER='UVFM''PPZWNW' run 'i2cget -y -f 1 0x4b 0x10'
UVFMPPZWNW0x3c
UVFMPPZWNW 0
root@arm:~# echo 'PEWZ''XABUUK'
PEWZXABUUK
root@arm:~# MARKER='CBBO''XBCJYG' run 'grep -r -l rohm,bd71847 /proc/device-tree  | sed '"'"'s![^/]*$!!'"'"''
CBBOXBCJYG/proc/device-tree/ocp/interconnect@48000000/segment@0/target-module@2a000/i2c@0/pmic@4b/
CBBOXBCJYG 0
root@arm:~# echo 'ZTHA''LWQMTM'
ZTHALWQMTM
root@arm:~# MARKER='OZUA''ZGLAKG' run 'test -f /proc/device-tree/ocp/interconnectt\@48000000/segment\@0/target-module\@2a000/i2c\@0/pmic\@4b/regulators/BUCK3/rohmm,no-regulator-enable-control ;echo $?'
OZUAZGLAKG0
OZUAZGLAKG 0
root@arm:~# echo 'FQWH''FJEXLK'
FQWHFJEXLK
root@arm:~# MARKER='SKEN''HECBNY' run 'echo 700000 700000 > /sys/kernel/mva_test//regulators/buck3_set'
SKENHECBNYSKENHECBNY 0
root@arm:~# echo 'UXNQ''GMUUHX'
UXNQGMUUHX
root@arm:~# MARKER='VXFH''XOOYYF' run 'i2cget -y -f 1 0x4b 0x14'
VXFHXOOYYF0x00
VXFHXOOYYF 0
root@arm:~# echo 'WVPA''YOGUXO'
WVPAYOGUXO
root@arm:~# MARKER='YWBG''TCBMOW' run 'echo 800000 800000 > /sys/kernel/mva_test//regulators/buck3_set'
YWBGTCBMOWYWBGTCBMOW 0
root@arm:~# echo 'WBUA''USZLKT'
WBUAUSZLKT
root@arm:~# MARKER='TCLQ''WJOWPJ' run 'i2cget -y -f 1 0x4b 0x14'
TCLQWJOWPJ0x01
TCLQWJOWPJ 0
root@arm:~# echo 'QMOA''CMYFEM'
QMOACMYFEM
root@arm:~# MARKER='ZWSA''JXYFXP' run 'echo 900000 900000 > /sys/kernel/mva_test//regulators/buck3_set'
ZWSAJXYFXPZWSAJXYFXP 0
root@arm:~# echo 'COSC''QSYWQQ'
COSCQSYWQQ
root@arm:~# MARKER='AMSV''SXHSUO' run 'i2cget -y -f 1 0x4b 0x14'
AMSVSXHSUO0x02
AMSVSXHSUO 0
root@arm:~# echo 'HAYW''NBEESH'
HAYWNBEESH
root@arm:~# MARKER='HESH''XMMKQY' run 'echo 1000000 1000000 > /sys/kernel/mva_tesst/regulators/buck3_set'
HESHXMMKQYHESHXMMKQY 0
root@arm:~# echo 'UFJJ''TCMYJT'
UFJJTCMYJT
root@arm:~# MARKER='CJAU''YZTBUB' run 'i2cget -y -f 1 0x4b 0x14'
CJAUYZTBUB0x03
CJAUYZTBUB 0
root@arm:~# echo 'CYKM''OLYKYM'
CYKMOLYKYM
root@arm:~# MARKER='UOFM''SGJJPV' run 'echo 1050000 1050000 > /sys/kernel/mva_tesst/regulators/buck3_set'
UOFMSGJJPVUOFMSGJJPV 0
root@arm:~# echo 'WPME''QYSBNZ'
WPMEQYSBNZ
root@arm:~# MARKER='WOUC''LVVLSV' run 'i2cget -y -f 1 0x4b 0x14'
WOUCLVVLSV0x04
WOUCLVVLSV 0
root@arm:~# echo 'BFQP''NJAHPK'
BFQPNJAHPK
root@arm:~# MARKER='TLYK''PTZTHP' run 'echo 1100000 1100000 > /sys/kernel/mva_tesst/regulators/buck3_set'
TLYKPTZTHPTLYKPTZTHP 0
root@arm:~# echo 'KGAO''AXHKAJ'
KGAOAXHKAJ
root@arm:~# MARKER='YGMU''LNSPAS' run 'i2cget -y -f 1 0x4b 0x14'
YGMULNSPAS0x05
YGMULNSPAS 0
root@arm:~# echo 'FEKQ''NLGUYV'
FEKQNLGUYV
root@arm:~# MARKER='SAFO''PGFHGZ' run 'echo 1200000 1200000 > /sys/kernel/mva_tesst/regulators/buck3_set'
SAFOPGFHGZSAFOPGFHGZ 0
root@arm:~# echo 'MLKM''XLBSGO'
MLKMXLBSGO
root@arm:~# MARKER='AXVH''QYZHFC' run 'i2cget -y -f 1 0x4b 0x14'
AXVHQYZHFC0x06
AXVHQYZHFC 0
root@arm:~# echo 'PCPE''BXQSSG'
PCPEBXQSSG
root@arm:~# MARKER='ZJXH''OBQJBN' run 'echo 1350000 1350000 > /sys/kernel/mva_tesst/regulators/buck3_set'
ZJXHOBQJBNZJXHOBQJBN 0
root@arm:~# echo 'PFVU''AYHCEN'
PFVUAYHCEN
root@arm:~# MARKER='EVAY''NEELHB' run 'i2cget -y -f 1 0x4b 0x14'
EVAYNEELHB0x07
EVAYNEELHB 0
root@arm:~# echo 'UJGK''LJCMVO'
UJGKLJCMVO
root@arm:~# MARKER='MNGP''ELLCZW' run 'echo 550000 550000 > /sys/kernel/mva_test//regulators/buck3_set'
MNGPELLCZWMNGPELLCZW 0
root@arm:~# echo 'THMX''QVSYVY'
THMXQVSYVY
root@arm:~# MARKER='YANJ''FHTOXJ' run 'i2cget -y -f 1 0x4b 0x14'
YANJFHTOXJ0x40
YANJFHTOXJ 0
root@arm:~# echo 'PZFS''KJUQTZ'
PZFSKJUQTZ
root@arm:~# MARKER='FNGS''BUNAAG' run 'echo 600000 600000 > /sys/kernel/mva_test//regulators/buck3_set'
FNGSBUNAAGFNGSBUNAAG 0
root@arm:~# echo 'XNHX''LSELTB'
XNHXLSELTB
root@arm:~# MARKER='FLSL''ZSVXUP' run 'i2cget -y -f 1 0x4b 0x14'
FLSLZSVXUP0x41
FLSLZSVXUP 0
root@arm:~# echo 'XUCJ''MCNPCL'
XUCJMCNPCL
root@arm:~# MARKER='CBZW''CCCCGM' run 'echo 650000 650000 > /sys/kernel/mva_test//regulators/buck3_set'
CBZWCCCCGMCBZWCCCCGM 0
root@arm:~# echo 'UQXB''NMPUAF'
UQXBNMPUAF
root@arm:~# MARKER='TZNZ''WNCWEY' run 'i2cget -y -f 1 0x4b 0x14'
TZNZWNCWEY0x42
TZNZWNCWEY 0
root@arm:~# echo 'XMCV''WZQPQY'
XMCVWZQPQY
root@arm:~# MARKER='LBSO''NWONOY' run 'echo 700000 700000 > /sys/kernel/mva_test//regulators/buck3_set'
LBSONWONOYLBSONWONOY 0
root@arm:~# echo 'WCJY''FMMGGS'
WCJYFMMGGS
root@arm:~# MARKER='XXAQ''EYMJPL' run 'i2cget -y -f 1 0x4b 0x14'
XXAQEYMJPL0x00
XXAQEYMJPL 0
root@arm:~# echo 'GVPO''POVQWX'
GVPOPOVQWX
root@arm:~# MARKER='XQSO''WSNVYV' run 'echo 750000 750000 > /sys/kernel/mva_test//regulators/buck3_set'
XQSOWSNVYVXQSOWSNVYV 0
root@arm:~# echo 'XQPB''ZUFOAQ'
XQPBZUFOAQ
root@arm:~# MARKER='MXEJ''EFSKEF' run 'i2cget -y -f 1 0x4b 0x14'
MXEJEFSKEF0x44
MXEJEFSKEF 0
root@arm:~# echo 'XTPB''ZJWXEV'
XTPBZJWXEV
root@arm:~# MARKER='CJXY''CJMHBB' run 'echo 800000 800000 > /sys/kernel/mva_test//regulators/buck3_set'
CJXYCJMHBBCJXYCJMHBB 0
root@arm:~# echo 'HXHA''WWVSXJ'
HXHAWWVSXJ
root@arm:~# MARKER='XEQK''KVXQZV' run 'i2cget -y -f 1 0x4b 0x14'
XEQKKVXQZV0x01
XEQKKVXQZV 0
root@arm:~# echo 'XWWS''KUHVUX'
XWWSKUHVUX
root@arm:~# MARKER='WUPY''PAPUTS' run 'echo 850000 850000 > /sys/kernel/mva_test//regulators/buck3_set'
WUPYPAPUTSWUPYPAPUTS 0
root@arm:~# echo 'ZYFP''TKGMVY'
ZYFPTKGMVY
root@arm:~# MARKER='BGAN''SVTSUL' run 'i2cget -y -f 1 0x4b 0x14'
BGANSVTSUL0x46
BGANSVTSUL 0
root@arm:~# echo 'ANFG''ONKPVJ'
ANFGONKPVJ
root@arm:~# MARKER='XSZJ''WCYMVJ' run 'echo 900000 900000 > /sys/kernel/mva_test//regulators/buck3_set'
XSZJWCYMVJXSZJWCYMVJ 0
root@arm:~# echo 'HMKG''KMVEVJ'
HMKGKMVEVJ
root@arm:~# MARKER='TFHY''HJTJWF' run 'i2cget -y -f 1 0x4b 0x14'
TFHYHJTJWF0x02
TFHYHJTJWF 0
root@arm:~# echo 'ZBPT''NNFHBV'
ZBPTNNFHBV
root@arm:~# MARKER='CWOK''BYWTHA' run 'echo 675000 675000 > /sys/kernel/mva_test//regulators/buck3_set'
CWOKBYWTHACWOKBYWTHA 0
root@arm:~# echo 'SYUP''LGFHXE'
SYUPLGFHXE
root@arm:~# MARKER='AFCO''NBYHJQ' run 'i2cget -y -f 1 0x4b 0x14'
AFCONBYHJQ0x80
AFCONBYHJQ 0
root@arm:~# echo 'UTOQ''LPEUQW'
UTOQLPEUQW
root@arm:~# MARKER='UFQB''TEGJYV' run 'echo 775000 775000 > /sys/kernel/mva_test//regulators/buck3_set'
UFQBTEGJYVUFQBTEGJYV 0
root@arm:~# echo 'NZVO''ALMKCV'
NZVOALMKCV
root@arm:~# MARKER='PZQO''AQBMJK' run 'i2cget -y -f 1 0x4b 0x14'
PZQOAQBMJK0x81
PZQOAQBMJK 0
root@arm:~# echo 'ZAJA''SZHWTN'
ZAJASZHWTN
root@arm:~# MARKER='CAZX''OFHWXE' run 'echo 875000 875000 > /sys/kernel/mva_test//regulators/buck3_set'
CAZXOFHWXECAZXOFHWXE 0
root@arm:~# echo 'FOJW''QLGXOC'
FOJWQLGXOC
root@arm:~# MARKER='NQQL''PXJCCM' run 'i2cget -y -f 1 0x4b 0x14'
NQQLPXJCCM0x82
NQQLPXJCCM 0
root@arm:~# echo 'CBWA''KYCKFK'
CBWAKYCKFK
root@arm:~# MARKER='GALU''NSHXSO' run 'echo 975000 975000 > /sys/kernel/mva_test//regulators/buck3_set'
GALUNSHXSOGALUNSHXSO 0
root@arm:~# echo 'OJZO''JBLJKU'
OJZOJBLJKU
root@arm:~# MARKER='PBKV''KEYLGN' run 'i2cget -y -f 1 0x4b 0x14'
PBKVKEYLGN0x83
PBKVKEYLGN 0
root@arm:~# echo 'KBAC''HZMEQX'
KBACHZMEQX
root@arm:~# MARKER='MYTV''LTAWYX' run 'echo 1025000 1025000 > /sys/kernel/mva_tesst/regulators/buck3_set'
MYTVLTAWYXMYTVLTAWYX 0
root@arm:~# echo 'LOFO''GMKSSJ'
LOFOGMKSSJ
root@arm:~# MARKER='LNZA''QFYQJF' run 'i2cget -y -f 1 0x4b 0x14'
LNZAQFYQJF0x84
LNZAQFYQJF 0
root@arm:~# echo 'TUOU''OHQKKX'
TUOUOHQKKX
root@arm:~# MARKER='WPYQ''YSKBWX' run 'echo 1075000 1075000 > /sys/kernel/mva_tesst/regulators/buck3_set'
WPYQYSKBWXWPYQYSKBWX 0
root@arm:~# echo 'YSHG''VEEOPM'
YSHGVEEOPM
root@arm:~# MARKER='LUYW''LETSLL' run 'i2cget -y -f 1 0x4b 0x14'
LUYWLETSLL0x85
LUYWLETSLL 0
root@arm:~# echo 'MZSY''KVFJNB'
MZSYKVFJNB
root@arm:~# MARKER='UGLU''ZAVKFP' run 'echo 1175000 1175000 > /sys/kernel/mva_tesst/regulators/buck3_set'
UGLUZAVKFPUGLUZAVKFP 0
root@arm:~# echo 'JVHQ''EXCLBG'
JVHQEXCLBG
root@arm:~# MARKER='SKOC''NEXPVB' run 'i2cget -y -f 1 0x4b 0x14'
SKOCNEXPVB0x86
SKOCNEXPVB 0
root@arm:~# echo 'GNPP''XMNXNC'
GNPPXMNXNC
root@arm:~# MARKER='MWPG''PKYUAO' run 'echo 1325000 1325000 > /sys/kernel/mva_tesst/regulators/buck3_set'
MWPGPKYUAOMWPGPKYUAO 0
root@arm:~# echo 'HZPW''UJYPAV'
HZPWUJYPAV
root@arm:~# MARKER='ESLT''OOYGQW' run 'i2cget -y -f 1 0x4b 0x14'
ESLTOOYGQW0x87
ESLTOOYGQW 0
root@arm:~# echo 'PVLK''GNKBWG'
PVLKGNKBWG
root@arm:~# MARKER='AMGX''COGHSS' run 'grep -r -l rohm,bd71847 /proc/device-tree  | sed '"'"'s![^/]*$!!'"'"''
AMGXCOGHSS/proc/device-tree/ocp/interconnect@48000000/segment@0/target-module@2a000/i2c@0/pmic@4b/
AMGXCOGHSS 0
root@arm:~# echo 'BZCF''JAMJFP'
BZCFJAMJFP
root@arm:~# MARKER='HTHS''SEXCNY' run 'test -f /proc/device-tree/ocp/interconnectt\@48000000/segment\@0/target-module\@2a000/i2c\@0/pmic\@4b/regulators/BUCK4/rohmm,no-regulator-enable-control ;echo $?'
HTHSSEXCNY1
HTHSSEXCNY 0
root@arm:~# echo 'XBWS''WVNVLB'
XBWSWVNVLB
root@arm:~# MARKER='NVTO''WMXZWX' run 'i2cget -y -f 1 0x4b 0xa'
NVTOWMXZWX0x02
NVTOWMXZWX 0
root@arm:~# echo 'KGSX''JVAVCN'
KGSXJVAVCN
root@arm:~# MARKER='EFOW''SMQFWH' run 'echo 3000000 3000000 > /sys/kernel/mva_tesst/regulators/buck4_set'
EFOWSMQFWHEFOWSMQFWH 0
root@arm:~# echo 'PJKW''BFNMZH'
PJKWBFNMZH
root@arm:~# MARKER='EASJ''YKHZEO' run 'i2cget -y -f 1 0x4b 0x15'
EASJYKHZEO0x00
EASJYKHZEO 0
root@arm:~# echo 'TALQ''LSKMPA'
TALQLSKMPA
root@arm:~# MARKER='YWJV''YNBUFO' run 'echo 3100000 3100000 > /sys/kernel/mva_tesst/regulators/buck4_set'
YWJVYNBUFOYWJVYNBUFO 0
root@arm:~# echo 'LXPQ''UQCHSN'
LXPQUQCHSN
root@arm:~# MARKER='CMXP''KJKYYK' run 'i2cget -y -f 1 0x4b 0x15'
CMXPKJKYYK0x01
CMXPKJKYYK 0
root@arm:~# echo 'XHZY''MEANFN'
XHZYMEANFN
root@arm:~# MARKER='JWNO''QAYVKG' run 'echo 3200000 3200000 > /sys/kernel/mva_tesst/regulators/buck4_set'
JWNOQAYVKGJWNOQAYVKG 0
root@arm:~# echo 'ATNG''JZTWNQ'
ATNGJZTWNQ
root@arm:~# MARKER='VZPS''HSTUPB' run 'i2cget -y -f 1 0x4b 0x15'
VZPSHSTUPB0x02
VZPSHSTUPB 0
root@arm:~# echo 'OLCX''XETKMG'
OLCXXETKMG
root@arm:~# MARKER='KGJM''BOAQBM' run 'echo 3300000 3300000 > /sys/kernel/mva_tesst/regulators/buck4_set'
KGJMBOAQBMKGJMBOAQBM 0
root@arm:~# echo 'GMGH''YZOLYV'
GMGHYZOLYV
root@arm:~# MARKER='FTXH''TGYWMY' run 'i2cget -y -f 1 0x4b 0x15'
FTXHTGYWMY0x03
FTXHTGYWMY 0
root@arm:~# echo 'PFKY''COLCBM'
PFKYCOLCBM
root@arm:~# MARKER='CVJG''MXUMOS' run 'echo 2600000 2600000 > /sys/kernel/mva_tesst/regulators/buck4_set'
CVJGMXUMOSCVJGMXUMOS 0
root@arm:~# echo 'WTMA''QUFFGG'
WTMAQUFFGG
root@arm:~# MARKER='EVXE''FVSCTL' run 'i2cget -y -f 1 0x4b 0x15'
EVXEFVSCTL0x40
EVXEFVSCTL 0
root@arm:~# echo 'TBQB''TMUEJT'
TBQBTMUEJT
root@arm:~# MARKER='QNLL''JNHWOP' run 'echo 2700000 2700000 > /sys/kernel/mva_tesst/regulators/buck4_set'
QNLLJNHWOPQNLLJNHWOP 0
root@arm:~# echo 'BKXZ''TPBEXX'
BKXZTPBEXX
root@arm:~# MARKER='HEUW''LOZFPO' run 'i2cget -y -f 1 0x4b 0x15'
HEUWLOZFPO0x41
HEUWLOZFPO 0
root@arm:~# echo 'LACS''CUUTJZ'
LACSCUUTJZ
root@arm:~# MARKER='ZSAU''TLHCXE' run 'echo 2800000 2800000 > /sys/kernel/mva_tesst/regulators/buck4_set'
ZSAUTLHCXEZSAUTLHCXE 0
root@arm:~# echo 'AWMW''BBSTFF'
AWMWBBSTFF
root@arm:~# MARKER='OYEZ''VJJLVZ' run 'i2cget -y -f 1 0x4b 0x15'
OYEZVJJLVZ0x42
OYEZVJJLVZ 0
root@arm:~# echo 'CVNF''KZSNTJ'
CVNFKZSNTJ
root@arm:~# MARKER='MPMY''NBOVMW' run 'echo 2900000 2900000 > /sys/kernel/mva_tesst/regulators/buck4_set'
MPMYNBOVMWMPMYNBOVMW 0
root@arm:~# echo 'ATSK''GFTUYV'
ATSKGFTUYV
root@arm:~# MARKER='WVBQ''MNUYVL' run 'i2cget -y -f 1 0x4b 0x15'
WVBQMNUYVL0x43
WVBQMNUYVL 0
root@arm:~# echo 'HUUM''FYEJHH'
HUUMFYEJHH
root@arm:~# MARKER='KTSY''CEWCNQ' run 'grep -r -l rohm,bd71847 /proc/device-tree  | sed '"'"'s![^/]*$!!'"'"''
KTSYCEWCNQ/proc/device-tree/ocp/interconnect@48000000/segment@0/target-module@2a000/i2c@0/pmic@4b/
KTSYCEWCNQ 0
root@arm:~# echo 'CVQJ''XVJLCP'
CVQJXVJLCP
root@arm:~# MARKER='CSOQ''LYFWLW' run 'test -f /proc/device-tree/ocp/interconnectt\@48000000/segment\@0/target-module\@2a000/i2c\@0/pmic\@4b/regulators/BUCK5/rohmm,no-regulator-enable-control ;echo $?'
CSOQLYFWLW1
CSOQLYFWLW 0
root@arm:~# echo 'UMPG''AKLLJC'
UMPGAKLLJC
root@arm:~# MARKER='SWXB''KJQQEL' run 'i2cget -y -f 1 0x4b 0xb'
SWXBKJQQEL0x02
SWXBKJQQEL 0
root@arm:~# echo 'HVUG''LJCYET'
HVUGLJCYET
root@arm:~# MARKER='NAGX''UYXPUA' run 'echo 1605000 1605000 > /sys/kernel/mva_tesst/regulators/buck5_set'
NAGXUYXPUANAGXUYXPUA 0
root@arm:~# echo 'LMUH''BJEOQY'
LMUHBJEOQY
root@arm:~# MARKER='FXCN''XXLWPS' run 'i2cget -y -f 1 0x4b 0x16'
FXCNXXLWPS0x00
FXCNXXLWPS 0
root@arm:~# echo 'STVZ''GWSWMC'
STVZGWSWMC
root@arm:~# MARKER='VWWS''KBSVKM' run 'echo 1695000 1695000 > /sys/kernel/mva_tesst/regulators/buck5_set'
VWWSKBSVKMVWWSKBSVKM 0
root@arm:~# echo 'USEZ''OHLHYM'
USEZOHLHYM
root@arm:~# MARKER='ENUU''TVLNOC' run 'i2cget -y -f 1 0x4b 0x16'
ENUUTVLNOC0x01
ENUUTVLNOC 0
root@arm:~# echo 'KOFP''BMPJTP'
KOFPBMPJTP
root@arm:~# MARKER='KHFS''KPFVMW' run 'echo 1755000 1755000 > /sys/kernel/mva_tesst/regulators/buck5_set'
KHFSKPFVMWKHFSKPFVMW 0
root@arm:~# echo 'CYTZ''ABQETJ'
CYTZABQETJ
root@arm:~# MARKER='TQOC''WNTBOL' run 'i2cget -y -f 1 0x4b 0x16'
TQOCWNTBOL0x02
TQOCWNTBOL 0
root@arm:~# echo 'CEXJ''MJYMKL'
CEXJMJYMKL
root@arm:~# MARKER='KHGJ''FWYWWX' run 'echo 1800000 1800000 > /sys/kernel/mva_tesst/regulators/buck5_set'
KHGJFWYWWXKHGJFWYWWX 0
root@arm:~# echo 'KAZV''NEBFTS'
KAZVNEBFTS
root@arm:~# MARKER='YBCP''LECCXE' run 'i2cget -y -f 1 0x4b 0x16'
YBCPLECCXE0x03
YBCPLECCXE 0
root@arm:~# echo 'TQAX''CVETJG'
TQAXCVETJG
root@arm:~# MARKER='GQOP''ZOCABU' run 'echo 1845000 1845000 > /sys/kernel/mva_tesst/regulators/buck5_set'
GQOPZOCABUGQOPZOCABU 0
root@arm:~# echo 'MOVB''QSQSSM'
MOVBQSQSSM
root@arm:~# MARKER='SNWU''UMPVQB' run 'i2cget -y -f 1 0x4b 0x16'
SNWUUMPVQB0x04
SNWUUMPVQB 0
root@arm:~# echo 'OMTG''JUVBSA'
OMTGJUVBSA
root@arm:~# MARKER='OHZH''NLCFKQ' run 'echo 1905000 1905000 > /sys/kernel/mva_tesst/regulators/buck5_set'
OHZHNLCFKQOHZHNLCFKQ 0
root@arm:~# echo 'FEXZ''EYWQQK'
FEXZEYWQQK
root@arm:~# MARKER='ZSWW''PFLBYM' run 'i2cget -y -f 1 0x4b 0x16'
ZSWWPFLBYM0x05
ZSWWPFLBYM 0
root@arm:~# echo 'MVHH''WTXVJZ'
MVHHWTXVJZ
root@arm:~# MARKER='SOXJ''QBVQWS' run 'echo 1950000 1950000 > /sys/kernel/mva_tesst/regulators/buck5_set'
SOXJQBVQWSSOXJQBVQWS 0
root@arm:~# echo 'EVLN''YHXFAJ'
EVLNYHXFAJ
root@arm:~# MARKER='BOHW''STVGVM' run 'i2cget -y -f 1 0x4b 0x16'
BOHWSTVGVM0x06
BOHWSTVGVM 0
root@arm:~# echo 'UKAN''YSEMQA'
UKANYSEMQA
root@arm:~# MARKER='XKZP''YMBFPN' run 'echo 1995000 1995000 > /sys/kernel/mva_tesst/regulators/buck5_set'
XKZPYMBFPNXKZPYMBFPN 0
root@arm:~# echo 'XGPU''EXKCHB'
XGPUEXKCHB
root@arm:~# MARKER='KWTX''WEMXEX' run 'i2cget -y -f 1 0x4b 0x16'
KWTXWEMXEX0x07
KWTXWEMXEX 0
root@arm:~# echo 'FOQG''EXKJAA'
FOQGEXKJAA
root@arm:~# MARKER='BKWH''SJGVVS' run 'grep -r -l rohm,bd71847 /proc/device-tree  | sed '"'"'s![^/]*$!!'"'"''
BKWHSJGVVS/proc/device-tree/ocp/interconnect@48000000/segment@0/target-module@2a000/i2c@0/pmic@4b/
BKWHSJGVVS 0
root@arm:~# echo 'TPGP''VYPKZQ'
TPGPVYPKZQ
root@arm:~# MARKER='CEMO''XJGGNV' run 'test -f /proc/device-tree/ocp/interconnectt\@48000000/segment\@0/target-module\@2a000/i2c\@0/pmic\@4b/regulators/BUCK6/rohmm,no-regulator-enable-control ;echo $?'
CEMOXJGGNV1
CEMOXJGGNV 0
root@arm:~# echo 'XFMO''SOMSOL'
XFMOSOMSOL
root@arm:~# MARKER='PAXN''KJBSJW' run 'i2cget -y -f 1 0x4b 0xc'
PAXNKJBSJW0x02
PAXNKJBSJW 0
root@arm:~# echo 'WSKW''HWETCH'
WSKWHWETCH
root@arm:~# MARKER='TUOC''PBQECS' run 'echo 800000 800000 > /sys/kernel/mva_test//regulators/buck6_set'
TUOCPBQECSTUOCPBQECS 0
root@arm:~# echo 'XNMC''EWZBFC'
XNMCEWZBFC
root@arm:~# MARKER='WQAK''VAVCNE' run 'i2cget -y -f 1 0x4b 0x17'
WQAKVAVCNE0x00
WQAKVAVCNE 0
root@arm:~# echo 'WWPO''NMHKQW'
WWPONMHKQW
root@arm:~# MARKER='UTPZ''BQVHKB' run 'echo 810000 810000 > /sys/kernel/mva_test//regulators/buck6_set'
UTPZBQVHKBUTPZBQVHKB 0
root@arm:~# echo 'KZWM''NGOZBA'
KZWMNGOZBA
root@arm:~# MARKER='VNKE''OVHQCX' run 'i2cget -y -f 1 0x4b 0x17'
VNKEOVHQCX0x01
VNKEOVHQCX 0
root@arm:~# echo 'PPWY''TMLOXF'
PPWYTMLOXF
root@arm:~# MARKER='UXPX''HWXBPU' run 'echo 820000 820000 > /sys/kernel/mva_test//regulators/buck6_set'
UXPXHWXBPUUXPXHWXBPU 0
root@arm:~# echo 'SLVF''QXNJQT'
SLVFQXNJQT
root@arm:~# MARKER='ZWOB''XSGVWS' run 'i2cget -y -f 1 0x4b 0x17'
ZWOBXSGVWS0x02
ZWOBXSGVWS 0
root@arm:~# echo 'QXGM''ZJVQHE'
QXGMZJVQHE
root@arm:~# MARKER='EASS''KLMCQP' run 'echo 830000 830000 > /sys/kernel/mva_test//regulators/buck6_set'
EASSKLMCQPEASSKLMCQP 0
root@arm:~# echo 'PMQC''WYAECV'
PMQCWYAECV
root@arm:~# MARKER='WLXC''NOCPBB' run 'i2cget -y -f 1 0x4b 0x17'
WLXCNOCPBB0x03
WLXCNOCPBB 0
root@arm:~# echo 'UMYL''AOBAEC'
UMYLAOBAEC
root@arm:~# MARKER='EOPV''MJLZVY' run 'echo 840000 840000 > /sys/kernel/mva_test//regulators/buck6_set'
EOPVMJLZVYEOPVMJLZVY 0
root@arm:~# echo 'PBOG''AABMTS'
PBOGAABMTS
root@arm:~# MARKER='OVQF''QCNYEU' run 'i2cget -y -f 1 0x4b 0x17'
OVQFQCNYEU0x04
OVQFQCNYEU 0
root@arm:~# echo 'OZUB''OGXLOF'
OZUBOGXLOF
root@arm:~# MARKER='LVEU''PWMFTM' run 'echo 850000 850000 > /sys/kernel/mva_test//regulators/buck6_set'
LVEUPWMFTMLVEUPWMFTM 0
root@arm:~# echo 'VFOH''OFLVHZ'
VFOHOFLVHZ
root@arm:~# MARKER='QXQM''LKEEJB' run 'i2cget -y -f 1 0x4b 0x17'
QXQMLKEEJB0x05
QXQMLKEEJB 0
root@arm:~# echo 'NHVC''KQWCBH'
NHVCKQWCBH
root@arm:~# MARKER='PSNK''XMXAUL' run 'echo 860000 860000 > /sys/kernel/mva_test//regulators/buck6_set'
PSNKXMXAULPSNKXMXAUL 0
root@arm:~# echo 'YWAG''HSPUGC'
YWAGHSPUGC
root@arm:~# MARKER='CBXZ''LGHUHK' run 'i2cget -y -f 1 0x4b 0x17'
CBXZLGHUHK0x06
CBXZLGHUHK 0
root@arm:~# echo 'YWYU''WVEOWX'
YWYUWVEOWX
root@arm:~# MARKER='QCSM''AOGGOB' run 'echo 870000 870000 > /sys/kernel/mva_test//regulators/buck6_set'
QCSMAOGGOBQCSMAOGGOB 0
root@arm:~# echo 'PULQ''FETZCM'
PULQFETZCM
root@arm:~# MARKER='BFKT''XLFBJC' run 'i2cget -y -f 1 0x4b 0x17'
BFKTXLFBJC0x07
BFKTXLFBJC 0
root@arm:~# echo 'UEME''AKEYJY'
UEMEAKEYJY
root@arm:~# MARKER='VHAK''APXQNV' run 'echo 880000 880000 > /sys/kernel/mva_test//regulators/buck6_set'
VHAKAPXQNVVHAKAPXQNV 0
root@arm:~# echo 'VWHZ''NXYAQK'
VWHZNXYAQK
root@arm:~# MARKER='VOKW''MMBEPV' run 'i2cget -y -f 1 0x4b 0x17'
VOKWMMBEPV0x08
VOKWMMBEPV 0
root@arm:~# echo 'OUPJ''HHGGQN'
OUPJHHGGQN
root@arm:~# MARKER='YGYC''SMOPXY' run 'echo 890000 890000 > /sys/kernel/mva_test//regulators/buck6_set'
YGYCSMOPXYYGYCSMOPXY 0
root@arm:~# echo 'WALX''UFNWNO'
WALXUFNWNO
root@arm:~# MARKER='HFWK''ZYSXEF' run 'i2cget -y -f 1 0x4b 0x17'
HFWKZYSXEF0x09
HFWKZYSXEF 0
root@arm:~# echo 'GSPM''BXLLFE'
GSPMBXLLFE
root@arm:~# MARKER='OWAS''TCELCA' run 'echo 900000 900000 > /sys/kernel/mva_test//regulators/buck6_set'
OWASTCELCAOWASTCELCA 0
root@arm:~# echo 'SZVT''OCWPVH'
SZVTOCWPVH
root@arm:~# MARKER='KGYP''KOTNEL' run 'i2cget -y -f 1 0x4b 0x17'
KGYPKOTNEL0x0a
KGYPKOTNEL 0
root@arm:~# echo 'KUMS''OBYYAW'
KUMSOBYYAW
root@arm:~# MARKER='SVZE''XTWHWX' run 'echo 910000 910000 > /sys/kernel/mva_test//regulators/buck6_set'
SVZEXTWHWXSVZEXTWHWX 0
root@arm:~# echo 'NAKY''YCUVYH'
NAKYYCUVYH
root@arm:~# MARKER='XCJH''MQHWVO' run 'i2cget -y -f 1 0x4b 0x17'
XCJHMQHWVO0x0b
XCJHMQHWVO 0
root@arm:~# echo 'JZZB''ZQXKGQ'
JZZBZQXKGQ
root@arm:~# MARKER='QOPT''ZVXYFW' run 'echo 920000 920000 > /sys/kernel/mva_test//regulators/buck6_set'
QOPTZVXYFWQOPTZVXYFW 0
root@arm:~# echo 'YESU''YEYVGV'
YESUYEYVGV
root@arm:~# MARKER='XQPC''ZCYWKC' run 'i2cget -y -f 1 0x4b 0x17'
XQPCZCYWKC0x0c
XQPCZCYWKC 0
root@arm:~# echo 'OSYQ''BZYUJJ'
OSYQBZYUJJ
root@arm:~# MARKER='MTJE''YYEXLL' run 'echo 930000 930000 > /sys/kernel/mva_test//regulators/buck6_set'
MTJEYYEXLLMTJEYYEXLL 0
root@arm:~# echo 'TUNT''ESTVSL'
TUNTESTVSL
root@arm:~# MARKER='JMAK''WUOJFO' run 'i2cget -y -f 1 0x4b 0x17'
JMAKWUOJFO0x0d
JMAKWUOJFO 0
root@arm:~# echo 'MFGZ''AULSKN'
MFGZAULSKN
root@arm:~# MARKER='VJYN''EMXTJM' run 'echo 940000 940000 > /sys/kernel/mva_test//regulators/buck6_set'
VJYNEMXTJMVJYNEMXTJM 0
root@arm:~# echo 'QLAN''AQWWAA'
QLANAQWWAA
root@arm:~# MARKER='VTAQ''TTVJYB' run 'i2cget -y -f 1 0x4b 0x17'
VTAQTTVJYB0x0e
VTAQTTVJYB 0
root@arm:~# echo 'XFGB''UFWZPG'
XFGBUFWZPG
root@arm:~# MARKER='JXVW''CWOELQ' run 'echo 950000 950000 > /sys/kernel/mva_test//regulators/buck6_set'
JXVWCWOELQJXVWCWOELQ 0
root@arm:~# echo 'SKGQ''GSBZUN'
SKGQGSBZUN
root@arm:~# MARKER='UMEM''KZVJXQ' run 'i2cget -y -f 1 0x4b 0x17'
UMEMKZVJXQ0x0f
UMEMKZVJXQ 0
root@arm:~# echo 'MNMY''XZYPVW'
MNMYXZYPVW
root@arm:~# MARKER='AGNY''KZQTJJ' run 'echo 960000 960000 > /sys/kernel/mva_test//regulators/buck6_set'
AGNYKZQTJJAGNYKZQTJJ 0
root@arm:~# echo 'ONCL''MVPYYB'
ONCLMVPYYB
root@arm:~# MARKER='QLZF''HNKHCN' run 'i2cget -y -f 1 0x4b 0x17'
QLZFHNKHCN0x10
QLZFHNKHCN 0
root@arm:~# echo 'ZFUT''NAASMY'
ZFUTNAASMY
root@arm:~# MARKER='WPZH''LYTWXE' run 'echo 970000 970000 > /sys/kernel/mva_test//regulators/buck6_set'
WPZHLYTWXEWPZHLYTWXE 0
root@arm:~# echo 'APQY''OAANCB'
APQYOAANCB
root@arm:~# MARKER='UHYN''VLGFFA' run 'i2cget -y -f 1 0x4b 0x17'
UHYNVLGFFA0x11
UHYNVLGFFA 0
root@arm:~# echo 'EQLT''LCMHHM'
EQLTLCMHHM
root@arm:~# MARKER='CUYN''PWFFSZ' run 'echo 980000 980000 > /sys/kernel/mva_test//regulators/buck6_set'
CUYNPWFFSZCUYNPWFFSZ 0
root@arm:~# echo 'PKHJ''NPFUWZ'
PKHJNPFUWZ
root@arm:~# MARKER='FMFU''APUSPM' run 'i2cget -y -f 1 0x4b 0x17'
FMFUAPUSPM0x12
FMFUAPUSPM 0
root@arm:~# echo 'YMEX''JVBWLX'
YMEXJVBWLX
root@arm:~# MARKER='ZXZZ''OJYVKK' run 'echo 990000 990000 > /sys/kernel/mva_test//regulators/buck6_set'
ZXZZOJYVKKZXZZOJYVKK 0
root@arm:~# echo 'WYAP''XQLZOP'
WYAPXQLZOP
root@arm:~# MARKER='NASK''VYBHHZ' run 'i2cget -y -f 1 0x4b 0x17'
NASKVYBHHZ0x13
NASKVYBHHZ 0
root@arm:~# echo 'BTUN''KOXWOA'
BTUNKOXWOA
root@arm:~# MARKER='LLFG''TSETLK' run 'echo 1000000 1000000 > /sys/kernel/mva_tesst/regulators/buck6_set'
LLFGTSETLKLLFGTSETLK 0
root@arm:~# echo 'QOZA''AJPUOL'
QOZAAJPUOL
root@arm:~# MARKER='KKCM''TGZFKY' run 'i2cget -y -f 1 0x4b 0x17'
KKCMTGZFKY0x14
KKCMTGZFKY 0
root@arm:~# echo 'OOUK''VLOMXV'
OOUKVLOMXV
root@arm:~# MARKER='WYUH''VAVYVK' run 'echo 1010000 1010000 > /sys/kernel/mva_tesst/regulators/buck6_set'
WYUHVAVYVKWYUHVAVYVK 0
root@arm:~# echo 'MAUX''TZQQYS'
MAUXTZQQYS
root@arm:~# MARKER='OTVV''QJBJQA' run 'i2cget -y -f 1 0x4b 0x17'
OTVVQJBJQA0x15
OTVVQJBJQA 0
root@arm:~# echo 'UUJY''UYZXAV'
UUJYUYZXAV
root@arm:~# MARKER='OPZT''BXJFLN' run 'echo 1020000 1020000 > /sys/kernel/mva_tesst/regulators/buck6_set'
OPZTBXJFLNOPZTBXJFLN 0
root@arm:~# echo 'JXTU''KEKOCW'
JXTUKEKOCW
root@arm:~# MARKER='PFTZ''HAJECO' run 'i2cget -y -f 1 0x4b 0x17'
PFTZHAJECO0x16
PFTZHAJECO 0
root@arm:~# echo 'JOTQ''SWYSZJ'
JOTQSWYSZJ
root@arm:~# MARKER='VGMK''EUUOMW' run 'echo 1030000 1030000 > /sys/kernel/mva_tesst/regulators/buck6_set'
VGMKEUUOMWVGMKEUUOMW 0
root@arm:~# echo 'KHMM''SCLXMH'
KHMMSCLXMH
root@arm:~# MARKER='UQUY''KAQZOO' run 'i2cget -y -f 1 0x4b 0x17'
UQUYKAQZOO0x17
UQUYKAQZOO 0
root@arm:~# echo 'KFEM''ENVQPA'
KFEMENVQPA
root@arm:~# MARKER='VNOG''LQUPEC' run 'echo 1040000 1040000 > /sys/kernel/mva_tesst/regulators/buck6_set'
VNOGLQUPECVNOGLQUPEC 0
root@arm:~# echo 'EGAK''ZTQPLZ'
EGAKZTQPLZ
root@arm:~# MARKER='JMKC''VZOWKN' run 'i2cget -y -f 1 0x4b 0x17'
JMKCVZOWKN0x18
JMKCVZOWKN 0
root@arm:~# echo 'PEOQ''JVLVSW'
PEOQJVLVSW
root@arm:~# MARKER='CVGL''MUFLFJ' run 'echo 1050000 1050000 > /sys/kernel/mva_tesst/regulators/buck6_set'
CVGLMUFLFJCVGLMUFLFJ 0
root@arm:~# echo 'PGOS''YMSKHL'
PGOSYMSKHL
root@arm:~# MARKER='TBBE''YYHAUS' run 'i2cget -y -f 1 0x4b 0x17'
TBBEYYHAUS0x19
TBBEYYHAUS 0
root@arm:~# echo 'HOJY''SNGUTN'
HOJYSNGUTN
root@arm:~# MARKER='MXPA''JHXZNV' run 'echo 1060000 1060000 > /sys/kernel/mva_tesst/regulators/buck6_set'
MXPAJHXZNVMXPAJHXZNV 0
root@arm:~# echo 'OUTW''AYYTNU'
OUTWAYYTNU
root@arm:~# MARKER='QVHZ''KMHQMU' run 'i2cget -y -f 1 0x4b 0x17'
QVHZKMHQMU0x1a
QVHZKMHQMU 0
root@arm:~# echo 'PZJP''KKNWEJ'
PZJPKKNWEJ
root@arm:~# MARKER='SPQB''TVLUAL' run 'echo 1070000 1070000 > /sys/kernel/mva_tesst/regulators/buck6_set'
SPQBTVLUALSPQBTVLUAL 0
root@arm:~# echo 'CQXY''PHSOUG'
CQXYPHSOUG
root@arm:~# MARKER='KSHQ''CTGBHG' run 'i2cget -y -f 1 0x4b 0x17'
KSHQCTGBHG0x1b
KSHQCTGBHG 0
root@arm:~# echo 'PGBP''AAVWSM'
PGBPAAVWSM
root@arm:~# MARKER='FAAF''CUZTBJ' run 'echo 1080000 1080000 > /sys/kernel/mva_tesst/regulators/buck6_set'
FAAFCUZTBJFAAFCUZTBJ 0
root@arm:~# echo 'SFTW''NBPAWV'
SFTWNBPAWV
root@arm:~# MARKER='ABXC''LMOWBE' run 'i2cget -y -f 1 0x4b 0x17'
ABXCLMOWBE0x1c
ABXCLMOWBE 0
root@arm:~# echo 'FZWK''ATEHAK'
FZWKATEHAK
root@arm:~# MARKER='BEQF''XWEUOK' run 'echo 1090000 1090000 > /sys/kernel/mva_tesst/regulators/buck6_set'
BEQFXWEUOKBEQFXWEUOK 0
root@arm:~# echo 'XEJG''KZFYOP'
XEJGKZFYOP
root@arm:~# MARKER='YBJM''WMYKYJ' run 'i2cget -y -f 1 0x4b 0x17'
YBJMWMYKYJ0x1d
YBJMWMYKYJ 0
root@arm:~# echo 'JAFX''BALKTH'
JAFXBALKTH
root@arm:~# MARKER='MCJF''JCSMEB' run 'echo 1100000 1100000 > /sys/kernel/mva_tesst/regulators/buck6_set'
MCJFJCSMEBMCJFJCSMEB 0
root@arm:~# echo 'QFZC''XHZWNB'
QFZCXHZWNB
root@arm:~# MARKER='SHAA''XSSGUG' run 'i2cget -y -f 1 0x4b 0x17'
SHAAXSSGUG0x1e
SHAAXSSGUG 0
root@arm:~# echo 'ZGEA''BXWEJM'
ZGEABXWEJM
root@arm:~# MARKER='GLQW''YFBTQH' run 'echo 1110000 1110000 > /sys/kernel/mva_tesst/regulators/buck6_set'
GLQWYFBTQHGLQWYFBTQH 0
root@arm:~# echo 'FXGY''QKCENZ'
FXGYQKCENZ
root@arm:~# MARKER='PVQM''FEJEUH' run 'i2cget -y -f 1 0x4b 0x17'
PVQMFEJEUH0x1f
PVQMFEJEUH 0
root@arm:~# echo 'PXTK''NPLWPF'
PXTKNPLWPF
root@arm:~# MARKER='GZHW''GMKHQK' run 'echo 1120000 1120000 > /sys/kernel/mva_tesst/regulators/buck6_set'
GZHWGMKHQKGZHWGMKHQK 0
root@arm:~# echo 'PHYQ''EFPKCO'
PHYQEFPKCO
root@arm:~# MARKER='VOCB''HTQQWC' run 'i2cget -y -f 1 0x4b 0x17'
VOCBHTQQWC0x20
VOCBHTQQWC 0
root@arm:~# echo 'OAHJ''ENHOBP'
OAHJENHOBP
root@arm:~# MARKER='MWKN''KQWEGB' run 'echo 1130000 1130000 > /sys/kernel/mva_tesst/regulators/buck6_set'
MWKNKQWEGBMWKNKQWEGB 0
root@arm:~# echo 'XOLS''ZQBGNL'
XOLSZQBGNL
root@arm:~# MARKER='HVWB''GOEVLA' run 'i2cget -y -f 1 0x4b 0x17'
HVWBGOEVLA0x21
HVWBGOEVLA 0
root@arm:~# echo 'QBBO''VPPLUC'
QBBOVPPLUC
root@arm:~# MARKER='FBUW''LPAFWE' run 'echo 1140000 1140000 > /sys/kernel/mva_tesst/regulators/buck6_set'
FBUWLPAFWEFBUWLPAFWE 0
root@arm:~# echo 'UKAN''ALCVJB'
UKANALCVJB
root@arm:~# MARKER='LBQF''TPFGXQ' run 'i2cget -y -f 1 0x4b 0x17'
LBQFTPFGXQ0x22
LBQFTPFGXQ 0
root@arm:~# echo 'GEGL''EXLYXQ'
GEGLEXLYXQ
root@arm:~# MARKER='CKOZ''KTHEJZ' run 'echo 1150000 1150000 > /sys/kernel/mva_tesst/regulators/buck6_set'
CKOZKTHEJZCKOZKTHEJZ 0
root@arm:~# echo 'LOGY''HVQVYT'
LOGYHVQVYT
root@arm:~# MARKER='SYFH''ELEKOC' run 'i2cget -y -f 1 0x4b 0x17'
SYFHELEKOC0x23
SYFHELEKOC 0
root@arm:~# echo 'EOWV''BENPFW'
EOWVBENPFW
root@arm:~# MARKER='TWYT''XNJYMC' run 'echo 1160000 1160000 > /sys/kernel/mva_tesst/regulators/buck6_set'
TWYTXNJYMCTWYTXNJYMC 0
root@arm:~# echo 'YFKO''AVXNJW'
YFKOAVXNJW
root@arm:~# MARKER='PTHH''MXBXTB' run 'i2cget -y -f 1 0x4b 0x17'
PTHHMXBXTB0x24
PTHHMXBXTB 0
root@arm:~# echo 'XSTF''UXWJXL'
XSTFUXWJXL
root@arm:~# MARKER='MXXE''KXLGPE' run 'echo 1170000 1170000 > /sys/kernel/mva_tesst/regulators/buck6_set'
MXXEKXLGPEMXXEKXLGPE 0
root@arm:~# echo 'LHNA''FMMQSA'
LHNAFMMQSA
root@arm:~# MARKER='MGXN''AUEEUY' run 'i2cget -y -f 1 0x4b 0x17'
MGXNAUEEUY0x25
MGXNAUEEUY 0
root@arm:~# echo 'ONCV''SFQHOJ'
ONCVSFQHOJ
root@arm:~# MARKER='HFFN''UBWHMG' run 'echo 1180000 1180000 > /sys/kernel/mva_tesst/regulators/buck6_set'
HFFNUBWHMGHFFNUBWHMG 0
root@arm:~# echo 'BLUF''EAKBQM'
BLUFEAKBQM
root@arm:~# MARKER='BVSV''BPPTGG' run 'i2cget -y -f 1 0x4b 0x17'
BVSVBPPTGG0x26
BVSVBPPTGG 0
root@arm:~# echo 'ESEG''NUUPBQ'
ESEGNUUPBQ
root@arm:~# MARKER='BJEZ''JPTGTG' run 'echo 1190000 1190000 > /sys/kernel/mva_tesst/regulators/buck6_set'
BJEZJPTGTGBJEZJPTGTG 0
root@arm:~# echo 'YGOC''JHTEFS'
YGOCJHTEFS
root@arm:~# MARKER='TVOO''QKUZVN' run 'i2cget -y -f 1 0x4b 0x17'
TVOOQKUZVN0x27
TVOOQKUZVN 0
root@arm:~# echo 'HXTU''OOBAVB'
HXTUOOBAVB
root@arm:~# MARKER='AWCB''ELSYVJ' run 'echo 1200000 1200000 > /sys/kernel/mva_tesst/regulators/buck6_set'
AWCBELSYVJAWCBELSYVJ 0
root@arm:~# echo 'ZKYT''HKSNFB'
ZKYTHKSNFB
root@arm:~# MARKER='OGNF''VNFPSG' run 'i2cget -y -f 1 0x4b 0x17'
OGNFVNFPSG0x28
OGNFVNFPSG 0
root@arm:~# echo 'CVQT''KHXYLJ'
CVQTKHXYLJ
root@arm:~# MARKER='PYKS''QEEYXB' run 'echo 1210000 1210000 > /sys/kernel/mva_tesst/regulators/buck6_set'
PYKSQEEYXBPYKSQEEYXB 0
root@arm:~# echo 'VXTF''BPZGJT'
VXTFBPZGJT
root@arm:~# MARKER='NBUP''GEUTUZ' run 'i2cget -y -f 1 0x4b 0x17'
NBUPGEUTUZ0x29
NBUPGEUTUZ 0
root@arm:~# echo 'HYZE''WNQFFS'
HYZEWNQFFS
root@arm:~# MARKER='XUZY''VCCOWM' run 'echo 1220000 1220000 > /sys/kernel/mva_tesst/regulators/buck6_set'
XUZYVCCOWMXUZYVCCOWM 0
root@arm:~# echo 'CXAC''MPATVG'
CXACMPATVG
root@arm:~# MARKER='AHMF''AQFCGL' run 'i2cget -y -f 1 0x4b 0x17'
AHMFAQFCGL0x2a
AHMFAQFCGL 0
root@arm:~# echo 'NXML''NOXQOO'
NXMLNOXQOO
root@arm:~# MARKER='TQNT''MXMMEO' run 'echo 1230000 1230000 > /sys/kernel/mva_tesst/regulators/buck6_set'
TQNTMXMMEOTQNTMXMMEO 0
root@arm:~# echo 'SUOK''OVCZLP'
SUOKOVCZLP
root@arm:~# MARKER='JXXW''CACNUN' run 'i2cget -y -f 1 0x4b 0x17'
JXXWCACNUN0x2b
JXXWCACNUN 0
root@arm:~# echo 'LMQK''ZTHSKB'
LMQKZTHSKB
root@arm:~# MARKER='HYLE''XFOSMO' run 'echo 1240000 1240000 > /sys/kernel/mva_tesst/regulators/buck6_set'
HYLEXFOSMOHYLEXFOSMO 0
root@arm:~# echo 'EKCE''NUZYZN'
EKCENUZYZN
root@arm:~# MARKER='JLMP''XTCCMS' run 'i2cget -y -f 1 0x4b 0x17'
JLMPXTCCMS0x2c
JLMPXTCCMS 0
root@arm:~# echo 'GLFV''OQUZCW'
GLFVOQUZCW
root@arm:~# MARKER='LCTT''ZMMPQC' run 'echo 1250000 1250000 > /sys/kernel/mva_tesst/regulators/buck6_set'
LCTTZMMPQCLCTTZMMPQC 0
root@arm:~# echo 'OCKB''KLXSWL'
OCKBKLXSWL
root@arm:~# MARKER='LWLF''JBXBPB' run 'i2cget -y -f 1 0x4b 0x17'
LWLFJBXBPB0x2d
LWLFJBXBPB 0
root@arm:~# echo 'JGHK''BPTJYT'
JGHKBPTJYT
root@arm:~# MARKER='NZAP''FABTZU' run 'echo 1260000 1260000 > /sys/kernel/mva_tesst/regulators/buck6_set'
NZAPFABTZUNZAPFABTZU 0
root@arm:~# echo 'CSLO''WZVPTN'
CSLOWZVPTN
root@arm:~# MARKER='OMKE''QJPPGT' run 'i2cget -y -f 1 0x4b 0x17'
OMKEQJPPGT0x2e
OMKEQJPPGT 0
root@arm:~# echo 'CXKY''UKYOTZ'
CXKYUKYOTZ
root@arm:~# MARKER='VACV''JFENOS' run 'echo 1270000 1270000 > /sys/kernel/mva_tesst/regulators/buck6_set'
VACVJFENOSVACVJFENOS 0
root@arm:~# echo 'YSAL''FWLGOV'
YSALFWLGOV
root@arm:~# MARKER='ZUFJ''PPCNVJ' run 'i2cget -y -f 1 0x4b 0x17'
ZUFJPPCNVJ0x2f
ZUFJPPCNVJ 0
root@arm:~# echo 'TAQG''UPKSXK'
TAQGUPKSXK
root@arm:~# MARKER='ZAAQ''LHAHOY' run 'echo 1280000 1280000 > /sys/kernel/mva_tesst/regulators/buck6_set'
ZAAQLHAHOYZAAQLHAHOY 0
root@arm:~# echo 'OFLT''XWTGON'
OFLTXWTGON
root@arm:~# MARKER='TGLM''QVQJSO' run 'i2cget -y -f 1 0x4b 0x17'
TGLMQVQJSO0x30
TGLMQVQJSO 0
root@arm:~# echo 'ACFM''JXJFYE'
ACFMJXJFYE
root@arm:~# MARKER='SPAB''PLCWFY' run 'echo 1290000 1290000 > /sys/kernel/mva_tesst/regulators/buck6_set'
SPABPLCWFYSPABPLCWFY 0
root@arm:~# echo 'LXGP''OMZUGW'
LXGPOMZUGW
root@arm:~# MARKER='LAOB''JMPNCV' run 'i2cget -y -f 1 0x4b 0x17'
LAOBJMPNCV0x31
LAOBJMPNCV 0
root@arm:~# echo 'CONN''MQABMM'
CONNMQABMM
root@arm:~# MARKER='UTJP''PHENSJ' run 'echo 1300000 1300000 > /sys/kernel/mva_tesst/regulators/buck6_set'
UTJPPHENSJUTJPPHENSJ 0
root@arm:~# echo 'BYWY''ZCYLQJ'
BYWYZCYLQJ
root@arm:~# MARKER='UTWJ''GYFVJX' run 'i2cget -y -f 1 0x4b 0x17'
UTWJGYFVJX0x32
UTWJGYFVJX 0
root@arm:~# echo 'NFKM''XOLVLY'
NFKMXOLVLY
root@arm:~# MARKER='PZMM''EGHGNO' run 'echo 1310000 1310000 > /sys/kernel/mva_tesst/regulators/buck6_set'
PZMMEGHGNOPZMMEGHGNO 0
root@arm:~# echo 'QFPO''USJVOY'
QFPOUSJVOY
root@arm:~# MARKER='BPPX''ATMKAG' run 'i2cget -y -f 1 0x4b 0x17'
BPPXATMKAG0x33
BPPXATMKAG 0
root@arm:~# echo 'SQJJ''NMTSOA'
SQJJNMTSOA
root@arm:~# MARKER='YBJQ''LCZCUJ' run 'echo 1320000 1320000 > /sys/kernel/mva_tesst/regulators/buck6_set'
YBJQLCZCUJYBJQLCZCUJ 0
root@arm:~# echo 'BPTS''VMZWHF'
BPTSVMZWHF
root@arm:~# MARKER='WCEX''QGPJNO' run 'i2cget -y -f 1 0x4b 0x17'
WCEXQGPJNO0x34
WCEXQGPJNO 0
root@arm:~# echo 'HKWZ''MLATCJ'
HKWZMLATCJ
root@arm:~# MARKER='YOQE''YZPHOK' run 'echo 1330000 1330000 > /sys/kernel/mva_tesst/regulators/buck6_set'
YOQEYZPHOKYOQEYZPHOK 0
root@arm:~# echo 'TQUQ''OOGMEE'
TQUQOOGMEE
root@arm:~# MARKER='LOXZ''XVTNTL' run 'i2cget -y -f 1 0x4b 0x17'
LOXZXVTNTL0x35
LOXZXVTNTL 0
root@arm:~# echo 'ZHLS''XAZAUC'
ZHLSXAZAUC
root@arm:~# MARKER='WYYV''VCJWMC' run 'echo 1340000 1340000 > /sys/kernel/mva_tesst/regulators/buck6_set'
WYYVVCJWMCWYYVVCJWMC 0
root@arm:~# echo 'ACFN''MGFSXA'
ACFNMGFSXA
root@arm:~# MARKER='HHJS''FTWCGN' run 'i2cget -y -f 1 0x4b 0x17'
HHJSFTWCGN0x36
HHJSFTWCGN 0
root@arm:~# echo 'TYSZ''SLKPOB'
TYSZSLKPOB
root@arm:~# MARKER='FCGK''FWWHUP' run 'echo 1350000 1350000 > /sys/kernel/mva_tesst/regulators/buck6_set'
FCGKFWWHUPFCGKFWWHUP 0
root@arm:~# echo 'JTML''MHWBOV'
JTMLMHWBOV
root@arm:~# MARKER='XKTG''BKVEWB' run 'i2cget -y -f 1 0x4b 0x17'
XKTGBKVEWB0x37
XKTGBKVEWB 0
root@arm:~# echo 'JWTP''OQMEQA'
JWTPOQMEQA
root@arm:~# MARKER='EPHO''EQAWUW' run 'echo 1360000 1360000 > /sys/kernel/mva_tesst/regulators/buck6_set'
EPHOEQAWUWEPHOEQAWUW 0
root@arm:~# echo 'MOEP''OJBGJS'
MOEPOJBGJS
root@arm:~# MARKER='CYFX''HHUPTB' run 'i2cget -y -f 1 0x4b 0x17'
CYFXHHUPTB0x38
CYFXHHUPTB 0
root@arm:~# echo 'CGLU''TNPVQY'
CGLUTNPVQY
root@arm:~# MARKER='CYFZ''JGKQOS' run 'echo 1370000 1370000 > /sys/kernel/mva_tesst/regulators/buck6_set'
CYFZJGKQOSCYFZJGKQOS 0
root@arm:~# echo 'FUFJ''UJVNZC'
FUFJUJVNZC
root@arm:~# MARKER='HBNV''TYCYSW' run 'i2cget -y -f 1 0x4b 0x17'
HBNVTYCYSW0x39
HBNVTYCYSW 0
root@arm:~# echo 'WOBY''WNKTCC'
WOBYWNKTCC
root@arm:~# MARKER='QKSK''ZYCSYQ' run 'echo 1380000 1380000 > /sys/kernel/mva_tesst/regulators/buck6_set'
QKSKZYCSYQQKSKZYCSYQ 0
root@arm:~# echo 'YEYK''QLYSVM'
YEYKQLYSVM
root@arm:~# MARKER='WUWB''JEYMZH' run 'i2cget -y -f 1 0x4b 0x17'
WUWBJEYMZH0x3a
WUWBJEYMZH 0
root@arm:~# echo 'KVAH''FNZCYK'
KVAHFNZCYK
root@arm:~# MARKER='ENWW''VTXSOQ' run 'echo 1390000 1390000 > /sys/kernel/mva_tesst/regulators/buck6_set'
ENWWVTXSOQENWWVTXSOQ 0
root@arm:~# echo 'COSQ''HTZQVV'
COSQHTZQVV
root@arm:~# MARKER='JMFS''UZCFXO' run 'i2cget -y -f 1 0x4b 0x17'
JMFSUZCFXO0x3b
JMFSUZCFXO 0
root@arm:~# echo 'WTYS''SFSKQK'
WTYSSFSKQK
root@arm:~# MARKER='BEVU''YPBSYP' run 'echo 1400000 1400000 > /sys/kernel/mva_tesst/regulators/buck6_set'
BEVUYPBSYPBEVUYPBSYP 0
root@arm:~# echo 'MFWA''MAGEWQ'
MFWAMAGEWQ
root@arm:~# MARKER='UPNX''MBTAHA' run 'i2cget -y -f 1 0x4b 0x17'
UPNXMBTAHA0x3c
UPNXMBTAHA 0
root@arm:~# echo 'EOAA''OZFQJQ'
EOAAOZFQJQ
root@arm:~# MARKER='WXBG''OSPPFU' run 'grep -r -l rohm,bd71847 /proc/device-tree  | sed '"'"'s![^/]*$!!'"'"''
WXBGOSPPFU/proc/device-tree/ocp/interconnect@48000000/segment@0/target-module@2a000/i2c@0/pmic@4b/
WXBGOSPPFU 0
root@arm:~# echo 'OXXK''EFFQBG'
OXXKEFFQBG
root@arm:~# MARKER='ZJHW''CGNAKH' run 'test -f /proc/device-tree/ocp/interconnectt\@48000000/segment\@0/target-module\@2a000/i2c\@0/pmic\@4b/regulators/LDO1/rohm,,no-regulator-enable-control ;echo $?'
ZJHWCGNAKH1
ZJHWCGNAKH 0
root@arm:~# echo 'KZBB''YUBNPT'
KZBBYUBNPT
root@arm:~# MARKER='BVEE''PMYOVW' run 'i2cget -y -f 1 0x4b 0x18'
BVEEPMYOVW0xa2
BVEEPMYOVW 0
root@arm:~# echo 'OVNP''TXGMEO'
OVNPTXGMEO
