Labgrid Console Logfile for main
Logfile started at 2026-03-03 09:32:19.367233
=== Log starts here ===

root@arm:~# run() { echo -n "$MARKER"; sh -c "$@"; echo "$MARKER $?"; }
root@arm:~# echo 'KAJB''JMJMZL'
KAJBJMJMZL
root@arm:~# MARKER='SOZM''JZVMPU' run 'grep -r -l rohm,bd96805 /proc/device-tree  | sed '"'"'s![^/]*$!!'"'"''
SOZMJZVMPU/proc/device-tree/ocp/interconnect@48000000/segment@100000/target-module@9c000/i2c@0/pmic@60/
SOZMJZVMPU 0
root@arm:~# echo 'PQMT''ZQACAQ'
PQMTZQACAQ
root@arm:~# MARKER='HQNY''SZQHOZ' run 'test -f /proc/device-tree/ocp/interconnectt\@48000000/segment\@100000/target-module\@9c000/i2c\@0/pmic\@60/regulators/buck11/rohm,no-regulator-enable-control ;echo $?'
HQNYSZQHOZ1
HQNYSZQHOZ 0
root@arm:~# echo 'VPPY''TQUKYP'
VPPYTQUKYP
root@arm:~# MARKER='VJTY''SXVSZX' run 'i2cget -y -f 2 0x60 0xb'
VJTYSXVSZX0x00
VJTYSXVSZX 0
root@arm:~# echo 'QGLS''AACFYN'
QGLSAACFYN
root@arm:~# MARKER='NLHK''JJCCCS' run 'grep -r -l rohm,bd96805 /proc/device-tree  | sed '"'"'s![^/]*$!!'"'"''
NLHKJJCCCS/proc/device-tree/ocp/interconnect@48000000/segment@100000/target-module@9c000/i2c@0/pmic@60/
NLHKJJCCCS 0
root@arm:~# echo 'NPGQ''WAGAVS'
NPGQWAGAVS
root@arm:~# MARKER='GTAC''QHYTZH' run 'test -f /proc/device-tree/ocp/interconnectt\@48000000/segment\@100000/target-module\@9c000/i2c\@0/pmic\@60/regulators/buck22/rohm,no-regulator-enable-control ;echo $?'
GTACQHYTZH1
GTACQHYTZH 0
root@arm:~# echo 'KWPM''ASCEPF'
KWPMASCEPF
root@arm:~# MARKER='YHNH''EAGXGT' run 'i2cget -y -f 2 0x60 0xb'
YHNHEAGXGT0x00
YHNHEAGXGT 0
root@arm:~# echo 'QXTQ''APOTFW'
QXTQAPOTFW
root@arm:~# MARKER='VHXU''LQZYPZ' run 'grep -r -l rohm,bd96805 /proc/device-tree  | sed '"'"'s![^/]*$!!'"'"''
VHXULQZYPZ/proc/device-tree/ocp/interconnect@48000000/segment@100000/target-module@9c000/i2c@0/pmic@60/
VHXULQZYPZ 0
root@arm:~# echo 'CEHG''SKGHNZ'
CEHGSKGHNZ
root@arm:~# MARKER='AZST''MHKANK' run 'test -f /proc/device-tree/ocp/interconnectt\@48000000/segment\@100000/target-module\@9c000/i2c\@0/pmic\@60/regulators/buck33/rohm,no-regulator-enable-control ;echo $?'
AZSTMHKANK1
AZSTMHKANK 0
root@arm:~# echo 'MWCG''AWNHHL'
MWCGAWNHHL
root@arm:~# MARKER='HVNW''HALUOW' run 'i2cget -y -f 2 0x60 0xb'
HVNWHALUOW0x00
HVNWHALUOW 0
root@arm:~# echo 'ZTGA''NWNTFN'
ZTGANWNTFN
root@arm:~# MARKER='CZSM''ECLKEM' run 'grep -r -l rohm,bd96805 /proc/device-tree  | sed '"'"'s![^/]*$!!'"'"''
CZSMECLKEM/proc/device-tree/ocp/interconnect@48000000/segment@100000/target-module@9c000/i2c@0/pmic@60/
CZSMECLKEM 0
root@arm:~# echo 'BZTC''ZKHAFW'
BZTCZKHAFW
root@arm:~# MARKER='KBAL''ONAJEW' run 'test -f /proc/device-tree/ocp/interconnectt\@48000000/segment\@100000/target-module\@9c000/i2c\@0/pmic\@60/regulators/buck44/rohm,no-regulator-enable-control ;echo $?'
KBALONAJEW1
KBALONAJEW 0
root@arm:~# echo 'WSNE''EPHEXP'
WSNEEPHEXP
root@arm:~# MARKER='BKEG''YVPOMZ' run 'i2cget -y -f 2 0x60 0xb'
BKEGYVPOMZ0x00
BKEGYVPOMZ 0
root@arm:~# echo 'TAKK''ENOTQA'
TAKKENOTQA
root@arm:~# MARKER='GWYX''GYNFTH' run 'grep -r -l rohm,bd96805 /proc/device-tree  | sed '"'"'s![^/]*$!!'"'"''
GWYXGYNFTH/proc/device-tree/ocp/interconnect@48000000/segment@100000/target-module@9c000/i2c@0/pmic@60/
GWYXGYNFTH 0
root@arm:~# echo 'OYBB''APYMZE'
OYBBAPYMZE
root@arm:~# MARKER='PWNP''YBMYLC' run 'test -f /proc/device-tree/ocp/interconnectt\@48000000/segment\@100000/target-module\@9c000/i2c\@0/pmic\@60/regulators/ldo5//rohm,no-regulator-enable-control ;echo $?'
PWNPYBMYLC1
PWNPYBMYLC 0
root@arm:~# echo 'NFBK''PUOMYV'
NFBKPUOMYV
root@arm:~# MARKER='AMSK''GNOYJU' run 'i2cget -y -f 2 0x60 0xb'
AMSKGNOYJU0x00
AMSKGNOYJU 0
root@arm:~# echo 'UEPE''LJHYHM'
UEPELJHYHM
root@arm:~# MARKER='OMMK''YSYHPP' run 'grep -r -l rohm,bd96805 /proc/device-tree  | sed '"'"'s![^/]*$!!'"'"''
OMMKYSYHPP/proc/device-tree/ocp/interconnect@48000000/segment@100000/target-module@9c000/i2c@0/pmic@60/
OMMKYSYHPP 0
root@arm:~# echo 'BMOE''UFQXOW'
BMOEUFQXOW
root@arm:~# MARKER='ECUK''VKHEPJ' run 'test -f /proc/device-tree/ocp/interconnectt\@48000000/segment\@100000/target-module\@9c000/i2c\@0/pmic\@60/regulators/ldo6//rohm,no-regulator-enable-control ;echo $?'
ECUKVKHEPJ1
ECUKVKHEPJ 0
root@arm:~# echo 'UVOW''XVPOHA'
UVOWXVPOHA
root@arm:~# MARKER='TAUB''WSUUUJ' run 'i2cget -y -f 2 0x60 0xb'
TAUBWSUUUJ0x00
TAUBWSUUUJ 0
root@arm:~# echo 'XLJG''JVBUXQ'
XLJGJVBUXQ
root@arm:~# MARKER='QQBM''NWFJZM' run 'grep -r -l rohm,bd96805 /proc/device-tree  | sed '"'"'s![^/]*$!!'"'"''
QQBMNWFJZM/proc/device-tree/ocp/interconnect@48000000/segment@100000/target-module@9c000/i2c@0/pmic@60/
QQBMNWFJZM 0
root@arm:~# echo 'GAHZ''TSBVFB'
GAHZTSBVFB
root@arm:~# MARKER='TOSA''OQJCQT' run 'test -f /proc/device-tree/ocp/interconnectt\@48000000/segment\@100000/target-module\@9c000/i2c\@0/pmic\@60/regulators/ldo7//rohm,no-regulator-enable-control ;echo $?'
TOSAOQJCQT1
TOSAOQJCQT 0
root@arm:~# echo 'OMYX''BCTCCJ'
OMYXBCTCCJ
root@arm:~# MARKER='ZBYS''HUTPPM' run 'i2cget -y -f 2 0x60 0xb'
ZBYSHUTPPM0x00
ZBYSHUTPPM 0
root@arm:~# Labgrid Console Logfile for main
Logfile started at 2026-03-03 09:32:26.714877
=== Log starts here ===

root@arm:~# run() { echo -n "$MARKER"; sh -c "$@"; echo "$MARKER $?"; }
root@arm:~# echo 'CQJA''HCNBVK'
CQJAHCNBVK
root@arm:~# MARKER='FUPY''LZULZP' run 'cat /sys/kernel/mva_test/regulators/buck1__set'
FUPYLZULZP1800000
FUPYLZULZP 0
root@arm:~# echo 'LETL''PTYCNB'
LETLPTYCNB
root@arm:~# MARKER='BFGJ''SGEZBW' run 'i2cget -y -f 2 0x60 0x21'
BFGJSGEZBW0xce
BFGJSGEZBW 0
root@arm:~# echo 'HFXC''QJCUTA'
HFXCQJCUTA
root@arm:~# MARKER='ACQY''KHJHLB' run 'cat /sys/kernel/mva_test/regulators/buck2__set'
ACQYKHJHLB1100000
ACQYKHJHLB 0
root@arm:~# echo 'XCXL''MFKQJL'
XCXLMFKQJL
root@arm:~# MARKER='MBJY''NBYCAB' run 'i2cget -y -f 2 0x60 0x22'
MBJYNBYCAB0x78
MBJYNBYCAB 0
root@arm:~# echo 'JANV''HVQXFL'
JANVHVQXFL
root@arm:~# MARKER='ZNFQ''YZNFMG' run 'cat /sys/kernel/mva_test/regulators/buck3__set'
ZNFQYZNFMG850000
ZNFQYZNFMG 0
root@arm:~# echo 'JJLM''XYQXEW'
JJLMXYQXEW
root@arm:~# MARKER='YVGL''KMAZJB' run 'i2cget -y -f 2 0x60 0x23'
YVGLKMAZJB0x46
YVGLKMAZJB 0
root@arm:~# echo 'KPAZ''WMZYMZ'
KPAZWMZYMZ
root@arm:~# MARKER='QBWJ''TAUQNJ' run 'cat /sys/kernel/mva_test/regulators/buck4__set'
QBWJTAUQNJ850000
QBWJTAUQNJ 0
root@arm:~# echo 'SQSJ''FAAMJM'
SQSJFAAMJM
root@arm:~# MARKER='GLEX''PGUWLJ' run 'i2cget -y -f 2 0x60 0x24'
GLEXPGUWLJ0x46
GLEXPGUWLJ 0
root@arm:~# echo 'HBJG''CXTKGP'
HBJGCXTKGP
root@arm:~# MARKER='KQFW''LTGVKB' run 'cat /sys/kernel/mva_test/regulators/buck5__set'
KQFWLTGVKB900000
KQFWLTGVKB 0
root@arm:~# echo 'KTJJ''PTKAEX'
KTJJPTKAEX
root@arm:~# MARKER='LYTS''EPKZAP' run 'i2cget -y -f 2 0x60 0x25'
LYTSEPKZAP0x18
LYTSEPKZAP 0
root@arm:~# echo 'WVJO''WZSJQW'
WVJOWZSJQW
root@arm:~# MARKER='LMAZ''EQCZFN' run 'cat /sys/kernel/mva_test/regulators/buck6__set'
LMAZEQCZFN1200000
LMAZEQCZFN 0
root@arm:~# echo 'HMYM''LPNEZQ'
HMYMLPNEZQ
root@arm:~# MARKER='XMMK''LHBGYC' run 'i2cget -y -f 2 0x60 0x26'
XMMKLHBGYC0x24
XMMKLHBGYC 0
root@arm:~# echo 'EAHF''KUOYZB'
EAHFKUOYZB
root@arm:~# MARKER='HNZN''JXZVKW' run 'cat /sys/kernel/mva_test/regulators/buck7__set'
HNZNJXZVKW3300000
HNZNJXZVKW 0
root@arm:~# echo 'KMHJ''SJGGYZ'
KMHJSJGGYZ
root@arm:~# MARKER='ACQS''UNYPPH' run 'i2cget -y -f 2 0x60 0x27'
ACQSUNYPPH0x78
ACQSUNYPPH 0
root@arm:~# Labgrid Console Logfile for main
Logfile started at 2026-03-03 09:32:31.942082
=== Log starts here ===

root@arm:~# run() { echo -n "$MARKER"; sh -c "$@"; echo "$MARKER $?"; }
root@arm:~# echo 'NQXX''OYFZQB'
NQXXOYFZQB
root@arm:~# MARKER='KTGN''FQEHEG' run 'i2cget -y -f 2 0x60 0x21'
KTGNFQEHEG0xce
KTGNFQEHEG 0
root@arm:~# echo 'ONQU''ALFVFX'
ONQUALFVFX
root@arm:~# MARKER='ZZOH''TLOVKG' run 'echo 1800000 1800000 > /sys/kernel/mva_tesst/regulators/buck1_set'
ZZOHTLOVKGZZOHTLOVKG 0
root@arm:~# echo 'PXAN''MTXMLL'
PXANMTXMLL
root@arm:~# MARKER='PMJY''LNCNHA' run 'i2cget -f -y 2 0x60 0x28'
PMJYLNCNHA0x00
PMJYLNCNHA 0
root@arm:~# echo 'LACG''JGUGAT'
LACGJGUGAT
root@arm:~# MARKER='EAMV''VJLAKM' run 'i2cget -y -f 2 0x60 0x21'
EAMVVJLAKM0xce
EAMVVJLAKM 0
root@arm:~# echo 'KBBX''GXWGMW'
KBBXGXWGMW
root@arm:~# MARKER='KNOS''GCNAXO' run 'i2cget -y -f 2 0x60 0x21'
KNOSGCNAXO0xce
KNOSGCNAXO 0
root@arm:~# echo 'WWUP''HNCFWX'
WWUPHNCFWX
root@arm:~# MARKER='VJBB''CBBHBP' run 'echo 1810000 1810000 > /sys/kernel/mva_tesst/regulators/buck1_set'
VJBBCBBHBPVJBBCBBHBP 0
root@arm:~# echo 'BOKE''WCQJWV'
BOKEWCQJWV
root@arm:~# MARKER='FCTO''UBHFMY' run 'i2cget -f -y 2 0x60 0x28'
FCTOUBHFMY0x01
FCTOUBHFMY 0
root@arm:~# echo 'PNCQ''NHBSFV'
PNCQNHBSFV
root@arm:~# MARKER='NPPK''LWNQSS' run 'i2cget -y -f 2 0x60 0x21'
NPPKLWNQSS0xce
NPPKLWNQSS 0
root@arm:~# echo 'YVVY''OGVEON'
YVVYOGVEON
root@arm:~# MARKER='AJAP''LXYKBX' run 'i2cget -y -f 2 0x60 0x21'
AJAPLXYKBX0xce
AJAPLXYKBX 0
root@arm:~# echo 'HKVY''YOCGVG'
HKVYYOCGVG
root@arm:~# MARKER='LKMT''XJNNTX' run 'echo 1820000 1820000 > /sys/kernel/mva_tesst/regulators/buck1_set'
LKMTXJNNTXLKMTXJNNTX 0
root@arm:~# echo 'UZQM''JMTKEA'
UZQMJMTKEA
root@arm:~# MARKER='EYGJ''ALONEP' run 'i2cget -f -y 2 0x60 0x28'
EYGJALONEP0x02
EYGJALONEP 0
root@arm:~# echo 'UQAM''HTXMBY'
UQAMHTXMBY
root@arm:~# MARKER='EVQP''PAQOLG' run 'i2cget -y -f 2 0x60 0x21'
EVQPPAQOLG0xce
EVQPPAQOLG 0
root@arm:~# echo 'VWGZ''UZLLGH'
VWGZUZLLGH
root@arm:~# MARKER='OKNZ''QVNHNB' run 'i2cget -y -f 2 0x60 0x21'
OKNZQVNHNB0xce
OKNZQVNHNB 0
root@arm:~# echo 'AVLF''NPEXQU'
AVLFNPEXQU
root@arm:~# MARKER='TVLM''CUQYTU' run 'echo 1830000 1830000 > /sys/kernel/mva_tesst/regulators/buck1_set'
TVLMCUQYTUTVLMCUQYTU 0
root@arm:~# echo 'KYWA''XZJWAA'
KYWAXZJWAA
root@arm:~# MARKER='CEWA''QBLUBP' run 'i2cget -f -y 2 0x60 0x28'
CEWAQBLUBP0x03
CEWAQBLUBP 0
root@arm:~# echo 'PELT''COMJAV'
PELTCOMJAV
root@arm:~# MARKER='NTMT''XMGECG' run 'i2cget -y -f 2 0x60 0x21'
NTMTXMGECG0xce
NTMTXMGECG 0
root@arm:~# echo 'FVCC''LJFBTK'
FVCCLJFBTK
root@arm:~# MARKER='AGEE''OALKZP' run 'i2cget -y -f 2 0x60 0x21'
AGEEOALKZP0xce
AGEEOALKZP 0
root@arm:~# echo 'GYGH''BVTAMU'
GYGHBVTAMU
root@arm:~# MARKER='JPCL''OVQCTW' run 'echo 1840000 1840000 > /sys/kernel/mva_tesst/regulators/buck1_set'
JPCLOVQCTWJPCLOVQCTW 0
root@arm:~# echo 'CGCC''YTSOWP'
CGCCYTSOWP
root@arm:~# MARKER='ESCO''LELOUC' run 'i2cget -f -y 2 0x60 0x28'
ESCOLELOUC0x04
ESCOLELOUC 0
root@arm:~# echo 'KBHB''KFYPTY'
KBHBKFYPTY
root@arm:~# MARKER='USNW''NQZGUX' run 'i2cget -y -f 2 0x60 0x21'
USNWNQZGUX0xce
USNWNQZGUX 0
root@arm:~# echo 'JLCB''LTOTVY'
JLCBLTOTVY
root@arm:~# MARKER='YXUK''ZPLKZX' run 'i2cget -y -f 2 0x60 0x21'
YXUKZPLKZX0xce
YXUKZPLKZX 0
root@arm:~# echo 'ZKAC''ENABHE'
ZKACENABHE
root@arm:~# MARKER='TCPS''XEVLTX' run 'echo 1850000 1850000 > /sys/kernel/mva_tesst/regulators/buck1_set'
TCPSXEVLTXTCPSXEVLTX 0
root@arm:~# echo 'XCJL''LNSSPV'
XCJLLNSSPV
root@arm:~# MARKER='GAMJ''ZUUJEO' run 'i2cget -f -y 2 0x60 0x28'
GAMJZUUJEO0x05
GAMJZUUJEO 0
root@arm:~# echo 'UGZG''YTWJPH'
UGZGYTWJPH
root@arm:~# MARKER='EAYQ''QMVOEU' run 'i2cget -y -f 2 0x60 0x21'
EAYQQMVOEU0xce
EAYQQMVOEU 0
root@arm:~# echo 'ALKT''QGHWMP'
ALKTQGHWMP
root@arm:~# MARKER='LTTN''VNTFGY' run 'i2cget -y -f 2 0x60 0x21'
LTTNVNTFGY0xce
LTTNVNTFGY 0
root@arm:~# echo 'HYLL''KWYJSF'
HYLLKWYJSF
root@arm:~# MARKER='KTYC''PTMLPL' run 'echo 1860000 1860000 > /sys/kernel/mva_tesst/regulators/buck1_set'
KTYCPTMLPLKTYCPTMLPL 0
root@arm:~# echo 'CHOX''BGLEFS'
CHOXBGLEFS
root@arm:~# MARKER='ZKYJ''MJYJHX' run 'i2cget -f -y 2 0x60 0x28'
ZKYJMJYJHX0x06
ZKYJMJYJHX 0
root@arm:~# echo 'MCXZ''ULJJHJ'
MCXZULJJHJ
root@arm:~# MARKER='PCUA''QONJNJ' run 'i2cget -y -f 2 0x60 0x21'
PCUAQONJNJ0xce
PCUAQONJNJ 0
root@arm:~# echo 'WUST''GNSMSB'
WUSTGNSMSB
root@arm:~# MARKER='USKM''KNKETN' run 'i2cget -y -f 2 0x60 0x21'
USKMKNKETN0xce
USKMKNKETN 0
root@arm:~# echo 'FGWG''FFFNPO'
FGWGFFFNPO
root@arm:~# MARKER='XZKG''XCHHQM' run 'echo 1870000 1870000 > /sys/kernel/mva_tesst/regulators/buck1_set'
XZKGXCHHQMXZKGXCHHQM 0
root@arm:~# echo 'QGGM''FYCOHV'
QGGMFYCOHV
root@arm:~# MARKER='LMZL''EQGCMO' run 'i2cget -f -y 2 0x60 0x28'
LMZLEQGCMO0x07
LMZLEQGCMO 0
root@arm:~# echo 'VWPZ''YOLHQK'
VWPZYOLHQK
root@arm:~# MARKER='UYLE''HMMXBL' run 'i2cget -y -f 2 0x60 0x21'
UYLEHMMXBL0xce
UYLEHMMXBL 0
root@arm:~# echo 'LUWU''VSYNVS'
LUWUVSYNVS
root@arm:~# MARKER='ECHO''CUFOSH' run 'i2cget -y -f 2 0x60 0x21'
ECHOCUFOSH0xce
ECHOCUFOSH 0
root@arm:~# echo 'GSFV''BMPZWT'
GSFVBMPZWT
root@arm:~# MARKER='FYPW''TCKMOX' run 'echo 1880000 1880000 > /sys/kernel/mva_tesst/regulators/buck1_set'
FYPWTCKMOXFYPWTCKMOX 0
root@arm:~# echo 'ALML''YNYVFX'
ALMLYNYVFX
root@arm:~# MARKER='PNAE''YOMWFX' run 'i2cget -f -y 2 0x60 0x28'
PNAEYOMWFX0x08
PNAEYOMWFX 0
root@arm:~# echo 'JQNN''FPSJWU'
JQNNFPSJWU
root@arm:~# MARKER='QPQJ''CKGAKZ' run 'i2cget -y -f 2 0x60 0x21'
QPQJCKGAKZ0xce
QPQJCKGAKZ 0
root@arm:~# echo 'WKOG''ECLMVL'
WKOGECLMVL
root@arm:~# MARKER='YPHP''KHTYJS' run 'i2cget -y -f 2 0x60 0x21'
YPHPKHTYJS0xce
YPHPKHTYJS 0
root@arm:~# echo 'MLKJ''YFXJQY'
MLKJYFXJQY
root@arm:~# MARKER='KUKY''ZOAXME' run 'echo 1890000 1890000 > /sys/kernel/mva_tesst/regulators/buck1_set'
KUKYZOAXMEKUKYZOAXME 0
root@arm:~# echo 'QBTK''AYXALG'
QBTKAYXALG
root@arm:~# MARKER='CLKT''PQSBJZ' run 'i2cget -f -y 2 0x60 0x28'
CLKTPQSBJZ0x09
CLKTPQSBJZ 0
root@arm:~# echo 'HEQM''OHOJTU'
HEQMOHOJTU
root@arm:~# MARKER='JCXG''YNJWSN' run 'i2cget -y -f 2 0x60 0x21'
JCXGYNJWSN0xce
JCXGYNJWSN 0
root@arm:~# echo 'HYLX''TWEHKW'
HYLXTWEHKW
root@arm:~# MARKER='UKQX''TLOPFJ' run 'i2cget -y -f 2 0x60 0x21'
UKQXTLOPFJ0xce
UKQXTLOPFJ 0
root@arm:~# echo 'CXFQ''CFGYKL'
CXFQCFGYKL
root@arm:~# MARKER='ZBNE''SYUAYK' run 'echo 1900000 1900000 > /sys/kernel/mva_tesst/regulators/buck1_set'
ZBNESYUAYKZBNESYUAYK 0
root@arm:~# echo 'BBGM''VCYLPC'
BBGMVCYLPC
root@arm:~# MARKER='PUYV''HALAQJ' run 'i2cget -f -y 2 0x60 0x28'
PUYVHALAQJ0x0a
PUYVHALAQJ 0
root@arm:~# echo 'SJQL''NMVTKU'
SJQLNMVTKU
root@arm:~# MARKER='UGQP''KVTNFS' run 'i2cget -y -f 2 0x60 0x21'
UGQPKVTNFS0xce
UGQPKVTNFS 0
root@arm:~# echo 'CXWK''SLZVJH'
CXWKSLZVJH
root@arm:~# MARKER='VVBP''ZQYOWT' run 'i2cget -y -f 2 0x60 0x21'
VVBPZQYOWT0xce
VVBPZQYOWT 0
root@arm:~# echo 'VHNT''PUVUUW'
VHNTPUVUUW
root@arm:~# MARKER='CACU''GBJMJJ' run 'echo 1910000 1910000 > /sys/kernel/mva_tesst/regulators/buck1_set'
CACUGBJMJJCACUGBJMJJ 0
root@arm:~# echo 'MNKH''AAFHXV'
MNKHAAFHXV
root@arm:~# MARKER='QWQF''AOGQUQ' run 'i2cget -f -y 2 0x60 0x28'
QWQFAOGQUQ0x0b
QWQFAOGQUQ 0
root@arm:~# echo 'GFXM''WXWCTW'
GFXMWXWCTW
root@arm:~# MARKER='EAWW''TSYHUZ' run 'i2cget -y -f 2 0x60 0x21'
EAWWTSYHUZ0xce
EAWWTSYHUZ 0
root@arm:~# echo 'HMTK''NKACVK'
HMTKNKACVK
root@arm:~# MARKER='WGGJ''SBMOCQ' run 'i2cget -y -f 2 0x60 0x21'
WGGJSBMOCQ0xce
WGGJSBMOCQ 0
root@arm:~# echo 'EXUO''MGTYBE'
EXUOMGTYBE
root@arm:~# MARKER='AABS''NMNLOX' run 'echo 1920000 1920000 > /sys/kernel/mva_tesst/regulators/buck1_set'
AABSNMNLOXAABSNMNLOX 0
root@arm:~# echo 'ZMPZ''ZLCYGV'
ZMPZZLCYGV
root@arm:~# MARKER='KPHW''GBYFSH' run 'i2cget -f -y 2 0x60 0x28'
KPHWGBYFSH0x0c
KPHWGBYFSH 0
root@arm:~# echo 'ENKL''TPHYXO'
ENKLTPHYXO
root@arm:~# MARKER='KAYK''FEVYZS' run 'i2cget -y -f 2 0x60 0x21'
KAYKFEVYZS0xce
KAYKFEVYZS 0
root@arm:~# echo 'FLYB''BKSEJN'
FLYBBKSEJN
root@arm:~# MARKER='YKWC''OHBHWP' run 'i2cget -y -f 2 0x60 0x21'
YKWCOHBHWP0xce
YKWCOHBHWP 0
root@arm:~# echo 'ZXOQ''JQMQPO'
ZXOQJQMQPO
root@arm:~# MARKER='HHPH''JQCYLF' run 'echo 1930000 1930000 > /sys/kernel/mva_tesst/regulators/buck1_set'
HHPHJQCYLFHHPHJQCYLF 0
root@arm:~# echo 'APCG''VLVJZN'
APCGVLVJZN
root@arm:~# MARKER='LYAF''BOMJNM' run 'i2cget -f -y 2 0x60 0x28'
LYAFBOMJNM0x0d
LYAFBOMJNM 0
root@arm:~# echo 'GYAW''MSBBBM'
GYAWMSBBBM
root@arm:~# MARKER='CJGC''OAJYPB' run 'i2cget -y -f 2 0x60 0x21'
CJGCOAJYPB0xce
CJGCOAJYPB 0
root@arm:~# echo 'QETB''NPTCSO'
QETBNPTCSO
root@arm:~# MARKER='ZFFU''VUTJWZ' run 'i2cget -y -f 2 0x60 0x21'
ZFFUVUTJWZ0xce
ZFFUVUTJWZ 0
root@arm:~# echo 'PTCT''HMPUCO'
PTCTHMPUCO
root@arm:~# MARKER='SOBW''GQBOUX' run 'echo 1940000 1940000 > /sys/kernel/mva_tesst/regulators/buck1_set'
SOBWGQBOUXSOBWGQBOUX 0
root@arm:~# echo 'QQXV''GMTWLC'
QQXVGMTWLC
root@arm:~# MARKER='XENY''PEYZBS' run 'i2cget -f -y 2 0x60 0x28'
XENYPEYZBS0x0e
XENYPEYZBS 0
root@arm:~# echo 'SGAE''TYQWLL'
SGAETYQWLL
root@arm:~# MARKER='BCWK''JKPZKO' run 'i2cget -y -f 2 0x60 0x21'
BCWKJKPZKO0xce
BCWKJKPZKO 0
root@arm:~# echo 'MFVU''HMNTPV'
MFVUHMNTPV
root@arm:~# MARKER='AWJB''TPEYMH' run 'i2cget -y -f 2 0x60 0x21'
AWJBTPEYMH0xce
AWJBTPEYMH 0
root@arm:~# echo 'POYT''EKLVCJ'
POYTEKLVCJ
root@arm:~# MARKER='ZNPQ''ELZYQS' run 'echo 1950000 1950000 > /sys/kernel/mva_tesst/regulators/buck1_set'
ZNPQELZYQSZNPQELZYQS 0
root@arm:~# echo 'UCZX''QPKOJC'
UCZXQPKOJC
root@arm:~# MARKER='AVEV''TKPEUH' run 'i2cget -f -y 2 0x60 0x28'
AVEVTKPEUH0x0f
AVEVTKPEUH 0
root@arm:~# echo 'SLSW''BYZEJO'
SLSWBYZEJO
root@arm:~# MARKER='LYHY''USXQXG' run 'i2cget -y -f 2 0x60 0x21'
LYHYUSXQXG0xce
LYHYUSXQXG 0
root@arm:~# echo 'GJVM''SZBZCY'
GJVMSZBZCY
root@arm:~# MARKER='XJFA''XNMJAU' run 'i2cget -y -f 2 0x60 0x21'
XJFAXNMJAU0xce
XJFAXNMJAU 0
root@arm:~# echo 'NZOK''YXMNBA'
NZOKYXMNBA
root@arm:~# MARKER='HLXS''PTNZAW' run 'echo 1960000 1960000 > /sys/kernel/mva_tesst/regulators/buck1_set'
HLXSPTNZAWHLXSPTNZAW 0
root@arm:~# echo 'HYZU''SETVGG'
HYZUSETVGG
root@arm:~# MARKER='QSLX''JXQWNN' run 'i2cget -f -y 2 0x60 0x28'
QSLXJXQWNN0x10
QSLXJXQWNN 0
root@arm:~# echo 'XVYM''WZYYAP'
XVYMWZYYAP
root@arm:~# MARKER='OQYX''VXJZAB' run 'i2cget -y -f 2 0x60 0x21'
OQYXVXJZAB0xce
OQYXVXJZAB 0
root@arm:~# echo 'XNSE''GWXNUY'
XNSEGWXNUY
root@arm:~# MARKER='XJXZ''KUVZSW' run 'i2cget -y -f 2 0x60 0x21'
XJXZKUVZSW0xce
XJXZKUVZSW 0
root@arm:~# echo 'GFFX''VZCOPO'
GFFXVZCOPO
root@arm:~# MARKER='JLHG''PYWCUX' run 'echo 1970000 1970000 > /sys/kernel/mva_tesst/regulators/buck1_set'
JLHGPYWCUXJLHGPYWCUX 0
root@arm:~# echo 'UAMS''QEJXXY'
UAMSQEJXXY
root@arm:~# MARKER='MFSU''ANEELQ' run 'i2cget -f -y 2 0x60 0x28'
MFSUANEELQ0x11
MFSUANEELQ 0
root@arm:~# echo 'TJFN''MMUEOM'
TJFNMMUEOM
root@arm:~# MARKER='WLHV''PLZOXA' run 'i2cget -y -f 2 0x60 0x21'
WLHVPLZOXA0xce
WLHVPLZOXA 0
root@arm:~# echo 'YEGS''SVAYOK'
YEGSSVAYOK
root@arm:~# MARKER='QCLZ''FXNTOL' run 'i2cget -y -f 2 0x60 0x21'
QCLZFXNTOL0xce
QCLZFXNTOL 0
root@arm:~# echo 'CBHG''OCCTVP'
CBHGOCCTVP
root@arm:~# MARKER='YSUK''KUGVYO' run 'echo 1980000 1980000 > /sys/kernel/mva_tesst/regulators/buck1_set'
YSUKKUGVYOYSUKKUGVYO 0
root@arm:~# echo 'FBTO''GNYQGJ'
FBTOGNYQGJ
root@arm:~# MARKER='WNZT''GFMLTN' run 'i2cget -f -y 2 0x60 0x28'
WNZTGFMLTN0x12
WNZTGFMLTN 0
root@arm:~# echo 'GPFK''VPMGGT'
GPFKVPMGGT
root@arm:~# MARKER='VMXW''GONNUO' run 'i2cget -y -f 2 0x60 0x21'
VMXWGONNUO0xce
VMXWGONNUO 0
root@arm:~# echo 'JWYW''SLBAGS'
JWYWSLBAGS
root@arm:~# MARKER='PPZT''YYMQCQ' run 'i2cget -y -f 2 0x60 0x21'
PPZTYYMQCQ0xce
PPZTYYMQCQ 0
root@arm:~# echo 'TYEE''NEWKNH'
TYEENEWKNH
root@arm:~# MARKER='OSPJ''WPVFGZ' run 'echo 1990000 1990000 > /sys/kernel/mva_tesst/regulators/buck1_set'
OSPJWPVFGZOSPJWPVFGZ 0
root@arm:~# echo 'KMHL''HWNPMP'
KMHLHWNPMP
root@arm:~# MARKER='OWHN''TFZNNV' run 'i2cget -f -y 2 0x60 0x28'
OWHNTFZNNV0x13
OWHNTFZNNV 0
root@arm:~# echo 'ACYY''SVKKCU'
ACYYSVKKCU
root@arm:~# MARKER='NHAC''JBEVSF' run 'i2cget -y -f 2 0x60 0x21'
NHACJBEVSF0xce
NHACJBEVSF 0
root@arm:~# echo 'OQXV''UKGHLO'
OQXVUKGHLO
root@arm:~# MARKER='UVEC''MMJHSM' run 'i2cget -y -f 2 0x60 0x21'
UVECMMJHSM0xce
UVECMMJHSM 0
root@arm:~# echo 'QTMZ''QHSCQS'
QTMZQHSCQS
root@arm:~# MARKER='ZUNG''GMFVWS' run 'echo 2000000 2000000 > /sys/kernel/mva_tesst/regulators/buck1_set'
ZUNGGMFVWSZUNGGMFVWS 0
root@arm:~# echo 'KZZU''JMZWMM'
KZZUJMZWMM
root@arm:~# MARKER='VYVP''TKJZYW' run 'i2cget -f -y 2 0x60 0x28'
VYVPTKJZYW0x14
VYVPTKJZYW 0
root@arm:~# echo 'LOON''KAQABZ'
LOONKAQABZ
root@arm:~# MARKER='UWMM''YVAXUS' run 'i2cget -y -f 2 0x60 0x21'
UWMMYVAXUS0xce
UWMMYVAXUS 0
root@arm:~# echo 'UTYH''MVAWNA'
UTYHMVAWNA
root@arm:~# MARKER='BXPH''GSAGWV' run 'i2cget -y -f 2 0x60 0x21'
BXPHGSAGWV0xce
BXPHGSAGWV 0
root@arm:~# echo 'EHYV''WGUHSE'
EHYVWGUHSE
root@arm:~# MARKER='YYXM''PHJLXM' run 'echo 2010000 2010000 > /sys/kernel/mva_tesst/regulators/buck1_set'
YYXMPHJLXMYYXMPHJLXM 0
root@arm:~# echo 'JGGZ''CYEUOK'
JGGZCYEUOK
root@arm:~# MARKER='SKPT''LKSKZE' run 'i2cget -f -y 2 0x60 0x28'
SKPTLKSKZE0x15
SKPTLKSKZE 0
root@arm:~# echo 'XVMT''ZLLSZG'
XVMTZLLSZG
root@arm:~# MARKER='BSFJ''QBMTXS' run 'i2cget -y -f 2 0x60 0x21'
BSFJQBMTXS0xce
BSFJQBMTXS 0
root@arm:~# echo 'UYUB''EFPNEM'
UYUBEFPNEM
root@arm:~# MARKER='WVUE''YVWHLX' run 'i2cget -y -f 2 0x60 0x21'
WVUEYVWHLX0xce
WVUEYVWHLX 0
root@arm:~# echo 'FEFQ''FNNJQL'
FEFQFNNJQL
root@arm:~# MARKER='VVGY''MMVOXK' run 'echo 2020000 2020000 > /sys/kernel/mva_tesst/regulators/buck1_set'
VVGYMMVOXKVVGYMMVOXK 0
root@arm:~# echo 'WYGJ''BVOCKW'
WYGJBVOCKW
root@arm:~# MARKER='KXMZ''CVKJML' run 'i2cget -f -y 2 0x60 0x28'
KXMZCVKJML0x16
KXMZCVKJML 0
root@arm:~# echo 'EWHX''WQLUKM'
EWHXWQLUKM
root@arm:~# MARKER='CBYH''PCAUON' run 'i2cget -y -f 2 0x60 0x21'
CBYHPCAUON0xce
CBYHPCAUON 0
root@arm:~# echo 'YGPV''GJKOAZ'
YGPVGJKOAZ
root@arm:~# MARKER='KBFF''MLNPWX' run 'i2cget -y -f 2 0x60 0x21'
KBFFMLNPWX0xce
KBFFMLNPWX 0
root@arm:~# echo 'MPOX''HQGMFE'
MPOXHQGMFE
root@arm:~# MARKER='FKTL''VWBXFG' run 'echo 2030000 2030000 > /sys/kernel/mva_tesst/regulators/buck1_set'
FKTLVWBXFGFKTLVWBXFG 0
root@arm:~# echo 'QNKZ''QKMLVW'
QNKZQKMLVW
root@arm:~# MARKER='LUTV''UVEKUV' run 'i2cget -f -y 2 0x60 0x28'
LUTVUVEKUV0x17
LUTVUVEKUV 0
root@arm:~# echo 'ULBP''QEVBME'
ULBPQEVBME
root@arm:~# MARKER='GTBO''NKKSZJ' run 'i2cget -y -f 2 0x60 0x21'
GTBONKKSZJ0xce
GTBONKKSZJ 0
root@arm:~# echo 'AGMH''BWOGQJ'
AGMHBWOGQJ
root@arm:~# MARKER='KCOT''XCTPFN' run 'i2cget -y -f 2 0x60 0x21'
KCOTXCTPFN0xce
KCOTXCTPFN 0
root@arm:~# echo 'BAHE''CGPJNG'
BAHECGPJNG
root@arm:~# MARKER='ZWQG''OBUFTU' run 'echo 2040000 2040000 > /sys/kernel/mva_tesst/regulators/buck1_set'
ZWQGOBUFTUZWQGOBUFTU 0
root@arm:~# echo 'VGPM''USCTXA'
VGPMUSCTXA
root@arm:~# MARKER='LEAB''HGGEBN' run 'i2cget -f -y 2 0x60 0x28'
LEABHGGEBN0x18
LEABHGGEBN 0
root@arm:~# echo 'GALL''FMBQZJ'
GALLFMBQZJ
root@arm:~# MARKER='UHGF''PGETHS' run 'i2cget -y -f 2 0x60 0x21'
UHGFPGETHS0xce
UHGFPGETHS 0
root@arm:~# echo 'KWVW''FNZHUA'
KWVWFNZHUA
root@arm:~# MARKER='WUGL''OVLMTQ' run 'i2cget -y -f 2 0x60 0x21'
WUGLOVLMTQ0xce
WUGLOVLMTQ 0
root@arm:~# echo 'QSKX''MJTCHJ'
QSKXMJTCHJ
root@arm:~# MARKER='GCNH''HZGPVC' run 'echo 2050000 2050000 > /sys/kernel/mva_tesst/regulators/buck1_set'
GCNHHZGPVCGCNHHZGPVC 0
root@arm:~# echo 'XZNA''MWFZJY'
XZNAMWFZJY
root@arm:~# MARKER='WZMH''WZHLML' run 'i2cget -f -y 2 0x60 0x28'
WZMHWZHLML0x19
WZMHWZHLML 0
root@arm:~# echo 'TYFH''POTZKO'
TYFHPOTZKO
root@arm:~# MARKER='KEMW''PCJKYN' run 'i2cget -y -f 2 0x60 0x21'
KEMWPCJKYN0xce
KEMWPCJKYN 0
root@arm:~# echo 'VHMU''MOTXOT'
VHMUMOTXOT
root@arm:~# MARKER='AXEN''KPSTUA' run 'i2cget -y -f 2 0x60 0x21'
AXENKPSTUA0xce
AXENKPSTUA 0
root@arm:~# echo 'TYUY''EAKMEF'
TYUYEAKMEF
root@arm:~# MARKER='VJCW''MWVPSE' run 'echo 2060000 2060000 > /sys/kernel/mva_tesst/regulators/buck1_set'
VJCWMWVPSEVJCWMWVPSE 0
root@arm:~# echo 'VEVJ''UQOBFT'
VEVJUQOBFT
root@arm:~# MARKER='ANNX''VGWAYS' run 'i2cget -f -y 2 0x60 0x28'
ANNXVGWAYS0x1a
ANNXVGWAYS 0
root@arm:~# echo 'VHBS''FFKHVU'
VHBSFFKHVU
root@arm:~# MARKER='YTAO''AEGGMJ' run 'i2cget -y -f 2 0x60 0x21'
YTAOAEGGMJ0xce
YTAOAEGGMJ 0
root@arm:~# echo 'MGTG''ZXAWLW'
MGTGZXAWLW
root@arm:~# MARKER='GEFQ''KCQYHO' run 'i2cget -y -f 2 0x60 0x21'
GEFQKCQYHO0xce
GEFQKCQYHO 0
root@arm:~# echo 'KTWZ''AKTFKS'
KTWZAKTFKS
root@arm:~# MARKER='JAMN''XMHKBA' run 'echo 2070000 2070000 > /sys/kernel/mva_tesst/regulators/buck1_set'
JAMNXMHKBAJAMNXMHKBA 0
root@arm:~# echo 'CWTQ''EPXMTV'
CWTQEPXMTV
root@arm:~# MARKER='UXHO''ZBAHFA' run 'i2cget -f -y 2 0x60 0x28'
UXHOZBAHFA0x1b
UXHOZBAHFA 0
root@arm:~# echo 'TEYN''BCKEAC'
TEYNBCKEAC
root@arm:~# MARKER='ZJKQ''UQSVKM' run 'i2cget -y -f 2 0x60 0x21'
ZJKQUQSVKM0xce
ZJKQUQSVKM 0
root@arm:~# echo 'NOOV''ZMLEJJ'
NOOVZMLEJJ
root@arm:~# MARKER='OFFM''PWJSXQ' run 'i2cget -y -f 2 0x60 0x21'
OFFMPWJSXQ0xce
OFFMPWJSXQ 0
root@arm:~# echo 'LAYL''PAHSYA'
LAYLPAHSYA
root@arm:~# MARKER='BJMQ''NZOOGA' run 'echo 2080000 2080000 > /sys/kernel/mva_tesst/regulators/buck1_set'
BJMQNZOOGABJMQNZOOGA 0
root@arm:~# echo 'JOSO''NEGPQF'
JOSONEGPQF
root@arm:~# MARKER='LVYB''UGXFUX' run 'i2cget -f -y 2 0x60 0x28'
LVYBUGXFUX0x1c
LVYBUGXFUX 0
root@arm:~# echo 'TCHE''BLHFHL'
TCHEBLHFHL
root@arm:~# MARKER='CXQH''GOBMNL' run 'i2cget -y -f 2 0x60 0x21'
CXQHGOBMNL0xce
CXQHGOBMNL 0
root@arm:~# echo 'NQCL''ZBEASQ'
NQCLZBEASQ
root@arm:~# MARKER='NXEM''TPNBBM' run 'i2cget -y -f 2 0x60 0x21'
NXEMTPNBBM0xce
NXEMTPNBBM 0
root@arm:~# echo 'XNAQ''UGTQGK'
XNAQUGTQGK
root@arm:~# MARKER='YKUM''NYLJPE' run 'echo 2090000 2090000 > /sys/kernel/mva_tesst/regulators/buck1_set'
YKUMNYLJPEYKUMNYLJPE 0
root@arm:~# echo 'CBZF''JUJYHZ'
CBZFJUJYHZ
root@arm:~# MARKER='OQVL''YGHGVF' run 'i2cget -f -y 2 0x60 0x28'
OQVLYGHGVF0x1d
OQVLYGHGVF 0
root@arm:~# echo 'QCOY''WOSCGP'
QCOYWOSCGP
root@arm:~# MARKER='VUNA''LJGJWE' run 'i2cget -y -f 2 0x60 0x21'
VUNALJGJWE0xce
VUNALJGJWE 0
root@arm:~# echo 'LYKE''TTZAZT'
LYKETTZAZT
root@arm:~# MARKER='MTQJ''WZULQP' run 'i2cget -y -f 2 0x60 0x21'
MTQJWZULQP0xce
MTQJWZULQP 0
root@arm:~# echo 'HHZJ''FPOQOG'
HHZJFPOQOG
root@arm:~# MARKER='TJQN''MVHUXS' run 'echo 2100000 2100000 > /sys/kernel/mva_tesst/regulators/buck1_set'
TJQNMVHUXSTJQNMVHUXS 0
root@arm:~# echo 'MSGL''MTFLCP'
MSGLMTFLCP
root@arm:~# MARKER='OFCB''CKLGKB' run 'i2cget -f -y 2 0x60 0x28'
OFCBCKLGKB0x1e
OFCBCKLGKB 0
root@arm:~# echo 'QPAU''CBPCSQ'
QPAUCBPCSQ
root@arm:~# MARKER='AMLB''WLMEVM' run 'i2cget -y -f 2 0x60 0x21'
AMLBWLMEVM0xce
AMLBWLMEVM 0
root@arm:~# echo 'QAMO''EGXSXM'
QAMOEGXSXM
root@arm:~# MARKER='SLLO''JNVXCL' run 'i2cget -y -f 2 0x60 0x21'
SLLOJNVXCL0xce
SLLOJNVXCL 0
root@arm:~# echo 'TSQP''SMECTJ'
TSQPSMECTJ
root@arm:~# MARKER='SPLX''CVQSPW' run 'echo 2110000 2110000 > /sys/kernel/mva_tesst/regulators/buck1_set'
SPLXCVQSPWSPLXCVQSPW 0
root@arm:~# echo 'YZZW''WVCNBS'
YZZWWVCNBS
root@arm:~# MARKER='JTPZ''VMOPXJ' run 'i2cget -f -y 2 0x60 0x28'
JTPZVMOPXJ0x1f
JTPZVMOPXJ 0
root@arm:~# echo 'FOWX''ZQTXTX'
FOWXZQTXTX
root@arm:~# MARKER='MVTQ''XUESXL' run 'i2cget -y -f 2 0x60 0x21'
MVTQXUESXL0xce
MVTQXUESXL 0
root@arm:~# echo 'YGLL''WNCKPY'
YGLLWNCKPY
root@arm:~# MARKER='ZMQZ''PFPFZG' run 'i2cget -y -f 2 0x60 0x21'
ZMQZPFPFZG0xce
ZMQZPFPFZG 0
root@arm:~# echo 'FKPC''SNTCJJ'
FKPCSNTCJJ
root@arm:~# MARKER='KNFK''NTGBFV' run 'echo 1490000 1490000 > /sys/kernel/mva_tesst/regulators/buck1_set'
KNFKNTGBFVKNFKNTGBFV 0
root@arm:~# echo 'QELL''PQEGLW'
QELLPQEGLW
root@arm:~# MARKER='QYJK''EMTYMH' run 'i2cget -f -y 2 0x60 0x28'
QYJKEMTYMH0x20
QYJKEMTYMH 0
root@arm:~# echo 'WCBT''LNXTEL'
WCBTLNXTEL
root@arm:~# MARKER='FAET''GNYMHO' run 'i2cget -y -f 2 0x60 0x21'
FAETGNYMHO0xce
FAETGNYMHO 0
root@arm:~# echo 'XVJP''VWWEBA'
XVJPVWWEBA
root@arm:~# MARKER='WGUM''KQUGFK' run 'i2cget -y -f 2 0x60 0x21'
WGUMKQUGFK0xce
WGUMKQUGFK 0
root@arm:~# echo 'XQQQ''QTNOCC'
XQQQQTNOCC
root@arm:~# MARKER='KHSJ''JQSEZS' run 'echo 1500000 1500000 > /sys/kernel/mva_tesst/regulators/buck1_set'
KHSJJQSEZSKHSJJQSEZS 0
root@arm:~# echo 'ZCVJ''AFEQHM'
ZCVJAFEQHM
root@arm:~# MARKER='YHVF''TBZUGL' run 'i2cget -f -y 2 0x60 0x28'
YHVFTBZUGL0x21
YHVFTBZUGL 0
root@arm:~# echo 'OVFB''SJFYVB'
OVFBSJFYVB
root@arm:~# MARKER='BASQ''MSKMOY' run 'i2cget -y -f 2 0x60 0x21'
BASQMSKMOY0xce
BASQMSKMOY 0
root@arm:~# echo 'BTHJ''XJYJSK'
BTHJXJYJSK
root@arm:~# MARKER='KKMK''WAFHUS' run 'i2cget -y -f 2 0x60 0x21'
KKMKWAFHUS0xce
KKMKWAFHUS 0
root@arm:~# echo 'BCPA''JBYSCE'
BCPAJBYSCE
root@arm:~# MARKER='ZPML''PSSZJO' run 'echo 1510000 1510000 > /sys/kernel/mva_tesst/regulators/buck1_set'
ZPMLPSSZJOZPMLPSSZJO 0
root@arm:~# echo 'GMAP''GTPMSL'
GMAPGTPMSL
root@arm:~# MARKER='NPPF''JYLNBF' run 'i2cget -f -y 2 0x60 0x28'
NPPFJYLNBF0x22
NPPFJYLNBF 0
root@arm:~# echo 'ZECN''TKGUWS'
ZECNTKGUWS
root@arm:~# MARKER='CUJN''VASMCH' run 'i2cget -y -f 2 0x60 0x21'
CUJNVASMCH0xce
CUJNVASMCH 0
root@arm:~# echo 'JJFS''FOAWAF'
JJFSFOAWAF
root@arm:~# MARKER='AMJG''FAUSSW' run 'i2cget -y -f 2 0x60 0x21'
AMJGFAUSSW0xce
AMJGFAUSSW 0
root@arm:~# echo 'MXAC''MMHNME'
MXACMMHNME
root@arm:~# MARKER='PLVA''SHEBLF' run 'echo 1520000 1520000 > /sys/kernel/mva_tesst/regulators/buck1_set'
PLVASHEBLFPLVASHEBLF 0
root@arm:~# echo 'OHSN''AXSVHE'
OHSNAXSVHE
root@arm:~# MARKER='ZQPF''SUNGTZ' run 'i2cget -f -y 2 0x60 0x28'
ZQPFSUNGTZ0x23
ZQPFSUNGTZ 0
root@arm:~# echo 'TCBO''KSGTKO'
TCBOKSGTKO
root@arm:~# MARKER='UJMW''BJYMOW' run 'i2cget -y -f 2 0x60 0x21'
UJMWBJYMOW0xce
UJMWBJYMOW 0
root@arm:~# echo 'NYZV''NYFTXO'
NYZVNYFTXO
root@arm:~# MARKER='WCFW''WCZWXE' run 'i2cget -y -f 2 0x60 0x21'
WCFWWCZWXE0xce
WCFWWCZWXE 0
root@arm:~# echo 'KFVM''CZVBPG'
KFVMCZVBPG
root@arm:~# MARKER='FQHM''OCVNAQ' run 'echo 1530000 1530000 > /sys/kernel/mva_tesst/regulators/buck1_set'
FQHMOCVNAQFQHMOCVNAQ 0
root@arm:~# echo 'PFHN''FFOMXO'
PFHNFFOMXO
root@arm:~# MARKER='WTWY''ZGHSNQ' run 'i2cget -f -y 2 0x60 0x28'
WTWYZGHSNQ0x24
WTWYZGHSNQ 0
root@arm:~# echo 'ALZC''VATCGQ'
ALZCVATCGQ
root@arm:~# MARKER='ZAPX''BNAAEW' run 'i2cget -y -f 2 0x60 0x21'
ZAPXBNAAEW0xce
ZAPXBNAAEW 0
root@arm:~# echo 'GEJP''EJGENT'
GEJPEJGENT
root@arm:~# MARKER='MZQJ''USMFAG' run 'i2cget -y -f 2 0x60 0x21'
MZQJUSMFAG0xce
MZQJUSMFAG 0
root@arm:~# echo 'YJPT''WZHBOS'
YJPTWZHBOS
root@arm:~# MARKER='ACWA''XAKVMS' run 'echo 1540000 1540000 > /sys/kernel/mva_tesst/regulators/buck1_set'
ACWAXAKVMSACWAXAKVMS 0
root@arm:~# echo 'YFJQ''NFWFHA'
YFJQNFWFHA
root@arm:~# MARKER='OBTW''GAQVOE' run 'i2cget -f -y 2 0x60 0x28'
OBTWGAQVOE0x25
OBTWGAQVOE 0
root@arm:~# echo 'LCUO''WKGKKS'
LCUOWKGKKS
root@arm:~# MARKER='YNXE''FVNHSN' run 'i2cget -y -f 2 0x60 0x21'
YNXEFVNHSN0xce
YNXEFVNHSN 0
root@arm:~# echo 'ZPQL''VOUFQF'
ZPQLVOUFQF
root@arm:~# MARKER='BLCG''LAKWPZ' run 'i2cget -y -f 2 0x60 0x21'
BLCGLAKWPZ0xce
BLCGLAKWPZ 0
root@arm:~# echo 'JHGT''SFBTBB'
JHGTSFBTBB
root@arm:~# MARKER='XHLH''FBSPZU' run 'echo 1550000 1550000 > /sys/kernel/mva_tesst/regulators/buck1_set'
XHLHFBSPZUXHLHFBSPZU 0
root@arm:~# echo 'WBGV''EKHGXG'
WBGVEKHGXG
root@arm:~# MARKER='AOPQ''JBSWJW' run 'i2cget -f -y 2 0x60 0x28'
AOPQJBSWJW0x26
AOPQJBSWJW 0
root@arm:~# echo 'OUAF''WPVFHS'
OUAFWPVFHS
root@arm:~# MARKER='SGAY''OHCACM' run 'i2cget -y -f 2 0x60 0x21'
SGAYOHCACM0xce
SGAYOHCACM 0
root@arm:~# echo 'QWBC''XMZLYC'
QWBCXMZLYC
root@arm:~# MARKER='XYYS''QCSZQV' run 'i2cget -y -f 2 0x60 0x21'
XYYSQCSZQV0xce
XYYSQCSZQV 0
root@arm:~# echo 'WYHL''QQLGSM'
WYHLQQLGSM
root@arm:~# MARKER='ECEN''PFMATK' run 'echo 1560000 1560000 > /sys/kernel/mva_tesst/regulators/buck1_set'
ECENPFMATKECENPFMATK 0
root@arm:~# echo 'QPZN''FAWPNF'
QPZNFAWPNF
root@arm:~# MARKER='CJCF''BWATUY' run 'i2cget -f -y 2 0x60 0x28'
CJCFBWATUY0x27
CJCFBWATUY 0
root@arm:~# echo 'WJET''MCACAF'
WJETMCACAF
root@arm:~# MARKER='GOAE''SEJMWF' run 'i2cget -y -f 2 0x60 0x21'
GOAESEJMWF0xce
GOAESEJMWF 0
root@arm:~# echo 'JQFH''TAQFUF'
JQFHTAQFUF
root@arm:~# MARKER='UWUU''NGZZLJ' run 'i2cget -y -f 2 0x60 0x21'
UWUUNGZZLJ0xce
UWUUNGZZLJ 0
root@arm:~# echo 'VKGV''YKTMLM'
VKGVYKTMLM
root@arm:~# MARKER='HPMG''OLOFQM' run 'echo 1570000 1570000 > /sys/kernel/mva_tesst/regulators/buck1_set'
HPMGOLOFQMHPMGOLOFQM 0
root@arm:~# echo 'BLEF''PYFBMX'
BLEFPYFBMX
root@arm:~# MARKER='LZVV''XLHGYM' run 'i2cget -f -y 2 0x60 0x28'
LZVVXLHGYM0x28
LZVVXLHGYM 0
root@arm:~# echo 'ZKKJ''KWVPFG'
ZKKJKWVPFG
root@arm:~# MARKER='ZCPW''AUNYCQ' run 'i2cget -y -f 2 0x60 0x21'
ZCPWAUNYCQ0xce
ZCPWAUNYCQ 0
root@arm:~# echo 'UJOF''PLMJQP'
UJOFPLMJQP
root@arm:~# MARKER='AQMQ''PEEEHK' run 'i2cget -y -f 2 0x60 0x21'
AQMQPEEEHK0xce
AQMQPEEEHK 0
root@arm:~# echo 'LGUK''MEVYUB'
LGUKMEVYUB
root@arm:~# MARKER='NNVL''BVCCSJ' run 'echo 1580000 1580000 > /sys/kernel/mva_tesst/regulators/buck1_set'
NNVLBVCCSJNNVLBVCCSJ 0
root@arm:~# echo 'PLEL''KKJNYU'
PLELKKJNYU
root@arm:~# MARKER='BCLL''OMQHPH' run 'i2cget -f -y 2 0x60 0x28'
BCLLOMQHPH0x29
BCLLOMQHPH 0
root@arm:~# echo 'WLEV''USQMBW'
WLEVUSQMBW
root@arm:~# MARKER='WNBA''OTONUS' run 'i2cget -y -f 2 0x60 0x21'
WNBAOTONUS0xce
WNBAOTONUS 0
root@arm:~# echo 'LKAC''LHECGB'
LKACLHECGB
root@arm:~# MARKER='FKZG''GHLKCW' run 'i2cget -y -f 2 0x60 0x21'
FKZGGHLKCW0xce
FKZGGHLKCW 0
root@arm:~# echo 'NULM''WFXULZ'
NULMWFXULZ
root@arm:~# MARKER='CUJY''SPZOQY' run 'echo 1590000 1590000 > /sys/kernel/mva_tesst/regulators/buck1_set'
CUJYSPZOQYCUJYSPZOQY 0
root@arm:~# echo 'KNKM''VNHHQT'
KNKMVNHHQT
root@arm:~# MARKER='FNPW''KOVPWQ' run 'i2cget -f -y 2 0x60 0x28'
FNPWKOVPWQ0x2a
FNPWKOVPWQ 0
root@arm:~# echo 'WWVQ''YBLGJQ'
WWVQYBLGJQ
root@arm:~# MARKER='CZVX''EKEKAM' run 'i2cget -y -f 2 0x60 0x21'
CZVXEKEKAM0xce
CZVXEKEKAM 0
root@arm:~# echo 'QULH''SFVQXM'
QULHSFVQXM
root@arm:~# MARKER='WSVE''PEYLTB' run 'i2cget -y -f 2 0x60 0x21'
WSVEPEYLTB0xce
WSVEPEYLTB 0
root@arm:~# echo 'JVNX''BLGHAY'
JVNXBLGHAY
root@arm:~# MARKER='MLAF''OPAUVM' run 'echo 1600000 1600000 > /sys/kernel/mva_tesst/regulators/buck1_set'
MLAFOPAUVMMLAFOPAUVM 0
root@arm:~# echo 'WNYE''TUMXKN'
WNYETUMXKN
root@arm:~# MARKER='YYBS''BFVPSK' run 'i2cget -f -y 2 0x60 0x28'
YYBSBFVPSK0x2b
YYBSBFVPSK 0
root@arm:~# echo 'KLNZ''YVAYNX'
KLNZYVAYNX
root@arm:~# MARKER='SZZZ''VAAOKP' run 'i2cget -y -f 2 0x60 0x21'
SZZZVAAOKP0xce
SZZZVAAOKP 0
root@arm:~# echo 'VTGT''HYVCNK'
VTGTHYVCNK
root@arm:~# MARKER='MSFS''QJCQHP' run 'i2cget -y -f 2 0x60 0x21'
MSFSQJCQHP0xce
MSFSQJCQHP 0
root@arm:~# echo 'XTKQ''QEJMLG'
XTKQQEJMLG
root@arm:~# MARKER='AJPT''VBMWXN' run 'echo 1610000 1610000 > /sys/kernel/mva_tesst/regulators/buck1_set'
AJPTVBMWXNAJPTVBMWXN 0
root@arm:~# echo 'NVYK''UBVPQV'
NVYKUBVPQV
root@arm:~# MARKER='ALWJ''PEUOMW' run 'i2cget -f -y 2 0x60 0x28'
ALWJPEUOMW0x2c
ALWJPEUOMW 0
root@arm:~# echo 'PCXF''WEAZLY'
PCXFWEAZLY
root@arm:~# MARKER='FATU''CGTHGM' run 'i2cget -y -f 2 0x60 0x21'
FATUCGTHGM0xce
FATUCGTHGM 0
root@arm:~# echo 'ATKH''VFCELW'
ATKHVFCELW
root@arm:~# MARKER='GQUE''SOCYHE' run 'i2cget -y -f 2 0x60 0x21'
GQUESOCYHE0xce
GQUESOCYHE 0
root@arm:~# echo 'CGBZ''KUJHWH'
CGBZKUJHWH
root@arm:~# MARKER='ZUJS''FJVFOC' run 'echo 1620000 1620000 > /sys/kernel/mva_tesst/regulators/buck1_set'
ZUJSFJVFOCZUJSFJVFOC 0
root@arm:~# echo 'KHLY''FCSXYY'
KHLYFCSXYY
root@arm:~# MARKER='FHVV''XOJFKC' run 'i2cget -f -y 2 0x60 0x28'
FHVVXOJFKC0x2d
FHVVXOJFKC 0
root@arm:~# echo 'QXWO''ZTXUPK'
QXWOZTXUPK
root@arm:~# MARKER='KXQX''WBXFWG' run 'i2cget -y -f 2 0x60 0x21'
KXQXWBXFWG0xce
KXQXWBXFWG 0
root@arm:~# echo 'UPOB''XYTNCX'
UPOBXYTNCX
root@arm:~# MARKER='NQZP''YJVLOU' run 'i2cget -y -f 2 0x60 0x21'
NQZPYJVLOU0xce
NQZPYJVLOU 0
root@arm:~# echo 'GFOM''TSWLBV'
GFOMTSWLBV
root@arm:~# MARKER='HWUZ''TGKXWW' run 'echo 1630000 1630000 > /sys/kernel/mva_tesst/regulators/buck1_set'
HWUZTGKXWWHWUZTGKXWW 0
root@arm:~# echo 'FYZX''VLFBXW'
FYZXVLFBXW
root@arm:~# MARKER='PZMV''JAZKYN' run 'i2cget -f -y 2 0x60 0x28'
PZMVJAZKYN0x2e
PZMVJAZKYN 0
root@arm:~# echo 'ZZEV''ZAUYOU'
ZZEVZAUYOU
root@arm:~# MARKER='HCNA''GBHFJN' run 'i2cget -y -f 2 0x60 0x21'
HCNAGBHFJN0xce
HCNAGBHFJN 0
root@arm:~# echo 'KVYO''LOTNWF'
KVYOLOTNWF
root@arm:~# MARKER='KNCM''UQUZFT' run 'i2cget -y -f 2 0x60 0x21'
KNCMUQUZFT0xce
KNCMUQUZFT 0
root@arm:~# echo 'WYNV''TEFAQU'
WYNVTEFAQU
root@arm:~# MARKER='WPYV''CKMSWC' run 'echo 1640000 1640000 > /sys/kernel/mva_tesst/regulators/buck1_set'
WPYVCKMSWCWPYVCKMSWC 0
root@arm:~# echo 'CUZW''QQKYTL'
CUZWQQKYTL
root@arm:~# MARKER='QCKF''FLSKXM' run 'i2cget -f -y 2 0x60 0x28'
QCKFFLSKXM0x2f
QCKFFLSKXM 0
root@arm:~# echo 'PEOY''KKGSTE'
PEOYKKGSTE
root@arm:~# MARKER='KNVN''ZCUVPX' run 'i2cget -y -f 2 0x60 0x21'
KNVNZCUVPX0xce
KNVNZCUVPX 0
root@arm:~# echo 'CGBQ''WAUEFN'
CGBQWAUEFN
root@arm:~# MARKER='WBMW''XPXSAB' run 'i2cget -y -f 2 0x60 0x21'
WBMWXPXSAB0xce
WBMWXPXSAB 0
root@arm:~# echo 'TXGL''KOPCCV'
TXGLKOPCCV
root@arm:~# MARKER='ZGUL''GJMKFF' run 'echo 1650000 1650000 > /sys/kernel/mva_tesst/regulators/buck1_set'
ZGULGJMKFFZGULGJMKFF 0
root@arm:~# echo 'QZYA''CWCKUG'
QZYACWCKUG
root@arm:~# MARKER='SYGU''KBXXCT' run 'i2cget -f -y 2 0x60 0x28'
SYGUKBXXCT0x30
SYGUKBXXCT 0
root@arm:~# echo 'UZJM''CWFKXJ'
UZJMCWFKXJ
root@arm:~# MARKER='ONLH''BWUVVO' run 'i2cget -y -f 2 0x60 0x21'
ONLHBWUVVO0xce
ONLHBWUVVO 0
root@arm:~# echo 'HAMC''OLQQSM'
HAMCOLQQSM
root@arm:~# MARKER='BKHW''FVPPTV' run 'i2cget -y -f 2 0x60 0x21'
BKHWFVPPTV0xce
BKHWFVPPTV 0
root@arm:~# echo 'XMKQ''EMYHNC'
XMKQEMYHNC
root@arm:~# MARKER='CPNU''JPUWJO' run 'echo 1660000 1660000 > /sys/kernel/mva_tesst/regulators/buck1_set'
CPNUJPUWJOCPNUJPUWJO 0
root@arm:~# echo 'GPVS''PXHZML'
GPVSPXHZML
root@arm:~# MARKER='WCZU''ATVCOK' run 'i2cget -f -y 2 0x60 0x28'
WCZUATVCOK0x31
WCZUATVCOK 0
root@arm:~# echo 'VYCU''LGHALE'
VYCULGHALE
root@arm:~# MARKER='PETK''LTYCCY' run 'i2cget -y -f 2 0x60 0x21'
PETKLTYCCY0xce
PETKLTYCCY 0
root@arm:~# echo 'GEAQ''PUTETQ'
GEAQPUTETQ
root@arm:~# MARKER='LGEB''SOHSLT' run 'i2cget -y -f 2 0x60 0x21'
LGEBSOHSLT0xce
LGEBSOHSLT 0
root@arm:~# echo 'VKKX''JYQGWQ'
VKKXJYQGWQ
root@arm:~# MARKER='ACHO''EGFFQV' run 'echo 1670000 1670000 > /sys/kernel/mva_tesst/regulators/buck1_set'
ACHOEGFFQVACHOEGFFQV 0
root@arm:~# echo 'JKFH''QHSUGP'
JKFHQHSUGP
root@arm:~# MARKER='FJCM''OVPGAF' run 'i2cget -f -y 2 0x60 0x28'
FJCMOVPGAF0x32
FJCMOVPGAF 0
root@arm:~# echo 'EQLK''LZENOH'
EQLKLZENOH
root@arm:~# MARKER='MXHV''XOMZCT' run 'i2cget -y -f 2 0x60 0x21'
MXHVXOMZCT0xce
MXHVXOMZCT 0
root@arm:~# echo 'EVJA''NHCGLF'
EVJANHCGLF
root@arm:~# MARKER='SFBH''ETUUOZ' run 'i2cget -y -f 2 0x60 0x21'
SFBHETUUOZ0xce
SFBHETUUOZ 0
root@arm:~# echo 'VUQT''OUBQUH'
VUQTOUBQUH
root@arm:~# MARKER='FNFY''ELEMEF' run 'echo 1680000 1680000 > /sys/kernel/mva_tesst/regulators/buck1_set'
FNFYELEMEFFNFYELEMEF 0
root@arm:~# echo 'XZSZ''OEUXZY'
XZSZOEUXZY
root@arm:~# MARKER='KUFK''BJPJTT' run 'i2cget -f -y 2 0x60 0x28'
KUFKBJPJTT0x33
KUFKBJPJTT 0
root@arm:~# echo 'OYAJ''AXBWAY'
OYAJAXBWAY
root@arm:~# MARKER='CYNH''QPFQGU' run 'i2cget -y -f 2 0x60 0x21'
CYNHQPFQGU0xce
CYNHQPFQGU 0
root@arm:~# echo 'MZYE''QEFOQW'
MZYEQEFOQW
root@arm:~# MARKER='MUXN''EKLVAX' run 'i2cget -y -f 2 0x60 0x21'
MUXNEKLVAX0xce
MUXNEKLVAX 0
root@arm:~# echo 'TVZA''OGJKPQ'
TVZAOGJKPQ
root@arm:~# MARKER='PCCA''HMKNJW' run 'echo 1690000 1690000 > /sys/kernel/mva_tesst/regulators/buck1_set'
PCCAHMKNJWPCCAHMKNJW 0
root@arm:~# echo 'ASJC''BENBBC'
ASJCBENBBC
root@arm:~# MARKER='JHNL''OXKHJT' run 'i2cget -f -y 2 0x60 0x28'
JHNLOXKHJT0x34
JHNLOXKHJT 0
root@arm:~# echo 'ZMLV''JSTZPM'
ZMLVJSTZPM
root@arm:~# MARKER='HNYS''WJOKAW' run 'i2cget -y -f 2 0x60 0x21'
HNYSWJOKAW0xce
HNYSWJOKAW 0
root@arm:~# echo 'ETEJ''HXXQXG'
ETEJHXXQXG
root@arm:~# MARKER='FTMB''SZXAXL' run 'i2cget -y -f 2 0x60 0x21'
FTMBSZXAXL0xce
FTMBSZXAXL 0
root@arm:~# echo 'QZWG''LUYQZH'
QZWGLUYQZH
root@arm:~# MARKER='NOUN''YTOONM' run 'echo 1700000 1700000 > /sys/kernel/mva_tesst/regulators/buck1_set'
NOUNYTOONMNOUNYTOONM 0
root@arm:~# echo 'AZJZ''SFHJWG'
AZJZSFHJWG
root@arm:~# MARKER='KTSO''UPNTAX' run 'i2cget -f -y 2 0x60 0x28'
KTSOUPNTAX0x35
KTSOUPNTAX 0
root@arm:~# echo 'FYKM''FZGKLM'
FYKMFZGKLM
root@arm:~# MARKER='FQQT''JTUYPF' run 'i2cget -y -f 2 0x60 0x21'
FQQTJTUYPF0xce
FQQTJTUYPF 0
root@arm:~# echo 'EPYX''ENCGAF'
EPYXENCGAF
root@arm:~# MARKER='OLSJ''FWECNN' run 'i2cget -y -f 2 0x60 0x21'
OLSJFWECNN0xce
OLSJFWECNN 0
root@arm:~# echo 'OHBU''WKXTUJ'
OHBUWKXTUJ
root@arm:~# MARKER='LJHO''ABANZK' run 'echo 1710000 1710000 > /sys/kernel/mva_tesst/regulators/buck1_set'
LJHOABANZKLJHOABANZK 0
root@arm:~# echo 'WKCW''QNTNNH'
WKCWQNTNNH
root@arm:~# MARKER='FYZP''YHHCWQ' run 'i2cget -f -y 2 0x60 0x28'
FYZPYHHCWQ0x36
FYZPYHHCWQ 0
root@arm:~# echo 'HEHF''SJFJJL'
HEHFSJFJJL
root@arm:~# MARKER='UKZN''YLVJHP' run 'i2cget -y -f 2 0x60 0x21'
UKZNYLVJHP0xce
UKZNYLVJHP 0
root@arm:~# echo 'JKZT''JNZHLF'
JKZTJNZHLF
root@arm:~# MARKER='UJOQ''TOTJBY' run 'i2cget -y -f 2 0x60 0x21'
UJOQTOTJBY0xce
UJOQTOTJBY 0
root@arm:~# echo 'EOVZ''SQNKWF'
EOVZSQNKWF
root@arm:~# MARKER='SOHC''ETFAKJ' run 'echo 1720000 1720000 > /sys/kernel/mva_tesst/regulators/buck1_set'
SOHCETFAKJSOHCETFAKJ 0
root@arm:~# echo 'FKWT''ZZOTJJ'
FKWTZZOTJJ
root@arm:~# MARKER='JYNQ''ZOWVTC' run 'i2cget -f -y 2 0x60 0x28'
JYNQZOWVTC0x37
JYNQZOWVTC 0
root@arm:~# echo 'SYMH''MJPVHO'
SYMHMJPVHO
root@arm:~# MARKER='COHE''TUJNMH' run 'i2cget -y -f 2 0x60 0x21'
COHETUJNMH0xce
COHETUJNMH 0
root@arm:~# echo 'JPOV''UASBLP'
JPOVUASBLP
root@arm:~# MARKER='BYCW''WTCOEE' run 'i2cget -y -f 2 0x60 0x21'
BYCWWTCOEE0xce
BYCWWTCOEE 0
root@arm:~# echo 'BAMF''KXYZUH'
BAMFKXYZUH
root@arm:~# MARKER='SYYH''CMKUTV' run 'echo 1730000 1730000 > /sys/kernel/mva_tesst/regulators/buck1_set'
SYYHCMKUTVSYYHCMKUTV 0
root@arm:~# echo 'BSJH''POOUUC'
BSJHPOOUUC
root@arm:~# MARKER='LVXL''VNTEAT' run 'i2cget -f -y 2 0x60 0x28'
LVXLVNTEAT0x38
LVXLVNTEAT 0
root@arm:~# echo 'MLHV''AWKEGA'
MLHVAWKEGA
root@arm:~# MARKER='LHFW''EYTWEM' run 'i2cget -y -f 2 0x60 0x21'
LHFWEYTWEM0xce
LHFWEYTWEM 0
root@arm:~# echo 'ZZEF''TTXFWT'
ZZEFTTXFWT
root@arm:~# MARKER='YVSL''OVVVTZ' run 'i2cget -y -f 2 0x60 0x21'
YVSLOVVVTZ0xce
YVSLOVVVTZ 0
root@arm:~# echo 'QJZB''MBBMMY'
QJZBMBBMMY
root@arm:~# MARKER='THJG''ZBETTK' run 'echo 1740000 1740000 > /sys/kernel/mva_tesst/regulators/buck1_set'
THJGZBETTKTHJGZBETTK 0
root@arm:~# echo 'VGOO''HXLEQF'
VGOOHXLEQF
root@arm:~# MARKER='SQEA''FHCPZJ' run 'i2cget -f -y 2 0x60 0x28'
SQEAFHCPZJ0x39
SQEAFHCPZJ 0
root@arm:~# echo 'AYZM''TJWZCS'
AYZMTJWZCS
root@arm:~# MARKER='LYBW''GGBAQB' run 'i2cget -y -f 2 0x60 0x21'
LYBWGGBAQB0xce
LYBWGGBAQB 0
root@arm:~# echo 'JKSJ''ECAAGL'
JKSJECAAGL
root@arm:~# MARKER='XGSG''LFXQGX' run 'i2cget -y -f 2 0x60 0x21'
XGSGLFXQGX0xce
XGSGLFXQGX 0
root@arm:~# echo 'FMTS''LLMMKA'
FMTSLLMMKA
root@arm:~# MARKER='EHKH''KGAOYV' run 'echo 1750000 1750000 > /sys/kernel/mva_tesst/regulators/buck1_set'
EHKHKGAOYVEHKHKGAOYV 0
root@arm:~# echo 'JWGG''PCNTPH'
JWGGPCNTPH
root@arm:~# MARKER='ZMGB''STYGKG' run 'i2cget -f -y 2 0x60 0x28'
ZMGBSTYGKG0x3a
ZMGBSTYGKG 0
root@arm:~# echo 'EXEQ''QHKZTN'
EXEQQHKZTN
root@arm:~# MARKER='MGLM''GWJJZF' run 'i2cget -y -f 2 0x60 0x21'
MGLMGWJJZF0xce
MGLMGWJJZF 0
root@arm:~# echo 'SENA''JTQSXL'
SENAJTQSXL
root@arm:~# MARKER='ATLV''CFFGNW' run 'i2cget -y -f 2 0x60 0x21'
ATLVCFFGNW0xce
ATLVCFFGNW 0
root@arm:~# echo 'WGKT''EKOHJV'
WGKTEKOHJV
root@arm:~# MARKER='ZHEO''BUWQAQ' run 'echo 1760000 1760000 > /sys/kernel/mva_tesst/regulators/buck1_set'
ZHEOBUWQAQZHEOBUWQAQ 0
root@arm:~# echo 'HFVV''TYPYLN'
HFVVTYPYLN
root@arm:~# MARKER='SYBT''UMZFBV' run 'i2cget -f -y 2 0x60 0x28'
SYBTUMZFBV0x3b
SYBTUMZFBV 0
root@arm:~# echo 'FTBC''VCTJAX'
FTBCVCTJAX
root@arm:~# MARKER='ZQHY''YYBKXQ' run 'i2cget -y -f 2 0x60 0x21'
ZQHYYYBKXQ0xce
ZQHYYYBKXQ 0
root@arm:~# echo 'JFXP''LBFCUE'
JFXPLBFCUE
root@arm:~# MARKER='SALP''VFSFHM' run 'i2cget -y -f 2 0x60 0x21'
SALPVFSFHM0xce
SALPVFSFHM 0
root@arm:~# echo 'LOOK''HJLNAY'
LOOKHJLNAY
root@arm:~# MARKER='FYON''WXSVXZ' run 'echo 1770000 1770000 > /sys/kernel/mva_tesst/regulators/buck1_set'
FYONWXSVXZFYONWXSVXZ 0
root@arm:~# echo 'CTPV''YVQKSN'
CTPVYVQKSN
root@arm:~# MARKER='WOAA''HBLYQQ' run 'i2cget -f -y 2 0x60 0x28'
WOAAHBLYQQ0x3c
WOAAHBLYQQ 0
root@arm:~# echo 'MGMW''PHEBAT'
MGMWPHEBAT
root@arm:~# MARKER='JAAN''SWEVCB' run 'i2cget -y -f 2 0x60 0x21'
JAANSWEVCB0xce
JAANSWEVCB 0
root@arm:~# echo 'YWNE''YOFFJO'
YWNEYOFFJO
root@arm:~# MARKER='ZKWU''ZUEFZS' run 'i2cget -y -f 2 0x60 0x21'
ZKWUZUEFZS0xce
ZKWUZUEFZS 0
root@arm:~# echo 'QSMP''MOPJGK'
QSMPMOPJGK
root@arm:~# MARKER='QZCV''XEGQCX' run 'echo 1780000 1780000 > /sys/kernel/mva_tesst/regulators/buck1_set'
QZCVXEGQCXQZCVXEGQCX 0
root@arm:~# echo 'LVJL''JCXVUA'
LVJLJCXVUA
root@arm:~# MARKER='NVGQ''XQJWYN' run 'i2cget -f -y 2 0x60 0x28'
NVGQXQJWYN0x3d
NVGQXQJWYN 0
root@arm:~# echo 'KZVC''XPGVOV'
KZVCXPGVOV
root@arm:~# MARKER='VSWQ''EHJCNW' run 'i2cget -y -f 2 0x60 0x21'
VSWQEHJCNW0xce
VSWQEHJCNW 0
root@arm:~# echo 'KZHL''SJLVUX'
KZHLSJLVUX
root@arm:~# MARKER='YOSS''NSQKGA' run 'i2cget -y -f 2 0x60 0x21'
YOSSNSQKGA0xce
YOSSNSQKGA 0
root@arm:~# echo 'HWSM''EXHGGT'
HWSMEXHGGT
root@arm:~# MARKER='OQJV''KEASMG' run 'echo 1790000 1790000 > /sys/kernel/mva_tesst/regulators/buck1_set'
OQJVKEASMGOQJVKEASMG 0
root@arm:~# echo 'JXOX''BOZVUK'
JXOXBOZVUK
root@arm:~# MARKER='KTUJ''XMCWXN' run 'i2cget -f -y 2 0x60 0x28'
KTUJXMCWXN0x3e
KTUJXMCWXN 0
root@arm:~# echo 'MXQA''ZGAGAT'
MXQAZGAGAT
root@arm:~# MARKER='MLAQ''QEYAKC' run 'i2cget -y -f 2 0x60 0x21'
MLAQQEYAKC0xce
MLAQQEYAKC 0
root@arm:~# echo 'BKAV''OMQBQA'
BKAVOMQBQA
root@arm:~# MARKER='OHJV''ACAOCZ' run 'i2cget -y -f 2 0x60 0x21'
OHJVACAOCZ0xce
OHJVACAOCZ 0
root@arm:~# echo 'JAWH''PTQBCK'
JAWHPTQBCK
root@arm:~# MARKER='GULH''ZGMLPY' run 'echo 1800000 1800000 > /sys/kernel/mva_tesst/regulators/buck1_set'
GULHZGMLPYGULHZGMLPY 0
root@arm:~# echo 'XEME''BQXWFL'
XEMEBQXWFL
root@arm:~# MARKER='BPOS''AAQTLO' run 'i2cget -f -y 2 0x60 0x28'
BPOSAAQTLO0x00
BPOSAAQTLO 0
root@arm:~# echo 'UZNG''BHLZMZ'
UZNGBHLZMZ
root@arm:~# MARKER='JYQJ''EUKPUM' run 'i2cget -y -f 2 0x60 0x21'
JYQJEUKPUM0xce
JYQJEUKPUM 0
root@arm:~# echo 'LZYS''XWZMMV'
LZYSXWZMMV
root@arm:~# MARKER='EUYG''MXSBQH' run 'i2cget -y -f 2 0x60 0x22'
EUYGMXSBQH0x78
EUYGMXSBQH 0
root@arm:~# echo 'SBZP''QQHYXB'
SBZPQQHYXB
root@arm:~# MARKER='OVTZ''SUYUHN' run 'echo 1100000 1100000 > /sys/kernel/mva_tesst/regulators/buck2_set'
OVTZSUYUHNOVTZSUYUHN 0
root@arm:~# echo 'AAVL''OHXJGG'
AAVLOHXJGG
root@arm:~# MARKER='SLFG''WACGOE' run 'i2cget -f -y 2 0x60 0x29'
SLFGWACGOE0x40
SLFGWACGOE 0
root@arm:~# echo 'XPWJ''FZWLKZ'
XPWJFZWLKZ
root@arm:~# MARKER='MGCC''SYJALV' run 'i2cget -y -f 2 0x60 0x22'
MGCCSYJALV0x78
MGCCSYJALV 0
root@arm:~# echo 'KFBP''ZZYSFY'
KFBPZZYSFY
root@arm:~# MARKER='ONKB''KQPFMG' run 'i2cget -y -f 2 0x60 0x22'
ONKBKQPFMG0x78
ONKBKQPFMG 0
root@arm:~# echo 'NSHE''XACSVN'
NSHEXACSVN
root@arm:~# MARKER='HQCX''HBNUEY' run 'echo 1110000 1110000 > /sys/kernel/mva_tesst/regulators/buck2_set'
HQCXHBNUEYHQCXHBNUEY 0
root@arm:~# echo 'CJHJ''ZJBKMP'
CJHJZJBKMP
root@arm:~# MARKER='XJTT''WKOYCH' run 'i2cget -f -y 2 0x60 0x29'
XJTTWKOYCH0x41
XJTTWKOYCH 0
root@arm:~# echo 'ZKBX''YYGVTX'
ZKBXYYGVTX
root@arm:~# MARKER='ZQSX''VXGBAY' run 'i2cget -y -f 2 0x60 0x22'
ZQSXVXGBAY0x78
ZQSXVXGBAY 0
root@arm:~# echo 'NGCF''YVXBUU'
NGCFYVXBUU
root@arm:~# MARKER='KHMA''AQOKCB' run 'i2cget -y -f 2 0x60 0x22'
KHMAAQOKCB0x78
KHMAAQOKCB 0
root@arm:~# echo 'PWEQ''MPPZBA'
PWEQMPPZBA
root@arm:~# MARKER='NCPE''BTXBPT' run 'echo 1120000 1120000 > /sys/kernel/mva_tesst/regulators/buck2_set'
NCPEBTXBPTNCPEBTXBPT 0
root@arm:~# echo 'VAHO''NBYUKJ'
VAHONBYUKJ
root@arm:~# MARKER='QXCC''HKYLSE' run 'i2cget -f -y 2 0x60 0x29'
QXCCHKYLSE0x42
QXCCHKYLSE 0
root@arm:~# echo 'QBVN''MZWUJF'
QBVNMZWUJF
root@arm:~# MARKER='NFOM''HEECGA' run 'i2cget -y -f 2 0x60 0x22'
NFOMHEECGA0x78
NFOMHEECGA 0
root@arm:~# echo 'TSWN''FBPFCG'
TSWNFBPFCG
root@arm:~# MARKER='XTQH''ZPLPNF' run 'i2cget -y -f 2 0x60 0x22'
XTQHZPLPNF0x78
XTQHZPLPNF 0
root@arm:~# echo 'SXQA''VPBBBE'
SXQAVPBBBE
root@arm:~# MARKER='BVMA''MQXKVB' run 'echo 1130000 1130000 > /sys/kernel/mva_tesst/regulators/buck2_set'
BVMAMQXKVBBVMAMQXKVB 0
root@arm:~# echo 'GCLF''MNYEYB'
GCLFMNYEYB
root@arm:~# MARKER='HQTP''AUWYAM' run 'i2cget -f -y 2 0x60 0x29'
HQTPAUWYAM0x43
HQTPAUWYAM 0
root@arm:~# echo 'TYCQ''ZVCWSB'
TYCQZVCWSB
root@arm:~# MARKER='KXPA''KMCBAH' run 'i2cget -y -f 2 0x60 0x22'
KXPAKMCBAH0x78
KXPAKMCBAH 0
root@arm:~# echo 'JSHV''YBNKPB'
JSHVYBNKPB
root@arm:~# MARKER='QVZE''ZAMOGJ' run 'i2cget -y -f 2 0x60 0x22'
QVZEZAMOGJ0x78
QVZEZAMOGJ 0
root@arm:~# echo 'JAXS''GYUYWJ'
JAXSGYUYWJ
root@arm:~# MARKER='MCHJ''TJTGPJ' run 'echo 1140000 1140000 > /sys/kernel/mva_tesst/regulators/buck2_set'
MCHJTJTGPJMCHJTJTGPJ 0
root@arm:~# echo 'BABX''VMAMJX'
BABXVMAMJX
root@arm:~# MARKER='HFWP''UULLKQ' run 'i2cget -f -y 2 0x60 0x29'
HFWPUULLKQ0x44
HFWPUULLKQ 0
root@arm:~# echo 'JKLM''JTNUAE'
JKLMJTNUAE
root@arm:~# MARKER='GLMN''MFOLXG' run 'i2cget -y -f 2 0x60 0x22'
GLMNMFOLXG0x78
GLMNMFOLXG 0
root@arm:~# echo 'HPFN''MHZZYW'
HPFNMHZZYW
root@arm:~# MARKER='TXLP''LVEWUM' run 'i2cget -y -f 2 0x60 0x22'
TXLPLVEWUM0x78
TXLPLVEWUM 0
root@arm:~# echo 'NLGC''BPWFMB'
NLGCBPWFMB
root@arm:~# MARKER='JOPS''AQSMZW' run 'echo 1150000 1150000 > /sys/kernel/mva_tesst/regulators/buck2_set'
JOPSAQSMZWJOPSAQSMZW 0
root@arm:~# echo 'CHHQ''NFZFJV'
CHHQNFZFJV
root@arm:~# MARKER='XBST''GESZNH' run 'i2cget -f -y 2 0x60 0x29'
XBSTGESZNH0x45
XBSTGESZNH 0
root@arm:~# echo 'ZZCE''WGMBFS'
ZZCEWGMBFS
root@arm:~# MARKER='JXXX''MJGSFW' run 'i2cget -y -f 2 0x60 0x22'
JXXXMJGSFW0x78
JXXXMJGSFW 0
root@arm:~# echo 'ATEN''KOQYPM'
ATENKOQYPM
root@arm:~# MARKER='ZLEB''ZNMEMY' run 'i2cget -y -f 2 0x60 0x22'
ZLEBZNMEMY0x78
ZLEBZNMEMY 0
root@arm:~# echo 'LPEN''MGMJML'
LPENMGMJML
root@arm:~# MARKER='YFBQ''GYSPGN' run 'echo 1160000 1160000 > /sys/kernel/mva_tesst/regulators/buck2_set'
YFBQGYSPGNYFBQGYSPGN 0
root@arm:~# echo 'TUQJ''MNHNZC'
TUQJMNHNZC
root@arm:~# MARKER='LJXU''XVKCBT' run 'i2cget -f -y 2 0x60 0x29'
LJXUXVKCBT0x46
LJXUXVKCBT 0
root@arm:~# echo 'EWUC''YTHNQX'
EWUCYTHNQX
root@arm:~# MARKER='SFVM''UUOMOW' run 'i2cget -y -f 2 0x60 0x22'
SFVMUUOMOW0x78
SFVMUUOMOW 0
root@arm:~# echo 'FNHL''KYTJYJ'
FNHLKYTJYJ
root@arm:~# MARKER='XOZK''PEZYWL' run 'i2cget -y -f 2 0x60 0x22'
XOZKPEZYWL0x78
XOZKPEZYWL 0
root@arm:~# echo 'FVEZ''AJVHPZ'
FVEZAJVHPZ
root@arm:~# MARKER='CVKB''BGUUBS' run 'echo 1170000 1170000 > /sys/kernel/mva_tesst/regulators/buck2_set'
CVKBBGUUBSCVKBBGUUBS 0
root@arm:~# echo 'QPXS''SKNMKY'
QPXSSKNMKY
root@arm:~# MARKER='OGQB''QCYGZY' run 'i2cget -f -y 2 0x60 0x29'
OGQBQCYGZY0x47
OGQBQCYGZY 0
root@arm:~# echo 'QJCX''PHEKNE'
QJCXPHEKNE
root@arm:~# MARKER='FVFF''NTXEHW' run 'i2cget -y -f 2 0x60 0x22'
FVFFNTXEHW0x78
FVFFNTXEHW 0
root@arm:~# echo 'KGJJ''ZYVHSS'
KGJJZYVHSS
root@arm:~# MARKER='FNWL''XYBKXC' run 'i2cget -y -f 2 0x60 0x22'
FNWLXYBKXC0x78
FNWLXYBKXC 0
root@arm:~# echo 'WYHO''WKLBLP'
WYHOWKLBLP
root@arm:~# MARKER='AETX''EUAXXQ' run 'echo 1180000 1180000 > /sys/kernel/mva_tesst/regulators/buck2_set'
AETXEUAXXQAETXEUAXXQ 0
root@arm:~# echo 'UWKO''YNAWCB'
UWKOYNAWCB
root@arm:~# MARKER='UNEU''YZPNZY' run 'i2cget -f -y 2 0x60 0x29'
UNEUYZPNZY0x48
UNEUYZPNZY 0
root@arm:~# echo 'WNCC''JECNYJ'
WNCCJECNYJ
root@arm:~# MARKER='GYJC''ECNUUY' run 'i2cget -y -f 2 0x60 0x22'
GYJCECNUUY0x78
GYJCECNUUY 0
root@arm:~# echo 'KCNQ''TCHBWZ'
KCNQTCHBWZ
root@arm:~# MARKER='LHGY''PMCQBZ' run 'i2cget -y -f 2 0x60 0x22'
LHGYPMCQBZ0x78
LHGYPMCQBZ 0
root@arm:~# echo 'PWYL''QUHHZY'
PWYLQUHHZY
root@arm:~# MARKER='QBLG''QZZXWV' run 'echo 1190000 1190000 > /sys/kernel/mva_tesst/regulators/buck2_set'
QBLGQZZXWVQBLGQZZXWV 0
root@arm:~# echo 'YKNK''VGXZCL'
YKNKVGXZCL
root@arm:~# MARKER='UCMO''VHWOCX' run 'i2cget -f -y 2 0x60 0x29'
UCMOVHWOCX0x49
UCMOVHWOCX 0
root@arm:~# echo 'AFUA''ECAOZB'
AFUAECAOZB
root@arm:~# MARKER='NWYX''CATLMO' run 'i2cget -y -f 2 0x60 0x22'
NWYXCATLMO0x78
NWYXCATLMO 0
root@arm:~# echo 'AXAC''JTGPWE'
AXACJTGPWE
root@arm:~# MARKER='TFQV''SCCEYN' run 'i2cget -y -f 2 0x60 0x22'
TFQVSCCEYN0x78
TFQVSCCEYN 0
root@arm:~# echo 'HSNQ''QHYNKA'
HSNQQHYNKA
root@arm:~# MARKER='HOLV''NYJHPQ' run 'echo 1200000 1200000 > /sys/kernel/mva_tesst/regulators/buck2_set'
HOLVNYJHPQHOLVNYJHPQ 0
root@arm:~# echo 'EAZW''AFQMJM'
EAZWAFQMJM
root@arm:~# MARKER='GWOZ''FFHPVE' run 'i2cget -f -y 2 0x60 0x29'
GWOZFFHPVE0x4a
GWOZFFHPVE 0
root@arm:~# echo 'JPOG''LMYQSS'
JPOGLMYQSS
root@arm:~# MARKER='HFUF''LPTMKA' run 'i2cget -y -f 2 0x60 0x22'
HFUFLPTMKA0x78
HFUFLPTMKA 0
root@arm:~# echo 'EZAX''YTQCXG'
EZAXYTQCXG
root@arm:~# MARKER='OFEN''QFWCVE' run 'i2cget -y -f 2 0x60 0x22'
OFENQFWCVE0x78
OFENQFWCVE 0
root@arm:~# echo 'HJGB''OVOWFQ'
HJGBOVOWFQ
root@arm:~# MARKER='QPCS''QEZSCK' run 'echo 1210000 1210000 > /sys/kernel/mva_tesst/regulators/buck2_set'
QPCSQEZSCKQPCSQEZSCK 0
root@arm:~# echo 'BCAV''LFLPSL'
BCAVLFLPSL
root@arm:~# MARKER='ZXKG''ZFPPZH' run 'i2cget -f -y 2 0x60 0x29'
ZXKGZFPPZH0x4b
ZXKGZFPPZH 0
root@arm:~# echo 'LFEK''FEPEXU'
LFEKFEPEXU
root@arm:~# MARKER='EABG''KCTZGT' run 'i2cget -y -f 2 0x60 0x22'
EABGKCTZGT0x78
EABGKCTZGT 0
root@arm:~# echo 'KYNQ''QETQJB'
KYNQQETQJB
root@arm:~# MARKER='XYTJ''JEVKQP' run 'i2cget -y -f 2 0x60 0x22'
XYTJJEVKQP0x78
XYTJJEVKQP 0
root@arm:~# echo 'MBNU''XLPCTG'
MBNUXLPCTG
root@arm:~# MARKER='VSGK''JKNCEQ' run 'echo 1220000 1220000 > /sys/kernel/mva_tesst/regulators/buck2_set'
VSGKJKNCEQVSGKJKNCEQ 0
root@arm:~# echo 'PSUH''BWXVPP'
PSUHBWXVPP
root@arm:~# MARKER='HOCT''ULPCYT' run 'i2cget -f -y 2 0x60 0x29'
HOCTULPCYT0x4c
HOCTULPCYT 0
root@arm:~# echo 'HMWW''HLTAAN'
HMWWHLTAAN
root@arm:~# MARKER='OGFE''MCVPNG' run 'i2cget -y -f 2 0x60 0x22'
OGFEMCVPNG0x78
OGFEMCVPNG 0
root@arm:~# echo 'AJGT''VGSWSH'
AJGTVGSWSH
root@arm:~# MARKER='FBTT''FMAZEP' run 'i2cget -y -f 2 0x60 0x22'
FBTTFMAZEP0x78
FBTTFMAZEP 0
root@arm:~# echo 'MQNN''XLNZFV'
MQNNXLNZFV
root@arm:~# MARKER='PUVC''NFTKZH' run 'echo 1230000 1230000 > /sys/kernel/mva_tesst/regulators/buck2_set'
PUVCNFTKZHPUVCNFTKZH 0
root@arm:~# echo 'EJVV''VPUXKB'
EJVVVPUXKB
root@arm:~# MARKER='SWSE''JEUNTF' run 'i2cget -f -y 2 0x60 0x29'
SWSEJEUNTF0x4d
SWSEJEUNTF 0
root@arm:~# echo 'LWTA''NGPSZA'
LWTANGPSZA
root@arm:~# MARKER='BWJU''EJBPAY' run 'i2cget -y -f 2 0x60 0x22'
BWJUEJBPAY0x78
BWJUEJBPAY 0
root@arm:~# echo 'QNFH''GBAWTG'
QNFHGBAWTG
root@arm:~# MARKER='WCLA''BEKECN' run 'i2cget -y -f 2 0x60 0x22'
WCLABEKECN0x78
WCLABEKECN 0
root@arm:~# echo 'SXLS''UYWOUJ'
SXLSUYWOUJ
root@arm:~# MARKER='XOOQ''AGBFKT' run 'echo 1240000 1240000 > /sys/kernel/mva_tesst/regulators/buck2_set'
XOOQAGBFKTXOOQAGBFKT 0
root@arm:~# echo 'TMKY''JXBZBP'
TMKYJXBZBP
root@arm:~# MARKER='ECYM''BPLHQB' run 'i2cget -f -y 2 0x60 0x29'
ECYMBPLHQB0x4e
ECYMBPLHQB 0
root@arm:~# echo 'SVPT''KUAXZW'
SVPTKUAXZW
root@arm:~# MARKER='AHHO''ENASNU' run 'i2cget -y -f 2 0x60 0x22'
AHHOENASNU0x78
AHHOENASNU 0
root@arm:~# echo 'UYMK''WGTMZQ'
UYMKWGTMZQ
root@arm:~# MARKER='HVBC''WMZTTS' run 'i2cget -y -f 2 0x60 0x22'
HVBCWMZTTS0x78
HVBCWMZTTS 0
root@arm:~# echo 'ZLSW''UJQBNK'
ZLSWUJQBNK
root@arm:~# MARKER='TWZG''OHMWVY' run 'echo 1250000 1250000 > /sys/kernel/mva_tesst/regulators/buck2_set'
TWZGOHMWVYTWZGOHMWVY 0
root@arm:~# echo 'EVKO''JOOCYP'
EVKOJOOCYP
root@arm:~# MARKER='UOUT''MJTLHO' run 'i2cget -f -y 2 0x60 0x29'
UOUTMJTLHO0x4f
UOUTMJTLHO 0
root@arm:~# echo 'GSKZ''GHYPSP'
GSKZGHYPSP
root@arm:~# MARKER='WBYX''VNMOKN' run 'i2cget -y -f 2 0x60 0x22'
WBYXVNMOKN0x78
WBYXVNMOKN 0
root@arm:~# echo 'LMTE''CNSVCC'
LMTECNSVCC
root@arm:~# MARKER='SHGH''SQSNBU' run 'i2cget -y -f 2 0x60 0x22'
SHGHSQSNBU0x78
SHGHSQSNBU 0
root@arm:~# echo 'YQGU''NWHJQL'
YQGUNWHJQL
root@arm:~# MARKER='OJZX''SONOHV' run 'echo 1260000 1260000 > /sys/kernel/mva_tesst/regulators/buck2_set'
OJZXSONOHVOJZXSONOHV 0
root@arm:~# echo 'ZUPP''BYPFAF'
ZUPPBYPFAF
root@arm:~# MARKER='BXLK''JKZGGV' run 'i2cget -f -y 2 0x60 0x29'
BXLKJKZGGV0x50
BXLKJKZGGV 0
root@arm:~# echo 'HSHN''OCAMBF'
HSHNOCAMBF
root@arm:~# MARKER='VHAM''ECLXZB' run 'i2cget -y -f 2 0x60 0x22'
VHAMECLXZB0x78
VHAMECLXZB 0
root@arm:~# echo 'CAUL''TFWWJX'
CAULTFWWJX
root@arm:~# MARKER='UPKW''HGXCTL' run 'i2cget -y -f 2 0x60 0x22'
UPKWHGXCTL0x78
UPKWHGXCTL 0
root@arm:~# echo 'BNEK''BNSQQW'
BNEKBNSQQW
root@arm:~# MARKER='CVZO''XBVTCY' run 'echo 1270000 1270000 > /sys/kernel/mva_tesst/regulators/buck2_set'
CVZOXBVTCYCVZOXBVTCY 0
root@arm:~# echo 'ZPBG''UASQYX'
ZPBGUASQYX
root@arm:~# MARKER='FNOU''SMBEFF' run 'i2cget -f -y 2 0x60 0x29'
FNOUSMBEFF0x51
FNOUSMBEFF 0
root@arm:~# echo 'PGVV''FSBHOE'
PGVVFSBHOE
root@arm:~# MARKER='YXTS''QPOLBS' run 'i2cget -y -f 2 0x60 0x22'
YXTSQPOLBS0x78
YXTSQPOLBS 0
root@arm:~# echo 'TKCW''MSTYZN'
TKCWMSTYZN
root@arm:~# MARKER='SMNA''ESQKAV' run 'i2cget -y -f 2 0x60 0x22'
SMNAESQKAV0x78
SMNAESQKAV 0
root@arm:~# echo 'GPPV''CKOHMT'
GPPVCKOHMT
root@arm:~# MARKER='EHNC''JUJVMB' run 'echo 1280000 1280000 > /sys/kernel/mva_tesst/regulators/buck2_set'
EHNCJUJVMBEHNCJUJVMB 0
root@arm:~# echo 'YSKS''ZNSNXS'
YSKSZNSNXS
root@arm:~# MARKER='EGUZ''VZOUUZ' run 'i2cget -f -y 2 0x60 0x29'
EGUZVZOUUZ0x52
EGUZVZOUUZ 0
root@arm:~# echo 'XOJL''OTYJAU'
XOJLOTYJAU
root@arm:~# MARKER='KGVB''NMQKZL' run 'i2cget -y -f 2 0x60 0x22'
KGVBNMQKZL0x78
KGVBNMQKZL 0
root@arm:~# echo 'TXLU''HPSOSE'
TXLUHPSOSE
root@arm:~# MARKER='WXNT''WWFJTE' run 'i2cget -y -f 2 0x60 0x22'
WXNTWWFJTE0x78
WXNTWWFJTE 0
root@arm:~# echo 'JAGG''TAQYLQ'
JAGGTAQYLQ
root@arm:~# MARKER='YVYS''OFPGKE' run 'echo 1290000 1290000 > /sys/kernel/mva_tesst/regulators/buck2_set'
YVYSOFPGKEYVYSOFPGKE 0
root@arm:~# echo 'XWJH''YOJKSZ'
XWJHYOJKSZ
root@arm:~# MARKER='HPSL''AXNHCE' run 'i2cget -f -y 2 0x60 0x29'
HPSLAXNHCE0x53
HPSLAXNHCE 0
root@arm:~# echo 'NJGY''YJMOWJ'
NJGYYJMOWJ
root@arm:~# MARKER='QEZF''TVLVPO' run 'i2cget -y -f 2 0x60 0x22'
QEZFTVLVPO0x78
QEZFTVLVPO 0
root@arm:~# echo 'VFPQ''QFOAEA'
VFPQQFOAEA
root@arm:~# MARKER='TJCY''SLPAZE' run 'i2cget -y -f 2 0x60 0x22'
TJCYSLPAZE0x78
TJCYSLPAZE 0
root@arm:~# echo 'JKZN''AFQQTU'
JKZNAFQQTU
root@arm:~# MARKER='VEBA''QJTHVM' run 'echo 1300000 1300000 > /sys/kernel/mva_tesst/regulators/buck2_set'
VEBAQJTHVMVEBAQJTHVM 0
root@arm:~# echo 'ZGXZ''YYKKKB'
ZGXZYYKKKB
root@arm:~# MARKER='STOH''UZKPZW' run 'i2cget -f -y 2 0x60 0x29'
STOHUZKPZW0x54
STOHUZKPZW 0
root@arm:~# echo 'FMXG''OHNPES'
FMXGOHNPES
root@arm:~# MARKER='JYWA''GUAKHZ' run 'i2cget -y -f 2 0x60 0x22'
JYWAGUAKHZ0x78
JYWAGUAKHZ 0
root@arm:~# echo 'HHNO''LLPXWU'
HHNOLLPXWU
root@arm:~# MARKER='YETJ''GOWZNC' run 'i2cget -y -f 2 0x60 0x22'
YETJGOWZNC0x78
YETJGOWZNC 0
root@arm:~# echo 'UEYN''UWLLVW'
UEYNUWLLVW
root@arm:~# MARKER='WXLP''JZKOSX' run 'echo 1310000 1310000 > /sys/kernel/mva_tesst/regulators/buck2_set'
WXLPJZKOSXWXLPJZKOSX 0
root@arm:~# echo 'PYPN''XUGZMM'
PYPNXUGZMM
root@arm:~# MARKER='BQYF''UMUYWC' run 'i2cget -f -y 2 0x60 0x29'
BQYFUMUYWC0x55
BQYFUMUYWC 0
root@arm:~# echo 'NMUW''BSSUVC'
NMUWBSSUVC
root@arm:~# MARKER='XGZZ''YBLBKB' run 'i2cget -y -f 2 0x60 0x22'
XGZZYBLBKB0x78
XGZZYBLBKB 0
root@arm:~# echo 'TBXQ''GZYFSV'
TBXQGZYFSV
root@arm:~# MARKER='PGSK''BFQKOC' run 'i2cget -y -f 2 0x60 0x22'
PGSKBFQKOC0x78
PGSKBFQKOC 0
root@arm:~# echo 'PQQP''JEFSNX'
PQQPJEFSNX
root@arm:~# MARKER='EVUC''LFLSXZ' run 'echo 1320000 1320000 > /sys/kernel/mva_tesst/regulators/buck2_set'
EVUCLFLSXZEVUCLFLSXZ 0
root@arm:~# echo 'GTOC''LOXVKN'
GTOCLOXVKN
root@arm:~# MARKER='YSWK''OGWCKW' run 'i2cget -f -y 2 0x60 0x29'
YSWKOGWCKW0x56
YSWKOGWCKW 0
root@arm:~# echo 'PYHT''WJUMJL'
PYHTWJUMJL
root@arm:~# MARKER='XKYM''STTOEL' run 'i2cget -y -f 2 0x60 0x22'
XKYMSTTOEL0x78
XKYMSTTOEL 0
root@arm:~# echo 'BWKO''OUQELJ'
BWKOOUQELJ
root@arm:~# MARKER='HFBQ''EBNTVK' run 'i2cget -y -f 2 0x60 0x22'
HFBQEBNTVK0x78
HFBQEBNTVK 0
root@arm:~# echo 'KUML''ZMXFUJ'
KUMLZMXFUJ
root@arm:~# MARKER='WWWB''CXUMJX' run 'echo 1330000 1330000 > /sys/kernel/mva_tesst/regulators/buck2_set'
WWWBCXUMJXWWWBCXUMJX 0
root@arm:~# echo 'WPOQ''FSHEQZ'
WPOQFSHEQZ
root@arm:~# MARKER='NFSE''VOLNLL' run 'i2cget -f -y 2 0x60 0x29'
NFSEVOLNLL0x57
NFSEVOLNLL 0
root@arm:~# echo 'USET''PCEXWL'
USETPCEXWL
root@arm:~# MARKER='ZLEH''AENEWF' run 'i2cget -y -f 2 0x60 0x22'
ZLEHAENEWF0x78
ZLEHAENEWF 0
root@arm:~# echo 'CYWV''GXGLZM'
CYWVGXGLZM
root@arm:~# MARKER='CLLK''OAPSFC' run 'i2cget -y -f 2 0x60 0x22'
CLLKOAPSFC0x78
CLLKOAPSFC 0
root@arm:~# echo 'VGJY''ZCSAQL'
VGJYZCSAQL
root@arm:~# MARKER='JOWS''ZFWWVX' run 'echo 1340000 1340000 > /sys/kernel/mva_tesst/regulators/buck2_set'
JOWSZFWWVXJOWSZFWWVX 0
root@arm:~# echo 'HCCL''WXGZBE'
HCCLWXGZBE
root@arm:~# MARKER='HAKX''EHFPKT' run 'i2cget -f -y 2 0x60 0x29'
HAKXEHFPKT0x58
HAKXEHFPKT 0
root@arm:~# echo 'XOXU''LTJFNL'
XOXULTJFNL
root@arm:~# MARKER='AECF''NOVEHN' run 'i2cget -y -f 2 0x60 0x22'
AECFNOVEHN0x78
AECFNOVEHN 0
root@arm:~# echo 'EACP''QYYQSU'
EACPQYYQSU
root@arm:~# MARKER='JCCB''AUSSVO' run 'i2cget -y -f 2 0x60 0x22'
JCCBAUSSVO0x78
JCCBAUSSVO 0
root@arm:~# echo 'ELXZ''OFSOJG'
ELXZOFSOJG
root@arm:~# MARKER='TOEQ''CKFYHJ' run 'echo 1350000 1350000 > /sys/kernel/mva_tesst/regulators/buck2_set'
TOEQCKFYHJTOEQCKFYHJ 0
root@arm:~# echo 'SFJJ''ZAEBYK'
SFJJZAEBYK
root@arm:~# MARKER='LQNY''HJUSMU' run 'i2cget -f -y 2 0x60 0x29'
LQNYHJUSMU0x59
LQNYHJUSMU 0
root@arm:~# echo 'SPTO''UKMZAH'
SPTOUKMZAH
root@arm:~# MARKER='FOSQ''NPMHFK' run 'i2cget -y -f 2 0x60 0x22'
FOSQNPMHFK0x78
FOSQNPMHFK 0
root@arm:~# echo 'CEQT''ATQUQE'
CEQTATQUQE
root@arm:~# MARKER='SGLO''XLMTWX' run 'i2cget -y -f 2 0x60 0x22'
SGLOXLMTWX0x78
SGLOXLMTWX 0
root@arm:~# echo 'XJVS''SVYMBV'
XJVSSVYMBV
root@arm:~# MARKER='AZLN''NPKVNF' run 'echo 1360000 1360000 > /sys/kernel/mva_tesst/regulators/buck2_set'
AZLNNPKVNFAZLNNPKVNF 0
root@arm:~# echo 'SQJM''AAPUGP'
SQJMAAPUGP
root@arm:~# MARKER='CGFG''WQZYCX' run 'i2cget -f -y 2 0x60 0x29'
CGFGWQZYCX0x5a
CGFGWQZYCX 0
root@arm:~# echo 'FJBH''HUJNYQ'
FJBHHUJNYQ
root@arm:~# MARKER='SFXV''BSYJSF' run 'i2cget -y -f 2 0x60 0x22'
SFXVBSYJSF0x78
SFXVBSYJSF 0
root@arm:~# echo 'JCJE''OZJEUW'
JCJEOZJEUW
root@arm:~# MARKER='CFGH''QZBXAL' run 'i2cget -y -f 2 0x60 0x22'
CFGHQZBXAL0x78
CFGHQZBXAL 0
root@arm:~# echo 'SBXQ''ZNYLQS'
SBXQZNYLQS
root@arm:~# MARKER='GHBH''YHVWJG' run 'echo 1370000 1370000 > /sys/kernel/mva_tesst/regulators/buck2_set'
GHBHYHVWJGGHBHYHVWJG 0
root@arm:~# echo 'GSBM''TNUAVO'
GSBMTNUAVO
root@arm:~# MARKER='QKUX''YNGQYM' run 'i2cget -f -y 2 0x60 0x29'
QKUXYNGQYM0x5b
QKUXYNGQYM 0
root@arm:~# echo 'FFAT''NLWMNH'
FFATNLWMNH
root@arm:~# MARKER='QCOW''UXUJMQ' run 'i2cget -y -f 2 0x60 0x22'
QCOWUXUJMQ0x78
QCOWUXUJMQ 0
root@arm:~# echo 'APLO''MOPBOU'
APLOMOPBOU
root@arm:~# MARKER='JGHM''USEXJN' run 'i2cget -y -f 2 0x60 0x22'
JGHMUSEXJN0x78
JGHMUSEXJN 0
root@arm:~# echo 'OVOF''MCVLCT'
OVOFMCVLCT
root@arm:~# MARKER='EHVJ''PESVMK' run 'echo 1380000 1380000 > /sys/kernel/mva_tesst/regulators/buck2_set'
EHVJPESVMKEHVJPESVMK 0
root@arm:~# echo 'MMBH''UUWANC'
MMBHUUWANC
root@arm:~# MARKER='SKPB''EEQEEH' run 'i2cget -f -y 2 0x60 0x29'
SKPBEEQEEH0x5c
SKPBEEQEEH 0
root@arm:~# echo 'AQCW''LANUGL'
AQCWLANUGL
root@arm:~# MARKER='TLEU''COFWJB' run 'i2cget -y -f 2 0x60 0x22'
TLEUCOFWJB0x78
TLEUCOFWJB 0
root@arm:~# echo 'YCTA''ZOUMGA'
YCTAZOUMGA
root@arm:~# MARKER='ZWYS''HLOEXH' run 'i2cget -y -f 2 0x60 0x22'
ZWYSHLOEXH0x78
ZWYSHLOEXH 0
root@arm:~# echo 'KSZP''CLZGHU'
KSZPCLZGHU
root@arm:~# MARKER='CVFK''FGMPBS' run 'echo 1390000 1390000 > /sys/kernel/mva_tesst/regulators/buck2_set'
CVFKFGMPBSCVFKFGMPBS 0
root@arm:~# echo 'BNAZ''GQHQSE'
BNAZGQHQSE
root@arm:~# MARKER='APHN''EZHWMU' run 'i2cget -f -y 2 0x60 0x29'
APHNEZHWMU0x5d
APHNEZHWMU 0
root@arm:~# echo 'BSJK''WZAFKC'
BSJKWZAFKC
root@arm:~# MARKER='EGME''JMTQEM' run 'i2cget -y -f 2 0x60 0x22'
EGMEJMTQEM0x78
EGMEJMTQEM 0
root@arm:~# echo 'OAUC''WNKUFX'
OAUCWNKUFX
root@arm:~# MARKER='TQVL''WHSEFJ' run 'i2cget -y -f 2 0x60 0x22'
TQVLWHSEFJ0x78
TQVLWHSEFJ 0
root@arm:~# echo 'WKVJ''JUVNGH'
WKVJJUVNGH
root@arm:~# MARKER='EZOG''YHHAYA' run 'echo 1400000 1400000 > /sys/kernel/mva_tesst/regulators/buck2_set'
EZOGYHHAYAEZOGYHHAYA 0
root@arm:~# echo 'YSQL''BQKUKL'
YSQLBQKUKL
root@arm:~# MARKER='OOXF''NZZFFQ' run 'i2cget -f -y 2 0x60 0x29'
OOXFNZZFFQ0x5e
OOXFNZZFFQ 0
root@arm:~# echo 'EFCJ''ZUPLTN'
EFCJZUPLTN
root@arm:~# MARKER='TXQY''QBGXGY' run 'i2cget -y -f 2 0x60 0x22'
TXQYQBGXGY0x78
TXQYQBGXGY 0
root@arm:~# echo 'LHGV''UNSVKY'
LHGVUNSVKY
root@arm:~# MARKER='HBOX''PJGACL' run 'i2cget -y -f 2 0x60 0x22'
HBOXPJGACL0x78
HBOXPJGACL 0
root@arm:~# echo 'KJHJ''XFNPEV'
KJHJXFNPEV
root@arm:~# MARKER='SLTG''JBWVGJ' run 'echo 1410000 1410000 > /sys/kernel/mva_tesst/regulators/buck2_set'
SLTGJBWVGJSLTGJBWVGJ 0
root@arm:~# echo 'EPLJ''XYZTCJ'
EPLJXYZTCJ
root@arm:~# MARKER='BYLA''LNGEGZ' run 'i2cget -f -y 2 0x60 0x29'
BYLALNGEGZ0x5f
BYLALNGEGZ 0
root@arm:~# echo 'GPFC''NEHSYA'
GPFCNEHSYA
root@arm:~# MARKER='NHWT''VZULUA' run 'i2cget -y -f 2 0x60 0x22'
NHWTVZULUA0x78
NHWTVZULUA 0
root@arm:~# echo 'YSXX''OSTKAC'
YSXXOSTKAC
root@arm:~# MARKER='GLCG''XACWXM' run 'i2cget -y -f 2 0x60 0x22'
GLCGXACWXM0x78
GLCGXACWXM 0
root@arm:~# echo 'EZSE''SBAOPQ'
EZSESBAOPQ
root@arm:~# MARKER='LVHV''BVUVFE' run 'echo 790000 790000 > /sys/kernel/mva_test//regulators/buck2_set'
LVHVBVUVFELVHVBVUVFE 0
root@arm:~# echo 'XMLG''AMUHGP'
XMLGAMUHGP
root@arm:~# MARKER='OQQU''YJFETN' run 'i2cget -f -y 2 0x60 0x29'
OQQUYJFETN0x60
OQQUYJFETN 0
root@arm:~# echo 'CVWB''ZBZPLC'
CVWBZBZPLC
root@arm:~# MARKER='JQHW''NOMUAK' run 'i2cget -y -f 2 0x60 0x22'
JQHWNOMUAK0x78
JQHWNOMUAK 0
root@arm:~# echo 'TZLM''GLQCCJ'
TZLMGLQCCJ
root@arm:~# MARKER='THUY''TLVPFO' run 'i2cget -y -f 2 0x60 0x22'
THUYTLVPFO0x78
THUYTLVPFO 0
root@arm:~# echo 'UMWF''VAUFEK'
UMWFVAUFEK
root@arm:~# MARKER='NQHY''TFPANA' run 'echo 800000 800000 > /sys/kernel/mva_test//regulators/buck2_set'
NQHYTFPANANQHYTFPANA 0
root@arm:~# echo 'YEWE''NMGSBZ'
YEWENMGSBZ
root@arm:~# MARKER='JUQU''WWYHYL' run 'i2cget -f -y 2 0x60 0x29'
JUQUWWYHYL0x61
JUQUWWYHYL 0
root@arm:~# echo 'QEHA''SQYVCV'
QEHASQYVCV
root@arm:~# MARKER='SKVT''ZZWOZT' run 'i2cget -y -f 2 0x60 0x22'
SKVTZZWOZT0x78
SKVTZZWOZT 0
root@arm:~# echo 'PFTU''XOPQCU'
PFTUXOPQCU
root@arm:~# MARKER='HKUA''VYOTOX' run 'i2cget -y -f 2 0x60 0x22'
HKUAVYOTOX0x78
HKUAVYOTOX 0
root@arm:~# echo 'XFEE''CBNEMQ'
XFEECBNEMQ
root@arm:~# MARKER='YTUA''PJCPMX' run 'echo 810000 810000 > /sys/kernel/mva_test//regulators/buck2_set'
YTUAPJCPMXYTUAPJCPMX 0
root@arm:~# echo 'VNGO''GVBYFV'
VNGOGVBYFV
root@arm:~# MARKER='ZVLL''EAFCVA' run 'i2cget -f -y 2 0x60 0x29'
ZVLLEAFCVA0x62
ZVLLEAFCVA 0
root@arm:~# echo 'SOMN''PNULZC'
SOMNPNULZC
root@arm:~# MARKER='SPVV''VUMNGU' run 'i2cget -y -f 2 0x60 0x22'
SPVVVUMNGU0x78
SPVVVUMNGU 0
root@arm:~# echo 'FBXW''LNKNWT'
FBXWLNKNWT
root@arm:~# MARKER='UCWW''XTGGOV' run 'i2cget -y -f 2 0x60 0x22'
UCWWXTGGOV0x78
UCWWXTGGOV 0
root@arm:~# echo 'YMEK''CYUESK'
YMEKCYUESK
root@arm:~# MARKER='SSCP''KEPLOY' run 'echo 820000 820000 > /sys/kernel/mva_test//regulators/buck2_set'
SSCPKEPLOYSSCPKEPLOY 0
root@arm:~# echo 'MUXB''LCZZQX'
MUXBLCZZQX
root@arm:~# MARKER='FQEJ''LTPJAV' run 'i2cget -f -y 2 0x60 0x29'
FQEJLTPJAV0x63
FQEJLTPJAV 0
root@arm:~# echo 'UJJG''TBESSC'
UJJGTBESSC
root@arm:~# MARKER='VQQE''ZSWQLZ' run 'i2cget -y -f 2 0x60 0x22'
VQQEZSWQLZ0x78
VQQEZSWQLZ 0
root@arm:~# echo 'FSWX''FJMWEA'
FSWXFJMWEA
root@arm:~# MARKER='XHXW''HEMFBG' run 'i2cget -y -f 2 0x60 0x22'
XHXWHEMFBG0x78
XHXWHEMFBG 0
root@arm:~# echo 'ULXN''GGXTZF'
ULXNGGXTZF
root@arm:~# MARKER='XPMP''BGMMQV' run 'echo 830000 830000 > /sys/kernel/mva_test//regulators/buck2_set'
XPMPBGMMQVXPMPBGMMQV 0
root@arm:~# echo 'TVWA''FNWKBT'
TVWAFNWKBT
root@arm:~# MARKER='JVAL''TVTTAP' run 'i2cget -f -y 2 0x60 0x29'
JVALTVTTAP0x64
JVALTVTTAP 0
root@arm:~# echo 'JQEJ''CSCYXB'
JQEJCSCYXB
root@arm:~# MARKER='YHBO''VCVLHA' run 'i2cget -y -f 2 0x60 0x22'
YHBOVCVLHA0x78
YHBOVCVLHA 0
root@arm:~# echo 'GPOP''MSZABE'
GPOPMSZABE
root@arm:~# MARKER='NNPS''FGLSXW' run 'i2cget -y -f 2 0x60 0x22'
NNPSFGLSXW0x78
NNPSFGLSXW 0
root@arm:~# echo 'BAOS''XMQOMH'
BAOSXMQOMH
root@arm:~# MARKER='QTOK''ZZUOKV' run 'echo 840000 840000 > /sys/kernel/mva_test//regulators/buck2_set'
QTOKZZUOKVQTOKZZUOKV 0
root@arm:~# echo 'CVHG''LELTLH'
CVHGLELTLH
root@arm:~# MARKER='EGBL''XHESLP' run 'i2cget -f -y 2 0x60 0x29'
EGBLXHESLP0x65
EGBLXHESLP 0
root@arm:~# echo 'QZYF''KEJAWS'
QZYFKEJAWS
root@arm:~# MARKER='JVMW''HPYZOS' run 'i2cget -y -f 2 0x60 0x22'
JVMWHPYZOS0x78
JVMWHPYZOS 0
root@arm:~# echo 'KZJW''OAJYKN'
KZJWOAJYKN
root@arm:~# MARKER='UHXM''GNXXFQ' run 'i2cget -y -f 2 0x60 0x22'
UHXMGNXXFQ0x78
UHXMGNXXFQ 0
root@arm:~# echo 'OXAU''LNMTUU'
OXAULNMTUU
root@arm:~# MARKER='LEBK''PFNBQF' run 'echo 850000 850000 > /sys/kernel/mva_test//regulators/buck2_set'
LEBKPFNBQFLEBKPFNBQF 0
root@arm:~# echo 'HPUG''KYHHYV'
HPUGKYHHYV
root@arm:~# MARKER='NQVM''PYETLS' run 'i2cget -f -y 2 0x60 0x29'
NQVMPYETLS0x66
NQVMPYETLS 0
root@arm:~# echo 'THLY''EAWNYT'
THLYEAWNYT
root@arm:~# MARKER='JMJF''NVGTOM' run 'i2cget -y -f 2 0x60 0x22'
JMJFNVGTOM0x78
JMJFNVGTOM 0
root@arm:~# echo 'FGST''HUYNGH'
FGSTHUYNGH
root@arm:~# MARKER='YLTZ''SBBEAT' run 'i2cget -y -f 2 0x60 0x22'
YLTZSBBEAT0x78
YLTZSBBEAT 0
root@arm:~# echo 'LKOA''JMMSKZ'
LKOAJMMSKZ
root@arm:~# MARKER='MOUU''TLMAFM' run 'echo 860000 860000 > /sys/kernel/mva_test//regulators/buck2_set'
MOUUTLMAFMMOUUTLMAFM 0
root@arm:~# echo 'NTEC''SWBFQE'
NTECSWBFQE
root@arm:~# MARKER='QWTG''AMTLTA' run 'i2cget -f -y 2 0x60 0x29'
QWTGAMTLTA0x67
QWTGAMTLTA 0
root@arm:~# echo 'BNTX''ASQNEG'
BNTXASQNEG
root@arm:~# MARKER='OYMT''OVYBPK' run 'i2cget -y -f 2 0x60 0x22'
OYMTOVYBPK0x78
OYMTOVYBPK 0
root@arm:~# echo 'WEUW''WOEHAZ'
WEUWWOEHAZ
root@arm:~# MARKER='WAXE''MNZBXK' run 'i2cget -y -f 2 0x60 0x22'
WAXEMNZBXK0x78
WAXEMNZBXK 0
root@arm:~# echo 'NHCH''SSUKNL'
NHCHSSUKNL
root@arm:~# MARKER='JUHS''ZEYZGZ' run 'echo 870000 870000 > /sys/kernel/mva_test//regulators/buck2_set'
JUHSZEYZGZJUHSZEYZGZ 0
root@arm:~# echo 'TSPP''HETCWN'
TSPPHETCWN
root@arm:~# MARKER='OOPT''USYFYZ' run 'i2cget -f -y 2 0x60 0x29'
OOPTUSYFYZ0x68
OOPTUSYFYZ 0
root@arm:~# echo 'ZFOJ''BLSPPZ'
ZFOJBLSPPZ
root@arm:~# MARKER='TSZY''SZUWXM' run 'i2cget -y -f 2 0x60 0x22'
TSZYSZUWXM0x78
TSZYSZUWXM 0
root@arm:~# echo 'CENK''UQNJLN'
CENKUQNJLN
root@arm:~# MARKER='HVVC''WBCTLA' run 'i2cget -y -f 2 0x60 0x22'
HVVCWBCTLA0x78
HVVCWBCTLA 0
root@arm:~# echo 'JWJU''OLTLMU'
JWJUOLTLMU
root@arm:~# MARKER='ETQZ''XJNUNP' run 'echo 880000 880000 > /sys/kernel/mva_test//regulators/buck2_set'
ETQZXJNUNPETQZXJNUNP 0
root@arm:~# echo 'QBNO''HMSMPA'
QBNOHMSMPA
root@arm:~# MARKER='KUYN''YMJGXQ' run 'i2cget -f -y 2 0x60 0x29'
KUYNYMJGXQ0x69
KUYNYMJGXQ 0
root@arm:~# echo 'JVYV''CUYQMN'
JVYVCUYQMN
root@arm:~# MARKER='PKJY''CPWCPC' run 'i2cget -y -f 2 0x60 0x22'
PKJYCPWCPC0x78
PKJYCPWCPC 0
root@arm:~# echo 'QNOM''BFZXBA'
QNOMBFZXBA
root@arm:~# MARKER='UWKQ''TEZJOZ' run 'i2cget -y -f 2 0x60 0x22'
UWKQTEZJOZ0x78
UWKQTEZJOZ 0
root@arm:~# echo 'SSMZ''WQSPKP'
SSMZWQSPKP
root@arm:~# MARKER='NWFM''PSPGHV' run 'echo 890000 890000 > /sys/kernel/mva_test//regulators/buck2_set'
NWFMPSPGHVNWFMPSPGHV 0
root@arm:~# echo 'YXOA''LSMBXU'
YXOALSMBXU
root@arm:~# MARKER='SQVE''PCQYQY' run 'i2cget -f -y 2 0x60 0x29'
SQVEPCQYQY0x6a
SQVEPCQYQY 0
root@arm:~# echo 'WSBN''ENOUWO'
WSBNENOUWO
root@arm:~# MARKER='APVF''FXUYCJ' run 'i2cget -y -f 2 0x60 0x22'
APVFFXUYCJ0x78
APVFFXUYCJ 0
root@arm:~# echo 'ACMM''FVLWMB'
ACMMFVLWMB
root@arm:~# MARKER='WUMJ''EHWEHK' run 'i2cget -y -f 2 0x60 0x22'
WUMJEHWEHK0x78
WUMJEHWEHK 0
root@arm:~# echo 'CVMU''OVGAAK'
CVMUOVGAAK
root@arm:~# MARKER='LWWK''ENBCKT' run 'echo 900000 900000 > /sys/kernel/mva_test//regulators/buck2_set'
LWWKENBCKTLWWKENBCKT 0
root@arm:~# echo 'WKQZ''ZYWGML'
WKQZZYWGML
root@arm:~# MARKER='ZMLO''LFQOUU' run 'i2cget -f -y 2 0x60 0x29'
ZMLOLFQOUU0x6b
ZMLOLFQOUU 0
root@arm:~# echo 'LMHN''HEALFC'
LMHNHEALFC
root@arm:~# MARKER='XSCY''KNXYWU' run 'i2cget -y -f 2 0x60 0x22'
XSCYKNXYWU0x78
XSCYKNXYWU 0
root@arm:~# echo 'PKAK''CZNVQE'
PKAKCZNVQE
root@arm:~# MARKER='GNTW''ZZBZEY' run 'i2cget -y -f 2 0x60 0x22'
GNTWZZBZEY0x78
GNTWZZBZEY 0
root@arm:~# echo 'YFQF''YWGQQA'
YFQFYWGQQA
root@arm:~# MARKER='WOHM''EWUSHN' run 'echo 910000 910000 > /sys/kernel/mva_test//regulators/buck2_set'
WOHMEWUSHNWOHMEWUSHN 0
root@arm:~# echo 'LKSV''MBCLWT'
LKSVMBCLWT
root@arm:~# MARKER='JZQV''FOCGCV' run 'i2cget -f -y 2 0x60 0x29'
JZQVFOCGCV0x6c
JZQVFOCGCV 0
root@arm:~# echo 'MQNT''FSYKBV'
MQNTFSYKBV
root@arm:~# MARKER='MVYB''MUUBVH' run 'i2cget -y -f 2 0x60 0x22'
MVYBMUUBVH0x78
MVYBMUUBVH 0
root@arm:~# echo 'WJAN''YVZQEP'
WJANYVZQEP
root@arm:~# MARKER='NLAQ''ECLLTF' run 'i2cget -y -f 2 0x60 0x22'
NLAQECLLTF0x78
NLAQECLLTF 0
root@arm:~# echo 'JJHT''HJVMSG'
JJHTHJVMSG
root@arm:~# MARKER='EYXB''FAXVNA' run 'echo 920000 920000 > /sys/kernel/mva_test//regulators/buck2_set'
EYXBFAXVNAEYXBFAXVNA 0
root@arm:~# echo 'KFOL''NHOXOX'
KFOLNHOXOX
root@arm:~# MARKER='OABT''SVMQPU' run 'i2cget -f -y 2 0x60 0x29'
OABTSVMQPU0x6d
OABTSVMQPU 0
root@arm:~# echo 'LVJL''JZMMZN'
LVJLJZMMZN
root@arm:~# MARKER='ZWPM''FUVAKM' run 'i2cget -y -f 2 0x60 0x22'
ZWPMFUVAKM0x78
ZWPMFUVAKM 0
root@arm:~# echo 'MNSO''JAXWAU'
MNSOJAXWAU
root@arm:~# MARKER='XUXP''BMQWXA' run 'i2cget -y -f 2 0x60 0x22'
XUXPBMQWXA0x78
XUXPBMQWXA 0
root@arm:~# echo 'ZOZM''QAAEPZ'
ZOZMQAAEPZ
root@arm:~# MARKER='MPOH''PMNBYP' run 'echo 930000 930000 > /sys/kernel/mva_test//regulators/buck2_set'
MPOHPMNBYPMPOHPMNBYP 0
root@arm:~# echo 'WWHL''GFMVJG'
WWHLGFMVJG
root@arm:~# MARKER='TFCO''UYSTYT' run 'i2cget -f -y 2 0x60 0x29'
TFCOUYSTYT0x6e
TFCOUYSTYT 0
root@arm:~# echo 'QHLH''OTQZLY'
QHLHOTQZLY
root@arm:~# MARKER='TNTV''JUZUEH' run 'i2cget -y -f 2 0x60 0x22'
TNTVJUZUEH0x78
TNTVJUZUEH 0
root@arm:~# echo 'TEJQ''MZFBNT'
TEJQMZFBNT
root@arm:~# MARKER='USBG''GYTWUV' run 'i2cget -y -f 2 0x60 0x22'
USBGGYTWUV0x78
USBGGYTWUV 0
root@arm:~# echo 'MNSP''KXXAPQ'
MNSPKXXAPQ
root@arm:~# MARKER='HLSA''PHWNVB' run 'echo 940000 940000 > /sys/kernel/mva_test//regulators/buck2_set'
HLSAPHWNVBHLSAPHWNVB 0
root@arm:~# echo 'TVTN''HKFLOU'
TVTNHKFLOU
root@arm:~# MARKER='TFHJ''FVMPEF' run 'i2cget -f -y 2 0x60 0x29'
TFHJFVMPEF0x6f
TFHJFVMPEF 0
root@arm:~# echo 'CYQW''QYCJUX'
CYQWQYCJUX
root@arm:~# MARKER='TZPQ''HHBNYW' run 'i2cget -y -f 2 0x60 0x22'
TZPQHHBNYW0x78
TZPQHHBNYW 0
root@arm:~# echo 'ZZMH''EMZGLB'
ZZMHEMZGLB
root@arm:~# MARKER='OBBM''QBZOVV' run 'i2cget -y -f 2 0x60 0x22'
OBBMQBZOVV0x78
OBBMQBZOVV 0
root@arm:~# echo 'AZXB''KJUOTX'
AZXBKJUOTX
root@arm:~# MARKER='FMVW''YWSXQO' run 'echo 950000 950000 > /sys/kernel/mva_test//regulators/buck2_set'
FMVWYWSXQOFMVWYWSXQO 0
root@arm:~# echo 'BMBK''WYECTT'
BMBKWYECTT
root@arm:~# MARKER='QVTY''QZFOVB' run 'i2cget -f -y 2 0x60 0x29'
QVTYQZFOVB0x70
QVTYQZFOVB 0
root@arm:~# echo 'YMSH''SMVWGZ'
YMSHSMVWGZ
root@arm:~# MARKER='UVUL''CZOYNS' run 'i2cget -y -f 2 0x60 0x22'
UVULCZOYNS0x78
UVULCZOYNS 0
root@arm:~# echo 'CFNK''FTXEYV'
CFNKFTXEYV
root@arm:~# MARKER='LBBY''KLEPNN' run 'i2cget -y -f 2 0x60 0x22'
LBBYKLEPNN0x78
LBBYKLEPNN 0
root@arm:~# echo 'AVHZ''UCWVON'
AVHZUCWVON
root@arm:~# MARKER='LTBN''FNXYJJ' run 'echo 960000 960000 > /sys/kernel/mva_test//regulators/buck2_set'
LTBNFNXYJJLTBNFNXYJJ 0
root@arm:~# echo 'QWUX''AVQZPK'
QWUXAVQZPK
root@arm:~# MARKER='NTUO''GEBBTU' run 'i2cget -f -y 2 0x60 0x29'
NTUOGEBBTU0x71
NTUOGEBBTU 0
root@arm:~# echo 'VYWP''JSTNBV'
VYWPJSTNBV
root@arm:~# MARKER='SSSY''JVKJGB' run 'i2cget -y -f 2 0x60 0x22'
SSSYJVKJGB0x78
SSSYJVKJGB 0
root@arm:~# echo 'KQKW''FJHXFO'
KQKWFJHXFO
root@arm:~# MARKER='NNNJ''SVVEJQ' run 'i2cget -y -f 2 0x60 0x22'
NNNJSVVEJQ0x78
NNNJSVVEJQ 0
root@arm:~# echo 'KTSU''KTQEAY'
KTSUKTQEAY
root@arm:~# MARKER='FZEQ''BWOKQT' run 'echo 970000 970000 > /sys/kernel/mva_test//regulators/buck2_set'
FZEQBWOKQTFZEQBWOKQT 0
root@arm:~# echo 'GELA''UGVWFB'
GELAUGVWFB
root@arm:~# MARKER='NWZQ''PEGZVK' run 'i2cget -f -y 2 0x60 0x29'
NWZQPEGZVK0x72
NWZQPEGZVK 0
root@arm:~# echo 'TBYL''VOTKKP'
TBYLVOTKKP
root@arm:~# MARKER='NVJN''MNFELC' run 'i2cget -y -f 2 0x60 0x22'
NVJNMNFELC0x78
NVJNMNFELC 0
root@arm:~# echo 'OMUJ''YSGXZU'
OMUJYSGXZU
root@arm:~# MARKER='JKPM''ZUSMPB' run 'i2cget -y -f 2 0x60 0x22'
JKPMZUSMPB0x78
JKPMZUSMPB 0
root@arm:~# echo 'BEQC''QYLJSK'
BEQCQYLJSK
root@arm:~# MARKER='CLKA''QZLWBV' run 'echo 980000 980000 > /sys/kernel/mva_test//regulators/buck2_set'
CLKAQZLWBVCLKAQZLWBV 0
root@arm:~# echo 'ZNFC''THZOMM'
ZNFCTHZOMM
root@arm:~# MARKER='GKZU''EGMHNL' run 'i2cget -f -y 2 0x60 0x29'
GKZUEGMHNL0x73
GKZUEGMHNL 0
root@arm:~# echo 'PZTU''PTUJLN'
PZTUPTUJLN
root@arm:~# MARKER='CUJN''HKJBBJ' run 'i2cget -y -f 2 0x60 0x22'
CUJNHKJBBJ0x78
CUJNHKJBBJ 0
root@arm:~# echo 'HPLO''LEGYTN'
HPLOLEGYTN
root@arm:~# MARKER='YGSS''LSWOWZ' run 'i2cget -y -f 2 0x60 0x22'
YGSSLSWOWZ0x78
YGSSLSWOWZ 0
root@arm:~# echo 'EBKZ''LVALGS'
EBKZLVALGS
root@arm:~# MARKER='BKQC''PHJMTM' run 'echo 990000 990000 > /sys/kernel/mva_test//regulators/buck2_set'
BKQCPHJMTMBKQCPHJMTM 0
root@arm:~# echo 'CYWG''FGEQGO'
CYWGFGEQGO
root@arm:~# MARKER='BMWH''PGSMXK' run 'i2cget -f -y 2 0x60 0x29'
BMWHPGSMXK0x74
BMWHPGSMXK 0
root@arm:~# echo 'TZCA''EZBWGY'
TZCAEZBWGY
root@arm:~# MARKER='EQWM''ZVXJKT' run 'i2cget -y -f 2 0x60 0x22'
EQWMZVXJKT0x78
EQWMZVXJKT 0
root@arm:~# echo 'EEQB''OMUQVY'
EEQBOMUQVY
root@arm:~# MARKER='MWMN''WVYNYK' run 'i2cget -y -f 2 0x60 0x22'
MWMNWVYNYK0x78
MWMNWVYNYK 0
root@arm:~# echo 'OOLK''FCSSLW'
OOLKFCSSLW
root@arm:~# MARKER='MXFT''BWUGLS' run 'echo 1000000 1000000 > /sys/kernel/mva_tesst/regulators/buck2_set'
MXFTBWUGLSMXFTBWUGLS 0
root@arm:~# echo 'KKLE''WOKWMB'
KKLEWOKWMB
root@arm:~# MARKER='WGJG''BPKHYW' run 'i2cget -f -y 2 0x60 0x29'
WGJGBPKHYW0x75
WGJGBPKHYW 0
root@arm:~# echo 'OHZF''GSXHNA'
OHZFGSXHNA
root@arm:~# MARKER='FLUV''QBVKWO' run 'i2cget -y -f 2 0x60 0x22'
FLUVQBVKWO0x78
FLUVQBVKWO 0
root@arm:~# echo 'NQXK''JCKJAV'
NQXKJCKJAV
root@arm:~# MARKER='SXMH''LSJSGH' run 'i2cget -y -f 2 0x60 0x22'
SXMHLSJSGH0x78
SXMHLSJSGH 0
root@arm:~# echo 'MBLS''KHOHLM'
MBLSKHOHLM
root@arm:~# MARKER='UUNC''UVWGTZ' run 'echo 1010000 1010000 > /sys/kernel/mva_tesst/regulators/buck2_set'
UUNCUVWGTZUUNCUVWGTZ 0
root@arm:~# echo 'GOUO''BWXYUC'
GOUOBWXYUC
root@arm:~# MARKER='VOPY''XETQGB' run 'i2cget -f -y 2 0x60 0x29'
VOPYXETQGB0x76
VOPYXETQGB 0
root@arm:~# echo 'PBFC''PGUXCU'
PBFCPGUXCU
root@arm:~# MARKER='BGVJ''MJNJES' run 'i2cget -y -f 2 0x60 0x22'
BGVJMJNJES0x78
BGVJMJNJES 0
root@arm:~# echo 'XFLU''PXBGVM'
XFLUPXBGVM
root@arm:~# MARKER='GZNU''OQTZKV' run 'i2cget -y -f 2 0x60 0x22'
GZNUOQTZKV0x78
GZNUOQTZKV 0
root@arm:~# echo 'HQUQ''ZKZFJB'
HQUQZKZFJB
root@arm:~# MARKER='QUEL''ECXCMG' run 'echo 1020000 1020000 > /sys/kernel/mva_tesst/regulators/buck2_set'
QUELECXCMGQUELECXCMG 0
root@arm:~# echo 'LGXN''VBYVZN'
LGXNVBYVZN
root@arm:~# MARKER='UUEZ''UBCQXH' run 'i2cget -f -y 2 0x60 0x29'
UUEZUBCQXH0x77
UUEZUBCQXH 0
root@arm:~# echo 'CQNW''JKAWTL'
CQNWJKAWTL
root@arm:~# MARKER='UKWA''MZGPFS' run 'i2cget -y -f 2 0x60 0x22'
UKWAMZGPFS0x78
UKWAMZGPFS 0
root@arm:~# echo 'YEEG''NOWEFH'
YEEGNOWEFH
root@arm:~# MARKER='JCJK''QSFFXT' run 'i2cget -y -f 2 0x60 0x22'
JCJKQSFFXT0x78
JCJKQSFFXT 0
root@arm:~# echo 'VWEN''TKAHZU'
VWENTKAHZU
root@arm:~# MARKER='CAKG''KUKWOP' run 'echo 1030000 1030000 > /sys/kernel/mva_tesst/regulators/buck2_set'
CAKGKUKWOPCAKGKUKWOP 0
root@arm:~# echo 'VHBB''BVEBSO'
VHBBBVEBSO
root@arm:~# MARKER='NSPF''JEEKAQ' run 'i2cget -f -y 2 0x60 0x29'
NSPFJEEKAQ0x78
NSPFJEEKAQ 0
root@arm:~# echo 'VHCH''JVMHCU'
VHCHJVMHCU
root@arm:~# MARKER='QPYF''KVEAKV' run 'i2cget -y -f 2 0x60 0x22'
QPYFKVEAKV0x78
QPYFKVEAKV 0
root@arm:~# echo 'MXOA''AECZJP'
MXOAAECZJP
root@arm:~# MARKER='VPZQ''XAMXXB' run 'i2cget -y -f 2 0x60 0x22'
VPZQXAMXXB0x78
VPZQXAMXXB 0
root@arm:~# echo 'MBPF''AZZSGV'
MBPFAZZSGV
root@arm:~# MARKER='AJHX''VTQVBS' run 'echo 1040000 1040000 > /sys/kernel/mva_tesst/regulators/buck2_set'
AJHXVTQVBSAJHXVTQVBS 0
root@arm:~# echo 'MCXA''AZEXHJ'
MCXAAZEXHJ
root@arm:~# MARKER='AXMF''NMSBLU' run 'i2cget -f -y 2 0x60 0x29'
AXMFNMSBLU0x79
AXMFNMSBLU 0
root@arm:~# echo 'YJAK''CFBGPH'
YJAKCFBGPH
root@arm:~# MARKER='FBPC''NQYWPV' run 'i2cget -y -f 2 0x60 0x22'
FBPCNQYWPV0x78
FBPCNQYWPV 0
root@arm:~# echo 'VTNB''ECHUZZ'
VTNBECHUZZ
root@arm:~# MARKER='BNJA''HBELXK' run 'i2cget -y -f 2 0x60 0x22'
BNJAHBELXK0x78
BNJAHBELXK 0
root@arm:~# echo 'XCJY''OMTPHA'
XCJYOMTPHA
root@arm:~# MARKER='JEFJ''FUMCHV' run 'echo 1050000 1050000 > /sys/kernel/mva_tesst/regulators/buck2_set'
JEFJFUMCHVJEFJFUMCHV 0
root@arm:~# echo 'XAEY''EHHXUP'
XAEYEHHXUP
root@arm:~# MARKER='QUUX''UPXFMQ' run 'i2cget -f -y 2 0x60 0x29'
QUUXUPXFMQ0x7a
QUUXUPXFMQ 0
root@arm:~# echo 'PVNB''CGXBZA'
PVNBCGXBZA
root@arm:~# MARKER='BVGP''VWLVTU' run 'i2cget -y -f 2 0x60 0x22'
BVGPVWLVTU0x78
BVGPVWLVTU 0
root@arm:~# echo 'YOEW''EQXKAT'
YOEWEQXKAT
root@arm:~# MARKER='AECZ''LSSQBM' run 'i2cget -y -f 2 0x60 0x22'
AECZLSSQBM0x78
AECZLSSQBM 0
root@arm:~# echo 'PXPU''WQKJUW'
PXPUWQKJUW
root@arm:~# MARKER='LULO''KCBMBN' run 'echo 1060000 1060000 > /sys/kernel/mva_tesst/regulators/buck2_set'
LULOKCBMBNLULOKCBMBN 0
root@arm:~# echo 'VVEP''WCLYOV'
VVEPWCLYOV
root@arm:~# MARKER='PLTA''LPZBOF' run 'i2cget -f -y 2 0x60 0x29'
PLTALPZBOF0x7b
PLTALPZBOF 0
root@arm:~# echo 'OWGL''UFSTXJ'
OWGLUFSTXJ
root@arm:~# MARKER='JAUW''OFSMCE' run 'i2cget -y -f 2 0x60 0x22'
JAUWOFSMCE0x78
JAUWOFSMCE 0
root@arm:~# echo 'LGOV''KXCPWN'
LGOVKXCPWN
root@arm:~# MARKER='GMEA''BPEEHL' run 'i2cget -y -f 2 0x60 0x22'
GMEABPEEHL0x78
GMEABPEEHL 0
root@arm:~# echo 'THGL''PHOJVN'
THGLPHOJVN
root@arm:~# MARKER='FJUU''NMBPKZ' run 'echo 1070000 1070000 > /sys/kernel/mva_tesst/regulators/buck2_set'
FJUUNMBPKZFJUUNMBPKZ 0
root@arm:~# echo 'ZOQH''OXATTX'
ZOQHOXATTX
root@arm:~# MARKER='JHCP''CVJPFC' run 'i2cget -f -y 2 0x60 0x29'
JHCPCVJPFC0x7c
JHCPCVJPFC 0
root@arm:~# echo 'KAKK''UWHEBQ'
KAKKUWHEBQ
root@arm:~# MARKER='BBTF''WTCOXJ' run 'i2cget -y -f 2 0x60 0x22'
BBTFWTCOXJ0x78
BBTFWTCOXJ 0
root@arm:~# echo 'JAUV''QMGYZS'
JAUVQMGYZS
root@arm:~# MARKER='WAOC''TLXSGQ' run 'i2cget -y -f 2 0x60 0x22'
WAOCTLXSGQ0x78
WAOCTLXSGQ 0
root@arm:~# echo 'WHFQ''EZBTNE'
WHFQEZBTNE
root@arm:~# MARKER='MEMY''GQPNFT' run 'echo 1080000 1080000 > /sys/kernel/mva_tesst/regulators/buck2_set'
MEMYGQPNFTMEMYGQPNFT 0
root@arm:~# echo 'TJZZ''KKTGYL'
TJZZKKTGYL
root@arm:~# MARKER='YJQL''SPCQVA' run 'i2cget -f -y 2 0x60 0x29'
YJQLSPCQVA0x7d
YJQLSPCQVA 0
root@arm:~# echo 'KBFS''GYFKHL'
KBFSGYFKHL
root@arm:~# MARKER='YZNM''CUHYMU' run 'i2cget -y -f 2 0x60 0x22'
YZNMCUHYMU0x78
YZNMCUHYMU 0
root@arm:~# echo 'TUTM''OXJWAM'
TUTMOXJWAM
root@arm:~# MARKER='XFZB''CUGLEG' run 'i2cget -y -f 2 0x60 0x22'
XFZBCUGLEG0x78
XFZBCUGLEG 0
root@arm:~# echo 'CWOX''HLJVGZ'
CWOXHLJVGZ
root@arm:~# MARKER='PLQC''TVLFBY' run 'echo 1090000 1090000 > /sys/kernel/mva_tesst/regulators/buck2_set'
PLQCTVLFBYPLQCTVLFBY 0
root@arm:~# echo 'KEFZ''ELWEEC'
KEFZELWEEC
root@arm:~# MARKER='CQEK''QUGCPO' run 'i2cget -f -y 2 0x60 0x29'
CQEKQUGCPO0x7e
CQEKQUGCPO 0
root@arm:~# echo 'ABNS''ABAFUO'
ABNSABAFUO
root@arm:~# MARKER='UTLQ''WSBAVQ' run 'i2cget -y -f 2 0x60 0x22'
UTLQWSBAVQ0x78
UTLQWSBAVQ 0
root@arm:~# echo 'YAZC''EFFHHB'
YAZCEFFHHB
root@arm:~# MARKER='THTQ''NTZKFL' run 'i2cget -y -f 2 0x60 0x22'
THTQNTZKFL0x78
THTQNTZKFL 0
root@arm:~# echo 'MKQA''JEUQJM'
MKQAJEUQJM
root@arm:~# MARKER='XELS''OWXETH' run 'echo 1100000 1100000 > /sys/kernel/mva_tesst/regulators/buck2_set'
XELSOWXETHXELSOWXETH 0
root@arm:~# echo 'XNXQ''QJFMST'
XNXQQJFMST
root@arm:~# MARKER='PKBX''WYECBC' run 'i2cget -f -y 2 0x60 0x29'
PKBXWYECBC0x40
PKBXWYECBC 0
root@arm:~# echo 'BXQQ''OEOSYP'
BXQQOEOSYP
root@arm:~# MARKER='GUAN''XONCMG' run 'i2cget -y -f 2 0x60 0x22'
GUANXONCMG0x78
GUANXONCMG 0
root@arm:~# echo 'QQFE''QFFBMX'
QQFEQFFBMX
root@arm:~# MARKER='PXKA''QCLSWA' run 'i2cget -y -f 2 0x60 0x23'
PXKAQCLSWA0x46
PXKAQCLSWA 0
root@arm:~# echo 'PMUF''QZBATV'
PMUFQZBATV
root@arm:~# MARKER='LJVF''KSCAZN' run 'echo 850000 850000 > /sys/kernel/mva_test//regulators/buck3_set'
LJVFKSCAZNLJVFKSCAZN 0
root@arm:~# echo 'TSJM''AGTOBZ'
TSJMAGTOBZ
root@arm:~# MARKER='FFGK''KFUVYY' run 'i2cget -f -y 2 0x60 0x2a'
FFGKKFUVYY0x80
FFGKKFUVYY 0
root@arm:~# echo 'QYJK''BBPJXU'
QYJKBBPJXU
root@arm:~# MARKER='BEEU''VEYKPX' run 'i2cget -y -f 2 0x60 0x23'
BEEUVEYKPX0x46
BEEUVEYKPX 0
root@arm:~# echo 'KKUB''TZGTQH'
KKUBTZGTQH
root@arm:~# MARKER='NQEY''CGVFKW' run 'i2cget -y -f 2 0x60 0x23'
NQEYCGVFKW0x46
NQEYCGVFKW 0
root@arm:~# echo 'KUJH''MGAQWY'
KUJHMGAQWY
root@arm:~# MARKER='AMBW''NZJXZX' run 'echo 860000 860000 > /sys/kernel/mva_test//regulators/buck3_set'
AMBWNZJXZXAMBWNZJXZX 0
root@arm:~# echo 'OAJW''WSOHCS'
OAJWWSOHCS
root@arm:~# MARKER='FEZE''XMVCCF' run 'i2cget -f -y 2 0x60 0x2a'
FEZEXMVCCF0x81
FEZEXMVCCF 0
root@arm:~# echo 'TTXA''LWZUBJ'
TTXALWZUBJ
root@arm:~# MARKER='WTTZ''UOTMJW' run 'i2cget -y -f 2 0x60 0x23'
WTTZUOTMJW0x46
WTTZUOTMJW 0
root@arm:~# echo 'GBWW''ZHWEPG'
GBWWZHWEPG
root@arm:~# MARKER='KSMP''MBAMQY' run 'i2cget -y -f 2 0x60 0x23'
KSMPMBAMQY0x46
KSMPMBAMQY 0
root@arm:~# echo 'AHLS''WSJXLT'
AHLSWSJXLT
root@arm:~# MARKER='NVWU''LEUEGU' run 'echo 870000 870000 > /sys/kernel/mva_test//regulators/buck3_set'
NVWULEUEGUNVWULEUEGU 0
root@arm:~# echo 'UYXA''GCGSKB'
UYXAGCGSKB
root@arm:~# MARKER='HQNS''FGVTPO' run 'i2cget -f -y 2 0x60 0x2a'
HQNSFGVTPO0x82
HQNSFGVTPO 0
root@arm:~# echo 'JZEG''UEZSFU'
JZEGUEZSFU
root@arm:~# MARKER='SLMS''HSCKXH' run 'i2cget -y -f 2 0x60 0x23'
SLMSHSCKXH0x46
SLMSHSCKXH 0
root@arm:~# echo 'HJLJ''SEOTYX'
HJLJSEOTYX
root@arm:~# MARKER='JOAV''WTLOMK' run 'i2cget -y -f 2 0x60 0x23'
JOAVWTLOMK0x46
JOAVWTLOMK 0
root@arm:~# echo 'HSBJ''HXPCJG'
HSBJHXPCJG
root@arm:~# MARKER='ALAT''XPXZTH' run 'echo 880000 880000 > /sys/kernel/mva_test//regulators/buck3_set'
ALATXPXZTHALATXPXZTH 0
root@arm:~# echo 'GOQQ''MKFMUQ'
GOQQMKFMUQ
root@arm:~# MARKER='TZSX''PMVHSK' run 'i2cget -f -y 2 0x60 0x2a'
TZSXPMVHSK0x83
TZSXPMVHSK 0
root@arm:~# echo 'KTYC''LGSZQS'
KTYCLGSZQS
root@arm:~# MARKER='QJCG''FSZPUS' run 'i2cget -y -f 2 0x60 0x23'
QJCGFSZPUS0x46
QJCGFSZPUS 0
root@arm:~# echo 'WVKP''ENBEUJ'
WVKPENBEUJ
root@arm:~# MARKER='KNVT''FTXLMV' run 'i2cget -y -f 2 0x60 0x23'
KNVTFTXLMV0x46
KNVTFTXLMV 0
root@arm:~# echo 'LCHQ''GEVYGM'
LCHQGEVYGM
root@arm:~# MARKER='OCAJ''VXMOBX' run 'echo 890000 890000 > /sys/kernel/mva_test//regulators/buck3_set'
OCAJVXMOBXOCAJVXMOBX 0
root@arm:~# echo 'NZCH''OTCEFE'
NZCHOTCEFE
root@arm:~# MARKER='BSFQ''OHMNUY' run 'i2cget -f -y 2 0x60 0x2a'
BSFQOHMNUY0x84
BSFQOHMNUY 0
root@arm:~# echo 'YGZU''AAXVQX'
YGZUAAXVQX
root@arm:~# MARKER='BBBU''YTENAY' run 'i2cget -y -f 2 0x60 0x23'
BBBUYTENAY0x46
BBBUYTENAY 0
root@arm:~# echo 'BQFE''UBPPAW'
BQFEUBPPAW
root@arm:~# MARKER='NPYC''QCWZXN' run 'i2cget -y -f 2 0x60 0x23'
NPYCQCWZXN0x46
NPYCQCWZXN 0
root@arm:~# echo 'HTFK''WKGGOO'
HTFKWKGGOO
root@arm:~# MARKER='JGAS''JLBQOY' run 'echo 900000 900000 > /sys/kernel/mva_test//regulators/buck3_set'
JGASJLBQOYJGASJLBQOY 0
root@arm:~# echo 'QYGE''NTQAMF'
QYGENTQAMF
root@arm:~# MARKER='WSAY''SLNUZL' run 'i2cget -f -y 2 0x60 0x2a'
WSAYSLNUZL0x85
WSAYSLNUZL 0
root@arm:~# echo 'BWUK''TBWNYX'
BWUKTBWNYX
root@arm:~# MARKER='YXAQ''LXWETN' run 'i2cget -y -f 2 0x60 0x23'
YXAQLXWETN0x46
YXAQLXWETN 0
root@arm:~# echo 'FYZM''PAOYTM'
FYZMPAOYTM
root@arm:~# MARKER='JUVO''ZMGQNS' run 'i2cget -y -f 2 0x60 0x23'
JUVOZMGQNS0x46
JUVOZMGQNS 0
root@arm:~# echo 'LWCB''SBMAKZ'
LWCBSBMAKZ
root@arm:~# MARKER='XFMO''VJVNSQ' run 'echo 910000 910000 > /sys/kernel/mva_test//regulators/buck3_set'
XFMOVJVNSQXFMOVJVNSQ 0
root@arm:~# echo 'EGQC''ZNKXEQ'
EGQCZNKXEQ
root@arm:~# MARKER='KMVJ''VLPUEQ' run 'i2cget -f -y 2 0x60 0x2a'
KMVJVLPUEQ0x86
KMVJVLPUEQ 0
root@arm:~# echo 'VYWY''TWLXXV'
VYWYTWLXXV
root@arm:~# MARKER='WYLX''YPVHUG' run 'i2cget -y -f 2 0x60 0x23'
WYLXYPVHUG0x46
WYLXYPVHUG 0
root@arm:~# echo 'CAKC''VMMXTH'
CAKCVMMXTH
root@arm:~# MARKER='UGQO''TVWXVH' run 'i2cget -y -f 2 0x60 0x23'
UGQOTVWXVH0x46
UGQOTVWXVH 0
root@arm:~# echo 'PKPW''KNSOHW'
PKPWKNSOHW
root@arm:~# MARKER='GFOJ''PSHXVM' run 'echo 920000 920000 > /sys/kernel/mva_test//regulators/buck3_set'
GFOJPSHXVMGFOJPSHXVM 0
root@arm:~# echo 'GCEB''GYPEZB'
GCEBGYPEZB
root@arm:~# MARKER='ATCG''GBLMMC' run 'i2cget -f -y 2 0x60 0x2a'
ATCGGBLMMC0x87
ATCGGBLMMC 0
root@arm:~# echo 'YJSM''XWYVZG'
YJSMXWYVZG
root@arm:~# MARKER='KFNC''ETMZCV' run 'i2cget -y -f 2 0x60 0x23'
KFNCETMZCV0x46
KFNCETMZCV 0
root@arm:~# echo 'BCEE''BXVXFB'
BCEEBXVXFB
root@arm:~# MARKER='OBUJ''MGMFZH' run 'i2cget -y -f 2 0x60 0x23'
OBUJMGMFZH0x46
OBUJMGMFZH 0
root@arm:~# echo 'SPCU''PYYZOM'
SPCUPYYZOM
root@arm:~# MARKER='SHQF''MZFJOW' run 'echo 930000 930000 > /sys/kernel/mva_test//regulators/buck3_set'
SHQFMZFJOWSHQFMZFJOW 0
root@arm:~# echo 'VEFY''AOHOQH'
VEFYAOHOQH
root@arm:~# MARKER='FGPB''KNYSSU' run 'i2cget -f -y 2 0x60 0x2a'
FGPBKNYSSU0x88
FGPBKNYSSU 0
root@arm:~# echo 'TBVZ''MMVSAW'
TBVZMMVSAW
root@arm:~# MARKER='FQXF''FEQFFV' run 'i2cget -y -f 2 0x60 0x23'
FQXFFEQFFV0x46
FQXFFEQFFV 0
root@arm:~# echo 'BVTT''FFSBCH'
BVTTFFSBCH
root@arm:~# MARKER='NOCM''KTFKUS' run 'i2cget -y -f 2 0x60 0x23'
NOCMKTFKUS0x46
NOCMKTFKUS 0
root@arm:~# echo 'CANU''UPEKYL'
CANUUPEKYL
root@arm:~# MARKER='OFOL''OXWPVL' run 'echo 940000 940000 > /sys/kernel/mva_test//regulators/buck3_set'
OFOLOXWPVLOFOLOXWPVL 0
root@arm:~# echo 'VWWG''UCJTZY'
VWWGUCJTZY
root@arm:~# MARKER='OVUB''CJNVJV' run 'i2cget -f -y 2 0x60 0x2a'
OVUBCJNVJV0x89
OVUBCJNVJV 0
root@arm:~# echo 'ETWV''PQNZLZ'
ETWVPQNZLZ
root@arm:~# MARKER='BOGE''OWAOHB' run 'i2cget -y -f 2 0x60 0x23'
BOGEOWAOHB0x46
BOGEOWAOHB 0
root@arm:~# echo 'EXMO''KBUWCT'
EXMOKBUWCT
root@arm:~# MARKER='WMNP''ZPFKNP' run 'i2cget -y -f 2 0x60 0x23'
WMNPZPFKNP0x46
WMNPZPFKNP 0
root@arm:~# echo 'KGWM''VVEKZX'
KGWMVVEKZX
root@arm:~# MARKER='EWEO''SHVGEE' run 'echo 950000 950000 > /sys/kernel/mva_test//regulators/buck3_set'
EWEOSHVGEEEWEOSHVGEE 0
root@arm:~# echo 'FYMQ''NJKOES'
FYMQNJKOES
root@arm:~# MARKER='BUOK''ZCKCAG' run 'i2cget -f -y 2 0x60 0x2a'
BUOKZCKCAG0x8a
BUOKZCKCAG 0
root@arm:~# echo 'ONPZ''QQWUKP'
ONPZQQWUKP
root@arm:~# MARKER='PUFT''MJCSGH' run 'i2cget -y -f 2 0x60 0x23'
PUFTMJCSGH0x46
PUFTMJCSGH 0
root@arm:~# echo 'HYYW''MMGMUS'
HYYWMMGMUS
root@arm:~# MARKER='SMYH''CMJWLS' run 'i2cget -y -f 2 0x60 0x23'
SMYHCMJWLS0x46
SMYHCMJWLS 0
root@arm:~# echo 'QBHO''YQBQBW'
QBHOYQBQBW
root@arm:~# MARKER='SBXT''TANMJA' run 'echo 960000 960000 > /sys/kernel/mva_test//regulators/buck3_set'
SBXTTANMJASBXTTANMJA 0
root@arm:~# echo 'KALK''FSJNSX'
KALKFSJNSX
root@arm:~# MARKER='NAXY''THYLOK' run 'i2cget -f -y 2 0x60 0x2a'
NAXYTHYLOK0x8b
NAXYTHYLOK 0
root@arm:~# echo 'YSOO''AKMBJN'
YSOOAKMBJN
root@arm:~# MARKER='SYVO''KEEECE' run 'i2cget -y -f 2 0x60 0x23'
SYVOKEEECE0x46
SYVOKEEECE 0
root@arm:~# echo 'MTBH''ZVXMZU'
MTBHZVXMZU
root@arm:~# MARKER='QSMJ''AFEFAA' run 'i2cget -y -f 2 0x60 0x23'
QSMJAFEFAA0x46
QSMJAFEFAA 0
root@arm:~# echo 'BFAB''QPZWWA'
BFABQPZWWA
root@arm:~# MARKER='YCTL''JGLWHP' run 'echo 970000 970000 > /sys/kernel/mva_test//regulators/buck3_set'
YCTLJGLWHPYCTLJGLWHP 0
root@arm:~# echo 'STCQ''FPAJJP'
STCQFPAJJP
root@arm:~# MARKER='KMJF''KWAPEF' run 'i2cget -f -y 2 0x60 0x2a'
KMJFKWAPEF0x8c
KMJFKWAPEF 0
root@arm:~# echo 'TNAH''VQQJWF'
TNAHVQQJWF
root@arm:~# MARKER='EBYU''ATLCEH' run 'i2cget -y -f 2 0x60 0x23'
EBYUATLCEH0x46
EBYUATLCEH 0
root@arm:~# echo 'EKYC''YLQFTU'
EKYCYLQFTU
root@arm:~# MARKER='YEXC''WOVBOO' run 'i2cget -y -f 2 0x60 0x23'
YEXCWOVBOO0x46
YEXCWOVBOO 0
root@arm:~# echo 'TYNN''QUQOCX'
TYNNQUQOCX
root@arm:~# MARKER='PWUG''TKNFCP' run 'echo 980000 980000 > /sys/kernel/mva_test//regulators/buck3_set'
PWUGTKNFCPPWUGTKNFCP 0
root@arm:~# echo 'QXAX''VQLZOW'
QXAXVQLZOW
root@arm:~# MARKER='LXWG''JBPUTF' run 'i2cget -f -y 2 0x60 0x2a'
LXWGJBPUTF0x8d
LXWGJBPUTF 0
root@arm:~# echo 'AMBP''ZOQHVE'
AMBPZOQHVE
root@arm:~# MARKER='GYAN''EZYULU' run 'i2cget -y -f 2 0x60 0x23'
GYANEZYULU0x46
GYANEZYULU 0
root@arm:~# echo 'NHAF''BHLEOF'
NHAFBHLEOF
root@arm:~# MARKER='EMTG''TXETAT' run 'i2cget -y -f 2 0x60 0x23'
EMTGTXETAT0x46
EMTGTXETAT 0
root@arm:~# echo 'BHOF''TZTYJM'
BHOFTZTYJM
root@arm:~# MARKER='MCFV''XSFJFA' run 'echo 990000 990000 > /sys/kernel/mva_test//regulators/buck3_set'
MCFVXSFJFAMCFVXSFJFA 0
root@arm:~# echo 'CNNJ''MHNUPN'
CNNJMHNUPN
root@arm:~# MARKER='CXKB''UYXFYP' run 'i2cget -f -y 2 0x60 0x2a'
CXKBUYXFYP0x8e
CXKBUYXFYP 0
root@arm:~# echo 'MNAK''WXGNFH'
MNAKWXGNFH
root@arm:~# MARKER='TWXA''BPJVKQ' run 'i2cget -y -f 2 0x60 0x23'
TWXABPJVKQ0x46
TWXABPJVKQ 0
root@arm:~# echo 'CJJL''BEQFZO'
CJJLBEQFZO
root@arm:~# MARKER='YXNE''ZTCXAT' run 'i2cget -y -f 2 0x60 0x23'
YXNEZTCXAT0x46
YXNEZTCXAT 0
root@arm:~# echo 'MOFC''WMTCFA'
MOFCWMTCFA
root@arm:~# MARKER='CLQP''MUAAWY' run 'echo 1000000 1000000 > /sys/kernel/mva_tesst/regulators/buck3_set'
CLQPMUAAWYCLQPMUAAWY 0
root@arm:~# echo 'VUYM''PAYSXG'
VUYMPAYSXG
root@arm:~# MARKER='JOAW''WBFCKU' run 'i2cget -f -y 2 0x60 0x2a'
JOAWWBFCKU0x8f
JOAWWBFCKU 0
root@arm:~# echo 'HKKB''GWBPTM'
HKKBGWBPTM
root@arm:~# MARKER='ZNEV''BAVMWM' run 'i2cget -y -f 2 0x60 0x23'
ZNEVBAVMWM0x46
ZNEVBAVMWM 0
root@arm:~# echo 'ESCG''LPWMLH'
ESCGLPWMLH
root@arm:~# MARKER='AHUA''XBPVLF' run 'i2cget -y -f 2 0x60 0x23'
AHUAXBPVLF0x46
AHUAXBPVLF 0
root@arm:~# echo 'PYKS''GLOKNH'
PYKSGLOKNH
root@arm:~# MARKER='FQCJ''PZWFZJ' run 'echo 1010000 1010000 > /sys/kernel/mva_tesst/regulators/buck3_set'
FQCJPZWFZJFQCJPZWFZJ 0
root@arm:~# echo 'CXML''ONXUMS'
CXMLONXUMS
root@arm:~# MARKER='OETZ''MWXHQS' run 'i2cget -f -y 2 0x60 0x2a'
OETZMWXHQS0x90
OETZMWXHQS 0
root@arm:~# echo 'OYMJ''GKLTSH'
OYMJGKLTSH
root@arm:~# MARKER='EHLC''HZMLCP' run 'i2cget -y -f 2 0x60 0x23'
EHLCHZMLCP0x46
EHLCHZMLCP 0
root@arm:~# echo 'HVEA''JJOQSH'
HVEAJJOQSH
root@arm:~# MARKER='YVZN''TQYAFP' run 'i2cget -y -f 2 0x60 0x23'
YVZNTQYAFP0x46
YVZNTQYAFP 0
root@arm:~# echo 'GAEP''CPKZXL'
GAEPCPKZXL
root@arm:~# MARKER='WBHT''TLYFKZ' run 'echo 1020000 1020000 > /sys/kernel/mva_tesst/regulators/buck3_set'
WBHTTLYFKZWBHTTLYFKZ 0
root@arm:~# echo 'YHYG''FEWLNZ'
YHYGFEWLNZ
root@arm:~# MARKER='BZVE''BTNWBT' run 'i2cget -f -y 2 0x60 0x2a'
BZVEBTNWBT0x91
BZVEBTNWBT 0
root@arm:~# echo 'WVBZ''WEEWVE'
WVBZWEEWVE
root@arm:~# MARKER='AOLN''SVMKJJ' run 'i2cget -y -f 2 0x60 0x23'
AOLNSVMKJJ0x46
AOLNSVMKJJ 0
root@arm:~# echo 'FGLJ''NHACFA'
FGLJNHACFA
root@arm:~# MARKER='EBLE''UABSCJ' run 'i2cget -y -f 2 0x60 0x23'
EBLEUABSCJ0x46
EBLEUABSCJ 0
root@arm:~# echo 'TSFA''ZLXOMC'
TSFAZLXOMC
root@arm:~# MARKER='KMBE''KBBVEU' run 'echo 1030000 1030000 > /sys/kernel/mva_tesst/regulators/buck3_set'
KMBEKBBVEUKMBEKBBVEU 0
root@arm:~# echo 'EMVX''KPZPQA'
EMVXKPZPQA
root@arm:~# MARKER='TZAS''SHMYMF' run 'i2cget -f -y 2 0x60 0x2a'
TZASSHMYMF0x92
TZASSHMYMF 0
root@arm:~# echo 'GYMA''XFXFBF'
GYMAXFXFBF
root@arm:~# MARKER='SLYC''XXCZBK' run 'i2cget -y -f 2 0x60 0x23'
SLYCXXCZBK0x46
SLYCXXCZBK 0
root@arm:~# echo 'SBTU''VJUJAV'
SBTUVJUJAV
root@arm:~# MARKER='SCOU''YNFKNL' run 'i2cget -y -f 2 0x60 0x23'
SCOUYNFKNL0x46
SCOUYNFKNL 0
root@arm:~# echo 'GJCY''UVWVEA'
GJCYUVWVEA
root@arm:~# MARKER='NPAK''LSPEBY' run 'echo 1040000 1040000 > /sys/kernel/mva_tesst/regulators/buck3_set'
NPAKLSPEBYNPAKLSPEBY 0
root@arm:~# echo 'HWZJ''TSLQST'
HWZJTSLQST
root@arm:~# MARKER='VUMH''ZNTEKS' run 'i2cget -f -y 2 0x60 0x2a'
VUMHZNTEKS0x93
VUMHZNTEKS 0
root@arm:~# echo 'YEGJ''HOGAZY'
YEGJHOGAZY
root@arm:~# MARKER='SWTB''PHMHMX' run 'i2cget -y -f 2 0x60 0x23'
SWTBPHMHMX0x46
SWTBPHMHMX 0
root@arm:~# echo 'XYPP''FCCZMX'
XYPPFCCZMX
root@arm:~# MARKER='BAHJ''QAHNNA' run 'i2cget -y -f 2 0x60 0x23'
BAHJQAHNNA0x46
BAHJQAHNNA 0
root@arm:~# echo 'OWZK''PNQCXC'
OWZKPNQCXC
root@arm:~# MARKER='SMQH''TQCWVG' run 'echo 1050000 1050000 > /sys/kernel/mva_tesst/regulators/buck3_set'
SMQHTQCWVGSMQHTQCWVG 0
root@arm:~# echo 'XWBK''QEVSSX'
XWBKQEVSSX
root@arm:~# MARKER='LYCZ''FXUEGO' run 'i2cget -f -y 2 0x60 0x2a'
LYCZFXUEGO0x94
LYCZFXUEGO 0
root@arm:~# echo 'HJYC''WULHVX'
HJYCWULHVX
root@arm:~# MARKER='BESC''UYNYNH' run 'i2cget -y -f 2 0x60 0x23'
BESCUYNYNH0x46
BESCUYNYNH 0
root@arm:~# echo 'QJFU''KWPUPW'
QJFUKWPUPW
root@arm:~# MARKER='YTLH''WXMVFK' run 'i2cget -y -f 2 0x60 0x23'
YTLHWXMVFK0x46
YTLHWXMVFK 0
root@arm:~# echo 'VTAG''NCQKBK'
VTAGNCQKBK
root@arm:~# MARKER='NNMK''USWSHM' run 'echo 1060000 1060000 > /sys/kernel/mva_tesst/regulators/buck3_set'
NNMKUSWSHMNNMKUSWSHM 0
root@arm:~# echo 'XEFW''KJZMNV'
XEFWKJZMNV
root@arm:~# MARKER='XVES''MGCGEP' run 'i2cget -f -y 2 0x60 0x2a'
XVESMGCGEP0x95
XVESMGCGEP 0
root@arm:~# echo 'BVHQ''YEBJLF'
BVHQYEBJLF
root@arm:~# MARKER='FPLX''ZXOUNV' run 'i2cget -y -f 2 0x60 0x23'
FPLXZXOUNV0x46
FPLXZXOUNV 0
root@arm:~# echo 'VQSY''KWAJMQ'
VQSYKWAJMQ
root@arm:~# MARKER='FFQU''WXFPCM' run 'i2cget -y -f 2 0x60 0x23'
FFQUWXFPCM0x46
FFQUWXFPCM 0
root@arm:~# echo 'WQSZ''CQWSUS'
WQSZCQWSUS
root@arm:~# MARKER='WEZO''YXPEBL' run 'echo 1070000 1070000 > /sys/kernel/mva_tesst/regulators/buck3_set'
WEZOYXPEBLWEZOYXPEBL 0
root@arm:~# echo 'ZZHJ''SAUNCO'
ZZHJSAUNCO
root@arm:~# MARKER='KTWQ''GWGFMK' run 'i2cget -f -y 2 0x60 0x2a'
KTWQGWGFMK0x96
KTWQGWGFMK 0
root@arm:~# echo 'XXJZ''XHSFWK'
XXJZXHSFWK
root@arm:~# MARKER='SNSF''GYGHJV' run 'i2cget -y -f 2 0x60 0x23'
SNSFGYGHJV0x46
SNSFGYGHJV 0
root@arm:~# echo 'GLGW''MBXVZA'
GLGWMBXVZA
root@arm:~# MARKER='QWUU''SHHHQP' run 'i2cget -y -f 2 0x60 0x23'
QWUUSHHHQP0x46
QWUUSHHHQP 0
root@arm:~# echo 'ABYM''BLPTPZ'
ABYMBLPTPZ
root@arm:~# MARKER='EQJN''WULCXA' run 'echo 1080000 1080000 > /sys/kernel/mva_tesst/regulators/buck3_set'
EQJNWULCXAEQJNWULCXA 0
root@arm:~# echo 'TKKY''FJMPGE'
TKKYFJMPGE
root@arm:~# MARKER='XHGS''NAGOUE' run 'i2cget -f -y 2 0x60 0x2a'
XHGSNAGOUE0x97
XHGSNAGOUE 0
root@arm:~# echo 'SHKO''JXJEGK'
SHKOJXJEGK
root@arm:~# MARKER='JNNF''LUNPME' run 'i2cget -y -f 2 0x60 0x23'
JNNFLUNPME0x46
JNNFLUNPME 0
root@arm:~# echo 'YPVC''LEFPKX'
YPVCLEFPKX
root@arm:~# MARKER='PJCA''ZOPVQY' run 'i2cget -y -f 2 0x60 0x23'
PJCAZOPVQY0x46
PJCAZOPVQY 0
root@arm:~# echo 'VFNK''JXBMGO'
VFNKJXBMGO
root@arm:~# MARKER='BNGK''QCZVZE' run 'echo 1090000 1090000 > /sys/kernel/mva_tesst/regulators/buck3_set'
BNGKQCZVZEBNGKQCZVZE 0
root@arm:~# echo 'LBYK''SCNASA'
LBYKSCNASA
root@arm:~# MARKER='FBTG''VZKBEL' run 'i2cget -f -y 2 0x60 0x2a'
FBTGVZKBEL0x98
FBTGVZKBEL 0
root@arm:~# echo 'FMSW''ZJUFLA'
FMSWZJUFLA
root@arm:~# MARKER='PYHP''CNBYNO' run 'i2cget -y -f 2 0x60 0x23'
PYHPCNBYNO0x46
PYHPCNBYNO 0
root@arm:~# echo 'OPNP''NEWSUC'
OPNPNEWSUC
root@arm:~# MARKER='THCZ''JQJXAU' run 'i2cget -y -f 2 0x60 0x23'
THCZJQJXAU0x46
THCZJQJXAU 0
root@arm:~# echo 'USTQ''PFMCQV'
USTQPFMCQV
root@arm:~# MARKER='GBLM''BZNXMK' run 'echo 1100000 1100000 > /sys/kernel/mva_tesst/regulators/buck3_set'
GBLMBZNXMKGBLMBZNXMK 0
root@arm:~# echo 'UKSY''ZCNMZU'
UKSYZCNMZU
root@arm:~# MARKER='KAJL''AVPOBY' run 'i2cget -f -y 2 0x60 0x2a'
KAJLAVPOBY0x99
KAJLAVPOBY 0
root@arm:~# echo 'BUUO''AGEYPX'
BUUOAGEYPX
root@arm:~# MARKER='KBCC''XGSLYZ' run 'i2cget -y -f 2 0x60 0x23'
KBCCXGSLYZ0x46
KBCCXGSLYZ 0
root@arm:~# echo 'QZAL''LETLSW'
QZALLETLSW
