Labgrid Console Logfile for main
Logfile started at 2025-08-07 09:46:35.841796
=== Log starts here ===

root@arm:~# run() { echo -n "$MARKER"; sh -c "$@"; echo "$MARKER $?"; }
root@arm:~# echo 'SWXV''PBAXXE'
SWXVPBAXXE
root@arm:~# MARKER='KWHN''ZHKEYA' run 'grep -r -l rohm,bd71847 /proc/device-tree  | sed '"'"'s![^/]*$!!'"'"''
KWHNZHKEYA/proc/device-tree/ocp/interconnect@48000000/segment@0/target-module@2a000/i2c@0/pmic@4b/
KWHNZHKEYA 0
root@arm:~# echo 'SVZQ''LMJQHG'
SVZQLMJQHG
root@arm:~# MARKER='CULO''VZVTGN' run 'test -f /proc/device-tree/ocp/interconnectt\@48000000/segment\@0/target-module\@2a000/i2c\@0/pmic\@4b/regulators/BUCK1/rohmm,no-regulator-enable-control ;echo $?'
CULOVZVTGN1
CULOVZVTGN 0
root@arm:~# echo 'CQAX''SXHPXK'
CQAXSXHPXK
root@arm:~# MARKER='AKHT''LWWOHS' run 'echo 1 > /sys/kernel/mva_test/regulators/bbuck1_en'
AKHTLWWOHSAKHTLWWOHS 0
root@arm:~# echo 'HGCT''OXOCLM'
HGCTOXOCLM
root@arm:~# MARKER='CAZW''CXAEUF' run 'i2cget -y -f 1 0x4b 0x5'
CAZWCXAEUF0x03
CAZWCXAEUF 0
root@arm:~# echo 'FUUS''ACKTAB'
FUUSACKTAB
root@arm:~# MARKER='TPBJ''ZXALCG' run 'grep -r -l rohm,bd71847 /proc/device-tree  | sed '"'"'s![^/]*$!!'"'"''
TPBJZXALCG/proc/device-tree/ocp/interconnect@48000000/segment@0/target-module@2a000/i2c@0/pmic@4b/
TPBJZXALCG 0
root@arm:~# echo 'BAHX''KNYGVJ'
BAHXKNYGVJ
root@arm:~# MARKER='TOFJ''BSHAVA' run 'test -f /proc/device-tree/ocp/interconnectt\@48000000/segment\@0/target-module\@2a000/i2c\@0/pmic\@4b/regulators/BUCK1/rohmm,no-regulator-enable-control ;echo $?'
TOFJBSHAVA1
TOFJBSHAVA 0
root@arm:~# echo 'BBNX''FXWCJM'
BBNXFXWCJM
root@arm:~# MARKER='MNJC''JHENWP' run 'grep -r -l rohm,bd71847 /proc/device-tree  | sed '"'"'s![^/]*$!!'"'"''
MNJCJHENWP/proc/device-tree/ocp/interconnect@48000000/segment@0/target-module@2a000/i2c@0/pmic@4b/
MNJCJHENWP 0
root@arm:~# echo 'GEST''UJEESW'
GESTUJEESW
root@arm:~# MARKER='GBYN''HUQNHS' run 'test -f /proc/device-tree/ocp/interconnectt\@48000000/segment\@0/target-module\@2a000/i2c\@0/pmic\@4b/regulators/BUCK1/reguulator-always-on ;echo $?'
GBYNHUQNHS1
GBYNHUQNHS 0
root@arm:~# echo 'MJYU''LESUHF'
MJYULESUHF
root@arm:~# MARKER='SBZL''WVAOLF' run 'echo 0 > /sys/kernel/mva_test/regulators/bbuck1_en'
SBZLWVAOLFSBZLWVAOLF 0
root@arm:~# echo 'MKPY''ETNEEP'
MKPYETNEEP
root@arm:~# MARKER='JPLC''QFYJGN' run 'i2cget -y -f 1 0x4b 0x5'
JPLCQFYJGN0x02
JPLCQFYJGN 0
root@arm:~# echo 'UWJN''NAWLMZ'
UWJNNAWLMZ
root@arm:~# MARKER='KCNH''QCBKWE' run 'grep -r -l rohm,bd71847 /proc/device-tree  | sed '"'"'s![^/]*$!!'"'"''
KCNHQCBKWE/proc/device-tree/ocp/interconnect@48000000/segment@0/target-module@2a000/i2c@0/pmic@4b/
KCNHQCBKWE 0
root@arm:~# echo 'TQVY''SLLWWG'
TQVYSLLWWG
root@arm:~# MARKER='FPOV''WZKAZP' run 'test -f /proc/device-tree/ocp/interconnectt\@48000000/segment\@0/target-module\@2a000/i2c\@0/pmic\@4b/regulators/BUCK2/rohmm,no-regulator-enable-control ;echo $?'
FPOVWZKAZP1
FPOVWZKAZP 0
root@arm:~# echo 'SXAO''CFSCUO'
SXAOCFSCUO
root@arm:~# MARKER='TQVW''NBVBUP' run 'echo 1 > /sys/kernel/mva_test/regulators/bbuck2_en'
TQVWNBVBUPTQVWNBVBUP 0
root@arm:~# echo 'TXML''CCGUQK'
TXMLCCGUQK
root@arm:~# MARKER='KWBK''LBANUS' run 'i2cget -y -f 1 0x4b 0x6'
KWBKLBANUS0x43
KWBKLBANUS 0
root@arm:~# echo 'ACBY''XFTEFZ'
ACBYXFTEFZ
root@arm:~# MARKER='JZTV''UBPPMZ' run 'grep -r -l rohm,bd71847 /proc/device-tree  | sed '"'"'s![^/]*$!!'"'"''
JZTVUBPPMZ/proc/device-tree/ocp/interconnect@48000000/segment@0/target-module@2a000/i2c@0/pmic@4b/
JZTVUBPPMZ 0
root@arm:~# echo 'SPPT''PZZACY'
SPPTPZZACY
root@arm:~# MARKER='WKXA''WHJTBB' run 'test -f /proc/device-tree/ocp/interconnectt\@48000000/segment\@0/target-module\@2a000/i2c\@0/pmic\@4b/regulators/BUCK2/roh m,no-regulator-enable-control ;echo $?'
WKXAWHJTBB1
WKXAWHJTBB 0
root@arm:~# echo 'NVHB''LCCQMM'
NVHBLCCQMM
root@arm:~# MARKER='OZNQ''YSFLWF' run 'grep -r -l rohm,bd71847 /proc/device-tree  | sed '"'"'s![^/]*$!!'"'"''
OZNQYSFLWF/proc/device-tree/ocp/interconnect@48000000/segment@0/target-module@2a000/i2c@0/pmic@4b/
OZNQYSFLWF 0
root@arm:~# echo 'JGMW''HKXHLT'
JGMWHKXHLT
root@arm:~# MARKER='MVAP''PMJFZN' run 'test -f /proc/device-tree/ocp/interconnectt\@48000000/segment\@0/target-module\@2a000/i2c\@0/pmic\@4b/regulators/BUCK2/reguulator-always-on ;echo $?'
MVAPPMJFZN0
MVAPPMJFZN 0
root@arm:~# echo 'AKTO''QKBYUC'
AKTOQKBYUC
root@arm:~# MARKER='HKBC''EVSTJM' run 'grep -r -l rohm,bd71847 /proc/device-tree  | sed '"'"'s![^/]*$!!'"'"''
HKBCEVSTJM/proc/device-tree/ocp/interconnect@48000000/segment@0/target-module@2a000/i2c@0/pmic@4b/
HKBCEVSTJM 0
root@arm:~# echo 'QQSF''PESWUY'
QQSFPESWUY
root@arm:~# MARKER='ZGFN''XJGBBP' run 'test -f /proc/device-tree/ocp/interconnectt\@48000000/segment\@0/target-module\@2a000/i2c\@0/pmic\@4b/regulators/BUCK3/rohmm,no-regulator-enable-control ;echo $?'
ZGFNXJGBBP0
ZGFNXJGBBP 0
root@arm:~# echo 'BFBT''UEQBYQ'
BFBTUEQBYQ
root@arm:~# MARKER='AVQM''VBHJEG' run 'grep -r -l rohm,bd71847 /proc/device-tree  | sed '"'"'s![^/]*$!!'"'"''
AVQMVBHJEG/proc/device-tree/ocp/interconnect@48000000/segment@0/target-module@2a000/i2c@0/pmic@4b/
AVQMVBHJEG 0
root@arm:~# echo 'VMQB''EXGCGH'
VMQBEXGCGH
root@arm:~# MARKER='VPWJ''NNNEKV' run 'test -f /proc/device-tree/ocp/interconnectt\@48000000/segment\@0/target-module\@2a000/i2c\@0/pmic\@4b/regulators/BUCK3/rohmm,no-regulator-enable-control ;echo $?'
VPWJNNNEKV0
VPWJNNNEKV 0
root@arm:~# echo 'QMGY''CUOXXA'
QMGYCUOXXA
root@arm:~# MARKER='BJOT''EHOGKZ' run 'grep -r -l rohm,bd71847 /proc/device-tree  | sed '"'"'s![^/]*$!!'"'"''
BJOTEHOGKZ/proc/device-tree/ocp/interconnect@48000000/segment@0/target-module@2a000/i2c@0/pmic@4b/
BJOTEHOGKZ 0
root@arm:~# echo 'YVAZ''EYWWQA'
YVAZEYWWQA
root@arm:~# MARKER='OHNZ''TOOYCF' run 'test -f /proc/device-tree/ocp/interconnectt\@48000000/segment\@0/target-module\@2a000/i2c\@0/pmic\@4b/regulators/BUCK4/rohmm,no-regulator-enable-control ;echo $?'
OHNZTOOYCF1
OHNZTOOYCF 0
root@arm:~# echo 'AJMN''HQXZGT'
AJMNHQXZGT
root@arm:~# MARKER='UYHW''HOJGPH' run 'echo 1 > /sys/kernel/mva_test/regulators/bbuck4_en'
UYHWHOJGPHUYHWHOJGPH 0
root@arm:~# echo 'HWMU''AXBUXQ'
HWMUAXBUXQ
root@arm:~# MARKER='VXGZ''YGLEFN' run 'i2cget -y -f 1 0x4b 0xa'
VXGZYGLEFN0x03
VXGZYGLEFN 0
root@arm:~# echo 'SNBK''POKGZH'
SNBKPOKGZH
root@arm:~# MARKER='QUOU''BOKMXS' run 'grep -r -l rohm,bd71847 /proc/device-tree  | sed '"'"'s![^/]*$!!'"'"''
QUOUBOKMXS/proc/device-tree/ocp/interconnect@48000000/segment@0/target-module@2a000/i2c@0/pmic@4b/
QUOUBOKMXS 0
root@arm:~# echo 'XJAV''KJLFLF'
XJAVKJLFLF
root@arm:~# MARKER='YECV''QZJBYJ' run 'test -f /proc/device-tree/ocp/interconnectt\@48000000/segment\@0/target-module\@2a000/i2c\@0/pmic\@4b/regulators/BUCK4/rohmm,no-regulator-enable-control ;echo $?'
YECVQZJBYJ1
YECVQZJBYJ 0
root@arm:~# echo 'UYYL''NQZEYB'
UYYLNQZEYB
root@arm:~# MARKER='EEON''LQEBYQ' run 'grep -r -l rohm,bd71847 /proc/device-tree  | sed '"'"'s![^/]*$!!'"'"''
EEONLQEBYQ/proc/device-tree/ocp/interconnect@48000000/segment@0/target-module@2a000/i2c@0/pmic@4b/
EEONLQEBYQ 0
root@arm:~# echo 'BENN''JKOFYF'
BENNJKOFYF
root@arm:~# MARKER='CTPZ''WOJXXG' run 'test -f /proc/device-tree/ocp/interconnectt\@48000000/segment\@0/target-module\@2a000/i2c\@0/pmic\@4b/regulators/BUCK4/reguulator-always-on ;echo $?'
CTPZWOJXXG1
CTPZWOJXXG 0
root@arm:~# echo 'OJKC''ZHEHKC'
OJKCZHEHKC
root@arm:~# MARKER='ETQM''QHFVMU' run 'echo 0 > /sys/kernel/mva_test/regulators/bbuck4_en'
ETQMQHFVMUETQMQHFVMU 0
root@arm:~# echo 'WUSZ''BTYXOQ'
WUSZBTYXOQ
root@arm:~# MARKER='JJYJ''UZVHSF' run 'i2cget -y -f 1 0x4b 0xa'
JJYJUZVHSF0x02
JJYJUZVHSF 0
root@arm:~# echo 'VTMN''KWBHCV'
VTMNKWBHCV
root@arm:~# MARKER='ZSBC''LWKXLF' run 'grep -r -l rohm,bd71847 /proc/device-tree  | sed '"'"'s![^/]*$!!'"'"''
ZSBCLWKXLF/proc/device-tree/ocp/interconnect@48000000/segment@0/target-module@2a000/i2c@0/pmic@4b/
ZSBCLWKXLF 0
root@arm:~# echo 'QHFY''OBJCFU'
QHFYOBJCFU
root@arm:~# MARKER='EMUG''AABTTZ' run 'test -f /proc/device-tree/ocp/interconnectt\@48000000/segment\@0/target-module\@2a000/i2c\@0/pmic\@4b/regulators/BUCK5/roh m,no-regulator-enable-control ;echo $?'
EMUGAABTTZ1
EMUGAABTTZ 0
root@arm:~# echo 'LLVH''EKNWMS'
LLVHEKNWMS
root@arm:~# MARKER='WNLL''UTXCTA' run 'echo 1 > /sys/kernel/mva_test/regulators/bbuck5_en'
WNLLUTXCTAWNLLUTXCTA 0
root@arm:~# echo 'CYXS''BLHAMZ'
CYXSBLHAMZ
root@arm:~# MARKER='ELWZ''OKAXXZ' run 'i2cget -y -f 1 0x4b 0xb'
ELWZOKAXXZ0x03
ELWZOKAXXZ 0
root@arm:~# echo 'ZXOP''WKPPHU'
ZXOPWKPPHU
root@arm:~# MARKER='EGEY''PECPQL' run 'grep -r -l rohm,bd71847 /proc/device-tree  | sed '"'"'s![^/]*$!!'"'"''
EGEYPECPQL/proc/device-tree/ocp/interconnect@48000000/segment@0/target-module@2a000/i2c@0/pmic@4b/
EGEYPECPQL 0
root@arm:~# echo 'CVWJ''XNEHUX'
CVWJXNEHUX
root@arm:~# MARKER='VGZS''EAACJT' run 'test -f /proc/device-tree/ocp/interconnectt\@48000000/segment\@0/target-module\@2a000/i2c\@0/pmic\@4b/regulators/BUCK5/rohmm,no-regulator-enable-control ;echo $?'
VGZSEAACJT1
VGZSEAACJT 0
root@arm:~# echo 'HHEW''SZFMJO'
HHEWSZFMJO
root@arm:~# MARKER='JWVG''PKHSBE' run 'grep -r -l rohm,bd71847 /proc/device-tree  | sed '"'"'s![^/]*$!!'"'"''
JWVGPKHSBE/proc/device-tree/ocp/interconnect@48000000/segment@0/target-module@2a000/i2c@0/pmic@4b/
JWVGPKHSBE 0
root@arm:~# echo 'KTVU''ZKHUGS'
KTVUZKHUGS
root@arm:~# MARKER='YKOE''BTYSAV' run 'test -f /proc/device-tree/ocp/interconnectt\@48000000/segment\@0/target-module\@2a000/i2c\@0/pmic\@4b/regulators/BUCK5/reguulator-always-on ;echo $?'
YKOEBTYSAV1
YKOEBTYSAV 0
root@arm:~# echo 'MHZH''CQMSCZ'
MHZHCQMSCZ
root@arm:~# MARKER='LHSJ''XKFGQL' run 'echo 0 > /sys/kernel/mva_test/regulators/bbuck5_en'
LHSJXKFGQLLHSJXKFGQL 0
root@arm:~# echo 'MVZX''MKSXMO'
MVZXMKSXMO
root@arm:~# MARKER='GOMP''ONNKJZ' run 'i2cget -y -f 1 0x4b 0xb'
GOMPONNKJZ0x02
GOMPONNKJZ 0
root@arm:~# echo 'TPAQ''SAQKHW'
TPAQSAQKHW
root@arm:~# MARKER='PVST''USWTZA' run 'grep -r -l rohm,bd71847 /proc/device-tree  | sed '"'"'s![^/]*$!!'"'"''
PVSTUSWTZA/proc/device-tree/ocp/interconnect@48000000/segment@0/target-module@2a000/i2c@0/pmic@4b/
PVSTUSWTZA 0
root@arm:~# echo 'GZKZ''FYYKTW'
GZKZFYYKTW
root@arm:~# MARKER='JZJC''BQNCPA' run 'test -f /proc/device-tree/ocp/interconnectt\@48000000/segment\@0/target-module\@2a000/i2c\@0/pmic\@4b/regulators/BUCK6/rohmm,no-regulator-enable-control ;echo $?'
JZJCBQNCPA1
JZJCBQNCPA 0
root@arm:~# echo 'NWGT''OGLUCK'
NWGTOGLUCK
root@arm:~# MARKER='KPGA''BVJCSE' run 'echo 1 > /sys/kernel/mva_test/regulators/bbuck6_en'
KPGABVJCSEKPGABVJCSE 0
root@arm:~# echo 'QLVG''ELXWJL'
QLVGELXWJL
root@arm:~# MARKER='OHBU''SYCMCQ' run 'i2cget -y -f 1 0x4b 0xc'
OHBUSYCMCQ0x03
OHBUSYCMCQ 0
root@arm:~# echo 'NQJH''TVNNQX'
NQJHTVNNQX
root@arm:~# MARKER='VZTJ''BEBNXS' run 'grep -r -l rohm,bd71847 /proc/device-tree  | sed '"'"'s![^/]*$!!'"'"''
VZTJBEBNXS/proc/device-tree/ocp/interconnect@48000000/segment@0/target-module@2a000/i2c@0/pmic@4b/
VZTJBEBNXS 0
root@arm:~# echo 'KWFK''NETXYY'
KWFKNETXYY
root@arm:~# MARKER='NEHU''VBGKYO' run 'test -f /proc/device-tree/ocp/interconnectt\@48000000/segment\@0/target-module\@2a000/i2c\@0/pmic\@4b/regulators/BUCK6/rohmm,no-regulator-enable-control ;echo $?'
NEHUVBGKYO1
NEHUVBGKYO 0
root@arm:~# echo 'FGNB''NHLELZ'
FGNBNHLELZ
root@arm:~# MARKER='AXPJ''CQCNCC' run 'grep -r -l rohm,bd71847 /proc/device-tree  | sed '"'"'s![^/]*$!!'"'"''
AXPJCQCNCC/proc/device-tree/ocp/interconnect@48000000/segment@0/target-module@2a000/i2c@0/pmic@4b/
AXPJCQCNCC 0
root@arm:~# echo 'JYHT''PSMKBH'
JYHTPSMKBH
root@arm:~# MARKER='PYEA''OSBQAN' run 'test -f /proc/device-tree/ocp/interconnectt\@48000000/segment\@0/target-module\@2a000/i2c\@0/pmic\@4b/regulators/BUCK6/reguulator-always-on ;echo $?'
PYEAOSBQAN1
PYEAOSBQAN 0
root@arm:~# echo 'OVOP''YAUAMS'
OVOPYAUAMS
root@arm:~# MARKER='AVWP''COZTEL' run 'echo 0 > /sys/kernel/mva_test/regulators/bbuck6_en'
AVWPCOZTELAVWPCOZTEL 0
root@arm:~# echo 'EYUZ''QSVQPH'
EYUZQSVQPH
root@arm:~# MARKER='CSLW''CKNAHE' run 'i2cget -y -f 1 0x4b 0xc'
CSLWCKNAHE0x02
CSLWCKNAHE 0
root@arm:~# echo 'PXVS''USKAGV'
PXVSUSKAGV
root@arm:~# MARKER='OMUC''LGMVAZ' run 'grep -r -l rohm,bd71847 /proc/device-tree  | sed '"'"'s![^/]*$!!'"'"''
OMUCLGMVAZ/proc/device-tree/ocp/interconnect@48000000/segment@0/target-module@2a000/i2c@0/pmic@4b/
OMUCLGMVAZ 0
root@arm:~# echo 'UBMS''MFTFNA'
UBMSMFTFNA
root@arm:~# MARKER='KTKA''AQSVTX' run 'test -f /proc/device-tree/ocp/interconnectt\@48000000/segment\@0/target-module\@2a000/i2c\@0/pmic\@4b/regulators/LDO1/rohm ,no-regulator-enable-control ;echo $?'
KTKAAQSVTX1
KTKAAQSVTX 0
root@arm:~# echo 'XBVJ''CCQCXK'
XBVJCCQCXK
root@arm:~# MARKER='TBMU''LTEGVK' run 'echo 1 > /sys/kernel/mva_test/regulators/bbuck7_en'
TBMULTEGVKTBMULTEGVK 0
root@arm:~# echo 'CQON''WWSSWP'
CQONWWSSWP
root@arm:~# MARKER='CTZG''NWYUZG' run 'i2cget -y -f 1 0x4b 0x18'
CTZGNWYUZG0xe2
CTZGNWYUZG 0
root@arm:~# echo 'GEBX''OGVZNQ'
GEBXOGVZNQ
root@arm:~# MARKER='UHJF''PVLKNX' run 'grep -r -l rohm,bd71847 /proc/device-tree  | sed '"'"'s![^/]*$!!'"'"''
UHJFPVLKNX/proc/device-tree/ocp/interconnect@48000000/segment@0/target-module@2a000/i2c@0/pmic@4b/
UHJFPVLKNX 0
root@arm:~# echo 'ZMZT''VTUFBY'
ZMZTVTUFBY
root@arm:~# MARKER='CEEE''HETYAT' run 'test -f /proc/device-tree/ocp/interconnectt\@48000000/segment\@0/target-module\@2a000/i2c\@0/pmic\@4b/regulators/LDO1/rohm,,no-regulator-enable-control ;echo $?'
CEEEHETYAT1
CEEEHETYAT 0
root@arm:~# echo 'HXYZ''QFTBBS'
HXYZQFTBBS
root@arm:~# MARKER='MCHH''AKWJLE' run 'grep -r -l rohm,bd71847 /proc/device-tree  | sed '"'"'s![^/]*$!!'"'"''
MCHHAKWJLE/proc/device-tree/ocp/interconnect@48000000/segment@0/target-module@2a000/i2c@0/pmic@4b/
MCHHAKWJLE 0
root@arm:~# echo 'ZJFL''JVKAUX'
ZJFLJVKAUX
root@arm:~# MARKER='NFMF''EBHZGH' run 'test -f /proc/device-tree/ocp/interconnectt\@48000000/segment\@0/target-module\@2a000/i2c\@0/pmic\@4b/regulators/LDO1/regullator-always-on ;echo $?'
NFMFEBHZGH1
NFMFEBHZGH 0
root@arm:~# echo 'HMOC''FNSNHH'
HMOCFNSNHH
root@arm:~# MARKER='LHBE''PAUXKP' run 'echo 0 > /sys/kernel/mva_test/regulators/bbuck7_en'
LHBEPAUXKPLHBEPAUXKP 0
root@arm:~# echo 'XWVJ''JXXVPP'
XWVJJXXVPP
root@arm:~# MARKER='CUOH''HJJKAH' run 'i2cget -y -f 1 0x4b 0x18'
CUOHHJJKAH0xa2
CUOHHJJKAH 0
root@arm:~# echo 'CLPY''UZAVLL'
CLPYUZAVLL
root@arm:~# MARKER='XKNC''ZXHLWN' run 'grep -r -l rohm,bd71847 /proc/device-tree  | sed '"'"'s![^/]*$!!'"'"''
XKNCZXHLWN/proc/device-tree/ocp/interconnect@48000000/segment@0/target-module@2a000/i2c@0/pmic@4b/
XKNCZXHLWN 0
root@arm:~# echo 'EPVC''KHTECP'
EPVCKHTECP
root@arm:~# MARKER='JUXL''VSULWF' run 'test -f /proc/device-tree/ocp/interconnectt\@48000000/segment\@0/target-module\@2a000/i2c\@0/pmic\@4b/regulators/LDO2/rohm,,no-regulator-enable-control ;echo $?'
JUXLVSULWF1
JUXLVSULWF 0
root@arm:~# echo 'KHLC''FSZWEC'
KHLCFSZWEC
root@arm:~# MARKER='ZTOX''BKOOMY' run 'echo 1 > /sys/kernel/mva_test/regulators/bbuck8_en'
ZTOXBKOOMYZTOXBKOOMY 0
root@arm:~# echo 'XGHU''JLCSQL'
XGHUJLCSQL
root@arm:~# MARKER='HEYV''ZYKSBM' run 'i2cget -y -f 1 0x4b 0x19'
HEYVZYKSBM0xe0
HEYVZYKSBM 0
root@arm:~# echo 'CSHM''AAHGMV'
CSHMAAHGMV
root@arm:~# MARKER='XEQW''PMOHXY' run 'grep -r -l rohm,bd71847 /proc/device-tree  | sed '"'"'s![^/]*$!!'"'"''
XEQWPMOHXY/proc/device-tree/ocp/interconnect@48000000/segment@0/target-module@2a000/i2c@0/pmic@4b/
XEQWPMOHXY 0
root@arm:~# echo 'BPSW''CNSYEQ'
BPSWCNSYEQ
root@arm:~# MARKER='PBAN''VGBAJX' run 'test -f /proc/device-tree/ocp/interconnectt\@48000000/segment\@0/target-module\@2a000/i2c\@0/pmic\@4b/regulators/LDO2/rohm,,no-regulator-enable-control ;echo $?'
PBANVGBAJX1
PBANVGBAJX 0
root@arm:~# echo 'CKWS''XCUHPQ'
CKWSXCUHPQ
root@arm:~# MARKER='JJOS''CEXKBT' run 'grep -r -l rohm,bd71847 /proc/device-tree  | sed '"'"'s![^/]*$!!'"'"''
JJOSCEXKBT/proc/device-tree/ocp/interconnect@48000000/segment@0/target-module@2a000/i2c@0/pmic@4b/
JJOSCEXKBT 0
root@arm:~# echo 'XWCP''MVGLOM'
XWCPMVGLOM
root@arm:~# MARKER='THVU''AZBWUU' run 'test -f /proc/device-tree/ocp/interconnectt\@48000000/segment\@0/target-module\@2a000/i2c\@0/pmic\@4b/regulators/LDO2/regullator-always-on ;echo $?'
THVUAZBWUU1
THVUAZBWUU 0
root@arm:~# echo 'PEJE''ZENCGQ'
PEJEZENCGQ
root@arm:~# MARKER='ULFZ''BVBXTK' run 'echo 0 > /sys/kernel/mva_test/regulators/bbuck8_en'
ULFZBVBXTKULFZBVBXTK 0
root@arm:~# echo 'AGYM''HASKAF'
AGYMHASKAF
root@arm:~# MARKER='PJZK''WTJLCL' run 'i2cget -y -f 1 0x4b 0x19'
PJZKWTJLCL0xa0
PJZKWTJLCL 0
root@arm:~# echo 'ENLK''JTNFWV'
ENLKJTNFWV
root@arm:~# MARKER='GNES''WKFQNH' run 'grep -r -l rohm,bd71847 /proc/device-tree  | sed '"'"'s![^/]*$!!'"'"''
GNESWKFQNH/proc/device-tree/ocp/interconnect@48000000/segment@0/target-module@2a000/i2c@0/pmic@4b/
GNESWKFQNH 0
root@arm:~# echo 'QSUS''VQSYWV'
QSUSVQSYWV
root@arm:~# MARKER='BUOK''YOYSLE' run 'test -f /proc/device-tree/ocp/interconnectt\@48000000/segment\@0/target-module\@2a000/i2c\@0/pmic\@4b/regulators/LDO3/rohm,,no-regulator-enable-control ;echo $?'
BUOKYOYSLE1
BUOKYOYSLE 0
root@arm:~# echo 'FBXA''FPUEBT'
FBXAFPUEBT
root@arm:~# MARKER='VEKC''OYHXJC' run 'echo 1 > /sys/kernel/mva_test/regulators/bbuck9_en'
VEKCOYHXJCVEKCOYHXJC 0
root@arm:~# echo 'NHVY''QGXYMM'
NHVYQGXYMM
root@arm:~# MARKER='NWXS''PEEFXO' run 'i2cget -y -f 1 0x4b 0x1a'
NWXSPEEFXO0xc0
NWXSPEEFXO 0
root@arm:~# echo 'SQAA''FLLSNT'
SQAAFLLSNT
root@arm:~# MARKER='AHYU''GPMFQS' run 'grep -r -l rohm,bd71847 /proc/device-tree  | sed '"'"'s![^/]*$!!'"'"''
AHYUGPMFQS/proc/device-tree/ocp/interconnect@48000000/segment@0/target-module@2a000/i2c@0/pmic@4b/
AHYUGPMFQS 0
root@arm:~# echo 'GBBU''NPNAJC'
GBBUNPNAJC
root@arm:~# MARKER='THMP''FSMCBT' run 'test -f /proc/device-tree/ocp/interconnectt\@48000000/segment\@0/target-module\@2a000/i2c\@0/pmic\@4b/regulators/LDO3/rohm,,no-regulator-enable-control ;echo $?'
THMPFSMCBT1
THMPFSMCBT 0
root@arm:~# echo 'BAZX''AKSTAZ'
BAZXAKSTAZ
root@arm:~# MARKER='WXWC''HLWMEV' run 'grep -r -l rohm,bd71847 /proc/device-tree  | sed '"'"'s![^/]*$!!'"'"''
WXWCHLWMEV/proc/device-tree/ocp/interconnect@48000000/segment@0/target-module@2a000/i2c@0/pmic@4b/
WXWCHLWMEV 0
root@arm:~# echo 'XNBH''YKLWUK'
XNBHYKLWUK
root@arm:~# MARKER='MFTZ''SNLOGN' run 'test -f /proc/device-tree/ocp/interconnectt\@48000000/segment\@0/target-module\@2a000/i2c\@0/pmic\@4b/regulators/LDO3/regullator-always-on ;echo $?'
MFTZSNLOGN1
MFTZSNLOGN 0
root@arm:~# echo 'BJVM''EYPNQS'
BJVMEYPNQS
root@arm:~# MARKER='GLJF''FTYTCY' run 'echo 0 > /sys/kernel/mva_test/regulators/bbuck9_en'
GLJFFTYTCYGLJFFTYTCY 0
root@arm:~# echo 'WBAY''GWKXYB'
WBAYGWKXYB
root@arm:~# MARKER='BJNJ''HHTQWQ' run 'i2cget -y -f 1 0x4b 0x1a'
BJNJHHTQWQ0x80
BJNJHHTQWQ 0
root@arm:~# echo 'XMOY''GOKHCT'
XMOYGOKHCT
root@arm:~# MARKER='ELJY''LAMKNA' run 'grep -r -l rohm,bd71847 /proc/device-tree  | sed '"'"'s![^/]*$!!'"'"''
ELJYLAMKNA/proc/device-tree/ocp/interconnect@48000000/segment@0/target-module@2a000/i2c@0/pmic@4b/
ELJYLAMKNA 0
root@arm:~# echo 'AKVO''EJJLXP'
AKVOEJJLXP
root@arm:~# MARKER='VMOU''YXMOLG' run 'test -f /proc/device-tree/ocp/interconnectt\@48000000/segment\@0/target-module\@2a000/i2c\@0/pmic\@4b/regulators/LDO4/rohm,,no-regulator-enable-control ;echo $?'
VMOUYXMOLG1
VMOUYXMOLG 0
root@arm:~# echo 'UHSQ''EZHCGO'
UHSQEZHCGO
root@arm:~# MARKER='WJQM''ZOTFUW' run 'echo 1 > /sys/kernel/mva_test/regulators/bbuck10_en'
WJQMZOTFUWWJQMZOTFUW 0
root@arm:~# echo 'UZOT''PJFGXP'
UZOTPJFGXP
root@arm:~# MARKER='GNSK''HGUMYA' run 'i2cget -y -f 1 0x4b 0x1b'
GNSKHGUMYA0xc0
GNSKHGUMYA 0
root@arm:~# echo 'OHKF''QJJUCU'
OHKFQJJUCU
root@arm:~# MARKER='AFUQ''WFZSCC' run 'grep -r -l rohm,bd71847 /proc/device-tree  | sed '"'"'s![^/]*$!!'"'"''
AFUQWFZSCC/proc/device-tree/ocp/interconnect@48000000/segment@0/target-module@2a000/i2c@0/pmic@4b/
AFUQWFZSCC 0
root@arm:~# echo 'BZHW''GHVHHL'
BZHWGHVHHL
root@arm:~# MARKER='SJEZ''HXPTLT' run 'test -f /proc/device-tree/ocp/interconnectt\@48000000/segment\@0/target-module\@2a000/i2c\@0/pmic\@4b/regulators/LDO4/rohm,,no-regulator-enable-control ;echo $?'
SJEZHXPTLT1
SJEZHXPTLT 0
root@arm:~# echo 'XUWN''LSLNGY'
XUWNLSLNGY
root@arm:~# MARKER='KVZJ''MFWEKF' run 'grep -r -l rohm,bd71847 /proc/device-tree  | sed '"'"'s![^/]*$!!'"'"''
KVZJMFWEKF/proc/device-tree/ocp/interconnect@48000000/segment@0/target-module@2a000/i2c@0/pmic@4b/
KVZJMFWEKF 0
root@arm:~# echo 'AWLJ''GTMFMO'
AWLJGTMFMO
root@arm:~# MARKER='AGKM''ZFUSYP' run 'test -f /proc/device-tree/ocp/interconnectt\@48000000/segment\@0/target-module\@2a000/i2c\@0/pmic\@4b/regulators/LDO4/regullator-always-on ;echo $?'
AGKMZFUSYP1
AGKMZFUSYP 0
root@arm:~# echo 'CNNY''OWPLPK'
CNNYOWPLPK
root@arm:~# MARKER='VOOX''SSUAJW' run 'echo 0 > /sys/kernel/mva_test/regulators/bbuck10_en'
VOOXSSUAJWVOOXSSUAJW 0
root@arm:~# echo 'YTZX''PMZSEK'
YTZXPMZSEK
root@arm:~# MARKER='GOKY''FVWTWM' run 'i2cget -y -f 1 0x4b 0x1b'
GOKYFVWTWM0x80
GOKYFVWTWM 0
root@arm:~# echo 'AULY''EKXWUY'
AULYEKXWUY
root@arm:~# MARKER='XQJW''JVBFFM' run 'grep -r -l rohm,bd71847 /proc/device-tree  | sed '"'"'s![^/]*$!!'"'"''
XQJWJVBFFM/proc/device-tree/ocp/interconnect@48000000/segment@0/target-module@2a000/i2c@0/pmic@4b/
XQJWJVBFFM 0
root@arm:~# echo 'TYXA''GXFZBO'
TYXAGXFZBO
root@arm:~# MARKER='GHUL''JVCCGZ' run 'test -f /proc/device-tree/ocp/interconnectt\@48000000/segment\@0/target-module\@2a000/i2c\@0/pmic\@4b/regulators/LDO5/rohm,,no-regulator-enable-control ;echo $?'
GHULJVCCGZ0
GHULJVCCGZ 0
root@arm:~# echo 'YYVB''XXPMGW'
YYVBXXPMGW
root@arm:~# MARKER='MXUC''TTCJVM' run 'grep -r -l rohm,bd71847 /proc/device-tree  | sed '"'"'s![^/]*$!!'"'"''
MXUCTTCJVM/proc/device-tree/ocp/interconnect@48000000/segment@0/target-module@2a000/i2c@0/pmic@4b/
MXUCTTCJVM 0
root@arm:~# echo 'JHUK''ZPPFOC'
JHUKZPPFOC
root@arm:~# MARKER='HZVN''CCJOXG' run 'test -f /proc/device-tree/ocp/interconnectt\@48000000/segment\@0/target-module\@2a000/i2c\@0/pmic\@4b/regulators/LDO5/rohm,,no-regulator-enable-control ;echo $?'
HZVNCCJOXG0
HZVNCCJOXG 0
root@arm:~# echo 'GEMJ''BEGQOV'
GEMJBEGQOV
root@arm:~# MARKER='ZQCJ''NSELTL' run 'grep -r -l rohm,bd71847 /proc/device-tree  | sed '"'"'s![^/]*$!!'"'"''
ZQCJNSELTL/proc/device-tree/ocp/interconnect@48000000/segment@0/target-module@2a000/i2c@0/pmic@4b/
ZQCJNSELTL 0
root@arm:~# echo 'MQAA''LXLTTN'
MQAALXLTTN
root@arm:~# MARKER='ZHOK''WZEYAH' run 'test -f /proc/device-tree/ocp/interconnectt\@48000000/segment\@0/target-module\@2a000/i2c\@0/pmic\@4b/regulators/LDO6/rohm,,no-regulator-enable-control ;echo $?'
ZHOKWZEYAH1
ZHOKWZEYAH 0
root@arm:~# echo 'UVEG''OHOJKM'
UVEGOHOJKM
root@arm:~# MARKER='KQBW''VTMZWL' run 'echo 1 > /sys/kernel/mva_test/regulators/bbuck12_en'
KQBWVTMZWLKQBWVTMZWL 0
root@arm:~# echo 'GUHG''WZAGBZ'
GUHGWZAGBZ
root@arm:~# MARKER='OMAF''JEOQZO' run 'i2cget -y -f 1 0x4b 0x1d'
OMAFJEOQZO0xc3
OMAFJEOQZO 0
root@arm:~# echo 'YYSW''ZTLMJV'
YYSWZTLMJV
root@arm:~# MARKER='NONL''BABNUV' run 'grep -r -l rohm,bd71847 /proc/device-tree  | sed '"'"'s![^/]*$!!'"'"''
NONLBABNUV/proc/device-tree/ocp/interconnect@48000000/segment@0/target-module@2a000/i2c@0/pmic@4b/
NONLBABNUV 0
root@arm:~# echo 'CGUW''LPUNUN'
CGUWLPUNUN
root@arm:~# MARKER='GXEW''PJPMQA' run 'test -f /proc/device-tree/ocp/interconnectt\@48000000/segment\@0/target-module\@2a000/i2c\@0/pmic\@4b/regulators/LDO6/rohm,,no-regulator-enable-control ;echo $?'
GXEWPJPMQA1
GXEWPJPMQA 0
root@arm:~# echo 'VCVM''CVYVFV'
VCVMCVYVFV
root@arm:~# MARKER='LGCA''NSMYHE' run 'grep -r -l rohm,bd71847 /proc/device-tree  | sed '"'"'s![^/]*$!!'"'"''
LGCANSMYHE/proc/device-tree/ocp/interconnect@48000000/segment@0/target-module@2a000/i2c@0/pmic@4b/
LGCANSMYHE 0
root@arm:~# echo 'CLWL''SFCMEW'
CLWLSFCMEW
root@arm:~# MARKER='WBNH''LUGNPN' run 'test -f /proc/device-tree/ocp/interconnectt\@48000000/segment\@0/target-module\@2a000/i2c\@0/pmic\@4b/regulators/LDO6/regullator-always-on ;echo $?'
WBNHLUGNPN1
WBNHLUGNPN 0
root@arm:~# echo 'XKWV''LAMTHJ'
XKWVLAMTHJ
root@arm:~# MARKER='YPNZ''AKKXVZ' run 'echo 0 > /sys/kernel/mva_test/regulators/bbuck12_en'
YPNZAKKXVZYPNZAKKXVZ 0
root@arm:~# echo 'CUZF''WBKZYF'
CUZFWBKZYF
root@arm:~# MARKER='ZFMO''MCHGXU' run 'i2cget -y -f 1 0x4b 0x1d'
ZFMOMCHGXU0x83
ZFMOMCHGXU 0
root@arm:~# Labgrid Console Logfile for main
Logfile started at 2025-08-07 09:47:03.195208
=== Log starts here ===

root@arm:~# run() { echo -n "$MARKER"; sh -c "$@"; echo "$MARKER $?"; }
root@arm:~# echo 'LMYY''OSFOFE'
LMYYOSFOFE
root@arm:~# MARKER='FJVG''HZJHYJ' run 'grep -r -l rohm,bd71847 /proc/device-tree  | sed '"'"'s![^/]*$!!'"'"''
FJVGHZJHYJ/proc/device-tree/ocp/interconnect@48000000/segment@0/target-module@2a000/i2c@0/pmic@4b/
FJVGHZJHYJ 0
root@arm:~# echo 'TQVB''YSJUOJ'
TQVBYSJUOJ
root@arm:~# MARKER='CEYC''OVUQFC' run 'test -f /proc/device-tree/ocp/interconnectt\@48000000/segment\@0/target-module\@2a000/i2c\@0/pmic\@4b/regulators/BUCK1/rohmm,no-regulator-enable-control ;echo $?'
CEYCOVUQFC1
CEYCOVUQFC 0
root@arm:~# echo 'ZWQA''OKUUMY'
ZWQAOKUUMY
root@arm:~# MARKER='AUFZ''ESTPSS' run 'i2cget -y -f 1 0x4b 0x5'
AUFZESTPSS0x02
AUFZESTPSS 0
root@arm:~# echo 'TKAP''SYUYKE'
TKAPSYUYKE
root@arm:~# MARKER='BUHH''VAZPVB' run 'echo 700000 700000 > /sys/kernel/mva_test//regulators/buck1_set'
BUHHVAZPVBBUHHVAZPVB 0
root@arm:~# echo 'EBUK''LQSKHS'
EBUKLQSKHS
root@arm:~# MARKER='TJTP''BQPGTM' run 'i2cget -y -f 1 0x4b 0xd'
TJTPBQPGTM0x00
TJTPBQPGTM 0
root@arm:~# echo 'EMSU''LJGTYF'
EMSULJGTYF
root@arm:~# MARKER='PBPY''HXPPYE' run 'echo 710000 710000 > /sys/kernel/mva_test//regulators/buck1_set'
PBPYHXPPYEPBPYHXPPYE 0
root@arm:~# echo 'CSLT''NHWLLN'
CSLTNHWLLN
root@arm:~# MARKER='GOKL''GVPMLA' run 'i2cget -y -f 1 0x4b 0xd'
GOKLGVPMLA0x01
GOKLGVPMLA 0
root@arm:~# echo 'SJPV''BCBTCC'
SJPVBCBTCC
root@arm:~# MARKER='WPFM''LVAHLN' run 'echo 720000 720000 > /sys/kernel/mva_test//regulators/buck1_set'
WPFMLVAHLNWPFMLVAHLN 0
root@arm:~# echo 'OXSX''MTHACZ'
OXSXMTHACZ
root@arm:~# MARKER='NNNG''CONEEE' run 'i2cget -y -f 1 0x4b 0xd'
NNNGCONEEE0x02
NNNGCONEEE 0
root@arm:~# echo 'LNZO''QSLGSH'
LNZOQSLGSH
root@arm:~# MARKER='LVKK''LMKTHZ' run 'echo 730000 730000 > /sys/kernel/mva_test//regulators/buck1_set'
LVKKLMKTHZLVKKLMKTHZ 0
root@arm:~# echo 'ACHN''QHLEWO'
ACHNQHLEWO
root@arm:~# MARKER='CUHN''QNYSPE' run 'i2cget -y -f 1 0x4b 0xd'
CUHNQNYSPE0x03
CUHNQNYSPE 0
root@arm:~# echo 'LESG''EXCLJW'
LESGEXCLJW
root@arm:~# MARKER='YKJX''JLHSES' run 'echo 740000 740000 > /sys/kernel/mva_test//regulators/buck1_set'
YKJXJLHSESYKJXJLHSES 0
root@arm:~# echo 'WNMK''VYMQJU'
WNMKVYMQJU
root@arm:~# MARKER='MQOS''WAJSTV' run 'i2cget -y -f 1 0x4b 0xd'
MQOSWAJSTV0x04
MQOSWAJSTV 0
root@arm:~# echo 'NWXY''AOBFJU'
NWXYAOBFJU
root@arm:~# MARKER='AQOK''CVSPAC' run 'echo 750000 750000 > /sys/kernel/mva_test//regulators/buck1_set'
AQOKCVSPACAQOKCVSPAC 0
root@arm:~# echo 'CJVH''PJGMAY'
CJVHPJGMAY
root@arm:~# MARKER='YASZ''YVLKWV' run 'i2cget -y -f 1 0x4b 0xd'
YASZYVLKWV0x05
YASZYVLKWV 0
root@arm:~# echo 'EEYC''UBLZZU'
EEYCUBLZZU
root@arm:~# MARKER='ALGO''ZVBSCM' run 'echo 760000 760000 > /sys/kernel/mva_test//regulators/buck1_set'
ALGOZVBSCMALGOZVBSCM 0
root@arm:~# echo 'GXOO''QGZMNF'
GXOOQGZMNF
root@arm:~# MARKER='QWWW''NNNNXS' run 'i2cget -y -f 1 0x4b 0xd'
QWWWNNNNXS0x06
QWWWNNNNXS 0
root@arm:~# echo 'XQMB''UMGGAW'
XQMBUMGGAW
root@arm:~# MARKER='LQVZ''OXSPLO' run 'echo 770000 770000 > /sys/kernel/mva_test//regulators/buck1_set'
LQVZOXSPLOLQVZOXSPLO 0
root@arm:~# echo 'VKTA''OVNXKK'
VKTAOVNXKK
root@arm:~# MARKER='UFKE''NKMNSP' run 'i2cget -y -f 1 0x4b 0xd'
UFKENKMNSP0x07
UFKENKMNSP 0
root@arm:~# echo 'WUNP''UYVNAC'
WUNPUYVNAC
root@arm:~# MARKER='VXCO''JUPQJX' run 'echo 780000 780000 > /sys/kernel/mva_test//regulators/buck1_set'
VXCOJUPQJXVXCOJUPQJX 0
root@arm:~# echo 'LLGX''OTHQJM'
LLGXOTHQJM
root@arm:~# MARKER='TMGM''CYPESB' run 'i2cget -y -f 1 0x4b 0xd'
TMGMCYPESB0x08
TMGMCYPESB 0
root@arm:~# echo 'MOPQ''HCXYXG'
MOPQHCXYXG
root@arm:~# MARKER='UUWT''HMJQJL' run 'echo 790000 790000 > /sys/kernel/mva_test//regulators/buck1_set'
UUWTHMJQJLUUWTHMJQJL 0
root@arm:~# echo 'CEQM''BZLCCF'
CEQMBZLCCF
root@arm:~# MARKER='ECVB''GABZUT' run 'i2cget -y -f 1 0x4b 0xd'
ECVBGABZUT0x09
ECVBGABZUT 0
root@arm:~# echo 'ANVY''KWAFCG'
ANVYKWAFCG
root@arm:~# MARKER='FVVP''NKLMAX' run 'echo 800000 800000 > /sys/kernel/mva_test//regulators/buck1_set'
FVVPNKLMAXFVVPNKLMAX 0
root@arm:~# echo 'JQJP''PBGVZH'
JQJPPBGVZH
root@arm:~# MARKER='AEUH''VVGMKB' run 'i2cget -y -f 1 0x4b 0xd'
AEUHVVGMKB0x0a
AEUHVVGMKB 0
root@arm:~# echo 'GSYX''EOYAQX'
GSYXEOYAQX
root@arm:~# MARKER='FWXQ''POKPEH' run 'echo 810000 810000 > /sys/kernel/mva_test//regulators/buck1_set'
FWXQPOKPEHFWXQPOKPEH 0
root@arm:~# echo 'ZPAB''OPNPXT'
ZPABOPNPXT
root@arm:~# MARKER='HVZP''EAXJCX' run 'i2cget -y -f 1 0x4b 0xd'
HVZPEAXJCX0x0b
HVZPEAXJCX 0
root@arm:~# echo 'GFMN''XUAHCE'
GFMNXUAHCE
root@arm:~# MARKER='YAVC''AZVWHL' run 'echo 820000 820000 > /sys/kernel/mva_test//regulators/buck1_set'
YAVCAZVWHLYAVCAZVWHL 0
root@arm:~# echo 'CKEG''JACETJ'
CKEGJACETJ
root@arm:~# MARKER='YWYX''JFJBPZ' run 'i2cget -y -f 1 0x4b 0xd'
YWYXJFJBPZ0x0c
YWYXJFJBPZ 0
root@arm:~# echo 'LTKA''LVSXOY'
LTKALVSXOY
root@arm:~# MARKER='BACV''MXEEKF' run 'echo 830000 830000 > /sys/kernel/mva_test//regulators/buck1_set'
BACVMXEEKFBACVMXEEKF 0
root@arm:~# echo 'KXYE''TPMUCL'
KXYETPMUCL
root@arm:~# MARKER='HHTG''XOFOAQ' run 'i2cget -y -f 1 0x4b 0xd'
HHTGXOFOAQ0x0d
HHTGXOFOAQ 0
root@arm:~# echo 'LFXB''BQKHNQ'
LFXBBQKHNQ
root@arm:~# MARKER='PXLF''TXONQU' run 'echo 840000 840000 > /sys/kernel/mva_test//regulators/buck1_set'
PXLFTXONQUPXLFTXONQU 0
root@arm:~# echo 'PHNO''ATWKAQ'
PHNOATWKAQ
root@arm:~# MARKER='KGWG''BKZYHX' run 'i2cget -y -f 1 0x4b 0xd'
KGWGBKZYHX0x0e
KGWGBKZYHX 0
root@arm:~# echo 'AEKJ''BMVEYL'
AEKJBMVEYL
root@arm:~# MARKER='MMLO''QKPFLV' run 'echo 850000 850000 > /sys/kernel/mva_test//regulators/buck1_set'
MMLOQKPFLVMMLOQKPFLV 0
root@arm:~# echo 'WHHY''LLHGAH'
WHHYLLHGAH
root@arm:~# MARKER='FHJW''UYXNSA' run 'i2cget -y -f 1 0x4b 0xd'
FHJWUYXNSA0x0f
FHJWUYXNSA 0
root@arm:~# echo 'HLSB''NXOXQN'
HLSBNXOXQN
root@arm:~# MARKER='WUVZ''OFZBFV' run 'echo 860000 860000 > /sys/kernel/mva_test//regulators/buck1_set'
WUVZOFZBFVWUVZOFZBFV 0
root@arm:~# echo 'QJNO''QJYNMU'
QJNOQJYNMU
root@arm:~# MARKER='FEKT''UMAEEA' run 'i2cget -y -f 1 0x4b 0xd'
FEKTUMAEEA0x10
FEKTUMAEEA 0
root@arm:~# echo 'KFSJ''BYPSPH'
KFSJBYPSPH
root@arm:~# MARKER='ZSYN''ZQGHJE' run 'echo 870000 870000 > /sys/kernel/mva_test//regulators/buck1_set'
ZSYNZQGHJEZSYNZQGHJE 0
root@arm:~# echo 'ZLGP''KZLTVM'
ZLGPKZLTVM
root@arm:~# MARKER='EYFB''LAUACC' run 'i2cget -y -f 1 0x4b 0xd'
EYFBLAUACC0x11
EYFBLAUACC 0
root@arm:~# echo 'KZTP''XXJPGC'
KZTPXXJPGC
root@arm:~# MARKER='BPHX''NEZPKC' run 'echo 880000 880000 > /sys/kernel/mva_test//regulators/buck1_set'
BPHXNEZPKCBPHXNEZPKC 0
root@arm:~# echo 'PMPJ''EWYVTE'
PMPJEWYVTE
root@arm:~# MARKER='SOKV''XWGCNJ' run 'i2cget -y -f 1 0x4b 0xd'
SOKVXWGCNJ0x12
SOKVXWGCNJ 0
root@arm:~# echo 'QNAY''GKWJHC'
QNAYGKWJHC
root@arm:~# MARKER='JASX''ZMBSXS' run 'echo 890000 890000 > /sys/kernel/mva_test//regulators/buck1_set'
JASXZMBSXSJASXZMBSXS 0
root@arm:~# echo 'WVET''NHHPBY'
WVETNHHPBY
root@arm:~# MARKER='EJVG''WKVYLT' run 'i2cget -y -f 1 0x4b 0xd'
EJVGWKVYLT0x13
EJVGWKVYLT 0
root@arm:~# echo 'SECF''XJYBWE'
SECFXJYBWE
root@arm:~# MARKER='UTHS''NAZLTQ' run 'echo 900000 900000 > /sys/kernel/mva_test//regulators/buck1_set'
UTHSNAZLTQUTHSNAZLTQ 0
root@arm:~# echo 'MQHL''PHZXYM'
MQHLPHZXYM
root@arm:~# MARKER='OEKY''VKKFZN' run 'i2cget -y -f 1 0x4b 0xd'
OEKYVKKFZN0x14
OEKYVKKFZN 0
root@arm:~# echo 'FYNE''CHCHJM'
FYNECHCHJM
root@arm:~# MARKER='FMTS''KFVUJA' run 'echo 910000 910000 > /sys/kernel/mva_test//regulators/buck1_set'
FMTSKFVUJAFMTSKFVUJA 0
root@arm:~# echo 'JXSP''OSLWKL'
JXSPOSLWKL
root@arm:~# MARKER='GCJC''NTZWMA' run 'i2cget -y -f 1 0x4b 0xd'
GCJCNTZWMA0x15
GCJCNTZWMA 0
root@arm:~# echo 'VEEU''VQJPSN'
VEEUVQJPSN
root@arm:~# MARKER='EVJA''GVLMHB' run 'echo 920000 920000 > /sys/kernel/mva_test//regulators/buck1_set'
EVJAGVLMHBEVJAGVLMHB 0
root@arm:~# echo 'AKVC''GOKMOS'
AKVCGOKMOS
root@arm:~# MARKER='OAYT''MEQLPY' run 'i2cget -y -f 1 0x4b 0xd'
OAYTMEQLPY0x16
OAYTMEQLPY 0
root@arm:~# echo 'QUJF''MAMOXF'
QUJFMAMOXF
root@arm:~# MARKER='MZGW''SMKMCJ' run 'echo 930000 930000 > /sys/kernel/mva_test//regulators/buck1_set'
MZGWSMKMCJMZGWSMKMCJ 0
root@arm:~# echo 'HPJQ''PGWNYU'
HPJQPGWNYU
root@arm:~# MARKER='PMKT''XOSWSM' run 'i2cget -y -f 1 0x4b 0xd'
PMKTXOSWSM0x17
PMKTXOSWSM 0
root@arm:~# echo 'OYOO''YUAAJP'
OYOOYUAAJP
root@arm:~# MARKER='HTTN''OJKXNK' run 'echo 940000 940000 > /sys/kernel/mva_test//regulators/buck1_set'
HTTNOJKXNKHTTNOJKXNK 0
root@arm:~# echo 'TEZJ''JHZPZJ'
TEZJJHZPZJ
root@arm:~# MARKER='YNHF''PCQHQC' run 'i2cget -y -f 1 0x4b 0xd'
YNHFPCQHQC0x18
YNHFPCQHQC 0
root@arm:~# echo 'KJGB''NFXCMQ'
KJGBNFXCMQ
root@arm:~# MARKER='OGAG''CTBPAM' run 'echo 950000 950000 > /sys/kernel/mva_test//regulators/buck1_set'
OGAGCTBPAMOGAGCTBPAM 0
root@arm:~# echo 'TKLT''KUWJPF'
TKLTKUWJPF
root@arm:~# MARKER='NCSG''LQNSSE' run 'i2cget -y -f 1 0x4b 0xd'
NCSGLQNSSE0x19
NCSGLQNSSE 0
root@arm:~# echo 'ESTA''OUNSZH'
ESTAOUNSZH
root@arm:~# MARKER='FKUJ''AACPUU' run 'echo 960000 960000 > /sys/kernel/mva_test//regulators/buck1_set'
FKUJAACPUUFKUJAACPUU 0
root@arm:~# echo 'JSUK''YSVKMP'
JSUKYSVKMP
root@arm:~# MARKER='SCTL''PPJGWA' run 'i2cget -y -f 1 0x4b 0xd'
SCTLPPJGWA0x1a
SCTLPPJGWA 0
root@arm:~# echo 'EHVP''MPOUBS'
EHVPMPOUBS
root@arm:~# MARKER='OUKA''GKXXWJ' run 'echo 970000 970000 > /sys/kernel/mva_test//regulators/buck1_set'
OUKAGKXXWJOUKAGKXXWJ 0
root@arm:~# echo 'VCHX''BQCPFX'
VCHXBQCPFX
root@arm:~# MARKER='CWKT''MKUKZZ' run 'i2cget -y -f 1 0x4b 0xd'
CWKTMKUKZZ0x1b
CWKTMKUKZZ 0
root@arm:~# echo 'PXML''TZECYU'
PXMLTZECYU
root@arm:~# MARKER='VLBK''PMSYTU' run 'echo 980000 980000 > /sys/kernel/mva_test//regulators/buck1_set'
VLBKPMSYTUVLBKPMSYTU 0
root@arm:~# echo 'EESU''OUVOEU'
EESUOUVOEU
root@arm:~# MARKER='XTTO''AUOPVU' run 'i2cget -y -f 1 0x4b 0xd'
XTTOAUOPVU0x1c
XTTOAUOPVU 0
root@arm:~# echo 'LOQE''GPFXOP'
LOQEGPFXOP
root@arm:~# MARKER='PGZQ''SXHOVP' run 'echo 990000 990000 > /sys/kernel/mva_test//regulators/buck1_set'
PGZQSXHOVPPGZQSXHOVP 0
root@arm:~# echo 'AQEN''AUQSWU'
AQENAUQSWU
root@arm:~# MARKER='OZUA''SYBOUT' run 'i2cget -y -f 1 0x4b 0xd'
OZUASYBOUT0x1d
OZUASYBOUT 0
root@arm:~# echo 'KLYA''XVOTLF'
KLYAXVOTLF
root@arm:~# MARKER='CTEU''KTLSOE' run 'echo 1000000 1000000 > /sys/kernel/mva_tesst/regulators/buck1_set'
CTEUKTLSOECTEUKTLSOE 0
root@arm:~# echo 'BUMZ''FGBUWA'
BUMZFGBUWA
root@arm:~# MARKER='YUUZ''HHQGAF' run 'i2cget -y -f 1 0x4b 0xd'
YUUZHHQGAF0x1e
YUUZHHQGAF 0
root@arm:~# echo 'WMCC''UMOSAM'
WMCCUMOSAM
root@arm:~# MARKER='UJFV''ULBQZL' run 'echo 1010000 1010000 > /sys/kernel/mva_tesst/regulators/buck1_set'
UJFVULBQZLUJFVULBQZL 0
root@arm:~# echo 'PWGK''OHXNGL'
PWGKOHXNGL
root@arm:~# MARKER='PGJL''UHSXMW' run 'i2cget -y -f 1 0x4b 0xd'
PGJLUHSXMW0x1f
PGJLUHSXMW 0
root@arm:~# echo 'QVAJ''OMAVMY'
QVAJOMAVMY
root@arm:~# MARKER='CKTJ''QKWUWY' run 'echo 1020000 1020000 > /sys/kernel/mva_tesst/regulators/buck1_set'
CKTJQKWUWYCKTJQKWUWY 0
root@arm:~# echo 'WCST''HCJCSY'
WCSTHCJCSY
root@arm:~# MARKER='LFYT''SHFBUE' run 'i2cget -y -f 1 0x4b 0xd'
LFYTSHFBUE0x20
LFYTSHFBUE 0
root@arm:~# echo 'XXQE''AYJVLP'
XXQEAYJVLP
root@arm:~# MARKER='AVMV''NXBLEF' run 'echo 1030000 1030000 > /sys/kernel/mva_tesst/regulators/buck1_set'
AVMVNXBLEFAVMVNXBLEF 0
root@arm:~# echo 'OHFX''YXMNAA'
OHFXYXMNAA
root@arm:~# MARKER='WMUK''WBQMAV' run 'i2cget -y -f 1 0x4b 0xd'
WMUKWBQMAV0x21
WMUKWBQMAV 0
root@arm:~# echo 'XJHH''GSFEXQ'
XJHHGSFEXQ
root@arm:~# MARKER='GLTQ''UUAGFU' run 'echo 1040000 1040000 > /sys/kernel/mva_tesst/regulators/buck1_set'
GLTQUUAGFUGLTQUUAGFU 0
root@arm:~# echo 'VXJW''YTWGBW'
VXJWYTWGBW
root@arm:~# MARKER='NMHX''BWTGFF' run 'i2cget -y -f 1 0x4b 0xd'
NMHXBWTGFF0x22
NMHXBWTGFF 0
root@arm:~# echo 'GVKL''MWETAV'
GVKLMWETAV
root@arm:~# MARKER='SFBU''BTSTTQ' run 'echo 1050000 1050000 > /sys/kernel/mva_tesst/regulators/buck1_set'
SFBUBTSTTQSFBUBTSTTQ 0
root@arm:~# echo 'KBUU''BKXAMC'
KBUUBKXAMC
root@arm:~# MARKER='PXTJ''WQPUEW' run 'i2cget -y -f 1 0x4b 0xd'
PXTJWQPUEW0x23
PXTJWQPUEW 0
root@arm:~# echo 'OHMO''PCVMZJ'
OHMOPCVMZJ
root@arm:~# MARKER='ZGZL''UCZHTE' run 'echo 1060000 1060000 > /sys/kernel/mva_tesst/regulators/buck1_set'
ZGZLUCZHTEZGZLUCZHTE 0
root@arm:~# echo 'AFUQ''OPYZFZ'
AFUQOPYZFZ
root@arm:~# MARKER='UMOM''EMKHSW' run 'i2cget -y -f 1 0x4b 0xd'
UMOMEMKHSW0x24
UMOMEMKHSW 0
root@arm:~# echo 'OVEO''YMZZZV'
OVEOYMZZZV
root@arm:~# MARKER='ZWEK''CLNCFS' run 'echo 1070000 1070000 > /sys/kernel/mva_tesst/regulators/buck1_set'
ZWEKCLNCFSZWEKCLNCFS 0
root@arm:~# echo 'FSHH''FHBJEY'
FSHHFHBJEY
root@arm:~# MARKER='WNAT''CVOYYJ' run 'i2cget -y -f 1 0x4b 0xd'
WNATCVOYYJ0x25
WNATCVOYYJ 0
root@arm:~# echo 'XNCC''XKAUTT'
XNCCXKAUTT
root@arm:~# MARKER='BOTN''XWJXNN' run 'echo 1080000 1080000 > /sys/kernel/mva_tesst/regulators/buck1_set'
BOTNXWJXNNBOTNXWJXNN 0
root@arm:~# echo 'MBKY''STPQZG'
MBKYSTPQZG
root@arm:~# MARKER='JCSE''PNWJAG' run 'i2cget -y -f 1 0x4b 0xd'
JCSEPNWJAG0x26
JCSEPNWJAG 0
root@arm:~# echo 'FQLT''ULHTCV'
FQLTULHTCV
root@arm:~# MARKER='XWVU''PGTHWM' run 'echo 1090000 1090000 > /sys/kernel/mva_tesst/regulators/buck1_set'
XWVUPGTHWMXWVUPGTHWM 0
root@arm:~# echo 'AGGT''WSEGSF'
AGGTWSEGSF
root@arm:~# MARKER='OUVE''FCZWNX' run 'i2cget -y -f 1 0x4b 0xd'
OUVEFCZWNX0x27
OUVEFCZWNX 0
root@arm:~# echo 'KVOG''PJAVKO'
KVOGPJAVKO
root@arm:~# MARKER='TOQT''HSYAEC' run 'echo 1100000 1100000 > /sys/kernel/mva_tesst/regulators/buck1_set'
TOQTHSYAECTOQTHSYAEC 0
root@arm:~# echo 'AOOX''QWWGUO'
AOOXQWWGUO
root@arm:~# MARKER='LNBC''WZMCZZ' run 'i2cget -y -f 1 0x4b 0xd'
LNBCWZMCZZ0x28
LNBCWZMCZZ 0
root@arm:~# echo 'ATWM''AJFPZE'
ATWMAJFPZE
root@arm:~# MARKER='ZWMP''MCQXMX' run 'echo 1110000 1110000 > /sys/kernel/mva_tesst/regulators/buck1_set'
ZWMPMCQXMXZWMPMCQXMX 0
root@arm:~# echo 'KTFM''EPPFYN'
KTFMEPPFYN
root@arm:~# MARKER='LNEK''MGYZOT' run 'i2cget -y -f 1 0x4b 0xd'
LNEKMGYZOT0x29
LNEKMGYZOT 0
root@arm:~# echo 'FXWH''BZFMCH'
FXWHBZFMCH
root@arm:~# MARKER='MZUH''AEASTJ' run 'echo 1120000 1120000 > /sys/kernel/mva_tesst/regulators/buck1_set'
MZUHAEASTJMZUHAEASTJ 0
root@arm:~# echo 'THUX''XKBTXX'
THUXXKBTXX
root@arm:~# MARKER='VVTB''MULMNJ' run 'i2cget -y -f 1 0x4b 0xd'
VVTBMULMNJ0x2a
VVTBMULMNJ 0
root@arm:~# echo 'YKBF''OYHQCK'
YKBFOYHQCK
root@arm:~# MARKER='LSUJ''XJJGJB' run 'echo 1130000 1130000 > /sys/kernel/mva_tesst/regulators/buck1_set'
LSUJXJJGJBLSUJXJJGJB 0
root@arm:~# echo 'PQCM''VFFZPP'
PQCMVFFZPP
root@arm:~# MARKER='BGKY''TGTUJL' run 'i2cget -y -f 1 0x4b 0xd'
BGKYTGTUJL0x2b
BGKYTGTUJL 0
root@arm:~# echo 'MHAV''FQPSPH'
MHAVFQPSPH
root@arm:~# MARKER='AXTF''LWUQMF' run 'echo 1140000 1140000 > /sys/kernel/mva_tesst/regulators/buck1_set'
AXTFLWUQMFAXTFLWUQMF 0
root@arm:~# echo 'PVGG''BFMPYP'
PVGGBFMPYP
root@arm:~# MARKER='TKGQ''YZMMJN' run 'i2cget -y -f 1 0x4b 0xd'
TKGQYZMMJN0x2c
TKGQYZMMJN 0
root@arm:~# echo 'ALCS''HBJKPC'
ALCSHBJKPC
root@arm:~# MARKER='FYMT''KCYBFS' run 'echo 1150000 1150000 > /sys/kernel/mva_tesst/regulators/buck1_set'
FYMTKCYBFSFYMTKCYBFS 0
root@arm:~# echo 'BCVL''CVABZX'
BCVLCVABZX
root@arm:~# MARKER='TJYU''OQKSSX' run 'i2cget -y -f 1 0x4b 0xd'
TJYUOQKSSX0x2d
TJYUOQKSSX 0
root@arm:~# echo 'CTUJ''AWFFVX'
CTUJAWFFVX
root@arm:~# MARKER='NSSJ''ETZOMX' run 'echo 1160000 1160000 > /sys/kernel/mva_tesst/regulators/buck1_set'
NSSJETZOMXNSSJETZOMX 0
root@arm:~# echo 'XLZM''GZSUCU'
XLZMGZSUCU
root@arm:~# MARKER='XBVZ''CJAQLC' run 'i2cget -y -f 1 0x4b 0xd'
XBVZCJAQLC0x2e
XBVZCJAQLC 0
root@arm:~# echo 'BZAW''HGYVXL'
BZAWHGYVXL
root@arm:~# MARKER='KOKU''QQZGQC' run 'echo 1170000 1170000 > /sys/kernel/mva_tesst/regulators/buck1_set'
KOKUQQZGQCKOKUQQZGQC 0
root@arm:~# echo 'FOGF''FNPGCB'
FOGFFNPGCB
root@arm:~# MARKER='XZHK''KHMJFV' run 'i2cget -y -f 1 0x4b 0xd'
XZHKKHMJFV0x2f
XZHKKHMJFV 0
root@arm:~# echo 'TTMF''FONJUE'
TTMFFONJUE
root@arm:~# MARKER='WEGS''NUHBYT' run 'echo 1180000 1180000 > /sys/kernel/mva_tesst/regulators/buck1_set'
WEGSNUHBYTWEGSNUHBYT 0
root@arm:~# echo 'COMJ''SMTETE'
COMJSMTETE
root@arm:~# MARKER='HVHY''KXQOSN' run 'i2cget -y -f 1 0x4b 0xd'
HVHYKXQOSN0x30
HVHYKXQOSN 0
root@arm:~# echo 'MFMC''HEBTYJ'
MFMCHEBTYJ
root@arm:~# MARKER='ZUGF''LAUCMC' run 'echo 1190000 1190000 > /sys/kernel/mva_tesst/regulators/buck1_set'
ZUGFLAUCMCZUGFLAUCMC 0
root@arm:~# echo 'NVKX''ELABEZ'
NVKXELABEZ
root@arm:~# MARKER='GOTH''GXUBTH' run 'i2cget -y -f 1 0x4b 0xd'
GOTHGXUBTH0x31
GOTHGXUBTH 0
root@arm:~# echo 'FZZC''XCASOT'
FZZCXCASOT
root@arm:~# MARKER='SFQU''GGPFGE' run 'echo 1200000 1200000 > /sys/kernel/mva_tesst/regulators/buck1_set'
SFQUGGPFGESFQUGGPFGE 0
root@arm:~# echo 'QPNL''UPTVSA'
QPNLUPTVSA
root@arm:~# MARKER='XVWY''YZGHGK' run 'i2cget -y -f 1 0x4b 0xd'
XVWYYZGHGK0x32
XVWYYZGHGK 0
root@arm:~# echo 'BHHV''YNKNQC'
BHHVYNKNQC
root@arm:~# MARKER='FCNG''LKZNJU' run 'echo 1210000 1210000 > /sys/kernel/mva_tesst/regulators/buck1_set'
FCNGLKZNJUFCNGLKZNJU 0
root@arm:~# echo 'PXVH''FATCPM'
PXVHFATCPM
root@arm:~# MARKER='PCSQ''FZMMXB' run 'i2cget -y -f 1 0x4b 0xd'
PCSQFZMMXB0x33
PCSQFZMMXB 0
root@arm:~# echo 'MWNC''LGBMBT'
MWNCLGBMBT
root@arm:~# MARKER='UMMN''THPGVP' run 'echo 1220000 1220000 > /sys/kernel/mva_tesst/regulators/buck1_set'
UMMNTHPGVPUMMNTHPGVP 0
root@arm:~# echo 'VCUY''PXXOWV'
VCUYPXXOWV
root@arm:~# MARKER='JTXH''FNWVFJ' run 'i2cget -y -f 1 0x4b 0xd'
JTXHFNWVFJ0x34
JTXHFNWVFJ 0
root@arm:~# echo 'TFYM''VKJFFF'
TFYMVKJFFF
root@arm:~# MARKER='GWFB''YTKYXF' run 'echo 1230000 1230000 > /sys/kernel/mva_tesst/regulators/buck1_set'
GWFBYTKYXFGWFBYTKYXF 0
root@arm:~# echo 'JCNP''HTTAHF'
JCNPHTTAHF
root@arm:~# MARKER='NNXP''EYQCBQ' run 'i2cget -y -f 1 0x4b 0xd'
NNXPEYQCBQ0x35
NNXPEYQCBQ 0
root@arm:~# echo 'UPSF''WHTMGP'
UPSFWHTMGP
root@arm:~# MARKER='OALS''AFKGSV' run 'echo 1240000 1240000 > /sys/kernel/mva_tesst/regulators/buck1_set'
OALSAFKGSVOALSAFKGSV 0
root@arm:~# echo 'PLKZ''TGUXUZ'
PLKZTGUXUZ
root@arm:~# MARKER='JHMY''XSXQFC' run 'i2cget -y -f 1 0x4b 0xd'
JHMYXSXQFC0x36
JHMYXSXQFC 0
root@arm:~# echo 'CTCS''WFYTPL'
CTCSWFYTPL
root@arm:~# MARKER='ZGQY''AHONFN' run 'echo 1250000 1250000 > /sys/kernel/mva_tesst/regulators/buck1_set'
ZGQYAHONFNZGQYAHONFN 0
root@arm:~# echo 'TUEM''ECYXGJ'
TUEMECYXGJ
root@arm:~# MARKER='HGKB''OVBGPW' run 'i2cget -y -f 1 0x4b 0xd'
HGKBOVBGPW0x37
HGKBOVBGPW 0
root@arm:~# echo 'COVQ''QKGSLA'
COVQQKGSLA
root@arm:~# MARKER='PVQX''GSNOSB' run 'echo 1260000 1260000 > /sys/kernel/mva_tesst/regulators/buck1_set'
PVQXGSNOSBPVQXGSNOSB 0
root@arm:~# echo 'HOOO''FSOYXA'
HOOOFSOYXA
root@arm:~# MARKER='ATYO''TWOFCM' run 'i2cget -y -f 1 0x4b 0xd'
ATYOTWOFCM0x38
ATYOTWOFCM 0
root@arm:~# echo 'JFVA''CSHKKC'
JFVACSHKKC
root@arm:~# MARKER='YWBH''TVOFXO' run 'echo 1270000 1270000 > /sys/kernel/mva_tesst/regulators/buck1_set'
YWBHTVOFXOYWBHTVOFXO 0
root@arm:~# echo 'BXBW''BAHOLJ'
BXBWBAHOLJ
root@arm:~# MARKER='ZGEY''LBTKJA' run 'i2cget -y -f 1 0x4b 0xd'
ZGEYLBTKJA0x39
ZGEYLBTKJA 0
root@arm:~# echo 'ZHZU''MJSSZS'
ZHZUMJSSZS
root@arm:~# MARKER='ZAYN''WTJBCS' run 'echo 1280000 1280000 > /sys/kernel/mva_tesst/regulators/buck1_set'
ZAYNWTJBCSZAYNWTJBCS 0
root@arm:~# echo 'WHBF''GNCAPQ'
WHBFGNCAPQ
root@arm:~# MARKER='NZEU''TMPJKQ' run 'i2cget -y -f 1 0x4b 0xd'
NZEUTMPJKQ0x3a
NZEUTMPJKQ 0
root@arm:~# echo 'CVGF''VNZVJU'
CVGFVNZVJU
root@arm:~# MARKER='NZBS''LHJHXY' run 'echo 1290000 1290000 > /sys/kernel/mva_tesst/regulators/buck1_set'
NZBSLHJHXYNZBSLHJHXY 0
root@arm:~# echo 'YWYS''GAEJHX'
YWYSGAEJHX
root@arm:~# MARKER='LWUA''PKPUTE' run 'i2cget -y -f 1 0x4b 0xd'
LWUAPKPUTE0x3b
LWUAPKPUTE 0
root@arm:~# echo 'FOBV''FLJHYO'
FOBVFLJHYO
root@arm:~# MARKER='WPGA''OSUHZG' run 'echo 1300000 1300000 > /sys/kernel/mva_tesst/regulators/buck1_set'
WPGAOSUHZGWPGAOSUHZG 0
root@arm:~# echo 'VAWC''GQGKAC'
VAWCGQGKAC
root@arm:~# MARKER='MFTX''KXYBVL' run 'i2cget -y -f 1 0x4b 0xd'
MFTXKXYBVL0x3c
MFTXKXYBVL 0
root@arm:~# echo 'NKLP''KCKNOH'
NKLPKCKNOH
root@arm:~# MARKER='BWUU''OMNNHG' run 'grep -r -l rohm,bd71847 /proc/device-tree  | sed '"'"'s![^/]*$!!'"'"''
BWUUOMNNHG/proc/device-tree/ocp/interconnect@48000000/segment@0/target-module@2a000/i2c@0/pmic@4b/
BWUUOMNNHG 0
root@arm:~# echo 'WUCU''TXXKZO'
WUCUTXXKZO
root@arm:~# MARKER='ATBT''NUZPNT' run 'test -f /proc/device-tree/ocp/interconnectt\@48000000/segment\@0/target-module\@2a000/i2c\@0/pmic\@4b/regulators/BUCK2/rohmm,no-regulator-enable-control ;echo $?'
ATBTNUZPNT1
ATBTNUZPNT 0
root@arm:~# echo 'KKAH''WKQSMV'
KKAHWKQSMV
root@arm:~# MARKER='BWUT''MACMMA' run 'i2cget -y -f 1 0x4b 0x6'
BWUTMACMMA0x43
BWUTMACMMA 0
root@arm:~# echo 'YAKL''KWVEPK'
YAKLKWVEPK
root@arm:~# MARKER='QKSK''SBTPCK' run 'echo 700000 700000 > /sys/kernel/mva_test//regulators/buck2_set'
QKSKSBTPCKQKSKSBTPCK 0
root@arm:~# echo 'JUQY''JSHCCS'
JUQYJSHCCS
root@arm:~# MARKER='AMWW''WAHMJN' run 'i2cget -y -f 1 0x4b 0x10'
AMWWWAHMJN0x00
AMWWWAHMJN 0
root@arm:~# echo 'OJKN''GOMLVP'
OJKNGOMLVP
root@arm:~# MARKER='TZWF''CBYTBJ' run 'echo 710000 710000 > /sys/kernel/mva_test//regulators/buck2_set'
TZWFCBYTBJTZWFCBYTBJ 0
root@arm:~# echo 'XNHY''HZWJKU'
XNHYHZWJKU
root@arm:~# MARKER='GNAM''ASUAJT' run 'i2cget -y -f 1 0x4b 0x10'
GNAMASUAJT0x01
GNAMASUAJT 0
root@arm:~# echo 'EWLH''OOSXVS'
EWLHOOSXVS
root@arm:~# MARKER='NJUC''KGTBEN' run 'echo 720000 720000 > /sys/kernel/mva_test//regulators/buck2_set'
NJUCKGTBENNJUCKGTBEN 0
root@arm:~# echo 'VYFP''YKBAGU'
VYFPYKBAGU
root@arm:~# MARKER='COTC''XMVPSQ' run 'i2cget -y -f 1 0x4b 0x10'
COTCXMVPSQ0x02
COTCXMVPSQ 0
root@arm:~# echo 'SAXB''BPTFYL'
SAXBBPTFYL
root@arm:~# MARKER='QTUJ''CGJSTL' run 'echo 730000 730000 > /sys/kernel/mva_test//regulators/buck2_set'
QTUJCGJSTLQTUJCGJSTL 0
root@arm:~# echo 'UBHF''ULAFPT'
UBHFULAFPT
root@arm:~# MARKER='FNBO''JBCTYK' run 'i2cget -y -f 1 0x4b 0x10'
FNBOJBCTYK0x03
FNBOJBCTYK 0
root@arm:~# echo 'FJZL''AMPUVV'
FJZLAMPUVV
root@arm:~# MARKER='OXFS''JGUHEV' run 'echo 740000 740000 > /sys/kernel/mva_test//regulators/buck2_set'
OXFSJGUHEVOXFSJGUHEV 0
root@arm:~# echo 'XQPN''TQFXXO'
XQPNTQFXXO
root@arm:~# MARKER='ZHUS''VQLTWE' run 'i2cget -y -f 1 0x4b 0x10'
ZHUSVQLTWE0x04
ZHUSVQLTWE 0
root@arm:~# echo 'BAYL''FFCXUN'
BAYLFFCXUN
root@arm:~# MARKER='YFUF''GVOPSL' run 'echo 750000 750000 > /sys/kernel/mva_test//regulators/buck2_set'
YFUFGVOPSLYFUFGVOPSL 0
root@arm:~# echo 'UOOO''PFEQEC'
UOOOPFEQEC
root@arm:~# MARKER='KKZU''GQBUSJ' run 'i2cget -y -f 1 0x4b 0x10'
KKZUGQBUSJ0x05
KKZUGQBUSJ 0
root@arm:~# echo 'UJZJ''PMMPCA'
UJZJPMMPCA
root@arm:~# MARKER='CCEV''OFYUUY' run 'echo 760000 760000 > /sys/kernel/mva_test//regulators/buck2_set'
CCEVOFYUUYCCEVOFYUUY 0
root@arm:~# echo 'LLHS''VEELEG'
LLHSVEELEG
root@arm:~# MARKER='KZGP''COSHCY' run 'i2cget -y -f 1 0x4b 0x10'
KZGPCOSHCY0x06
KZGPCOSHCY 0
root@arm:~# echo 'NXWM''SNOUHL'
NXWMSNOUHL
root@arm:~# MARKER='VXHB''AHLAJG' run 'echo 770000 770000 > /sys/kernel/mva_test//regulators/buck2_set'
VXHBAHLAJGVXHBAHLAJG 0
root@arm:~# echo 'TGYU''NWGTUA'
TGYUNWGTUA
root@arm:~# MARKER='CMLT''QAEHVT' run 'i2cget -y -f 1 0x4b 0x10'
CMLTQAEHVT0x07
CMLTQAEHVT 0
root@arm:~# echo 'BQWB''FHABUG'
BQWBFHABUG
root@arm:~# MARKER='ATFV''QFTXMN' run 'echo 780000 780000 > /sys/kernel/mva_test//regulators/buck2_set'
ATFVQFTXMNATFVQFTXMN 0
root@arm:~# echo 'NKGW''XOMTPO'
NKGWXOMTPO
root@arm:~# MARKER='EJFB''MLQOCL' run 'i2cget -y -f 1 0x4b 0x10'
EJFBMLQOCL0x08
EJFBMLQOCL 0
root@arm:~# echo 'TWUQ''BBQXEV'
TWUQBBQXEV
root@arm:~# MARKER='OLBQ''VNTVBB' run 'echo 790000 790000 > /sys/kernel/mva_test//regulators/buck2_set'
OLBQVNTVBBOLBQVNTVBB 0
root@arm:~# echo 'HJFP''QVFFEA'
HJFPQVFFEA
root@arm:~# MARKER='VAOM''LTAGEQ' run 'i2cget -y -f 1 0x4b 0x10'
VAOMLTAGEQ0x09
VAOMLTAGEQ 0
root@arm:~# echo 'ZSKQ''GESUSK'
ZSKQGESUSK
root@arm:~# MARKER='XQKN''CNGWHW' run 'echo 800000 800000 > /sys/kernel/mva_test//regulators/buck2_set'
XQKNCNGWHWXQKNCNGWHW 0
root@arm:~# echo 'ATCE''AUOJEP'
ATCEAUOJEP
root@arm:~# MARKER='TQZS''FZZYHH' run 'i2cget -y -f 1 0x4b 0x10'
TQZSFZZYHH0x0a
TQZSFZZYHH 0
root@arm:~# echo 'YWAT''YTQOJY'
YWATYTQOJY
root@arm:~# MARKER='HLNA''AWNUJZ' run 'echo 810000 810000 > /sys/kernel/mva_test//regulators/buck2_set'
HLNAAWNUJZHLNAAWNUJZ 0
root@arm:~# echo 'PSOE''FGEWBP'
PSOEFGEWBP
root@arm:~# MARKER='JYMW''CYBSAL' run 'i2cget -y -f 1 0x4b 0x10'
JYMWCYBSAL0x0b
JYMWCYBSAL 0
root@arm:~# echo 'OPCQ''WVVPPE'
OPCQWVVPPE
root@arm:~# MARKER='NPWK''OZPVQW' run 'echo 820000 820000 > /sys/kernel/mva_test//regulators/buck2_set'
NPWKOZPVQWNPWKOZPVQW 0
root@arm:~# echo 'QKTW''NZKUPH'
QKTWNZKUPH
root@arm:~# MARKER='KOHY''VGTNOC' run 'i2cget -y -f 1 0x4b 0x10'
KOHYVGTNOC0x0c
KOHYVGTNOC 0
root@arm:~# echo 'KOOP''EHJNTE'
KOOPEHJNTE
root@arm:~# MARKER='MFUK''NPUYAC' run 'echo 830000 830000 > /sys/kernel/mva_test//regulators/buck2_set'
MFUKNPUYACMFUKNPUYAC 0
root@arm:~# echo 'VUJV''NPSCUM'
VUJVNPSCUM
root@arm:~# MARKER='BWEK''EGBAZH' run 'i2cget -y -f 1 0x4b 0x10'
BWEKEGBAZH0x0d
BWEKEGBAZH 0
root@arm:~# echo 'GKGL''OXBCWS'
GKGLOXBCWS
root@arm:~# MARKER='LGMO''GHCJVW' run 'echo 840000 840000 > /sys/kernel/mva_test//regulators/buck2_set'
LGMOGHCJVWLGMOGHCJVW 0
root@arm:~# echo 'NHPH''VYTYLK'
NHPHVYTYLK
root@arm:~# MARKER='GKVW''TNNJWV' run 'i2cget -y -f 1 0x4b 0x10'
GKVWTNNJWV0x0e
GKVWTNNJWV 0
root@arm:~# echo 'FOWW''NTXWZY'
FOWWNTXWZY
root@arm:~# MARKER='APWQ''BPXXPL' run 'echo 850000 850000 > /sys/kernel/mva_test//regulators/buck2_set'
APWQBPXXPLAPWQBPXXPL 0
root@arm:~# echo 'VKUG''YOBAOO'
VKUGYOBAOO
root@arm:~# MARKER='OPPX''ECQZSX' run 'i2cget -y -f 1 0x4b 0x10'
OPPXECQZSX0x0f
OPPXECQZSX 0
root@arm:~# echo 'NTOY''GJGYHH'
NTOYGJGYHH
root@arm:~# MARKER='OPXT''TMXSZL' run 'echo 860000 860000 > /sys/kernel/mva_test//regulators/buck2_set'
OPXTTMXSZLOPXTTMXSZL 0
root@arm:~# echo 'QYFN''EHHPNB'
QYFNEHHPNB
root@arm:~# MARKER='XANV''VBSWTS' run 'i2cget -y -f 1 0x4b 0x10'
XANVVBSWTS0x10
XANVVBSWTS 0
root@arm:~# echo 'ZCVJ''LGNVSU'
ZCVJLGNVSU
root@arm:~# MARKER='EEVM''AJQLAM' run 'echo 870000 870000 > /sys/kernel/mva_test//regulators/buck2_set'
EEVMAJQLAMEEVMAJQLAM 0
root@arm:~# echo 'TYZU''LOCFQZ'
TYZULOCFQZ
root@arm:~# MARKER='UTWV''SZUXBJ' run 'i2cget -y -f 1 0x4b 0x10'
UTWVSZUXBJ0x11
UTWVSZUXBJ 0
root@arm:~# echo 'JBXN''SNEVSM'
JBXNSNEVSM
root@arm:~# MARKER='KLFF''XKJFFS' run 'echo 880000 880000 > /sys/kernel/mva_test//regulators/buck2_set'
KLFFXKJFFSKLFFXKJFFS 0
root@arm:~# echo 'KSPX''BEHHGP'
KSPXBEHHGP
root@arm:~# MARKER='AHTU''TCLKMY' run 'i2cget -y -f 1 0x4b 0x10'
AHTUTCLKMY0x12
AHTUTCLKMY 0
root@arm:~# echo 'SGQG''TNMTWX'
SGQGTNMTWX
root@arm:~# MARKER='KWLQ''UYPBQL' run 'echo 890000 890000 > /sys/kernel/mva_test//regulators/buck2_set'
KWLQUYPBQLKWLQUYPBQL 0
root@arm:~# echo 'JKLN''LOZMEN'
JKLNLOZMEN
root@arm:~# MARKER='MGYU''XQQGQE' run 'i2cget -y -f 1 0x4b 0x10'
MGYUXQQGQE0x13
MGYUXQQGQE 0
root@arm:~# echo 'YHXH''KNMCHZ'
YHXHKNMCHZ
root@arm:~# MARKER='AKXA''UMAFFC' run 'echo 900000 900000 > /sys/kernel/mva_test//regulators/buck2_set'
AKXAUMAFFCAKXAUMAFFC 0
root@arm:~# echo 'GHVC''LMBVNL'
GHVCLMBVNL
root@arm:~# MARKER='NFUU''VFHEBG' run 'i2cget -y -f 1 0x4b 0x10'
NFUUVFHEBG0x14
NFUUVFHEBG 0
root@arm:~# echo 'HTCQ''XNYZUN'
HTCQXNYZUN
root@arm:~# MARKER='YJVM''KCEQLA' run 'echo 910000 910000 > /sys/kernel/mva_test//regulators/buck2_set'
YJVMKCEQLAYJVMKCEQLA 0
root@arm:~# echo 'QMVH''UFOCBF'
QMVHUFOCBF
root@arm:~# MARKER='ULVH''COHPMA' run 'i2cget -y -f 1 0x4b 0x10'
ULVHCOHPMA0x15
ULVHCOHPMA 0
root@arm:~# echo 'GFGV''BVGXTJ'
GFGVBVGXTJ
root@arm:~# MARKER='BTJS''VTQSNP' run 'echo 920000 920000 > /sys/kernel/mva_test//regulators/buck2_set'
BTJSVTQSNPBTJSVTQSNP 0
root@arm:~# echo 'AQMT''ENAMGG'
AQMTENAMGG
root@arm:~# MARKER='EVZE''XMPKLN' run 'i2cget -y -f 1 0x4b 0x10'
EVZEXMPKLN0x16
EVZEXMPKLN 0
root@arm:~# echo 'WMCT''ZEYZMJ'
WMCTZEYZMJ
root@arm:~# MARKER='QBUW''PCGATW' run 'echo 930000 930000 > /sys/kernel/mva_test//regulators/buck2_set'
QBUWPCGATWQBUWPCGATW 0
root@arm:~# echo 'GHEN''KHUMUJ'
GHENKHUMUJ
root@arm:~# MARKER='KQJL''NKVZSU' run 'i2cget -y -f 1 0x4b 0x10'
KQJLNKVZSU0x17
KQJLNKVZSU 0
root@arm:~# echo 'WEFX''WEWMUN'
WEFXWEWMUN
root@arm:~# MARKER='EWLK''MAKCLP' run 'echo 940000 940000 > /sys/kernel/mva_test//regulators/buck2_set'
EWLKMAKCLPEWLKMAKCLP 0
root@arm:~# echo 'FHTJ''CYZUXO'
FHTJCYZUXO
root@arm:~# MARKER='PYHV''PCTGHE' run 'i2cget -y -f 1 0x4b 0x10'
PYHVPCTGHE0x18
PYHVPCTGHE 0
root@arm:~# echo 'LMXF''FBWMAT'
LMXFFBWMAT
root@arm:~# MARKER='TETH''XMWQBH' run 'echo 950000 950000 > /sys/kernel/mva_test//regulators/buck2_set'
TETHXMWQBHTETHXMWQBH 0
root@arm:~# echo 'XKYV''NVHGOJ'
XKYVNVHGOJ
root@arm:~# MARKER='HLUJ''AVMOVP' run 'i2cget -y -f 1 0x4b 0x10'
HLUJAVMOVP0x19
HLUJAVMOVP 0
root@arm:~# echo 'FFLM''VBEOQV'
FFLMVBEOQV
root@arm:~# MARKER='FSGC''TKFWAU' run 'echo 960000 960000 > /sys/kernel/mva_test//regulators/buck2_set'
FSGCTKFWAUFSGCTKFWAU 0
root@arm:~# echo 'LZFK''LMAXQA'
LZFKLMAXQA
root@arm:~# MARKER='ZPZK''OBGLHE' run 'i2cget -y -f 1 0x4b 0x10'
ZPZKOBGLHE0x1a
ZPZKOBGLHE 0
root@arm:~# echo 'UABH''OQJNXT'
UABHOQJNXT
root@arm:~# MARKER='YLOU''SQZYGT' run 'echo 970000 970000 > /sys/kernel/mva_test//regulators/buck2_set'
YLOUSQZYGTYLOUSQZYGT 0
root@arm:~# echo 'VFTJ''UZJQOA'
VFTJUZJQOA
root@arm:~# MARKER='ZUWO''GBEJHS' run 'i2cget -y -f 1 0x4b 0x10'
ZUWOGBEJHS0x1b
ZUWOGBEJHS 0
root@arm:~# echo 'ENVS''NZMVLJ'
ENVSNZMVLJ
root@arm:~# MARKER='QJTY''FMZBHY' run 'echo 980000 980000 > /sys/kernel/mva_test//regulators/buck2_set'
QJTYFMZBHYQJTYFMZBHY 0
root@arm:~# echo 'OPOF''VTELHC'
OPOFVTELHC
root@arm:~# MARKER='LNHM''MMLQWV' run 'i2cget -y -f 1 0x4b 0x10'
LNHMMMLQWV0x1c
LNHMMMLQWV 0
root@arm:~# echo 'GQUM''NJNUYK'
GQUMNJNUYK
root@arm:~# MARKER='HGXL''HWVNBY' run 'echo 990000 990000 > /sys/kernel/mva_test//regulators/buck2_set'
HGXLHWVNBYHGXLHWVNBY 0
root@arm:~# echo 'ANXC''EVTMFE'
ANXCEVTMFE
root@arm:~# MARKER='KFZV''LAXCOF' run 'i2cget -y -f 1 0x4b 0x10'
KFZVLAXCOF0x1d
KFZVLAXCOF 0
root@arm:~# echo 'PMZU''GBPPAS'
PMZUGBPPAS
root@arm:~# MARKER='GXEK''KTKXAG' run 'echo 1000000 1000000 > /sys/kernel/mva_tesst/regulators/buck2_set'
GXEKKTKXAGGXEKKTKXAG 0
root@arm:~# echo 'QGPH''ZPUQVP'
QGPHZPUQVP
root@arm:~# MARKER='TCVJ''WXXSSP' run 'i2cget -y -f 1 0x4b 0x10'
TCVJWXXSSP0x1e
TCVJWXXSSP 0
root@arm:~# echo 'COCC''XKJTSQ'
COCCXKJTSQ
root@arm:~# MARKER='OXBF''CHLMUE' run 'echo 1010000 1010000 > /sys/kernel/mva_tesst/regulators/buck2_set'
OXBFCHLMUEOXBFCHLMUE 0
root@arm:~# echo 'AKPN''BHKOSC'
AKPNBHKOSC
root@arm:~# MARKER='ENQZ''GVOXYQ' run 'i2cget -y -f 1 0x4b 0x10'
ENQZGVOXYQ0x1f
ENQZGVOXYQ 0
root@arm:~# echo 'BXKZ''USUFTU'
BXKZUSUFTU
root@arm:~# MARKER='NYYO''TXYGFN' run 'echo 1020000 1020000 > /sys/kernel/mva_tesst/regulators/buck2_set'
NYYOTXYGFNNYYOTXYGFN 0
root@arm:~# echo 'TYNY''GKOMNF'
TYNYGKOMNF
root@arm:~# MARKER='ATOW''QTWBJX' run 'i2cget -y -f 1 0x4b 0x10'
ATOWQTWBJX0x20
ATOWQTWBJX 0
root@arm:~# echo 'JNVG''UPTJWV'
JNVGUPTJWV
root@arm:~# MARKER='MCHH''ZUUSWY' run 'echo 1030000 1030000 > /sys/kernel/mva_tesst/regulators/buck2_set'
MCHHZUUSWYMCHHZUUSWY 0
root@arm:~# echo 'OKEG''KOSGOZ'
OKEGKOSGOZ
root@arm:~# MARKER='HEPS''BHJFKL' run 'i2cget -y -f 1 0x4b 0x10'
HEPSBHJFKL0x21
HEPSBHJFKL 0
root@arm:~# echo 'ESMT''CZFMUZ'
ESMTCZFMUZ
root@arm:~# MARKER='KTHJ''XCWOVX' run 'echo 1040000 1040000 > /sys/kernel/mva_tesst/regulators/buck2_set'
KTHJXCWOVXKTHJXCWOVX 0
root@arm:~# echo 'MWFU''HYVQBE'
MWFUHYVQBE
root@arm:~# MARKER='ZHJK''FTWZKQ' run 'i2cget -y -f 1 0x4b 0x10'
ZHJKFTWZKQ0x22
ZHJKFTWZKQ 0
root@arm:~# echo 'GQHC''XXOJSH'
GQHCXXOJSH
root@arm:~# MARKER='AWUO''PONEFM' run 'echo 1050000 1050000 > /sys/kernel/mva_tesst/regulators/buck2_set'
AWUOPONEFMAWUOPONEFM 0
root@arm:~# echo 'TNOJ''EKKWEA'
TNOJEKKWEA
root@arm:~# MARKER='KOJB''NYNXPF' run 'i2cget -y -f 1 0x4b 0x10'
KOJBNYNXPF0x23
KOJBNYNXPF 0
root@arm:~# echo 'VLWH''JZEZSU'
VLWHJZEZSU
root@arm:~# MARKER='MMOX''BNGLMN' run 'echo 1060000 1060000 > /sys/kernel/mva_tesst/regulators/buck2_set'
MMOXBNGLMNMMOXBNGLMN 0
root@arm:~# echo 'NAPG''VYFXPL'
NAPGVYFXPL
root@arm:~# MARKER='PSOY''MTAHNT' run 'i2cget -y -f 1 0x4b 0x10'
PSOYMTAHNT0x24
PSOYMTAHNT 0
root@arm:~# echo 'FUWK''OCVNUU'
FUWKOCVNUU
root@arm:~# MARKER='VMXZ''FCPKSY' run 'echo 1070000 1070000 > /sys/kernel/mva_tesst/regulators/buck2_set'
VMXZFCPKSYVMXZFCPKSY 0
root@arm:~# echo 'HJLF''FKNKYP'
HJLFFKNKYP
root@arm:~# MARKER='KJXE''FKVXLS' run 'i2cget -y -f 1 0x4b 0x10'
KJXEFKVXLS0x25
KJXEFKVXLS 0
root@arm:~# echo 'OVGN''CKZGYC'
OVGNCKZGYC
root@arm:~# MARKER='JAMH''TGTZXB' run 'echo 1080000 1080000 > /sys/kernel/mva_tesst/regulators/buck2_set'
JAMHTGTZXBJAMHTGTZXB 0
root@arm:~# echo 'GMYZ''OGGKVP'
GMYZOGGKVP
root@arm:~# MARKER='QUBQ''UGWQNX' run 'i2cget -y -f 1 0x4b 0x10'
QUBQUGWQNX0x26
QUBQUGWQNX 0
root@arm:~# echo 'XJHB''LWPLOM'
XJHBLWPLOM
root@arm:~# MARKER='OOZE''MVTKAV' run 'echo 1090000 1090000 > /sys/kernel/mva_tesst/regulators/buck2_set'
OOZEMVTKAVOOZEMVTKAV 0
root@arm:~# echo 'TESE''MMBAQG'
TESEMMBAQG
root@arm:~# MARKER='UMXX''LQXEKZ' run 'i2cget -y -f 1 0x4b 0x10'
UMXXLQXEKZ0x27
UMXXLQXEKZ 0
root@arm:~# echo 'OPPT''VBFKMC'
OPPTVBFKMC
root@arm:~# MARKER='BQAT''YZJYXF' run 'echo 1100000 1100000 > /sys/kernel/mva_tesst/regulators/buck2_set'
BQATYZJYXFBQATYZJYXF 0
root@arm:~# echo 'FPMO''XJPCWU'
FPMOXJPCWU
root@arm:~# MARKER='MKFS''MMJKGS' run 'i2cget -y -f 1 0x4b 0x10'
MKFSMMJKGS0x28
MKFSMMJKGS 0
root@arm:~# echo 'CFPE''VYQXCA'
CFPEVYQXCA
root@arm:~# MARKER='KCAU''YKSCBU' run 'echo 1110000 1110000 > /sys/kernel/mva_tesst/regulators/buck2_set'
KCAUYKSCBUKCAUYKSCBU 0
root@arm:~# echo 'GVQG''NSFLXT'
GVQGNSFLXT
root@arm:~# MARKER='GJBW''QZGKBU' run 'i2cget -y -f 1 0x4b 0x10'
GJBWQZGKBU0x29
GJBWQZGKBU 0
root@arm:~# echo 'OSUP''FMOHKG'
OSUPFMOHKG
root@arm:~# MARKER='WNZC''NOLCBY' run 'echo 1120000 1120000 > /sys/kernel/mva_tesst/regulators/buck2_set'
WNZCNOLCBYWNZCNOLCBY 0
root@arm:~# echo 'XQZU''YYWWCW'
XQZUYYWWCW
root@arm:~# MARKER='CPBY''QJUAJU' run 'i2cget -y -f 1 0x4b 0x10'
CPBYQJUAJU0x2a
CPBYQJUAJU 0
root@arm:~# echo 'NXPT''FQZKAT'
NXPTFQZKAT
root@arm:~# MARKER='JAXH''VTCNCN' run 'echo 1130000 1130000 > /sys/kernel/mva_tesst/regulators/buck2_set'
JAXHVTCNCNJAXHVTCNCN 0
root@arm:~# echo 'QKZA''JNUAZH'
QKZAJNUAZH
root@arm:~# MARKER='AGTO''GJHNJZ' run 'i2cget -y -f 1 0x4b 0x10'
AGTOGJHNJZ0x2b
AGTOGJHNJZ 0
root@arm:~# echo 'XAXH''TOBBBK'
XAXHTOBBBK
root@arm:~# MARKER='LGBY''WVAUJU' run 'echo 1140000 1140000 > /sys/kernel/mva_tesst/regulators/buck2_set'
LGBYWVAUJULGBYWVAUJU 0
root@arm:~# echo 'VSGB''MMXSMF'
VSGBMMXSMF
root@arm:~# MARKER='TPQX''NLGXLW' run 'i2cget -y -f 1 0x4b 0x10'
TPQXNLGXLW0x2c
TPQXNLGXLW 0
root@arm:~# echo 'SNFE''GFGYUL'
SNFEGFGYUL
root@arm:~# MARKER='LFXJ''MQZXQE' run 'echo 1150000 1150000 > /sys/kernel/mva_tesst/regulators/buck2_set'
LFXJMQZXQELFXJMQZXQE 0
root@arm:~# echo 'OFUN''TLVQBK'
OFUNTLVQBK
root@arm:~# MARKER='JLKY''EACVVB' run 'i2cget -y -f 1 0x4b 0x10'
JLKYEACVVB0x2d
JLKYEACVVB 0
root@arm:~# echo 'LYEL''CUPOXA'
LYELCUPOXA
root@arm:~# MARKER='JZWU''XAPLKV' run 'echo 1160000 1160000 > /sys/kernel/mva_tesst/regulators/buck2_set'
JZWUXAPLKVJZWUXAPLKV 0
root@arm:~# echo 'JXJZ''QGXASS'
JXJZQGXASS
root@arm:~# MARKER='MYOT''VWHWWG' run 'i2cget -y -f 1 0x4b 0x10'
MYOTVWHWWG0x2e
MYOTVWHWWG 0
root@arm:~# echo 'YAOE''EXOKCY'
YAOEEXOKCY
root@arm:~# MARKER='YWTL''ZOHXAP' run 'echo 1170000 1170000 > /sys/kernel/mva_tesst/regulators/buck2_set'
YWTLZOHXAPYWTLZOHXAP 0
root@arm:~# echo 'KJYW''HPWUHS'
KJYWHPWUHS
root@arm:~# MARKER='MXJY''VEXTPK' run 'i2cget -y -f 1 0x4b 0x10'
MXJYVEXTPK0x2f
MXJYVEXTPK 0
root@arm:~# echo 'FGSQ''KCZCOJ'
FGSQKCZCOJ
root@arm:~# MARKER='BQHO''PZMXUY' run 'echo 1180000 1180000 > /sys/kernel/mva_tesst/regulators/buck2_set'
BQHOPZMXUYBQHOPZMXUY 0
root@arm:~# echo 'MNUF''WETMCU'
MNUFWETMCU
root@arm:~# MARKER='HELN''PVAYLV' run 'i2cget -y -f 1 0x4b 0x10'
HELNPVAYLV0x30
HELNPVAYLV 0
root@arm:~# echo 'NUZN''EENLKX'
NUZNEENLKX
root@arm:~# MARKER='KHEU''ETTJSA' run 'echo 1190000 1190000 > /sys/kernel/mva_tesst/regulators/buck2_set'
KHEUETTJSAKHEUETTJSA 0
root@arm:~# echo 'THBH''XXFVJA'
THBHXXFVJA
root@arm:~# MARKER='TJOT''CTQLPG' run 'i2cget -y -f 1 0x4b 0x10'
TJOTCTQLPG0x31
TJOTCTQLPG 0
root@arm:~# echo 'YUSK''MZVKEQ'
YUSKMZVKEQ
root@arm:~# MARKER='EYJS''WHYXAA' run 'echo 1200000 1200000 > /sys/kernel/mva_tesst/regulators/buck2_set'
EYJSWHYXAAEYJSWHYXAA 0
root@arm:~# echo 'EKCK''HWLKKU'
EKCKHWLKKU
root@arm:~# MARKER='EOGA''HCAPWM' run 'i2cget -y -f 1 0x4b 0x10'
EOGAHCAPWM0x32
EOGAHCAPWM 0
root@arm:~# echo 'UNLU''PMMJHT'
UNLUPMMJHT
root@arm:~# MARKER='PZCU''HUENXK' run 'echo 1210000 1210000 > /sys/kernel/mva_tesst/regulators/buck2_set'
PZCUHUENXKPZCUHUENXK 0
root@arm:~# echo 'XZGX''NESSJO'
XZGXNESSJO
root@arm:~# MARKER='XYKP''TQEEYK' run 'i2cget -y -f 1 0x4b 0x10'
XYKPTQEEYK0x33
XYKPTQEEYK 0
root@arm:~# echo 'QPMV''PTPMVG'
QPMVPTPMVG
root@arm:~# MARKER='WCTZ''STMJEK' run 'echo 1220000 1220000 > /sys/kernel/mva_tesst/regulators/buck2_set'
WCTZSTMJEKWCTZSTMJEK 0
root@arm:~# echo 'XSKK''BZBESL'
XSKKBZBESL
root@arm:~# MARKER='KXNY''LWBVCP' run 'i2cget -y -f 1 0x4b 0x10'
KXNYLWBVCP0x34
KXNYLWBVCP 0
root@arm:~# echo 'XLKP''KOBGPS'
XLKPKOBGPS
root@arm:~# MARKER='OXGJ''PPEWGV' run 'echo 1230000 1230000 > /sys/kernel/mva_tesst/regulators/buck2_set'
OXGJPPEWGVOXGJPPEWGV 0
root@arm:~# echo 'NWMW''TAFYYZ'
NWMWTAFYYZ
root@arm:~# MARKER='FUZM''HWCMEG' run 'i2cget -y -f 1 0x4b 0x10'
FUZMHWCMEG0x35
FUZMHWCMEG 0
root@arm:~# echo 'EBVC''XCSAUG'
EBVCXCSAUG
root@arm:~# MARKER='SUGL''PVSPJO' run 'echo 1240000 1240000 > /sys/kernel/mva_tesst/regulators/buck2_set'
SUGLPVSPJOSUGLPVSPJO 0
root@arm:~# echo 'JHZP''UZMBBH'
JHZPUZMBBH
root@arm:~# MARKER='NUHP''VJTKBS' run 'i2cget -y -f 1 0x4b 0x10'
NUHPVJTKBS0x36
NUHPVJTKBS 0
root@arm:~# echo 'OGHE''PWOWJY'
OGHEPWOWJY
root@arm:~# MARKER='SWTA''GNQTXS' run 'echo 1250000 1250000 > /sys/kernel/mva_tesst/regulators/buck2_set'
SWTAGNQTXSSWTAGNQTXS 0
root@arm:~# echo 'LQXX''HMFOWW'
LQXXHMFOWW
root@arm:~# MARKER='VKGF''LPGTNZ' run 'i2cget -y -f 1 0x4b 0x10'
VKGFLPGTNZ0x37
VKGFLPGTNZ 0
root@arm:~# echo 'GMFK''NHLVVB'
GMFKNHLVVB
root@arm:~# MARKER='NJYA''ZMZWZQ' run 'echo 1260000 1260000 > /sys/kernel/mva_tesst/regulators/buck2_set'
NJYAZMZWZQNJYAZMZWZQ 0
root@arm:~# echo 'MXBJ''UQEHQW'
MXBJUQEHQW
root@arm:~# MARKER='TWST''KWZMKC' run 'i2cget -y -f 1 0x4b 0x10'
TWSTKWZMKC0x38
TWSTKWZMKC 0
root@arm:~# echo 'TSXY''TUZOWX'
TSXYTUZOWX
root@arm:~# MARKER='KJFG''ZGHEJX' run 'echo 1270000 1270000 > /sys/kernel/mva_tesst/regulators/buck2_set'
KJFGZGHEJXKJFGZGHEJX 0
root@arm:~# echo 'KHGV''QEVBEU'
KHGVQEVBEU
root@arm:~# MARKER='MOKA''SKYKLQ' run 'i2cget -y -f 1 0x4b 0x10'
MOKASKYKLQ0x39
MOKASKYKLQ 0
root@arm:~# echo 'KXGG''AGULZL'
KXGGAGULZL
root@arm:~# MARKER='GJMT''UGYFVW' run 'echo 1280000 1280000 > /sys/kernel/mva_tesst/regulators/buck2_set'
GJMTUGYFVWGJMTUGYFVW 0
root@arm:~# echo 'UENT''BLKLFV'
UENTBLKLFV
root@arm:~# MARKER='OQYF''CUFPXK' run 'i2cget -y -f 1 0x4b 0x10'
OQYFCUFPXK0x3a
OQYFCUFPXK 0
root@arm:~# echo 'UMEY''FQUSYH'
UMEYFQUSYH
root@arm:~# MARKER='AUVZ''QYTVHO' run 'echo 1290000 1290000 > /sys/kernel/mva_tesst/regulators/buck2_set'
AUVZQYTVHOAUVZQYTVHO 0
root@arm:~# echo 'UPQU''GCTCWU'
UPQUGCTCWU
root@arm:~# MARKER='WOCE''LXCWFS' run 'i2cget -y -f 1 0x4b 0x10'
WOCELXCWFS0x3b
WOCELXCWFS 0
root@arm:~# echo 'NLNG''SPVPKP'
NLNGSPVPKP
root@arm:~# MARKER='UUTU''ENHLLC' run 'echo 1300000 1300000 > /sys/kernel/mva_tesst/regulators/buck2_set'
UUTUENHLLCUUTUENHLLC 0
root@arm:~# echo 'ALCO''GGXQFB'
ALCOGGXQFB
root@arm:~# MARKER='OHOY''SJVXCS' run 'i2cget -y -f 1 0x4b 0x10'
OHOYSJVXCS0x3c
OHOYSJVXCS 0
root@arm:~# echo 'CYXV''FWEBXC'
CYXVFWEBXC
root@arm:~# MARKER='TOFU''LQSMOM' run 'grep -r -l rohm,bd71847 /proc/device-tree  | sed '"'"'s![^/]*$!!'"'"''
TOFULQSMOM/proc/device-tree/ocp/interconnect@48000000/segment@0/target-module@2a000/i2c@0/pmic@4b/
TOFULQSMOM 0
root@arm:~# echo 'LVOT''ZGOUNF'
LVOTZGOUNF
root@arm:~# MARKER='QMNL''BFFPKK' run 'test -f /proc/device-tree/ocp/interconnectt\@48000000/segment\@0/target-module\@2a000/i2c\@0/pmic\@4b/regulators/BUCK3/rohmm,no-regulator-enable-control ;echo $?'
QMNLBFFPKK0
QMNLBFFPKK 0
root@arm:~# echo 'BZST''FAAVPE'
BZSTFAAVPE
root@arm:~# MARKER='PGXU''OMJNXQ' run 'echo 700000 700000 > /sys/kernel/mva_test//regulators/buck3_set'
PGXUOMJNXQPGXUOMJNXQ 0
root@arm:~# echo 'ULHK''FVWOAU'
ULHKFVWOAU
root@arm:~# MARKER='ZCBO''VOQGXK' run 'i2cget -y -f 1 0x4b 0x14'
ZCBOVOQGXK0x00
ZCBOVOQGXK 0
root@arm:~# echo 'GXJU''HTSSCL'
GXJUHTSSCL
root@arm:~# MARKER='TEZM''ZPNKQC' run 'echo 800000 800000 > /sys/kernel/mva_test//regulators/buck3_set'
TEZMZPNKQCTEZMZPNKQC 0
root@arm:~# echo 'JYFE''ABOGNE'
JYFEABOGNE
root@arm:~# MARKER='CHOA''GNOYJU' run 'i2cget -y -f 1 0x4b 0x14'
CHOAGNOYJU0x01
CHOAGNOYJU 0
root@arm:~# echo 'VBLF''CELPTG'
VBLFCELPTG
root@arm:~# MARKER='QMQA''LBQHTH' run 'echo 900000 900000 > /sys/kernel/mva_test//regulators/buck3_set'
QMQALBQHTHQMQALBQHTH 0
root@arm:~# echo 'SGTA''NLEXPK'
SGTANLEXPK
root@arm:~# MARKER='PLLB''SBKETQ' run 'i2cget -y -f 1 0x4b 0x14'
PLLBSBKETQ0x02
PLLBSBKETQ 0
root@arm:~# echo 'HBQZ''WCCELQ'
HBQZWCCELQ
root@arm:~# MARKER='NXXQ''XUXGAK' run 'echo 1000000 1000000 > /sys/kernel/mva_tesst/regulators/buck3_set'
NXXQXUXGAKNXXQXUXGAK 0
root@arm:~# echo 'QSTZ''EZYXNO'
QSTZEZYXNO
root@arm:~# MARKER='YLJU''APUPLV' run 'i2cget -y -f 1 0x4b 0x14'
YLJUAPUPLV0x03
YLJUAPUPLV 0
root@arm:~# echo 'TABN''HZETLG'
TABNHZETLG
root@arm:~# MARKER='GVXG''CJULQH' run 'echo 1050000 1050000 > /sys/kernel/mva_tesst/regulators/buck3_set'
GVXGCJULQHGVXGCJULQH 0
root@arm:~# echo 'SZLN''FEENWN'
SZLNFEENWN
root@arm:~# MARKER='XMKB''WBVXWL' run 'i2cget -y -f 1 0x4b 0x14'
XMKBWBVXWL0x04
XMKBWBVXWL 0
root@arm:~# echo 'KZMN''SLHFEH'
KZMNSLHFEH
root@arm:~# MARKER='EWCZ''BMEXYZ' run 'echo 1100000 1100000 > /sys/kernel/mva_tesst/regulators/buck3_set'
EWCZBMEXYZEWCZBMEXYZ 0
root@arm:~# echo 'GNXF''GSBSCG'
GNXFGSBSCG
root@arm:~# MARKER='NTNX''HJWAYT' run 'i2cget -y -f 1 0x4b 0x14'
NTNXHJWAYT0x05
NTNXHJWAYT 0
root@arm:~# echo 'HXZK''AMPTNF'
HXZKAMPTNF
root@arm:~# MARKER='KGZW''LJWGUZ' run 'echo 1200000 1200000 > /sys/kernel/mva_tesst/regulators/buck3_set'
KGZWLJWGUZKGZWLJWGUZ 0
root@arm:~# echo 'BCBX''MUJOAV'
BCBXMUJOAV
root@arm:~# MARKER='OGHY''AWYSAT' run 'i2cget -y -f 1 0x4b 0x14'
OGHYAWYSAT0x06
OGHYAWYSAT 0
root@arm:~# echo 'GBTN''SQPWZP'
GBTNSQPWZP
root@arm:~# MARKER='SHGB''SOTFBB' run 'echo 1350000 1350000 > /sys/kernel/mva_tesst/regulators/buck3_set'
SHGBSOTFBBSHGBSOTFBB 0
root@arm:~# echo 'SGAP''VSPCYX'
SGAPVSPCYX
root@arm:~# MARKER='JSYA''YXHOXY' run 'i2cget -y -f 1 0x4b 0x14'
JSYAYXHOXY0x07
JSYAYXHOXY 0
root@arm:~# echo 'ZYCQ''JOTVLZ'
ZYCQJOTVLZ
root@arm:~# MARKER='PWLU''BQWYFB' run 'echo 550000 550000 > /sys/kernel/mva_test//regulators/buck3_set'
PWLUBQWYFBPWLUBQWYFB 0
root@arm:~# echo 'KXPZ''AHSPEN'
KXPZAHSPEN
root@arm:~# MARKER='VLLO''JAHQXN' run 'i2cget -y -f 1 0x4b 0x14'
VLLOJAHQXN0x40
VLLOJAHQXN 0
root@arm:~# echo 'SNKY''JYYGET'
SNKYJYYGET
root@arm:~# MARKER='LOAA''ENAXYN' run 'echo 600000 600000 > /sys/kernel/mva_test//regulators/buck3_set'
LOAAENAXYNLOAAENAXYN 0
root@arm:~# echo 'YAMQ''JFSWSJ'
YAMQJFSWSJ
root@arm:~# MARKER='VKET''QXAJJJ' run 'i2cget -y -f 1 0x4b 0x14'
VKETQXAJJJ0x41
VKETQXAJJJ 0
root@arm:~# echo 'GUKA''ZXMCEZ'
GUKAZXMCEZ
root@arm:~# MARKER='FTKK''WKACSQ' run 'echo 650000 650000 > /sys/kernel/mva_test//regulators/buck3_set'
FTKKWKACSQFTKKWKACSQ 0
root@arm:~# echo 'HAWH''WXGEBC'
HAWHWXGEBC
root@arm:~# MARKER='KBFW''FYHHTQ' run 'i2cget -y -f 1 0x4b 0x14'
KBFWFYHHTQ0x42
KBFWFYHHTQ 0
root@arm:~# echo 'FFJB''XNWALF'
FFJBXNWALF
root@arm:~# MARKER='ZYMB''PQWKNG' run 'echo 700000 700000 > /sys/kernel/mva_test//regulators/buck3_set'
ZYMBPQWKNGZYMBPQWKNG 0
root@arm:~# echo 'AMVG''GXNXWE'
AMVGGXNXWE
root@arm:~# MARKER='GVPC''CKCXOU' run 'i2cget -y -f 1 0x4b 0x14'
GVPCCKCXOU0x00
GVPCCKCXOU 0
root@arm:~# echo 'EGCA''VJZBBW'
EGCAVJZBBW
root@arm:~# MARKER='NVOG''QBTPQN' run 'echo 750000 750000 > /sys/kernel/mva_test//regulators/buck3_set'
NVOGQBTPQNNVOGQBTPQN 0
root@arm:~# echo 'LEML''AWZOPW'
LEMLAWZOPW
root@arm:~# MARKER='CNTB''UMSKMQ' run 'i2cget -y -f 1 0x4b 0x14'
CNTBUMSKMQ0x44
CNTBUMSKMQ 0
root@arm:~# echo 'WVTS''MZKPUX'
WVTSMZKPUX
root@arm:~# MARKER='YKJY''CCTNES' run 'echo 800000 800000 > /sys/kernel/mva_test//regulators/buck3_set'
YKJYCCTNESYKJYCCTNES 0
root@arm:~# echo 'PJSQ''HMEQPS'
PJSQHMEQPS
root@arm:~# MARKER='SHUV''WKFAFQ' run 'i2cget -y -f 1 0x4b 0x14'
SHUVWKFAFQ0x01
SHUVWKFAFQ 0
root@arm:~# echo 'YFZW''YJXQZH'
YFZWYJXQZH
root@arm:~# MARKER='YAGL''PBXHSC' run 'echo 850000 850000 > /sys/kernel/mva_test//regulators/buck3_set'
YAGLPBXHSCYAGLPBXHSC 0
root@arm:~# echo 'YBVZ''NNFZJE'
YBVZNNFZJE
root@arm:~# MARKER='JAPV''OAVVTH' run 'i2cget -y -f 1 0x4b 0x14'
JAPVOAVVTH0x46
JAPVOAVVTH 0
root@arm:~# echo 'QAXN''OZLSXH'
QAXNOZLSXH
root@arm:~# MARKER='UKTZ''ZEFJTG' run 'echo 900000 900000 > /sys/kernel/mva_test//regulators/buck3_set'
UKTZZEFJTGUKTZZEFJTG 0
root@arm:~# echo 'NVWE''KZBNXY'
NVWEKZBNXY
root@arm:~# MARKER='HGVY''JZFTSU' run 'i2cget -y -f 1 0x4b 0x14'
HGVYJZFTSU0x02
HGVYJZFTSU 0
root@arm:~# echo 'FBWS''JXLKCN'
FBWSJXLKCN
root@arm:~# MARKER='LJEH''GLPJHF' run 'echo 675000 675000 > /sys/kernel/mva_test//regulators/buck3_set'
LJEHGLPJHFLJEHGLPJHF 0
root@arm:~# echo 'HCXV''UBPKBX'
HCXVUBPKBX
root@arm:~# MARKER='HPXP''NTEKHA' run 'i2cget -y -f 1 0x4b 0x14'
HPXPNTEKHA0x80
HPXPNTEKHA 0
root@arm:~# echo 'FQLB''OBSXAC'
FQLBOBSXAC
root@arm:~# MARKER='CUJU''KYEHLL' run 'echo 775000 775000 > /sys/kernel/mva_test//regulators/buck3_set'
CUJUKYEHLLCUJUKYEHLL 0
root@arm:~# echo 'AEUP''AKYFLH'
AEUPAKYFLH
root@arm:~# MARKER='JJNQ''PMATJM' run 'i2cget -y -f 1 0x4b 0x14'
JJNQPMATJM0x81
JJNQPMATJM 0
root@arm:~# echo 'XWXA''QLFMQQ'
XWXAQLFMQQ
root@arm:~# MARKER='YBMV''OWVYMX' run 'echo 875000 875000 > /sys/kernel/mva_test//regulators/buck3_set'
YBMVOWVYMXYBMVOWVYMX 0
root@arm:~# echo 'MQSA''ZCZMVY'
MQSAZCZMVY
root@arm:~# MARKER='GXYQ''NHXPCG' run 'i2cget -y -f 1 0x4b 0x14'
GXYQNHXPCG0x82
GXYQNHXPCG 0
root@arm:~# echo 'WMKL''PYBXHO'
WMKLPYBXHO
root@arm:~# MARKER='BACF''JTTWVK' run 'echo 975000 975000 > /sys/kernel/mva_test//regulators/buck3_set'
BACFJTTWVKBACFJTTWVK 0
root@arm:~# echo 'UUVV''XCBTBF'
UUVVXCBTBF
root@arm:~# MARKER='OHKX''HHTLSS' run 'i2cget -y -f 1 0x4b 0x14'
OHKXHHTLSS0x83
OHKXHHTLSS 0
root@arm:~# echo 'NBLC''GXMQSX'
NBLCGXMQSX
root@arm:~# MARKER='PWZG''UWMSMG' run 'echo 1025000 1025000 > /sys/kernel/mva_tesst/regulators/buck3_set'
PWZGUWMSMGPWZGUWMSMG 0
root@arm:~# echo 'AZSJ''AJUGAB'
AZSJAJUGAB
root@arm:~# MARKER='NSYT''WTATOW' run 'i2cget -y -f 1 0x4b 0x14'
NSYTWTATOW0x84
NSYTWTATOW 0
root@arm:~# echo 'XECE''HSPPQA'
XECEHSPPQA
root@arm:~# MARKER='LNQE''YVSQTK' run 'echo 1075000 1075000 > /sys/kernel/mva_tesst/regulators/buck3_set'
LNQEYVSQTKLNQEYVSQTK 0
root@arm:~# echo 'CGJM''KAEVQK'
CGJMKAEVQK
root@arm:~# MARKER='HBJC''YNZHZP' run 'i2cget -y -f 1 0x4b 0x14'
HBJCYNZHZP0x85
HBJCYNZHZP 0
root@arm:~# echo 'BQPO''BUKHXO'
BQPOBUKHXO
root@arm:~# MARKER='EUCF''YOXFEF' run 'echo 1175000 1175000 > /sys/kernel/mva_tesst/regulators/buck3_set'
EUCFYOXFEFEUCFYOXFEF 0
root@arm:~# echo 'TZVP''CJWAXS'
TZVPCJWAXS
root@arm:~# MARKER='ZAOQ''QNJHEV' run 'i2cget -y -f 1 0x4b 0x14'
ZAOQQNJHEV0x86
ZAOQQNJHEV 0
root@arm:~# echo 'OYHV''PAJQWW'
OYHVPAJQWW
root@arm:~# MARKER='QYLH''ABSUSA' run 'echo 1325000 1325000 > /sys/kernel/mva_tesst/regulators/buck3_set'
QYLHABSUSAQYLHABSUSA 0
root@arm:~# echo 'KPSC''XEMHUE'
KPSCXEMHUE
root@arm:~# MARKER='OLMY''FNHOPG' run 'i2cget -y -f 1 0x4b 0x14'
OLMYFNHOPG0x87
OLMYFNHOPG 0
root@arm:~# echo 'HXLV''BMKVCL'
HXLVBMKVCL
root@arm:~# MARKER='TZLS''VWWCJN' run 'grep -r -l rohm,bd71847 /proc/device-tree  | sed '"'"'s![^/]*$!!'"'"''
TZLSVWWCJN/proc/device-tree/ocp/interconnect@48000000/segment@0/target-module@2a000/i2c@0/pmic@4b/
TZLSVWWCJN 0
root@arm:~# echo 'QEWO''JLZZZO'
QEWOJLZZZO
root@arm:~# MARKER='UZJY''XUBOZT' run 'test -f /proc/device-tree/ocp/interconnectt\@48000000/segment\@0/target-module\@2a000/i2c\@0/pmic\@4b/regulators/BUCK4/rohmm,no-regulator-enable-control ;echo $?'
UZJYXUBOZT1
UZJYXUBOZT 0
root@arm:~# echo 'XQPH''WNQZUO'
XQPHWNQZUO
root@arm:~# MARKER='JVKB''TMTTJG' run 'i2cget -y -f 1 0x4b 0xa'
JVKBTMTTJG0x02
JVKBTMTTJG 0
root@arm:~# echo 'AYXK''PYMXJZ'
AYXKPYMXJZ
root@arm:~# MARKER='KHUS''BUHXOB' run 'echo 3000000 3000000 > /sys/kernel/mva_tesst/regulators/buck4_set'
KHUSBUHXOBKHUSBUHXOB 0
root@arm:~# echo 'AFFY''ZMZJXB'
AFFYZMZJXB
root@arm:~# MARKER='WPAO''YWBSGS' run 'i2cget -y -f 1 0x4b 0x15'
WPAOYWBSGS0x00
WPAOYWBSGS 0
root@arm:~# echo 'STAU''GTEFZM'
STAUGTEFZM
root@arm:~# MARKER='KJBS''ZMFUGS' run 'echo 3100000 3100000 > /sys/kernel/mva_tesst/regulators/buck4_set'
KJBSZMFUGSKJBSZMFUGS 0
root@arm:~# echo 'JCAV''LJKEEJ'
JCAVLJKEEJ
root@arm:~# MARKER='LMJH''AUFEHN' run 'i2cget -y -f 1 0x4b 0x15'
LMJHAUFEHN0x01
LMJHAUFEHN 0
root@arm:~# echo 'EMMO''VEMKBV'
EMMOVEMKBV
root@arm:~# MARKER='WEJE''ZCBHWS' run 'echo 3200000 3200000 > /sys/kernel/mva_tesst/regulators/buck4_set'
WEJEZCBHWSWEJEZCBHWS 0
root@arm:~# echo 'WYYS''YYNBGT'
WYYSYYNBGT
root@arm:~# MARKER='JGWW''QFFTFW' run 'i2cget -y -f 1 0x4b 0x15'
JGWWQFFTFW0x02
JGWWQFFTFW 0
root@arm:~# echo 'YWMB''EBPAGO'
YWMBEBPAGO
root@arm:~# MARKER='KEJE''AYNZUT' run 'echo 3300000 3300000 > /sys/kernel/mva_tesst/regulators/buck4_set'
KEJEAYNZUTKEJEAYNZUT 0
root@arm:~# echo 'FXAE''CQYZCM'
FXAECQYZCM
root@arm:~# MARKER='GSKG''EQUCBT' run 'i2cget -y -f 1 0x4b 0x15'
GSKGEQUCBT0x03
GSKGEQUCBT 0
root@arm:~# echo 'ONPE''BBSFVJ'
ONPEBBSFVJ
root@arm:~# MARKER='ETXJ''BVAENU' run 'echo 2600000 2600000 > /sys/kernel/mva_tesst/regulators/buck4_set'
ETXJBVAENUETXJBVAENU 0
root@arm:~# echo 'GYYF''NQNNNQ'
GYYFNQNNNQ
root@arm:~# MARKER='FTSA''LYGKHP' run 'i2cget -y -f 1 0x4b 0x15'
FTSALYGKHP0x40
FTSALYGKHP 0
root@arm:~# echo 'BLWN''CCOOVP'
BLWNCCOOVP
root@arm:~# MARKER='VJAM''JBKXCO' run 'echo 2700000 2700000 > /sys/kernel/mva_tesst/regulators/buck4_set'
VJAMJBKXCOVJAMJBKXCO 0
root@arm:~# echo 'NZPG''PWWZTW'
NZPGPWWZTW
root@arm:~# MARKER='XXEV''ZLQVCG' run 'i2cget -y -f 1 0x4b 0x15'
XXEVZLQVCG0x41
XXEVZLQVCG 0
root@arm:~# echo 'QBNK''OQALVC'
QBNKOQALVC
root@arm:~# MARKER='OZUV''TBHQSJ' run 'echo 2800000 2800000 > /sys/kernel/mva_tesst/regulators/buck4_set'
OZUVTBHQSJOZUVTBHQSJ 0
root@arm:~# echo 'YONE''WCMFCG'
YONEWCMFCG
root@arm:~# MARKER='HPMU''YPANHF' run 'i2cget -y -f 1 0x4b 0x15'
HPMUYPANHF0x42
HPMUYPANHF 0
root@arm:~# echo 'SMUK''FEYTFS'
SMUKFEYTFS
root@arm:~# MARKER='OUPP''LQGPYF' run 'echo 2900000 2900000 > /sys/kernel/mva_tesst/regulators/buck4_set'
OUPPLQGPYFOUPPLQGPYF 0
root@arm:~# echo 'EGNH''ZJJECB'
EGNHZJJECB
root@arm:~# MARKER='JEYU''FZHUEC' run 'i2cget -y -f 1 0x4b 0x15'
JEYUFZHUEC0x43
JEYUFZHUEC 0
root@arm:~# echo 'POXE''OHGNUH'
POXEOHGNUH
root@arm:~# MARKER='AQZW''GTETFT' run 'grep -r -l rohm,bd71847 /proc/device-tree  | sed '"'"'s![^/]*$!!'"'"''
AQZWGTETFT/proc/device-tree/ocp/interconnect@48000000/segment@0/target-module@2a000/i2c@0/pmic@4b/
AQZWGTETFT 0
root@arm:~# echo 'PHQM''TOSZKF'
PHQMTOSZKF
root@arm:~# MARKER='VZTL''WOFPFB' run 'test -f /proc/device-tree/ocp/interconnectt\@48000000/segment\@0/target-module\@2a000/i2c\@0/pmic\@4b/regulators/BUCK5/rohmm,no-regulator-enable-control ;echo $?'
VZTLWOFPFB1
VZTLWOFPFB 0
root@arm:~# echo 'YTLQ''ELAZBU'
YTLQELAZBU
root@arm:~# MARKER='ZOMV''YVVAAU' run 'i2cget -y -f 1 0x4b 0xb'
ZOMVYVVAAU0x02
ZOMVYVVAAU 0
root@arm:~# echo 'KKXW''WVENVW'
KKXWWVENVW
root@arm:~# MARKER='MWPK''OQZNKW' run 'echo 1605000 1605000 > /sys/kernel/mva_tesst/regulators/buck5_set'
MWPKOQZNKWMWPKOQZNKW 0
root@arm:~# echo 'LMNC''GOAJWX'
LMNCGOAJWX
root@arm:~# MARKER='BYEM''KOUGYL' run 'i2cget -y -f 1 0x4b 0x16'
BYEMKOUGYL0x00
BYEMKOUGYL 0
root@arm:~# echo 'MHSU''GMYUOE'
MHSUGMYUOE
root@arm:~# MARKER='WGJE''MUKNAX' run 'echo 1695000 1695000 > /sys/kernel/mva_tesst/regulators/buck5_set'
WGJEMUKNAXWGJEMUKNAX 0
root@arm:~# echo 'FGGO''CKAWAA'
FGGOCKAWAA
root@arm:~# MARKER='WQNS''GZJSKK' run 'i2cget -y -f 1 0x4b 0x16'
WQNSGZJSKK0x01
WQNSGZJSKK 0
root@arm:~# echo 'YEGM''QNNBWU'
YEGMQNNBWU
root@arm:~# MARKER='KSMX''AOCEWX' run 'echo 1755000 1755000 > /sys/kernel/mva_tesst/regulators/buck5_set'
KSMXAOCEWXKSMXAOCEWX 0
root@arm:~# echo 'SLTZ''PQHZQG'
SLTZPQHZQG
root@arm:~# MARKER='NEXZ''EFOFVK' run 'i2cget -y -f 1 0x4b 0x16'
NEXZEFOFVK0x02
NEXZEFOFVK 0
root@arm:~# echo 'FCNA''LHKOUQ'
FCNALHKOUQ
root@arm:~# MARKER='LOJG''AFNXVZ' run 'echo 1800000 1800000 > /sys/kernel/mva_tesst/regulators/buck5_set'
LOJGAFNXVZLOJGAFNXVZ 0
root@arm:~# echo 'USUU''AEPNMJ'
USUUAEPNMJ
root@arm:~# MARKER='AVSQ''QQQXQF' run 'i2cget -y -f 1 0x4b 0x16'
AVSQQQQXQF0x03
AVSQQQQXQF 0
root@arm:~# echo 'CXKW''YQFHMO'
CXKWYQFHMO
root@arm:~# MARKER='QXUH''SVJMBU' run 'echo 1845000 1845000 > /sys/kernel/mva_tesst/regulators/buck5_set'
QXUHSVJMBUQXUHSVJMBU 0
root@arm:~# echo 'PULL''OUSWWU'
PULLOUSWWU
root@arm:~# MARKER='XTFU''ZGMHTN' run 'i2cget -y -f 1 0x4b 0x16'
XTFUZGMHTN0x04
XTFUZGMHTN 0
root@arm:~# echo 'CAMW''HNEUNS'
CAMWHNEUNS
root@arm:~# MARKER='LPXP''WVCFLK' run 'echo 1905000 1905000 > /sys/kernel/mva_tesst/regulators/buck5_set'
LPXPWVCFLKLPXPWVCFLK 0
root@arm:~# echo 'GULC''MPBFEQ'
GULCMPBFEQ
root@arm:~# MARKER='SQNW''CQEVOF' run 'i2cget -y -f 1 0x4b 0x16'
SQNWCQEVOF0x05
SQNWCQEVOF 0
root@arm:~# echo 'HCLA''BTCUBJ'
HCLABTCUBJ
root@arm:~# MARKER='YSHF''PKJNXX' run 'echo 1950000 1950000 > /sys/kernel/mva_tesst/regulators/buck5_set'
YSHFPKJNXXYSHFPKJNXX 0
root@arm:~# echo 'HQVG''VFHSCW'
HQVGVFHSCW
root@arm:~# MARKER='UKME''SUVCWH' run 'i2cget -y -f 1 0x4b 0x16'
UKMESUVCWH0x06
UKMESUVCWH 0
root@arm:~# echo 'POPS''BLEEUQ'
POPSBLEEUQ
root@arm:~# MARKER='OFNX''FBXBPS' run 'echo 1995000 1995000 > /sys/kernel/mva_tesst/regulators/buck5_set'
OFNXFBXBPSOFNXFBXBPS 0
root@arm:~# echo 'HWMY''TQGQZS'
HWMYTQGQZS
root@arm:~# MARKER='VTBO''UTCHYX' run 'i2cget -y -f 1 0x4b 0x16'
VTBOUTCHYX0x07
VTBOUTCHYX 0
root@arm:~# echo 'FTXM''KPOCPU'
FTXMKPOCPU
root@arm:~# MARKER='OMGU''VFMPFF' run 'grep -r -l rohm,bd71847 /proc/device-tree  | sed '"'"'s![^/]*$!!'"'"''
OMGUVFMPFF/proc/device-tree/ocp/interconnect@48000000/segment@0/target-module@2a000/i2c@0/pmic@4b/
OMGUVFMPFF 0
root@arm:~# echo 'BUQJ''WYYEJN'
BUQJWYYEJN
root@arm:~# MARKER='OOMO''MUOYUG' run 'test -f /proc/device-tree/ocp/interconnectt\@48000000/segment\@0/target-module\@2a000/i2c\@0/pmic\@4b/regulators/BUCK6/roh m,no-regulator-enable-control ;echo $?'
OOMOMUOYUG1
OOMOMUOYUG 0
root@arm:~# echo 'FSKE''UBBBWX'
FSKEUBBBWX
root@arm:~# MARKER='JHXE''BBOWTW' run 'i2cget -y -f 1 0x4b 0xc'
JHXEBBOWTW0x02
JHXEBBOWTW 0
root@arm:~# echo 'SSGM''HFWTKS'
SSGMHFWTKS
root@arm:~# MARKER='LBES''GQVMXX' run 'echo 800000 800000 > /sys/kernel/mva_test//regulators/buck6_set'
LBESGQVMXXLBESGQVMXX 0
root@arm:~# echo 'UWQE''YTGVWN'
UWQEYTGVWN
root@arm:~# MARKER='LFQC''KCCFPC' run 'i2cget -y -f 1 0x4b 0x17'
LFQCKCCFPC0x00
LFQCKCCFPC 0
root@arm:~# echo 'OWHT''XMZHNZ'
OWHTXMZHNZ
root@arm:~# MARKER='KHLO''HQCOYJ' run 'echo 810000 810000 > /sys/kernel/mva_test//regulators/buck6_set'
KHLOHQCOYJKHLOHQCOYJ 0
root@arm:~# echo 'GCQS''NTFBQC'
GCQSNTFBQC
root@arm:~# MARKER='CHXN''FKUFMZ' run 'i2cget -y -f 1 0x4b 0x17'
CHXNFKUFMZ0x01
CHXNFKUFMZ 0
root@arm:~# echo 'YWZV''FKMOCK'
YWZVFKMOCK
root@arm:~# MARKER='JTVO''MWGQFW' run 'echo 820000 820000 > /sys/kernel/mva_test//regulators/buck6_set'
JTVOMWGQFWJTVOMWGQFW 0
root@arm:~# echo 'CAOH''WHMLZV'
CAOHWHMLZV
root@arm:~# MARKER='FPCO''ETOVXT' run 'i2cget -y -f 1 0x4b 0x17'
FPCOETOVXT0x02
FPCOETOVXT 0
root@arm:~# echo 'EMYC''SCSTSB'
EMYCSCSTSB
root@arm:~# MARKER='ZZVF''LUPAHM' run 'echo 830000 830000 > /sys/kernel/mva_test//regulators/buck6_set'
ZZVFLUPAHMZZVFLUPAHM 0
root@arm:~# echo 'AQPJ''ZYYJGQ'
AQPJZYYJGQ
root@arm:~# MARKER='VPNY''HJBEVS' run 'i2cget -y -f 1 0x4b 0x17'
VPNYHJBEVS0x03
VPNYHJBEVS 0
root@arm:~# echo 'VGVS''GVULMJ'
VGVSGVULMJ
root@arm:~# MARKER='NEQB''KGCHLQ' run 'echo 840000 840000 > /sys/kernel/mva_test//regulators/buck6_set'
NEQBKGCHLQNEQBKGCHLQ 0
root@arm:~# echo 'XHNJ''QWOWQA'
XHNJQWOWQA
root@arm:~# MARKER='VSTU''XJTCZA' run 'i2cget -y -f 1 0x4b 0x17'
VSTUXJTCZA0x04
VSTUXJTCZA 0
root@arm:~# echo 'NQQE''HYGMFU'
NQQEHYGMFU
root@arm:~# MARKER='AUEM''TLAVWX' run 'echo 850000 850000 > /sys/kernel/mva_test//regulators/buck6_set'
AUEMTLAVWXAUEMTLAVWX 0
root@arm:~# echo 'BMKS''VQYWAL'
BMKSVQYWAL
root@arm:~# MARKER='BYQA''SLLBMG' run 'i2cget -y -f 1 0x4b 0x17'
BYQASLLBMG0x05
BYQASLLBMG 0
root@arm:~# echo 'WTSS''MPSCJY'
WTSSMPSCJY
root@arm:~# MARKER='AMCM''XKKUSP' run 'echo 860000 860000 > /sys/kernel/mva_test//regulators/buck6_set'
AMCMXKKUSPAMCMXKKUSP 0
root@arm:~# echo 'BHUH''YTWBPA'
BHUHYTWBPA
root@arm:~# MARKER='XZAV''SSVPVV' run 'i2cget -y -f 1 0x4b 0x17'
XZAVSSVPVV0x06
XZAVSSVPVV 0
root@arm:~# echo 'TWOL''CWOVHE'
TWOLCWOVHE
root@arm:~# MARKER='CAOF''TLEJZZ' run 'echo 870000 870000 > /sys/kernel/mva_test//regulators/buck6_set'
CAOFTLEJZZCAOFTLEJZZ 0
root@arm:~# echo 'HGVQ''WKWFZF'
HGVQWKWFZF
root@arm:~# MARKER='XGMG''ZUBFZH' run 'i2cget -y -f 1 0x4b 0x17'
XGMGZUBFZH0x07
XGMGZUBFZH 0
root@arm:~# echo 'ZGUS''ZOQGQC'
ZGUSZOQGQC
root@arm:~# MARKER='GUTP''TKKAAH' run 'echo 880000 880000 > /sys/kernel/mva_test//regulators/buck6_set'
GUTPTKKAAHGUTPTKKAAH 0
root@arm:~# echo 'NVSC''QFHPKK'
NVSCQFHPKK
root@arm:~# MARKER='GYVL''OTXWJL' run 'i2cget -y -f 1 0x4b 0x17'
GYVLOTXWJL0x08
GYVLOTXWJL 0
root@arm:~# echo 'OOBP''PTYVJE'
OOBPPTYVJE
root@arm:~# MARKER='WAJF''ZXACFG' run 'echo 890000 890000 > /sys/kernel/mva_test//regulators/buck6_set'
WAJFZXACFGWAJFZXACFG 0
root@arm:~# echo 'KWXO''OVBJFV'
KWXOOVBJFV
root@arm:~# MARKER='LSWG''QUWMVL' run 'i2cget -y -f 1 0x4b 0x17'
LSWGQUWMVL0x09
LSWGQUWMVL 0
root@arm:~# echo 'YKGH''ONVBBU'
YKGHONVBBU
root@arm:~# MARKER='HFKC''TKLBJQ' run 'echo 900000 900000 > /sys/kernel/mva_test//regulators/buck6_set'
HFKCTKLBJQHFKCTKLBJQ 0
root@arm:~# echo 'LOYJ''NAOFFT'
LOYJNAOFFT
root@arm:~# MARKER='NMAJ''KGZCNE' run 'i2cget -y -f 1 0x4b 0x17'
NMAJKGZCNE0x0a
NMAJKGZCNE 0
root@arm:~# echo 'USAL''HQELJQ'
USALHQELJQ
root@arm:~# MARKER='NGJY''TETWMC' run 'echo 910000 910000 > /sys/kernel/mva_test//regulators/buck6_set'
NGJYTETWMCNGJYTETWMC 0
root@arm:~# echo 'BBWG''ABHZZH'
BBWGABHZZH
root@arm:~# MARKER='AOUN''QYQMWF' run 'i2cget -y -f 1 0x4b 0x17'
AOUNQYQMWF0x0b
AOUNQYQMWF 0
root@arm:~# echo 'TWOO''PFCBKJ'
TWOOPFCBKJ
root@arm:~# MARKER='YLUJ''XAUAHB' run 'echo 920000 920000 > /sys/kernel/mva_test//regulators/buck6_set'
YLUJXAUAHBYLUJXAUAHB 0
root@arm:~# echo 'PUES''JWUHWG'
PUESJWUHWG
root@arm:~# MARKER='AUCY''ZGYQYU' run 'i2cget -y -f 1 0x4b 0x17'
AUCYZGYQYU0x0c
AUCYZGYQYU 0
root@arm:~# echo 'SOXU''SWHVJJ'
SOXUSWHVJJ
root@arm:~# MARKER='AXTY''MHJHNM' run 'echo 930000 930000 > /sys/kernel/mva_test//regulators/buck6_set'
AXTYMHJHNMAXTYMHJHNM 0
root@arm:~# echo 'XFBT''PEVQCV'
XFBTPEVQCV
root@arm:~# MARKER='QJLP''JZOASL' run 'i2cget -y -f 1 0x4b 0x17'
QJLPJZOASL0x0d
QJLPJZOASL 0
root@arm:~# echo 'CEXV''JNLBAJ'
CEXVJNLBAJ
root@arm:~# MARKER='WMLV''NMNHSY' run 'echo 940000 940000 > /sys/kernel/mva_test//regulators/buck6_set'
WMLVNMNHSYWMLVNMNHSY 0
root@arm:~# echo 'HMHP''KTALLP'
HMHPKTALLP
root@arm:~# MARKER='TXKQ''VOFAHQ' run 'i2cget -y -f 1 0x4b 0x17'
TXKQVOFAHQ0x0e
TXKQVOFAHQ 0
root@arm:~# echo 'TZCT''UEPMVC'
TZCTUEPMVC
root@arm:~# MARKER='SHOT''VHBSGX' run 'echo 950000 950000 > /sys/kernel/mva_test//regulators/buck6_set'
SHOTVHBSGXSHOTVHBSGX 0
root@arm:~# echo 'YZYJ''JXTFAU'
YZYJJXTFAU
root@arm:~# MARKER='FWYK''XTSACP' run 'i2cget -y -f 1 0x4b 0x17'
FWYKXTSACP0x0f
FWYKXTSACP 0
root@arm:~# echo 'UVCY''GXMLEL'
UVCYGXMLEL
root@arm:~# MARKER='YAVM''QWUWET' run 'echo 960000 960000 > /sys/kernel/mva_test//regulators/buck6_set'
YAVMQWUWETYAVMQWUWET 0
root@arm:~# echo 'NQNF''OMHXSU'
NQNFOMHXSU
root@arm:~# MARKER='ESZX''VNLNPY' run 'i2cget -y -f 1 0x4b 0x17'
ESZXVNLNPY0x10
ESZXVNLNPY 0
root@arm:~# echo 'QGAZ''NEKKWA'
QGAZNEKKWA
root@arm:~# MARKER='VWVW''NWUECJ' run 'echo 970000 970000 > /sys/kernel/mva_test//regulators/buck6_set'
VWVWNWUECJVWVWNWUECJ 0
root@arm:~# echo 'KSJY''QUOMSG'
KSJYQUOMSG
root@arm:~# MARKER='FEWF''VMPNSE' run 'i2cget -y -f 1 0x4b 0x17'
FEWFVMPNSE0x11
FEWFVMPNSE 0
root@arm:~# echo 'JYFL''WBKQTJ'
JYFLWBKQTJ
root@arm:~# MARKER='CNYS''CWECLK' run 'echo 980000 980000 > /sys/kernel/mva_test//regulators/buck6_set'
CNYSCWECLKCNYSCWECLK 0
root@arm:~# echo 'ZNGE''KFLXAV'
ZNGEKFLXAV
root@arm:~# MARKER='AWON''SFXWXH' run 'i2cget -y -f 1 0x4b 0x17'
AWONSFXWXH0x12
AWONSFXWXH 0
root@arm:~# echo 'FSEF''OMACOA'
FSEFOMACOA
root@arm:~# MARKER='UMXJ''GFZATF' run 'echo 990000 990000 > /sys/kernel/mva_test//regulators/buck6_set'
UMXJGFZATFUMXJGFZATF 0
root@arm:~# echo 'FLEH''LFXTPG'
FLEHLFXTPG
root@arm:~# MARKER='COHN''QUNPAY' run 'i2cget -y -f 1 0x4b 0x17'
COHNQUNPAY0x13
COHNQUNPAY 0
root@arm:~# echo 'TOJA''EZOMLE'
TOJAEZOMLE
root@arm:~# MARKER='FGCA''GXFZJT' run 'echo 1000000 1000000 > /sys/kernel/mva_tesst/regulators/buck6_set'
FGCAGXFZJTFGCAGXFZJT 0
root@arm:~# echo 'WCKX''YBAKZK'
WCKXYBAKZK
root@arm:~# MARKER='JLXJ''AZAYQH' run 'i2cget -y -f 1 0x4b 0x17'
JLXJAZAYQH0x14
JLXJAZAYQH 0
root@arm:~# echo 'TPVO''PSJLOX'
TPVOPSJLOX
root@arm:~# MARKER='FXXM''SUTPZA' run 'echo 1010000 1010000 > /sys/kernel/mva_tesst/regulators/buck6_set'
FXXMSUTPZAFXXMSUTPZA 0
root@arm:~# echo 'XQJA''KZEPUQ'
XQJAKZEPUQ
root@arm:~# MARKER='BCNF''QUCJZA' run 'i2cget -y -f 1 0x4b 0x17'
BCNFQUCJZA0x15
BCNFQUCJZA 0
root@arm:~# echo 'SPAE''UQFGGU'
SPAEUQFGGU
root@arm:~# MARKER='JVBE''ECWUSY' run 'echo 1020000 1020000 > /sys/kernel/mva_tesst/regulators/buck6_set'
JVBEECWUSYJVBEECWUSY 0
root@arm:~# echo 'LNSG''CZSPNU'
LNSGCZSPNU
root@arm:~# MARKER='LOOF''AMJWPP' run 'i2cget -y -f 1 0x4b 0x17'
LOOFAMJWPP0x16
LOOFAMJWPP 0
root@arm:~# echo 'FUKM''FWNGTO'
FUKMFWNGTO
root@arm:~# MARKER='CVHU''AEEVLT' run 'echo 1030000 1030000 > /sys/kernel/mva_tesst/regulators/buck6_set'
CVHUAEEVLTCVHUAEEVLT 0
root@arm:~# echo 'UPCC''EFZEJJ'
UPCCEFZEJJ
root@arm:~# MARKER='TXEA''CHLWCU' run 'i2cget -y -f 1 0x4b 0x17'
TXEACHLWCU0x17
TXEACHLWCU 0
root@arm:~# echo 'VSAM''VUMFEQ'
VSAMVUMFEQ
root@arm:~# MARKER='QJBL''QFTAYM' run 'echo 1040000 1040000 > /sys/kernel/mva_tesst/regulators/buck6_set'
QJBLQFTAYMQJBLQFTAYM 0
root@arm:~# echo 'GFCL''XWMSUX'
GFCLXWMSUX
root@arm:~# MARKER='GSOC''WSXVTF' run 'i2cget -y -f 1 0x4b 0x17'
GSOCWSXVTF0x18
GSOCWSXVTF 0
root@arm:~# echo 'VJZU''UZEJWT'
VJZUUZEJWT
root@arm:~# MARKER='LZBX''SJXGBS' run 'echo 1050000 1050000 > /sys/kernel/mva_tesst/regulators/buck6_set'
LZBXSJXGBSLZBXSJXGBS 0
root@arm:~# echo 'YZTL''CZKKPY'
YZTLCZKKPY
root@arm:~# MARKER='VHKF''FGBVGB' run 'i2cget -y -f 1 0x4b 0x17'
VHKFFGBVGB0x19
VHKFFGBVGB 0
root@arm:~# echo 'JMFK''CCHFUG'
JMFKCCHFUG
root@arm:~# MARKER='BNZV''PLAUUB' run 'echo 1060000 1060000 > /sys/kernel/mva_tesst/regulators/buck6_set'
BNZVPLAUUBBNZVPLAUUB 0
root@arm:~# echo 'KSBP''KHVNQJ'
KSBPKHVNQJ
root@arm:~# MARKER='OLTB''GNYYBZ' run 'i2cget -y -f 1 0x4b 0x17'
OLTBGNYYBZ0x1a
OLTBGNYYBZ 0
root@arm:~# echo 'WNBA''AZHBOA'
WNBAAZHBOA
root@arm:~# MARKER='ZMXJ''LSGPUH' run 'echo 1070000 1070000 > /sys/kernel/mva_tesst/regulators/buck6_set'
ZMXJLSGPUHZMXJLSGPUH 0
root@arm:~# echo 'YNAY''GBFANB'
YNAYGBFANB
root@arm:~# MARKER='NMMM''ZSALHZ' run 'i2cget -y -f 1 0x4b 0x17'
NMMMZSALHZ0x1b
NMMMZSALHZ 0
root@arm:~# echo 'NLFT''SOMKBL'
NLFTSOMKBL
root@arm:~# MARKER='KNQA''ZJWGOU' run 'echo 1080000 1080000 > /sys/kernel/mva_tesst/regulators/buck6_set'
KNQAZJWGOUKNQAZJWGOU 0
root@arm:~# echo 'TCAU''THSJJA'
TCAUTHSJJA
root@arm:~# MARKER='NSHX''QCAPYJ' run 'i2cget -y -f 1 0x4b 0x17'
NSHXQCAPYJ0x1c
NSHXQCAPYJ 0
root@arm:~# echo 'GVFX''AKCMGA'
GVFXAKCMGA
root@arm:~# MARKER='WNFM''CTOPYB' run 'echo 1090000 1090000 > /sys/kernel/mva_tesst/regulators/buck6_set'
WNFMCTOPYBWNFMCTOPYB 0
root@arm:~# echo 'GJPK''XPGJBJ'
GJPKXPGJBJ
root@arm:~# MARKER='MCAY''TUZTTC' run 'i2cget -y -f 1 0x4b 0x17'
MCAYTUZTTC0x1d
MCAYTUZTTC 0
root@arm:~# echo 'XASW''MPZKMP'
XASWMPZKMP
root@arm:~# MARKER='HLLU''AXEFHA' run 'echo 1100000 1100000 > /sys/kernel/mva_tesst/regulators/buck6_set'
HLLUAXEFHAHLLUAXEFHA 0
root@arm:~# echo 'JTPS''HPUETS'
JTPSHPUETS
root@arm:~# MARKER='EMZV''ATGSVM' run 'i2cget -y -f 1 0x4b 0x17'
EMZVATGSVM0x1e
EMZVATGSVM 0
root@arm:~# echo 'OGFS''NCBSPF'
OGFSNCBSPF
root@arm:~# MARKER='GZBX''VMNUMJ' run 'echo 1110000 1110000 > /sys/kernel/mva_tesst/regulators/buck6_set'
GZBXVMNUMJGZBXVMNUMJ 0
root@arm:~# echo 'JBNM''GJLOSL'
JBNMGJLOSL
root@arm:~# MARKER='FPLH''ALSWSJ' run 'i2cget -y -f 1 0x4b 0x17'
FPLHALSWSJ0x1f
FPLHALSWSJ 0
root@arm:~# echo 'WSHM''SMPLOO'
WSHMSMPLOO
root@arm:~# MARKER='KKLQ''AJXFUW' run 'echo 1120000 1120000 > /sys/kernel/mva_tesst/regulators/buck6_set'
KKLQAJXFUWKKLQAJXFUW 0
root@arm:~# echo 'LMNJ''FSLCUQ'
LMNJFSLCUQ
root@arm:~# MARKER='ZAES''SHMBXX' run 'i2cget -y -f 1 0x4b 0x17'
ZAESSHMBXX0x20
ZAESSHMBXX 0
root@arm:~# echo 'EYLJ''MTONNE'
EYLJMTONNE
root@arm:~# MARKER='ESBV''CEBMSS' run 'echo 1130000 1130000 > /sys/kernel/mva_tesst/regulators/buck6_set'
ESBVCEBMSSESBVCEBMSS 0
root@arm:~# echo 'QWOM''YXLLTM'
QWOMYXLLTM
root@arm:~# MARKER='WZKP''XQVGEJ' run 'i2cget -y -f 1 0x4b 0x17'
WZKPXQVGEJ0x21
WZKPXQVGEJ 0
root@arm:~# echo 'FKGO''PBQUUH'
FKGOPBQUUH
root@arm:~# MARKER='PEQJ''GFPXLF' run 'echo 1140000 1140000 > /sys/kernel/mva_tesst/regulators/buck6_set'
PEQJGFPXLFPEQJGFPXLF 0
root@arm:~# echo 'GEAW''MFEBWC'
GEAWMFEBWC
root@arm:~# MARKER='WSYO''LLZMSZ' run 'i2cget -y -f 1 0x4b 0x17'
WSYOLLZMSZ0x22
WSYOLLZMSZ 0
root@arm:~# echo 'FSSO''EESPPX'
FSSOEESPPX
root@arm:~# MARKER='PTZF''HJOSXG' run 'echo 1150000 1150000 > /sys/kernel/mva_tesst/regulators/buck6_set'
PTZFHJOSXGPTZFHJOSXG 0
root@arm:~# echo 'NYNX''LYXONC'
NYNXLYXONC
root@arm:~# MARKER='VSUF''XZYEXN' run 'i2cget -y -f 1 0x4b 0x17'
VSUFXZYEXN0x23
VSUFXZYEXN 0
root@arm:~# echo 'BZOT''GEFTHP'
BZOTGEFTHP
root@arm:~# MARKER='QPAC''LSEEVB' run 'echo 1160000 1160000 > /sys/kernel/mva_tesst/regulators/buck6_set'
QPACLSEEVBQPACLSEEVB 0
root@arm:~# echo 'SVGX''ZMUMEC'
SVGXZMUMEC
root@arm:~# MARKER='FWVL''FSGKEV' run 'i2cget -y -f 1 0x4b 0x17'
FWVLFSGKEV0x24
FWVLFSGKEV 0
root@arm:~# echo 'YNWQ''OMKOKO'
YNWQOMKOKO
root@arm:~# MARKER='EOKH''OHMXBU' run 'echo 1170000 1170000 > /sys/kernel/mva_tesst/regulators/buck6_set'
EOKHOHMXBUEOKHOHMXBU 0
root@arm:~# echo 'MNWK''NKEWFP'
MNWKNKEWFP
root@arm:~# MARKER='OZSX''YZLSZW' run 'i2cget -y -f 1 0x4b 0x17'
OZSXYZLSZW0x25
OZSXYZLSZW 0
root@arm:~# echo 'CUTE''POOHAA'
CUTEPOOHAA
root@arm:~# MARKER='FJOY''ZOTNVU' run 'echo 1180000 1180000 > /sys/kernel/mva_tesst/regulators/buck6_set'
FJOYZOTNVUFJOYZOTNVU 0
root@arm:~# echo 'NAAE''ZLQVVN'
NAAEZLQVVN
root@arm:~# MARKER='SKEW''PTCMJE' run 'i2cget -y -f 1 0x4b 0x17'
SKEWPTCMJE0x26
SKEWPTCMJE 0
root@arm:~# echo 'KCOT''BUQJAQ'
KCOTBUQJAQ
root@arm:~# MARKER='QUTO''FUWANJ' run 'echo 1190000 1190000 > /sys/kernel/mva_tesst/regulators/buck6_set'
QUTOFUWANJQUTOFUWANJ 0
root@arm:~# echo 'SBJB''JHZPUF'
SBJBJHZPUF
root@arm:~# MARKER='AWUZ''AYGTWV' run 'i2cget -y -f 1 0x4b 0x17'
AWUZAYGTWV0x27
AWUZAYGTWV 0
root@arm:~# echo 'JMNC''QAGMYS'
JMNCQAGMYS
root@arm:~# MARKER='PYJZ''QVAFJZ' run 'echo 1200000 1200000 > /sys/kernel/mva_tesst/regulators/buck6_set'
PYJZQVAFJZPYJZQVAFJZ 0
root@arm:~# echo 'FSNL''KMOKKC'
FSNLKMOKKC
root@arm:~# MARKER='EQJO''BEPCYK' run 'i2cget -y -f 1 0x4b 0x17'
EQJOBEPCYK0x28
EQJOBEPCYK 0
root@arm:~# echo 'FWOY''YKQEYM'
FWOYYKQEYM
root@arm:~# MARKER='SXXQ''LVMVGT' run 'echo 1210000 1210000 > /sys/kernel/mva_tesst/regulators/buck6_set'
SXXQLVMVGTSXXQLVMVGT 0
root@arm:~# echo 'FPLL''TZUHVB'
FPLLTZUHVB
root@arm:~# MARKER='BZWS''WCVJQO' run 'i2cget -y -f 1 0x4b 0x17'
BZWSWCVJQO0x29
BZWSWCVJQO 0
root@arm:~# echo 'QOAQ''LOAGPE'
QOAQLOAGPE
root@arm:~# MARKER='YJQE''VCYGCY' run 'echo 1220000 1220000 > /sys/kernel/mva_tesst/regulators/buck6_set'
YJQEVCYGCYYJQEVCYGCY 0
root@arm:~# echo 'MYAS''YUNUTC'
MYASYUNUTC
root@arm:~# MARKER='SAQP''HQYBJA' run 'i2cget -y -f 1 0x4b 0x17'
SAQPHQYBJA0x2a
SAQPHQYBJA 0
root@arm:~# echo 'UTVP''SSEWBJ'
UTVPSSEWBJ
root@arm:~# MARKER='NSGP''WOAFMO' run 'echo 1230000 1230000 > /sys/kernel/mva_tesst/regulators/buck6_set'
NSGPWOAFMONSGPWOAFMO 0
root@arm:~# echo 'FJZB''LLXPMW'
FJZBLLXPMW
root@arm:~# MARKER='CAXP''MHKCKB' run 'i2cget -y -f 1 0x4b 0x17'
CAXPMHKCKB0x2b
CAXPMHKCKB 0
root@arm:~# echo 'KQLW''EZEXJE'
KQLWEZEXJE
root@arm:~# MARKER='ONVT''GBKUSQ' run 'echo 1240000 1240000 > /sys/kernel/mva_tesst/regulators/buck6_set'
ONVTGBKUSQONVTGBKUSQ 0
root@arm:~# echo 'KCNM''CZOWMZ'
KCNMCZOWMZ
root@arm:~# MARKER='ZZFK''JAGMMO' run 'i2cget -y -f 1 0x4b 0x17'
ZZFKJAGMMO0x2c
ZZFKJAGMMO 0
root@arm:~# echo 'KWLH''XPXOJM'
KWLHXPXOJM
root@arm:~# MARKER='JMBP''VEXQSS' run 'echo 1250000 1250000 > /sys/kernel/mva_tesst/regulators/buck6_set'
JMBPVEXQSSJMBPVEXQSS 0
root@arm:~# echo 'VJYO''NGVMVJ'
VJYONGVMVJ
root@arm:~# MARKER='WLJO''GTLNHM' run 'i2cget -y -f 1 0x4b 0x17'
WLJOGTLNHM0x2d
WLJOGTLNHM 0
root@arm:~# echo 'LGGS''EKPGQA'
LGGSEKPGQA
root@arm:~# MARKER='NZAH''QTZBAZ' run 'echo 1260000 1260000 > /sys/kernel/mva_tesst/regulators/buck6_set'
NZAHQTZBAZNZAHQTZBAZ 0
root@arm:~# echo 'WMSF''TCJQFK'
WMSFTCJQFK
root@arm:~# MARKER='CAPJ''EFFWNP' run 'i2cget -y -f 1 0x4b 0x17'
CAPJEFFWNP0x2e
CAPJEFFWNP 0
root@arm:~# echo 'QEQC''ZNCBUU'
QEQCZNCBUU
root@arm:~# MARKER='SBPT''APMLCM' run 'echo 1270000 1270000 > /sys/kernel/mva_tesst/regulators/buck6_set'
SBPTAPMLCMSBPTAPMLCM 0
root@arm:~# echo 'OSSL''KWFLVW'
OSSLKWFLVW
root@arm:~# MARKER='XSZK''BGAQYT' run 'i2cget -y -f 1 0x4b 0x17'
XSZKBGAQYT0x2f
XSZKBGAQYT 0
root@arm:~# echo 'AYWQ''MPJQAZ'
AYWQMPJQAZ
root@arm:~# MARKER='CPQS''HSOMYJ' run 'echo 1280000 1280000 > /sys/kernel/mva_tesst/regulators/buck6_set'
CPQSHSOMYJCPQSHSOMYJ 0
root@arm:~# echo 'TVNW''GSTLLH'
TVNWGSTLLH
root@arm:~# MARKER='OGOC''NOHOSF' run 'i2cget -y -f 1 0x4b 0x17'
OGOCNOHOSF0x30
OGOCNOHOSF 0
root@arm:~# echo 'EEXL''CONBSN'
EEXLCONBSN
root@arm:~# MARKER='NJCX''CVSTZK' run 'echo 1290000 1290000 > /sys/kernel/mva_tesst/regulators/buck6_set'
NJCXCVSTZKNJCXCVSTZK 0
root@arm:~# echo 'BCVT''UFHOPU'
BCVTUFHOPU
root@arm:~# MARKER='QYLT''TZMJAE' run 'i2cget -y -f 1 0x4b 0x17'
QYLTTZMJAE0x31
QYLTTZMJAE 0
root@arm:~# echo 'MJAK''ZEHEVQ'
MJAKZEHEVQ
root@arm:~# MARKER='KWYT''OGMOPB' run 'echo 1300000 1300000 > /sys/kernel/mva_tesst/regulators/buck6_set'
KWYTOGMOPBKWYTOGMOPB 0
root@arm:~# echo 'CFUA''UMBVCM'
CFUAUMBVCM
root@arm:~# MARKER='UPGU''XQATXV' run 'i2cget -y -f 1 0x4b 0x17'
UPGUXQATXV0x32
UPGUXQATXV 0
root@arm:~# echo 'JGWQ''JLLPBK'
JGWQJLLPBK
root@arm:~# MARKER='WCHY''UNUCSH' run 'echo 1310000 1310000 > /sys/kernel/mva_tesst/regulators/buck6_set'
WCHYUNUCSHWCHYUNUCSH 0
root@arm:~# echo 'HSTW''YGGHYF'
HSTWYGGHYF
root@arm:~# MARKER='LAPC''AUJALF' run 'i2cget -y -f 1 0x4b 0x17'
LAPCAUJALF0x33
LAPCAUJALF 0
root@arm:~# echo 'LGPO''GNUCEC'
LGPOGNUCEC
root@arm:~# MARKER='SJMZ''ABBBWL' run 'echo 1320000 1320000 > /sys/kernel/mva_tesst/regulators/buck6_set'
SJMZABBBWLSJMZABBBWL 0
root@arm:~# echo 'QSGL''QPAPLA'
QSGLQPAPLA
root@arm:~# MARKER='HXWK''LHNAQN' run 'i2cget -y -f 1 0x4b 0x17'
HXWKLHNAQN0x34
HXWKLHNAQN 0
root@arm:~# echo 'XVBH''UKJBVO'
XVBHUKJBVO
root@arm:~# MARKER='CGKQ''ZSBCJM' run 'echo 1330000 1330000 > /sys/kernel/mva_tesst/regulators/buck6_set'
CGKQZSBCJMCGKQZSBCJM 0
root@arm:~# echo 'YXLB''JMOJYC'
YXLBJMOJYC
root@arm:~# MARKER='FVXK''XGEVNP' run 'i2cget -y -f 1 0x4b 0x17'
FVXKXGEVNP0x35
FVXKXGEVNP 0
root@arm:~# echo 'YOAC''SYUMHM'
YOACSYUMHM
root@arm:~# MARKER='FQHJ''JFBLJB' run 'echo 1340000 1340000 > /sys/kernel/mva_tesst/regulators/buck6_set'
FQHJJFBLJBFQHJJFBLJB 0
root@arm:~# echo 'KTJW''HCQEMM'
KTJWHCQEMM
root@arm:~# MARKER='HQOU''WEJEOS' run 'i2cget -y -f 1 0x4b 0x17'
HQOUWEJEOS0x36
HQOUWEJEOS 0
root@arm:~# echo 'MAVY''PUNNTW'
MAVYPUNNTW
root@arm:~# MARKER='CZZT''EZKSMG' run 'echo 1350000 1350000 > /sys/kernel/mva_tesst/regulators/buck6_set'
CZZTEZKSMGCZZTEZKSMG 0
root@arm:~# echo 'PVJA''BSXJXU'
PVJABSXJXU
root@arm:~# MARKER='WWTF''ZSOGTQ' run 'i2cget -y -f 1 0x4b 0x17'
WWTFZSOGTQ0x37
WWTFZSOGTQ 0
root@arm:~# echo 'EUZK''MKUSPG'
EUZKMKUSPG
root@arm:~# MARKER='AHVF''SJZMGJ' run 'echo 1360000 1360000 > /sys/kernel/mva_tesst/regulators/buck6_set'
AHVFSJZMGJAHVFSJZMGJ 0
root@arm:~# echo 'PSKV''QAEVHN'
PSKVQAEVHN
root@arm:~# MARKER='ZWZK''OYUKCC' run 'i2cget -y -f 1 0x4b 0x17'
ZWZKOYUKCC0x38
ZWZKOYUKCC 0
root@arm:~# echo 'UYSZ''VNJKXV'
UYSZVNJKXV
root@arm:~# MARKER='OJNE''MTHGYY' run 'echo 1370000 1370000 > /sys/kernel/mva_tesst/regulators/buck6_set'
OJNEMTHGYYOJNEMTHGYY 0
root@arm:~# echo 'UBVW''BSABGO'
UBVWBSABGO
root@arm:~# MARKER='TNHU''QAEVPX' run 'i2cget -y -f 1 0x4b 0x17'
TNHUQAEVPX0x39
TNHUQAEVPX 0
root@arm:~# echo 'WYPJ''KEOSSF'
WYPJKEOSSF
root@arm:~# MARKER='MNOZ''SHONYS' run 'echo 1380000 1380000 > /sys/kernel/mva_tesst/regulators/buck6_set'
MNOZSHONYSMNOZSHONYS 0
root@arm:~# echo 'ZOVE''CAFTOE'
ZOVECAFTOE
root@arm:~# MARKER='PMOX''QOTWHJ' run 'i2cget -y -f 1 0x4b 0x17'
PMOXQOTWHJ0x3a
PMOXQOTWHJ 0
root@arm:~# echo 'MXAB''YXJBGW'
MXABYXJBGW
root@arm:~# MARKER='QHLM''YKSVXY' run 'echo 1390000 1390000 > /sys/kernel/mva_tesst/regulators/buck6_set'
QHLMYKSVXYQHLMYKSVXY 0
root@arm:~# echo 'YSTA''ZYVSBX'
YSTAZYVSBX
root@arm:~# MARKER='WBJC''YJTXWM' run 'i2cget -y -f 1 0x4b 0x17'
WBJCYJTXWM0x3b
WBJCYJTXWM 0
root@arm:~# echo 'ESHZ''WOFNNF'
ESHZWOFNNF
root@arm:~# MARKER='BZWF''AWOVFX' run 'echo 1400000 1400000 > /sys/kernel/mva_tesst/regulators/buck6_set'
BZWFAWOVFXBZWFAWOVFX 0
root@arm:~# echo 'AXBA''KUTTUM'
AXBAKUTTUM
root@arm:~# MARKER='HTUP''LBWYUV' run 'i2cget -y -f 1 0x4b 0x17'
HTUPLBWYUV0x3c
HTUPLBWYUV 0
root@arm:~# echo 'ZOYK''VCHKOT'
ZOYKVCHKOT
root@arm:~# MARKER='EXKZ''EKSTWC' run 'grep -r -l rohm,bd71847 /proc/device-tree  | sed '"'"'s![^/]*$!!'"'"''
EXKZEKSTWC/proc/device-tree/ocp/interconnect@48000000/segment@0/target-module@2a000/i2c@0/pmic@4b/
EXKZEKSTWC 0
root@arm:~# echo 'EVHS''MCHOWG'
EVHSMCHOWG
root@arm:~# MARKER='MOMK''LOPWHJ' run 'test -f /proc/device-tree/ocp/interconnectt\@48000000/segment\@0/target-module\@2a000/i2c\@0/pmic\@4b/regulators/LDO1/rohm,,no-regulator-enable-control ;echo $?'
MOMKLOPWHJ1
MOMKLOPWHJ 0
root@arm:~# echo 'LBMZ''QPACPF'
LBMZQPACPF
root@arm:~# MARKER='FEGS''MQZWJL' run 'i2cget -y -f 1 0x4b 0x18'
FEGSMQZWJL0xa2
FEGSMQZWJL 0
root@arm:~# echo 'GWHQ''ZTCQLX'
GWHQZTCQLX
