Labgrid Console Logfile for main
Logfile started at 2025-12-08 16:27:26.188719
=== Log starts here ===

root@arm:~# run() { echo -n "$MARKER"; sh -c "$@"; echo "$MARKER $?"; }
root@arm:~# echo 'QGUF''MUMLQE'
QGUFMUMLQE
root@arm:~# MARKER='GKAU''YWYHLS' run 'grep -r -l rohm,bd71847 /proc/device-tree  | sed '"'"'s![^/]*$!!'"'"''
GKAUYWYHLS/proc/device-tree/ocp/interconnect@48000000/segment@0/target-module@2a000/i2c@0/pmic@4b/
GKAUYWYHLS 0
root@arm:~# echo 'UJNH''ZZLLSG'
UJNHZZLLSG
root@arm:~# MARKER='GUOY''CTTTTH' run 'test -f /proc/device-tree/ocp/interconnectt\@48000000/segment\@0/target-module\@2a000/i2c\@0/pmic\@4b/regulators/BUCK1/roh m,no-regulator-enable-control ;echo $?'
GUOYCTTTTH1
GUOYCTTTTH 0
root@arm:~# echo 'UOJY''SXESZT'
UOJYSXESZT
root@arm:~# MARKER='XVXT''HLACEF' run 'echo 1 > /sys/kernel/mva_test/regulators/bbuck1_en'
XVXTHLACEFXVXTHLACEF 0
root@arm:~# echo 'LVQG''EWJFVX'
LVQGEWJFVX
root@arm:~# MARKER='OABB''ACZKGN' run 'i2cget -y -f 1 0x4b 0x5'
OABBACZKGN0x03
OABBACZKGN 0
root@arm:~# echo 'FSNY''WXNFCX'
FSNYWXNFCX
root@arm:~# MARKER='BXZA''HUMVZZ' run 'grep -r -l rohm,bd71847 /proc/device-tree  | sed '"'"'s![^/]*$!!'"'"''
BXZAHUMVZZ/proc/device-tree/ocp/interconnect@48000000/segment@0/target-module@2a000/i2c@0/pmic@4b/
BXZAHUMVZZ 0
root@arm:~# echo 'UWOU''VAQCBE'
UWOUVAQCBE
root@arm:~# MARKER='CBCE''STPYCN' run 'test -f /proc/device-tree/ocp/interconnectt\@48000000/segment\@0/target-module\@2a000/i2c\@0/pmic\@4b/regulators/BUCK1/rohmm,no-regulator-enable-control ;echo $?'
CBCESTPYCN1
CBCESTPYCN 0
root@arm:~# echo 'VTQK''YKJHPZ'
VTQKYKJHPZ
root@arm:~# MARKER='AYLQ''KAHWSL' run 'grep -r -l rohm,bd71847 /proc/device-tree  | sed '"'"'s![^/]*$!!'"'"''
AYLQKAHWSL/proc/device-tree/ocp/interconnect@48000000/segment@0/target-module@2a000/i2c@0/pmic@4b/
AYLQKAHWSL 0
root@arm:~# echo 'TJSU''EWAVXZ'
TJSUEWAVXZ
root@arm:~# MARKER='USCM''FZOMOU' run 'test -f /proc/device-tree/ocp/interconnectt\@48000000/segment\@0/target-module\@2a000/i2c\@0/pmic\@4b/regulators/BUCK1/reguulator-always-on ;echo $?'
USCMFZOMOU1
USCMFZOMOU 0
root@arm:~# echo 'CAJK''WLPVAY'
CAJKWLPVAY
root@arm:~# MARKER='PTLL''WXTNXS' run 'echo 0 > /sys/kernel/mva_test/regulators/bbuck1_en'
PTLLWXTNXSPTLLWXTNXS 0
root@arm:~# echo 'XMXE''MCFOAM'
XMXEMCFOAM
root@arm:~# MARKER='TNET''NZZVFU' run 'i2cget -y -f 1 0x4b 0x5'
TNETNZZVFU0x02
TNETNZZVFU 0
root@arm:~# echo 'YPON''HHHFGE'
YPONHHHFGE
root@arm:~# MARKER='PFVF''AHAMAL' run 'grep -r -l rohm,bd71847 /proc/device-tree  | sed '"'"'s![^/]*$!!'"'"''
PFVFAHAMAL/proc/device-tree/ocp/interconnect@48000000/segment@0/target-module@2a000/i2c@0/pmic@4b/
PFVFAHAMAL 0
root@arm:~# echo 'TEGJ''QUEUMM'
TEGJQUEUMM
root@arm:~# MARKER='YXHN''BCJSQJ' run 'test -f /proc/device-tree/ocp/interconnectt\@48000000/segment\@0/target-module\@2a000/i2c\@0/pmic\@4b/regulators/BUCK2/rohmm,no-regulator-enable-control ;echo $?'
YXHNBCJSQJ1
YXHNBCJSQJ 0
root@arm:~# echo 'MEXC''UNYJKK'
MEXCUNYJKK
root@arm:~# MARKER='XYZO''VALVKY' run 'echo 1 > /sys/kernel/mva_test/regulators/bbuck2_en'
XYZOVALVKYXYZOVALVKY 0
root@arm:~# echo 'HSTQ''UYMZAN'
HSTQUYMZAN
root@arm:~# MARKER='BSXZ''QCEFZN' run 'i2cget -y -f 1 0x4b 0x6'
BSXZQCEFZN0x43
BSXZQCEFZN 0
root@arm:~# echo 'WKGM''YZHTKW'
WKGMYZHTKW
root@arm:~# MARKER='YBUG''AWQUVC' run 'grep -r -l rohm,bd71847 /proc/device-tree  | sed '"'"'s![^/]*$!!'"'"''
YBUGAWQUVC/proc/device-tree/ocp/interconnect@48000000/segment@0/target-module@2a000/i2c@0/pmic@4b/
YBUGAWQUVC 0
root@arm:~# echo 'OCZT''AQQYCP'
OCZTAQQYCP
root@arm:~# MARKER='JGBJ''UATKSO' run 'test -f /proc/device-tree/ocp/interconnectt\@48000000/segment\@0/target-module\@2a000/i2c\@0/pmic\@4b/regulators/BUCK2/rohmm,no-regulator-enable-control ;echo $?'
JGBJUATKSO1
JGBJUATKSO 0
root@arm:~# echo 'NWMJ''UGOYXJ'
NWMJUGOYXJ
root@arm:~# MARKER='SQUX''LHGXQC' run 'grep -r -l rohm,bd71847 /proc/device-tree  | sed '"'"'s![^/]*$!!'"'"''
SQUXLHGXQC/proc/device-tree/ocp/interconnect@48000000/segment@0/target-module@2a000/i2c@0/pmic@4b/
SQUXLHGXQC 0
root@arm:~# echo 'ZUPM''GNPXZZ'
ZUPMGNPXZZ
root@arm:~# MARKER='QOCH''OOTTBX' run 'test -f /proc/device-tree/ocp/interconnectt\@48000000/segment\@0/target-module\@2a000/i2c\@0/pmic\@4b/regulators/BUCK2/reguulator-always-on ;echo $?'
QOCHOOTTBX0
QOCHOOTTBX 0
root@arm:~# echo 'EYZA''KKWHKM'
EYZAKKWHKM
root@arm:~# MARKER='MJYE''CYATWH' run 'grep -r -l rohm,bd71847 /proc/device-tree  | sed '"'"'s![^/]*$!!'"'"''
MJYECYATWH/proc/device-tree/ocp/interconnect@48000000/segment@0/target-module@2a000/i2c@0/pmic@4b/
MJYECYATWH 0
root@arm:~# echo 'LMOA''KPZKHX'
LMOAKPZKHX
root@arm:~# MARKER='WPEQ''MQGVBF' run 'test -f /proc/device-tree/ocp/interconnectt\@48000000/segment\@0/target-module\@2a000/i2c\@0/pmic\@4b/regulators/BUCK3/rohmm,no-regulator-enable-control ;echo $?'
WPEQMQGVBF0
WPEQMQGVBF 0
root@arm:~# echo 'SENK''KUQOQA'
SENKKUQOQA
root@arm:~# MARKER='KFBM''WBVACX' run 'grep -r -l rohm,bd71847 /proc/device-tree  | sed '"'"'s![^/]*$!!'"'"''
KFBMWBVACX/proc/device-tree/ocp/interconnect@48000000/segment@0/target-module@2a000/i2c@0/pmic@4b/
KFBMWBVACX 0
root@arm:~# echo 'VUWS''ESTSPK'
VUWSESTSPK
root@arm:~# MARKER='ZUZC''ZYFTXS' run 'test -f /proc/device-tree/ocp/interconnectt\@48000000/segment\@0/target-module\@2a000/i2c\@0/pmic\@4b/regulators/BUCK3/roh m,no-regulator-enable-control ;echo $?'
ZUZCZYFTXS0
ZUZCZYFTXS 0
root@arm:~# echo 'SFQJ''OUYLHQ'
SFQJOUYLHQ
root@arm:~# MARKER='WALA''WYATPH' run 'grep -r -l rohm,bd71847 /proc/device-tree  | sed '"'"'s![^/]*$!!'"'"''
WALAWYATPH/proc/device-tree/ocp/interconnect@48000000/segment@0/target-module@2a000/i2c@0/pmic@4b/
WALAWYATPH 0
root@arm:~# echo 'PKVP''SOSPUE'
PKVPSOSPUE
root@arm:~# MARKER='UQJY''NYSNCY' run 'test -f /proc/device-tree/ocp/interconnectt\@48000000/segment\@0/target-module\@2a000/i2c\@0/pmic\@4b/regulators/BUCK4/rohmm,no-regulator-enable-control ;echo $?'
UQJYNYSNCY1
UQJYNYSNCY 0
root@arm:~# echo 'TBZF''ZKKVQX'
TBZFZKKVQX
root@arm:~# MARKER='JTVT''LSVBFE' run 'echo 1 > /sys/kernel/mva_test/regulators/bbuck4_en'
JTVTLSVBFEJTVTLSVBFE 0
root@arm:~# echo 'ZXYW''OPCHSC'
ZXYWOPCHSC
root@arm:~# MARKER='MYQZ''MCLCMU' run 'i2cget -y -f 1 0x4b 0xa'
MYQZMCLCMU0x03
MYQZMCLCMU 0
root@arm:~# echo 'PHXU''BMUGQU'
PHXUBMUGQU
root@arm:~# MARKER='ELHV''XQJLBB' run 'grep -r -l rohm,bd71847 /proc/device-tree  | sed '"'"'s![^/]*$!!'"'"''
ELHVXQJLBB/proc/device-tree/ocp/interconnect@48000000/segment@0/target-module@2a000/i2c@0/pmic@4b/
ELHVXQJLBB 0
root@arm:~# echo 'AJYX''TLVHEN'
AJYXTLVHEN
root@arm:~# MARKER='VNMO''UWLBOZ' run 'test -f /proc/device-tree/ocp/interconnectt\@48000000/segment\@0/target-module\@2a000/i2c\@0/pmic\@4b/regulators/BUCK4/rohmm,no-regulator-enable-control ;echo $?'
VNMOUWLBOZ1
VNMOUWLBOZ 0
root@arm:~# echo 'GTLC''AHBOTJ'
GTLCAHBOTJ
root@arm:~# MARKER='QFWH''XATVPC' run 'grep -r -l rohm,bd71847 /proc/device-tree  | sed '"'"'s![^/]*$!!'"'"''
QFWHXATVPC/proc/device-tree/ocp/interconnect@48000000/segment@0/target-module@2a000/i2c@0/pmic@4b/
QFWHXATVPC 0
root@arm:~# echo 'MWMW''XGELNP'
MWMWXGELNP
root@arm:~# MARKER='PSEN''CZLOUP' run 'test -f /proc/device-tree/ocp/interconnectt\@48000000/segment\@0/target-module\@2a000/i2c\@0/pmic\@4b/regulators/BUCK4/reguulator-always-on ;echo $?'
PSENCZLOUP1
PSENCZLOUP 0
root@arm:~# echo 'GEJW''GANZBB'
GEJWGANZBB
root@arm:~# MARKER='GOPV''PQQMEE' run 'echo 0 > /sys/kernel/mva_test/regulators/bbuck4_en'
GOPVPQQMEEGOPVPQQMEE 0
root@arm:~# echo 'NTAG''YHPEGL'
NTAGYHPEGL
root@arm:~# MARKER='NTFS''JJTAQX' run 'i2cget -y -f 1 0x4b 0xa'
NTFSJJTAQX0x02
NTFSJJTAQX 0
root@arm:~# echo 'QQWC''PAUZNT'
QQWCPAUZNT
root@arm:~# MARKER='VTOQ''XHOAPB' run 'grep -r -l rohm,bd71847 /proc/device-tree  | sed '"'"'s![^/]*$!!'"'"''
VTOQXHOAPB/proc/device-tree/ocp/interconnect@48000000/segment@0/target-module@2a000/i2c@0/pmic@4b/
VTOQXHOAPB 0
root@arm:~# echo 'PUGB''CUQELV'
PUGBCUQELV
root@arm:~# MARKER='VQUK''JTFVCZ' run 'test -f /proc/device-tree/ocp/interconnectt\@48000000/segment\@0/target-module\@2a000/i2c\@0/pmic\@4b/regulators/BUCK5/rohmm,no-regulator-enable-control ;echo $?'
VQUKJTFVCZ1
VQUKJTFVCZ 0
root@arm:~# echo 'OELE''CAZZQL'
OELECAZZQL
root@arm:~# MARKER='GHCL''UJXJOB' run 'echo 1 > /sys/kernel/mva_test/regulators/bbuck5_en'
GHCLUJXJOBGHCLUJXJOB 0
root@arm:~# echo 'PXJY''GGJWHF'
PXJYGGJWHF
root@arm:~# MARKER='MTYZ''ZGSQSY' run 'i2cget -y -f 1 0x4b 0xb'
MTYZZGSQSY0x03
MTYZZGSQSY 0
root@arm:~# echo 'OPFN''PBAFFB'
OPFNPBAFFB
root@arm:~# MARKER='BBHG''ASYFUZ' run 'grep -r -l rohm,bd71847 /proc/device-tree  | sed '"'"'s![^/]*$!!'"'"''
BBHGASYFUZ/proc/device-tree/ocp/interconnect@48000000/segment@0/target-module@2a000/i2c@0/pmic@4b/
BBHGASYFUZ 0
root@arm:~# echo 'XOUZ''AKNEZG'
XOUZAKNEZG
root@arm:~# MARKER='WETJ''MUFVXN' run 'test -f /proc/device-tree/ocp/interconnectt\@48000000/segment\@0/target-module\@2a000/i2c\@0/pmic\@4b/regulators/BUCK5/rohmm,no-regulator-enable-control ;echo $?'
WETJMUFVXN1
WETJMUFVXN 0
root@arm:~# echo 'KSLZ''FUVANZ'
KSLZFUVANZ
root@arm:~# MARKER='TCHB''GMBCSF' run 'grep -r -l rohm,bd71847 /proc/device-tree  | sed '"'"'s![^/]*$!!'"'"''
TCHBGMBCSF/proc/device-tree/ocp/interconnect@48000000/segment@0/target-module@2a000/i2c@0/pmic@4b/
TCHBGMBCSF 0
root@arm:~# echo 'UYOX''VHCZLZ'
UYOXVHCZLZ
root@arm:~# MARKER='NVFK''LHKLOW' run 'test -f /proc/device-tree/ocp/interconnectt\@48000000/segment\@0/target-module\@2a000/i2c\@0/pmic\@4b/regulators/BUCK5/reguulator-always-on ;echo $?'
NVFKLHKLOW1
NVFKLHKLOW 0
root@arm:~# echo 'AEKS''EFEMKF'
AEKSEFEMKF
root@arm:~# MARKER='EWOG''XLVLBL' run 'echo 0 > /sys/kernel/mva_test/regulators/bbuck5_en'
EWOGXLVLBLEWOGXLVLBL 0
root@arm:~# echo 'KGTN''NEYEHM'
KGTNNEYEHM
root@arm:~# MARKER='PYKM''ZWTZKT' run 'i2cget -y -f 1 0x4b 0xb'
PYKMZWTZKT0x02
PYKMZWTZKT 0
root@arm:~# echo 'OUCX''GFANKH'
OUCXGFANKH
root@arm:~# MARKER='LFNG''JCAOJM' run 'grep -r -l rohm,bd71847 /proc/device-tree  | sed '"'"'s![^/]*$!!'"'"''
LFNGJCAOJM/proc/device-tree/ocp/interconnect@48000000/segment@0/target-module@2a000/i2c@0/pmic@4b/
LFNGJCAOJM 0
root@arm:~# echo 'CMPO''BOQQLH'
CMPOBOQQLH
root@arm:~# MARKER='UVAX''FFUNXH' run 'test -f /proc/device-tree/ocp/interconnectt\@48000000/segment\@0/target-module\@2a000/i2c\@0/pmic\@4b/regulators/BUCK6/roh m,no-regulator-enable-control ;echo $?'
UVAXFFUNXH1
UVAXFFUNXH 0
root@arm:~# echo 'OCGW''PNGKMA'
OCGWPNGKMA
root@arm:~# MARKER='ZNAL''YHMHFQ' run 'echo 1 > /sys/kernel/mva_test/regulators/bbuck6_en'
ZNALYHMHFQZNALYHMHFQ 0
root@arm:~# echo 'FSVU''BEYJGA'
FSVUBEYJGA
root@arm:~# MARKER='ZAEP''GEEYEW' run 'i2cget -y -f 1 0x4b 0xc'
ZAEPGEEYEW0x03
ZAEPGEEYEW 0
root@arm:~# echo 'CCFH''YKTOWG'
CCFHYKTOWG
root@arm:~# MARKER='QOVZ''QQXGKJ' run 'grep -r -l rohm,bd71847 /proc/device-tree  | sed '"'"'s![^/]*$!!'"'"''
QOVZQQXGKJ/proc/device-tree/ocp/interconnect@48000000/segment@0/target-module@2a000/i2c@0/pmic@4b/
QOVZQQXGKJ 0
root@arm:~# echo 'AKWY''GYJEOY'
AKWYGYJEOY
root@arm:~# MARKER='JHKO''EAWTEC' run 'test -f /proc/device-tree/ocp/interconnectt\@48000000/segment\@0/target-module\@2a000/i2c\@0/pmic\@4b/regulators/BUCK6/rohmm,no-regulator-enable-control ;echo $?'
JHKOEAWTEC1
JHKOEAWTEC 0
root@arm:~# echo 'JZBP''NCOTMF'
JZBPNCOTMF
root@arm:~# MARKER='FKNC''MOEYSK' run 'grep -r -l rohm,bd71847 /proc/device-tree  | sed '"'"'s![^/]*$!!'"'"''
FKNCMOEYSK/proc/device-tree/ocp/interconnect@48000000/segment@0/target-module@2a000/i2c@0/pmic@4b/
FKNCMOEYSK 0
root@arm:~# echo 'OCAQ''HOSYWN'
OCAQHOSYWN
root@arm:~# MARKER='NXYU''ZZOJNZ' run 'test -f /proc/device-tree/ocp/interconnectt\@48000000/segment\@0/target-module\@2a000/i2c\@0/pmic\@4b/regulators/BUCK6/reguulator-always-on ;echo $?'
NXYUZZOJNZ1
NXYUZZOJNZ 0
root@arm:~# echo 'BTNK''BEWWEF'
BTNKBEWWEF
root@arm:~# MARKER='EZUJ''WVQYXF' run 'echo 0 > /sys/kernel/mva_test/regulators/bbuck6_en'
EZUJWVQYXFEZUJWVQYXF 0
root@arm:~# echo 'ZYKK''QALWOF'
ZYKKQALWOF
root@arm:~# MARKER='CFBO''AMMAPQ' run 'i2cget -y -f 1 0x4b 0xc'
CFBOAMMAPQ0x02
CFBOAMMAPQ 0
root@arm:~# echo 'UYHC''ZHZOZX'
UYHCZHZOZX
root@arm:~# MARKER='MBZB''SCTEJG' run 'grep -r -l rohm,bd71847 /proc/device-tree  | sed '"'"'s![^/]*$!!'"'"''
MBZBSCTEJG/proc/device-tree/ocp/interconnect@48000000/segment@0/target-module@2a000/i2c@0/pmic@4b/
MBZBSCTEJG 0
root@arm:~# echo 'EGUZ''GZZPCC'
EGUZGZZPCC
root@arm:~# MARKER='XXBE''YAHBXJ' run 'test -f /proc/device-tree/ocp/interconnectt\@48000000/segment\@0/target-module\@2a000/i2c\@0/pmic\@4b/regulators/LDO1/rohm,,no-regulator-enable-control ;echo $?'
XXBEYAHBXJ1
XXBEYAHBXJ 0
root@arm:~# echo 'CXPA''XJANOW'
CXPAXJANOW
root@arm:~# MARKER='VPPJ''EGYLOO' run 'echo 1 > /sys/kernel/mva_test/regulators/bbuck7_en'
VPPJEGYLOOVPPJEGYLOO 0
root@arm:~# echo 'HSKJ''XCTYLU'
HSKJXCTYLU
root@arm:~# MARKER='AJYJ''TYMJUZ' run 'i2cget -y -f 1 0x4b 0x18'
AJYJTYMJUZ0xe2
AJYJTYMJUZ 0
root@arm:~# echo 'XUYC''SNSKMQ'
XUYCSNSKMQ
root@arm:~# MARKER='UBYT''MWUQCF' run 'grep -r -l rohm,bd71847 /proc/device-tree  | sed '"'"'s![^/]*$!!'"'"''
UBYTMWUQCF/proc/device-tree/ocp/interconnect@48000000/segment@0/target-module@2a000/i2c@0/pmic@4b/
UBYTMWUQCF 0
root@arm:~# echo 'TQXG''KEJJEO'
TQXGKEJJEO
root@arm:~# MARKER='YXSQ''AWPWSU' run 'test -f /proc/device-tree/ocp/interconnectt\@48000000/segment\@0/target-module\@2a000/i2c\@0/pmic\@4b/regulators/LDO1/rohm,,no-regulator-enable-control ;echo $?'
YXSQAWPWSU1
YXSQAWPWSU 0
root@arm:~# echo 'WENZ''OJUGEV'
WENZOJUGEV
root@arm:~# MARKER='SZGX''NJHZOG' run 'grep -r -l rohm,bd71847 /proc/device-tree  | sed '"'"'s![^/]*$!!'"'"''
SZGXNJHZOG/proc/device-tree/ocp/interconnect@48000000/segment@0/target-module@2a000/i2c@0/pmic@4b/
SZGXNJHZOG 0
root@arm:~# echo 'CXVN''CKQAPG'
CXVNCKQAPG
root@arm:~# MARKER='NTLE''FUNJCZ' run 'test -f /proc/device-tree/ocp/interconnectt\@48000000/segment\@0/target-module\@2a000/i2c\@0/pmic\@4b/regulators/LDO1/regullator-always-on ;echo $?'
NTLEFUNJCZ1
NTLEFUNJCZ 0
root@arm:~# echo 'WHCG''MXSJQJ'
WHCGMXSJQJ
root@arm:~# MARKER='HGGG''YLJCOE' run 'echo 0 > /sys/kernel/mva_test/regulators/bbuck7_en'
HGGGYLJCOEHGGGYLJCOE 0
root@arm:~# echo 'XBYQ''ZJXKML'
XBYQZJXKML
root@arm:~# MARKER='TTEV''BTBYLP' run 'i2cget -y -f 1 0x4b 0x18'
TTEVBTBYLP0xa2
TTEVBTBYLP 0
root@arm:~# echo 'FCOV''WKPQAX'
FCOVWKPQAX
root@arm:~# MARKER='OMAU''NEHKOY' run 'grep -r -l rohm,bd71847 /proc/device-tree  | sed '"'"'s![^/]*$!!'"'"''
OMAUNEHKOY/proc/device-tree/ocp/interconnect@48000000/segment@0/target-module@2a000/i2c@0/pmic@4b/
OMAUNEHKOY 0
root@arm:~# echo 'YLAV''YLNSBB'
YLAVYLNSBB
root@arm:~# MARKER='KAZS''BOKUOQ' run 'test -f /proc/device-tree/ocp/interconnectt\@48000000/segment\@0/target-module\@2a000/i2c\@0/pmic\@4b/regulators/LDO2/rohm,,no-regulator-enable-control ;echo $?'
KAZSBOKUOQ1
KAZSBOKUOQ 0
root@arm:~# echo 'MEPY''PGFSNK'
MEPYPGFSNK
root@arm:~# MARKER='PTWB''OQKGEP' run 'echo 1 > /sys/kernel/mva_test/regulators/bbuck8_en'
PTWBOQKGEPPTWBOQKGEP 0
root@arm:~# echo 'BMAM''PSXYTE'
BMAMPSXYTE
root@arm:~# MARKER='HQXJ''JUFGAS' run 'i2cget -y -f 1 0x4b 0x19'
HQXJJUFGAS0xe0
HQXJJUFGAS 0
root@arm:~# echo 'QAYN''MHVVEU'
QAYNMHVVEU
root@arm:~# MARKER='OLBX''WYKOXC' run 'grep -r -l rohm,bd71847 /proc/device-tree  | sed '"'"'s![^/]*$!!'"'"''
OLBXWYKOXC/proc/device-tree/ocp/interconnect@48000000/segment@0/target-module@2a000/i2c@0/pmic@4b/
OLBXWYKOXC 0
root@arm:~# echo 'WLFU''HHJBOG'
WLFUHHJBOG
root@arm:~# MARKER='OCJB''LEJHEN' run 'test -f /proc/device-tree/ocp/interconnectt\@48000000/segment\@0/target-module\@2a000/i2c\@0/pmic\@4b/regulators/LDO2/rohm,,no-regulator-enable-control ;echo $?'
OCJBLEJHEN1
OCJBLEJHEN 0
root@arm:~# echo 'AXNG''WJCKML'
AXNGWJCKML
root@arm:~# MARKER='XXUU''BECSSA' run 'grep -r -l rohm,bd71847 /proc/device-tree  | sed '"'"'s![^/]*$!!'"'"''
XXUUBECSSA/proc/device-tree/ocp/interconnect@48000000/segment@0/target-module@2a000/i2c@0/pmic@4b/
XXUUBECSSA 0
root@arm:~# echo 'GLUT''EFJLGW'
GLUTEFJLGW
root@arm:~# MARKER='OZMQ''TGMQZL' run 'test -f /proc/device-tree/ocp/interconnectt\@48000000/segment\@0/target-module\@2a000/i2c\@0/pmic\@4b/regulators/LDO2/regullator-always-on ;echo $?'
OZMQTGMQZL1
OZMQTGMQZL 0
root@arm:~# echo 'VGKG''PKPNBM'
VGKGPKPNBM
root@arm:~# MARKER='LBOU''TVSOKG' run 'echo 0 > /sys/kernel/mva_test/regulators/bbuck8_en'
LBOUTVSOKGLBOUTVSOKG 0
root@arm:~# echo 'HUVS''AGLGKN'
HUVSAGLGKN
root@arm:~# MARKER='WJLK''QMPQKN' run 'i2cget -y -f 1 0x4b 0x19'
WJLKQMPQKN0xa0
WJLKQMPQKN 0
root@arm:~# echo 'TFKC''YHGSJH'
TFKCYHGSJH
root@arm:~# MARKER='PWQO''GZFQSX' run 'grep -r -l rohm,bd71847 /proc/device-tree  | sed '"'"'s![^/]*$!!'"'"''
PWQOGZFQSX/proc/device-tree/ocp/interconnect@48000000/segment@0/target-module@2a000/i2c@0/pmic@4b/
PWQOGZFQSX 0
root@arm:~# echo 'ENXG''MTEKHG'
ENXGMTEKHG
root@arm:~# MARKER='USXA''ZEMEUO' run 'test -f /proc/device-tree/ocp/interconnectt\@48000000/segment\@0/target-module\@2a000/i2c\@0/pmic\@4b/regulators/LDO3/rohm,,no-regulator-enable-control ;echo $?'
USXAZEMEUO1
USXAZEMEUO 0
root@arm:~# echo 'GGQH''KQZUUV'
GGQHKQZUUV
root@arm:~# MARKER='AYOH''ATPJSV' run 'echo 1 > /sys/kernel/mva_test/regulators/bbuck9_en'
AYOHATPJSVAYOHATPJSV 0
root@arm:~# echo 'HLZG''GZVUKT'
HLZGGZVUKT
root@arm:~# MARKER='XZGK''ASVBUF' run 'i2cget -y -f 1 0x4b 0x1a'
XZGKASVBUF0xc0
XZGKASVBUF 0
root@arm:~# echo 'NVFV''ALHYJM'
NVFVALHYJM
root@arm:~# MARKER='JSFF''UWNQZW' run 'grep -r -l rohm,bd71847 /proc/device-tree  | sed '"'"'s![^/]*$!!'"'"''
JSFFUWNQZW/proc/device-tree/ocp/interconnect@48000000/segment@0/target-module@2a000/i2c@0/pmic@4b/
JSFFUWNQZW 0
root@arm:~# echo 'BKSA''WOUFEA'
BKSAWOUFEA
root@arm:~# MARKER='VQZS''COAWPL' run 'test -f /proc/device-tree/ocp/interconnectt\@48000000/segment\@0/target-module\@2a000/i2c\@0/pmic\@4b/regulators/LDO3/rohm ,no-regulator-enable-control ;echo $?'
VQZSCOAWPL1
VQZSCOAWPL 0
root@arm:~# echo 'YXOT''LUKQGN'
YXOTLUKQGN
root@arm:~# MARKER='SEEW''VYYELZ' run 'grep -r -l rohm,bd71847 /proc/device-tree  | sed '"'"'s![^/]*$!!'"'"''
SEEWVYYELZ/proc/device-tree/ocp/interconnect@48000000/segment@0/target-module@2a000/i2c@0/pmic@4b/
SEEWVYYELZ 0
root@arm:~# echo 'VPEM''FNWMLM'
VPEMFNWMLM
root@arm:~# MARKER='KFKE''YXMBVF' run 'test -f /proc/device-tree/ocp/interconnectt\@48000000/segment\@0/target-module\@2a000/i2c\@0/pmic\@4b/regulators/LDO3/regullator-always-on ;echo $?'
KFKEYXMBVF1
KFKEYXMBVF 0
root@arm:~# echo 'BOGG''EQCWYW'
BOGGEQCWYW
root@arm:~# MARKER='KJFC''QYWWXC' run 'echo 0 > /sys/kernel/mva_test/regulators/bbuck9_en'
KJFCQYWWXCKJFCQYWWXC 0
root@arm:~# echo 'TMJY''SUPKTN'
TMJYSUPKTN
root@arm:~# MARKER='CMPB''QJAEXF' run 'i2cget -y -f 1 0x4b 0x1a'
CMPBQJAEXF0x80
CMPBQJAEXF 0
root@arm:~# echo 'MEWK''AWOJNW'
MEWKAWOJNW
root@arm:~# MARKER='VGBH''SWUJTU' run 'grep -r -l rohm,bd71847 /proc/device-tree  | sed '"'"'s![^/]*$!!'"'"''
VGBHSWUJTU/proc/device-tree/ocp/interconnect@48000000/segment@0/target-module@2a000/i2c@0/pmic@4b/
VGBHSWUJTU 0
root@arm:~# echo 'HYSS''VUJOFL'
HYSSVUJOFL
root@arm:~# MARKER='SHQC''EJLZON' run 'test -f /proc/device-tree/ocp/interconnectt\@48000000/segment\@0/target-module\@2a000/i2c\@0/pmic\@4b/regulators/LDO4/rohm,,no-regulator-enable-control ;echo $?'
SHQCEJLZON1
SHQCEJLZON 0
root@arm:~# echo 'KMKY''TFGTNC'
KMKYTFGTNC
root@arm:~# MARKER='XSLW''QLKBAQ' run 'echo 1 > /sys/kernel/mva_test/regulators/bbuck10_en'
XSLWQLKBAQXSLWQLKBAQ 0
root@arm:~# echo 'MLZL''PGZWPK'
MLZLPGZWPK
root@arm:~# MARKER='CSGT''LCUVLP' run 'i2cget -y -f 1 0x4b 0x1b'
CSGTLCUVLP0xc0
CSGTLCUVLP 0
root@arm:~# echo 'JWSB''PCWAYX'
JWSBPCWAYX
root@arm:~# MARKER='KTQH''HJUFKY' run 'grep -r -l rohm,bd71847 /proc/device-tree  | sed '"'"'s![^/]*$!!'"'"''
KTQHHJUFKY/proc/device-tree/ocp/interconnect@48000000/segment@0/target-module@2a000/i2c@0/pmic@4b/
KTQHHJUFKY 0
root@arm:~# echo 'GSKU''UKSAUZ'
GSKUUKSAUZ
root@arm:~# MARKER='WVLQ''KTYMXV' run 'test -f /proc/device-tree/ocp/interconnectt\@48000000/segment\@0/target-module\@2a000/i2c\@0/pmic\@4b/regulators/LDO4/rohm,,no-regulator-enable-control ;echo $?'
WVLQKTYMXV1
WVLQKTYMXV 0
root@arm:~# echo 'XLKV''NOLVCY'
XLKVNOLVCY
root@arm:~# MARKER='YWKM''PUXEKT' run 'grep -r -l rohm,bd71847 /proc/device-tree  | sed '"'"'s![^/]*$!!'"'"''
YWKMPUXEKT/proc/device-tree/ocp/interconnect@48000000/segment@0/target-module@2a000/i2c@0/pmic@4b/
YWKMPUXEKT 0
root@arm:~# echo 'NZXF''CMSXHT'
NZXFCMSXHT
root@arm:~# MARKER='BTUX''UPXQLE' run 'test -f /proc/device-tree/ocp/interconnectt\@48000000/segment\@0/target-module\@2a000/i2c\@0/pmic\@4b/regulators/LDO4/regullator-always-on ;echo $?'
BTUXUPXQLE1
BTUXUPXQLE 0
root@arm:~# echo 'SKOY''PFGKQS'
SKOYPFGKQS
root@arm:~# MARKER='VFOC''AMWXJB' run 'echo 0 > /sys/kernel/mva_test/regulators/bbuck10_en'
VFOCAMWXJBVFOCAMWXJB 0
root@arm:~# echo 'CUCU''ZBGOCB'
CUCUZBGOCB
root@arm:~# MARKER='KHYA''BJUMVL' run 'i2cget -y -f 1 0x4b 0x1b'
KHYABJUMVL0x80
KHYABJUMVL 0
root@arm:~# echo 'LJAP''WUPMBU'
LJAPWUPMBU
root@arm:~# MARKER='JHVH''EBJEHV' run 'grep -r -l rohm,bd71847 /proc/device-tree  | sed '"'"'s![^/]*$!!'"'"''
JHVHEBJEHV/proc/device-tree/ocp/interconnect@48000000/segment@0/target-module@2a000/i2c@0/pmic@4b/
JHVHEBJEHV 0
root@arm:~# echo 'KQLL''JNWLVM'
KQLLJNWLVM
root@arm:~# MARKER='EBHE''JBQNWQ' run 'test -f /proc/device-tree/ocp/interconnectt\@48000000/segment\@0/target-module\@2a000/i2c\@0/pmic\@4b/regulators/LDO5/rohm,,no-regulator-enable-control ;echo $?'
EBHEJBQNWQ0
EBHEJBQNWQ 0
root@arm:~# echo 'OCYG''LULFLC'
OCYGLULFLC
root@arm:~# MARKER='UUKU''VNZGHU' run 'grep -r -l rohm,bd71847 /proc/device-tree  | sed '"'"'s![^/]*$!!'"'"''
UUKUVNZGHU/proc/device-tree/ocp/interconnect@48000000/segment@0/target-module@2a000/i2c@0/pmic@4b/
UUKUVNZGHU 0
root@arm:~# echo 'SOHG''CJBPPJ'
SOHGCJBPPJ
root@arm:~# MARKER='MEPX''AJHSPO' run 'test -f /proc/device-tree/ocp/interconnectt\@48000000/segment\@0/target-module\@2a000/i2c\@0/pmic\@4b/regulators/LDO5/rohm,,no-regulator-enable-control ;echo $?'
MEPXAJHSPO0
MEPXAJHSPO 0
root@arm:~# echo 'LSVH''BSAGTF'
LSVHBSAGTF
root@arm:~# MARKER='XCVC''UVPGHL' run 'grep -r -l rohm,bd71847 /proc/device-tree  | sed '"'"'s![^/]*$!!'"'"''
XCVCUVPGHL/proc/device-tree/ocp/interconnect@48000000/segment@0/target-module@2a000/i2c@0/pmic@4b/
XCVCUVPGHL 0
root@arm:~# echo 'FUUW''XACVGJ'
FUUWXACVGJ
root@arm:~# MARKER='UQSF''XAUTLH' run 'test -f /proc/device-tree/ocp/interconnectt\@48000000/segment\@0/target-module\@2a000/i2c\@0/pmic\@4b/regulators/LDO6/rohm,,no-regulator-enable-control ;echo $?'
UQSFXAUTLH1
UQSFXAUTLH 0
root@arm:~# echo 'CNXM''LYKMPH'
CNXMLYKMPH
root@arm:~# MARKER='ZJWQ''VNGMOG' run 'echo 1 > /sys/kernel/mva_test/regulators/bbuck12_en'
ZJWQVNGMOGZJWQVNGMOG 0
root@arm:~# echo 'WUTN''VBCBTZ'
WUTNVBCBTZ
root@arm:~# MARKER='QAUL''BFTNCT' run 'i2cget -y -f 1 0x4b 0x1d'
QAULBFTNCT0xc3
QAULBFTNCT 0
root@arm:~# echo 'JVFQ''NPBTNX'
JVFQNPBTNX
root@arm:~# MARKER='YSPY''WJYNSB' run 'grep -r -l rohm,bd71847 /proc/device-tree  | sed '"'"'s![^/]*$!!'"'"''
YSPYWJYNSB/proc/device-tree/ocp/interconnect@48000000/segment@0/target-module@2a000/i2c@0/pmic@4b/
YSPYWJYNSB 0
root@arm:~# echo 'EONP''GSTBMM'
EONPGSTBMM
root@arm:~# MARKER='GGYT''YQQCEV' run 'test -f /proc/device-tree/ocp/interconnectt\@48000000/segment\@0/target-module\@2a000/i2c\@0/pmic\@4b/regulators/LDO6/rohm,,no-regulator-enable-control ;echo $?'
GGYTYQQCEV1
GGYTYQQCEV 0
root@arm:~# echo 'OKOQ''NSGCST'
OKOQNSGCST
root@arm:~# MARKER='CQMH''XABYZA' run 'grep -r -l rohm,bd71847 /proc/device-tree  | sed '"'"'s![^/]*$!!'"'"''
CQMHXABYZA/proc/device-tree/ocp/interconnect@48000000/segment@0/target-module@2a000/i2c@0/pmic@4b/
CQMHXABYZA 0
root@arm:~# echo 'UBVW''LZTTFT'
UBVWLZTTFT
root@arm:~# MARKER='WJHF''JSAXJH' run 'test -f /proc/device-tree/ocp/interconnectt\@48000000/segment\@0/target-module\@2a000/i2c\@0/pmic\@4b/regulators/LDO6/regullator-always-on ;echo $?'
WJHFJSAXJH1
WJHFJSAXJH 0
root@arm:~# echo 'UVGM''AXYGTP'
UVGMAXYGTP
root@arm:~# MARKER='KNTZ''NKPNBZ' run 'echo 0 > /sys/kernel/mva_test/regulators/bbuck12_en'
KNTZNKPNBZKNTZNKPNBZ 0
root@arm:~# echo 'LFPK''OWCUUB'
LFPKOWCUUB
root@arm:~# MARKER='VEMU''STYYYQ' run 'i2cget -y -f 1 0x4b 0x1d'
VEMUSTYYYQ0x83
VEMUSTYYYQ 0
root@arm:~# Labgrid Console Logfile for main
Logfile started at 2025-12-08 16:27:53.489923
=== Log starts here ===

root@arm:~# run() { echo -n "$MARKER"; sh -c "$@"; echo "$MARKER $?"; }
root@arm:~# echo 'QKTH''HGCTCF'
QKTHHGCTCF
root@arm:~# MARKER='OYAU''PZFLYS' run 'grep -r -l rohm,bd71847 /proc/device-tree  | sed '"'"'s![^/]*$!!'"'"''
OYAUPZFLYS/proc/device-tree/ocp/interconnect@48000000/segment@0/target-module@2a000/i2c@0/pmic@4b/
OYAUPZFLYS 0
root@arm:~# echo 'SUPJ''CXWBSJ'
SUPJCXWBSJ
root@arm:~# MARKER='EEMK''SLNCSZ' run 'test -f /proc/device-tree/ocp/interconnectt\@48000000/segment\@0/target-module\@2a000/i2c\@0/pmic\@4b/regulators/BUCK1/roh m,no-regulator-enable-control ;echo $?'
EEMKSLNCSZ1
EEMKSLNCSZ 0
root@arm:~# echo 'YKEQ''ULZHSE'
YKEQULZHSE
root@arm:~# MARKER='SAJC''BWEGYK' run 'i2cget -y -f 1 0x4b 0x5'
SAJCBWEGYK0x02
SAJCBWEGYK 0
root@arm:~# echo 'CCWK''OEBEPW'
CCWKOEBEPW
root@arm:~# MARKER='ENZZ''YWVMHJ' run 'echo 700000 700000 > /sys/kernel/mva_test//regulators/buck1_set'
ENZZYWVMHJENZZYWVMHJ 0
root@arm:~# echo 'UHFH''MGZXHZ'
UHFHMGZXHZ
root@arm:~# MARKER='MAMV''MEMFCY' run 'i2cget -y -f 1 0x4b 0xd'
MAMVMEMFCY0x00
MAMVMEMFCY 0
root@arm:~# echo 'MYGX''AXOAUW'
MYGXAXOAUW
root@arm:~# MARKER='UYEG''HTSKFQ' run 'echo 710000 710000 > /sys/kernel/mva_test//regulators/buck1_set'
UYEGHTSKFQUYEGHTSKFQ 0
root@arm:~# echo 'TLNQ''SKQGSY'
TLNQSKQGSY
root@arm:~# MARKER='SCKG''YJYOAE' run 'i2cget -y -f 1 0x4b 0xd'
SCKGYJYOAE0x01
SCKGYJYOAE 0
root@arm:~# echo 'EGMJ''HZOKAV'
EGMJHZOKAV
root@arm:~# MARKER='BTUW''BGUHEQ' run 'echo 720000 720000 > /sys/kernel/mva_test//regulators/buck1_set'
BTUWBGUHEQBTUWBGUHEQ 0
root@arm:~# echo 'QZEH''ZNFXOZ'
QZEHZNFXOZ
root@arm:~# MARKER='BQTZ''UWHCKC' run 'i2cget -y -f 1 0x4b 0xd'
BQTZUWHCKC0x02
BQTZUWHCKC 0
root@arm:~# echo 'MXOF''EBPQBG'
MXOFEBPQBG
root@arm:~# MARKER='KYQW''XUXMPH' run 'echo 730000 730000 > /sys/kernel/mva_test//regulators/buck1_set'
KYQWXUXMPHKYQWXUXMPH 0
root@arm:~# echo 'NCSQ''KKMXZO'
NCSQKKMXZO
root@arm:~# MARKER='XZTA''FAHNMJ' run 'i2cget -y -f 1 0x4b 0xd'
XZTAFAHNMJ0x03
XZTAFAHNMJ 0
root@arm:~# echo 'BXJW''NSHEOW'
BXJWNSHEOW
root@arm:~# MARKER='JLVO''NEMBUN' run 'echo 740000 740000 > /sys/kernel/mva_test//regulators/buck1_set'
JLVONEMBUNJLVONEMBUN 0
root@arm:~# echo 'TOVT''KJKFQS'
TOVTKJKFQS
root@arm:~# MARKER='MNMA''OGTXEY' run 'i2cget -y -f 1 0x4b 0xd'
MNMAOGTXEY0x04
MNMAOGTXEY 0
root@arm:~# echo 'LSWF''NCBLVL'
LSWFNCBLVL
root@arm:~# MARKER='NONF''GOOLTC' run 'echo 750000 750000 > /sys/kernel/mva_test//regulators/buck1_set'
NONFGOOLTCNONFGOOLTC 0
root@arm:~# echo 'TBTE''UPVJHB'
TBTEUPVJHB
root@arm:~# MARKER='ZVUC''MNXXHK' run 'i2cget -y -f 1 0x4b 0xd'
ZVUCMNXXHK0x05
ZVUCMNXXHK 0
root@arm:~# echo 'ZYXF''MLPTEJ'
ZYXFMLPTEJ
root@arm:~# MARKER='BAQT''VTETZV' run 'echo 760000 760000 > /sys/kernel/mva_test//regulators/buck1_set'
BAQTVTETZVBAQTVTETZV 0
root@arm:~# echo 'LTXT''ZPCTAX'
LTXTZPCTAX
root@arm:~# MARKER='TMQA''BHUXOE' run 'i2cget -y -f 1 0x4b 0xd'
TMQABHUXOE0x06
TMQABHUXOE 0
root@arm:~# echo 'WSKW''HXBBAP'
WSKWHXBBAP
root@arm:~# MARKER='CBTE''WTVNJG' run 'echo 770000 770000 > /sys/kernel/mva_test//regulators/buck1_set'
CBTEWTVNJGCBTEWTVNJG 0
root@arm:~# echo 'SEGK''MTOWSC'
SEGKMTOWSC
root@arm:~# MARKER='HJMQ''KWEQFY' run 'i2cget -y -f 1 0x4b 0xd'
HJMQKWEQFY0x07
HJMQKWEQFY 0
root@arm:~# echo 'SPHU''NVHPMS'
SPHUNVHPMS
root@arm:~# MARKER='YYWF''QGEBOX' run 'echo 780000 780000 > /sys/kernel/mva_test//regulators/buck1_set'
YYWFQGEBOXYYWFQGEBOX 0
root@arm:~# echo 'WXUY''MCSKVB'
WXUYMCSKVB
root@arm:~# MARKER='OLAH''GQTOJX' run 'i2cget -y -f 1 0x4b 0xd'
OLAHGQTOJX0x08
OLAHGQTOJX 0
root@arm:~# echo 'UPTM''OZSCMN'
UPTMOZSCMN
root@arm:~# MARKER='GXXV''OTOWPU' run 'echo 790000 790000 > /sys/kernel/mva_test//regulators/buck1_set'
GXXVOTOWPUGXXVOTOWPU 0
root@arm:~# echo 'LYCM''XVHWQU'
LYCMXVHWQU
root@arm:~# MARKER='WGYS''TWVLMS' run 'i2cget -y -f 1 0x4b 0xd'
WGYSTWVLMS0x09
WGYSTWVLMS 0
root@arm:~# echo 'VPBA''QBTPYJ'
VPBAQBTPYJ
root@arm:~# MARKER='EZGE''QETXLT' run 'echo 800000 800000 > /sys/kernel/mva_test//regulators/buck1_set'
EZGEQETXLTEZGEQETXLT 0
root@arm:~# echo 'WZXA''GPGGLJ'
WZXAGPGGLJ
root@arm:~# MARKER='PXVG''MBPZLM' run 'i2cget -y -f 1 0x4b 0xd'
PXVGMBPZLM0x0a
PXVGMBPZLM 0
root@arm:~# echo 'EAUA''EXGMMH'
EAUAEXGMMH
root@arm:~# MARKER='FCGW''ECTVJV' run 'echo 810000 810000 > /sys/kernel/mva_test//regulators/buck1_set'
FCGWECTVJVFCGWECTVJV 0
root@arm:~# echo 'YUFX''WOTNMX'
YUFXWOTNMX
root@arm:~# MARKER='CKYN''GWJVMB' run 'i2cget -y -f 1 0x4b 0xd'
CKYNGWJVMB0x0b
CKYNGWJVMB 0
root@arm:~# echo 'UXWE''ZNZTLA'
UXWEZNZTLA
root@arm:~# MARKER='KOGK''YYLCTC' run 'echo 820000 820000 > /sys/kernel/mva_test//regulators/buck1_set'
KOGKYYLCTCKOGKYYLCTC 0
root@arm:~# echo 'PTUX''FBXUSH'
PTUXFBXUSH
root@arm:~# MARKER='SMAF''XWLLFN' run 'i2cget -y -f 1 0x4b 0xd'
SMAFXWLLFN0x0c
SMAFXWLLFN 0
root@arm:~# echo 'SPFM''CZMQGN'
SPFMCZMQGN
root@arm:~# MARKER='XPSF''FPZFCE' run 'echo 830000 830000 > /sys/kernel/mva_test//regulators/buck1_set'
XPSFFPZFCEXPSFFPZFCE 0
root@arm:~# echo 'NCAH''AFPHSG'
NCAHAFPHSG
root@arm:~# MARKER='NGXJ''OUEWOG' run 'i2cget -y -f 1 0x4b 0xd'
NGXJOUEWOG0x0d
NGXJOUEWOG 0
root@arm:~# echo 'LVEE''XGSALB'
LVEEXGSALB
root@arm:~# MARKER='BHBB''VJJPNA' run 'echo 840000 840000 > /sys/kernel/mva_test//regulators/buck1_set'
BHBBVJJPNABHBBVJJPNA 0
root@arm:~# echo 'PSGB''HSSHFU'
PSGBHSSHFU
root@arm:~# MARKER='WHPW''VGKTFB' run 'i2cget -y -f 1 0x4b 0xd'
WHPWVGKTFB0x0e
WHPWVGKTFB 0
root@arm:~# echo 'PQKW''CBHVPC'
PQKWCBHVPC
root@arm:~# MARKER='XJVO''YFNVWA' run 'echo 850000 850000 > /sys/kernel/mva_test//regulators/buck1_set'
XJVOYFNVWAXJVOYFNVWA 0
root@arm:~# echo 'SEGK''EWVVNY'
SEGKEWVVNY
root@arm:~# MARKER='XGKU''HVCGKQ' run 'i2cget -y -f 1 0x4b 0xd'
XGKUHVCGKQ0x0f
XGKUHVCGKQ 0
root@arm:~# echo 'TBBZ''WTJYKV'
TBBZWTJYKV
root@arm:~# MARKER='TUNP''AXAKKO' run 'echo 860000 860000 > /sys/kernel/mva_test//regulators/buck1_set'
TUNPAXAKKOTUNPAXAKKO 0
root@arm:~# echo 'MOJL''UESQSX'
MOJLUESQSX
root@arm:~# MARKER='SJME''NUSLKN' run 'i2cget -y -f 1 0x4b 0xd'
SJMENUSLKN0x10
SJMENUSLKN 0
root@arm:~# echo 'OEWU''FUPYNM'
OEWUFUPYNM
root@arm:~# MARKER='LWMQ''OSWVBC' run 'echo 870000 870000 > /sys/kernel/mva_test//regulators/buck1_set'
LWMQOSWVBCLWMQOSWVBC 0
root@arm:~# echo 'ELZH''OJZSQT'
ELZHOJZSQT
root@arm:~# MARKER='YBSJ''BJHAAQ' run 'i2cget -y -f 1 0x4b 0xd'
YBSJBJHAAQ0x11
YBSJBJHAAQ 0
root@arm:~# echo 'PJXZ''GOBJCP'
PJXZGOBJCP
root@arm:~# MARKER='OMXC''GAGSOE' run 'echo 880000 880000 > /sys/kernel/mva_test//regulators/buck1_set'
OMXCGAGSOEOMXCGAGSOE 0
root@arm:~# echo 'AGKZ''BLXYKY'
AGKZBLXYKY
root@arm:~# MARKER='UALW''QVWBKN' run 'i2cget -y -f 1 0x4b 0xd'
UALWQVWBKN0x12
UALWQVWBKN 0
root@arm:~# echo 'XYTM''NZWOWZ'
XYTMNZWOWZ
root@arm:~# MARKER='MSYJ''UHGAFH' run 'echo 890000 890000 > /sys/kernel/mva_test//regulators/buck1_set'
MSYJUHGAFHMSYJUHGAFH 0
root@arm:~# echo 'CJHM''XKFEKZ'
CJHMXKFEKZ
root@arm:~# MARKER='XGPH''VLSPHG' run 'i2cget -y -f 1 0x4b 0xd'
XGPHVLSPHG0x13
XGPHVLSPHG 0
root@arm:~# echo 'ACTG''OTSCNW'
ACTGOTSCNW
root@arm:~# MARKER='AEXZ''XAPGOE' run 'echo 900000 900000 > /sys/kernel/mva_test//regulators/buck1_set'
AEXZXAPGOEAEXZXAPGOE 0
root@arm:~# echo 'YWEB''WNEHHL'
YWEBWNEHHL
root@arm:~# MARKER='HWJK''JFCELY' run 'i2cget -y -f 1 0x4b 0xd'
HWJKJFCELY0x14
HWJKJFCELY 0
root@arm:~# echo 'CVBP''KFHHWP'
CVBPKFHHWP
root@arm:~# MARKER='VQTL''QHCAGT' run 'echo 910000 910000 > /sys/kernel/mva_test//regulators/buck1_set'
VQTLQHCAGTVQTLQHCAGT 0
root@arm:~# echo 'MSAT''YMXMAL'
MSATYMXMAL
root@arm:~# MARKER='ESGG''LPKCET' run 'i2cget -y -f 1 0x4b 0xd'
ESGGLPKCET0x15
ESGGLPKCET 0
root@arm:~# echo 'HKZE''JNEPEF'
HKZEJNEPEF
root@arm:~# MARKER='JLAY''MMQSXK' run 'echo 920000 920000 > /sys/kernel/mva_test//regulators/buck1_set'
JLAYMMQSXKJLAYMMQSXK 0
root@arm:~# echo 'KNHM''ELPBEJ'
KNHMELPBEJ
root@arm:~# MARKER='MLOH''PXOTXA' run 'i2cget -y -f 1 0x4b 0xd'
MLOHPXOTXA0x16
MLOHPXOTXA 0
root@arm:~# echo 'CTPY''EXGYWK'
CTPYEXGYWK
root@arm:~# MARKER='OSVZ''UPVEVY' run 'echo 930000 930000 > /sys/kernel/mva_test//regulators/buck1_set'
OSVZUPVEVYOSVZUPVEVY 0
root@arm:~# echo 'XOJM''CFMVSG'
XOJMCFMVSG
root@arm:~# MARKER='HHSJ''QJXMPN' run 'i2cget -y -f 1 0x4b 0xd'
HHSJQJXMPN0x17
HHSJQJXMPN 0
root@arm:~# echo 'AJWL''KXMKZW'
AJWLKXMKZW
root@arm:~# MARKER='NETS''BWBQLH' run 'echo 940000 940000 > /sys/kernel/mva_test//regulators/buck1_set'
NETSBWBQLHNETSBWBQLH 0
root@arm:~# echo 'WNPT''OLSBAW'
WNPTOLSBAW
root@arm:~# MARKER='BYEL''JLUEOT' run 'i2cget -y -f 1 0x4b 0xd'
BYELJLUEOT0x18
BYELJLUEOT 0
root@arm:~# echo 'BOQK''FQZWTC'
BOQKFQZWTC
root@arm:~# MARKER='OKWU''WSNKYL' run 'echo 950000 950000 > /sys/kernel/mva_test//regulators/buck1_set'
OKWUWSNKYLOKWUWSNKYL 0
root@arm:~# echo 'ZOMW''GSVOPM'
ZOMWGSVOPM
root@arm:~# MARKER='PQPQ''CCKPNK' run 'i2cget -y -f 1 0x4b 0xd'
PQPQCCKPNK0x19
PQPQCCKPNK 0
root@arm:~# echo 'XFMZ''UUKNXH'
XFMZUUKNXH
root@arm:~# MARKER='NVXQ''STMZXV' run 'echo 960000 960000 > /sys/kernel/mva_test//regulators/buck1_set'
NVXQSTMZXVNVXQSTMZXV 0
root@arm:~# echo 'PKAC''LWJFPU'
PKACLWJFPU
root@arm:~# MARKER='YCAQ''VWVMST' run 'i2cget -y -f 1 0x4b 0xd'
YCAQVWVMST0x1a
YCAQVWVMST 0
root@arm:~# echo 'NVGQ''CSKHGT'
NVGQCSKHGT
root@arm:~# MARKER='NLKV''FZWBVK' run 'echo 970000 970000 > /sys/kernel/mva_test//regulators/buck1_set'
NLKVFZWBVKNLKVFZWBVK 0
root@arm:~# echo 'KGNW''MZSAHM'
KGNWMZSAHM
root@arm:~# MARKER='PPZQ''ZYAHQW' run 'i2cget -y -f 1 0x4b 0xd'
PPZQZYAHQW0x1b
PPZQZYAHQW 0
root@arm:~# echo 'AAAQ''GYJXYQ'
AAAQGYJXYQ
root@arm:~# MARKER='VGTW''JCUGEO' run 'echo 980000 980000 > /sys/kernel/mva_test//regulators/buck1_set'
VGTWJCUGEOVGTWJCUGEO 0
root@arm:~# echo 'BNAQ''MVCVTB'
BNAQMVCVTB
root@arm:~# MARKER='YGCX''PAJYGB' run 'i2cget -y -f 1 0x4b 0xd'
YGCXPAJYGB0x1c
YGCXPAJYGB 0
root@arm:~# echo 'PKBN''KVNPYZ'
PKBNKVNPYZ
root@arm:~# MARKER='HZQB''TAOKQO' run 'echo 990000 990000 > /sys/kernel/mva_test//regulators/buck1_set'
HZQBTAOKQOHZQBTAOKQO 0
root@arm:~# echo 'MBMC''HPOXKW'
MBMCHPOXKW
root@arm:~# MARKER='GHMC''PHQHXO' run 'i2cget -y -f 1 0x4b 0xd'
GHMCPHQHXO0x1d
GHMCPHQHXO 0
root@arm:~# echo 'VUEQ''YOJVWV'
VUEQYOJVWV
root@arm:~# MARKER='OEHP''LVEXFQ' run 'echo 1000000 1000000 > /sys/kernel/mva_tesst/regulators/buck1_set'
OEHPLVEXFQOEHPLVEXFQ 0
root@arm:~# echo 'MNVS''BGFEHP'
MNVSBGFEHP
root@arm:~# MARKER='PWOG''HXFSOY' run 'i2cget -y -f 1 0x4b 0xd'
PWOGHXFSOY0x1e
PWOGHXFSOY 0
root@arm:~# echo 'SAZN''BFSGAV'
SAZNBFSGAV
root@arm:~# MARKER='WAGC''ZQPWYG' run 'echo 1010000 1010000 > /sys/kernel/mva_tesst/regulators/buck1_set'
WAGCZQPWYGWAGCZQPWYG 0
root@arm:~# echo 'TGQO''GCYTFM'
TGQOGCYTFM
root@arm:~# MARKER='BOUB''XZPWWC' run 'i2cget -y -f 1 0x4b 0xd'
BOUBXZPWWC0x1f
BOUBXZPWWC 0
root@arm:~# echo 'GYHE''VPOEVZ'
GYHEVPOEVZ
root@arm:~# MARKER='LGQK''QAZKPN' run 'echo 1020000 1020000 > /sys/kernel/mva_tesst/regulators/buck1_set'
LGQKQAZKPNLGQKQAZKPN 0
root@arm:~# echo 'NAQQ''ZOKVNS'
NAQQZOKVNS
root@arm:~# MARKER='MLBH''WEQGHF' run 'i2cget -y -f 1 0x4b 0xd'
MLBHWEQGHF0x20
MLBHWEQGHF 0
root@arm:~# echo 'BMOU''VUSYMG'
BMOUVUSYMG
root@arm:~# MARKER='OCKF''GNQSQX' run 'echo 1030000 1030000 > /sys/kernel/mva_tesst/regulators/buck1_set'
OCKFGNQSQXOCKFGNQSQX 0
root@arm:~# echo 'MLLV''TXVUXP'
MLLVTXVUXP
root@arm:~# MARKER='GVKM''YHOVJT' run 'i2cget -y -f 1 0x4b 0xd'
GVKMYHOVJT0x21
GVKMYHOVJT 0
root@arm:~# echo 'TMCU''MYSYOQ'
TMCUMYSYOQ
root@arm:~# MARKER='MNPJ''WEYKKG' run 'echo 1040000 1040000 > /sys/kernel/mva_tesst/regulators/buck1_set'
MNPJWEYKKGMNPJWEYKKG 0
root@arm:~# echo 'SVEU''GXOYXK'
SVEUGXOYXK
root@arm:~# MARKER='HVAJ''PHWCAN' run 'i2cget -y -f 1 0x4b 0xd'
HVAJPHWCAN0x22
HVAJPHWCAN 0
root@arm:~# echo 'ZHAB''UGWKVB'
ZHABUGWKVB
root@arm:~# MARKER='TBFU''BWGMFW' run 'echo 1050000 1050000 > /sys/kernel/mva_tesst/regulators/buck1_set'
TBFUBWGMFWTBFUBWGMFW 0
root@arm:~# echo 'HCWM''OKOBKY'
HCWMOKOBKY
root@arm:~# MARKER='KNYH''YCXQBM' run 'i2cget -y -f 1 0x4b 0xd'
KNYHYCXQBM0x23
KNYHYCXQBM 0
root@arm:~# echo 'NBTL''BVNZKA'
NBTLBVNZKA
root@arm:~# MARKER='JOLF''XEWFTW' run 'echo 1060000 1060000 > /sys/kernel/mva_tesst/regulators/buck1_set'
JOLFXEWFTWJOLFXEWFTW 0
root@arm:~# echo 'AYWJ''ZFNBSW'
AYWJZFNBSW
root@arm:~# MARKER='AYTC''EVHFEF' run 'i2cget -y -f 1 0x4b 0xd'
AYTCEVHFEF0x24
AYTCEVHFEF 0
root@arm:~# echo 'ZPWA''UKQJPU'
ZPWAUKQJPU
root@arm:~# MARKER='PHFN''WOYOWY' run 'echo 1070000 1070000 > /sys/kernel/mva_tesst/regulators/buck1_set'
PHFNWOYOWYPHFNWOYOWY 0
root@arm:~# echo 'HVVT''YGMJNP'
HVVTYGMJNP
root@arm:~# MARKER='XGWN''QOQTEB' run 'i2cget -y -f 1 0x4b 0xd'
XGWNQOQTEB0x25
XGWNQOQTEB 0
root@arm:~# echo 'KWAN''OKQMOQ'
KWANOKQMOQ
root@arm:~# MARKER='KQQO''YYSZJZ' run 'echo 1080000 1080000 > /sys/kernel/mva_tesst/regulators/buck1_set'
KQQOYYSZJZKQQOYYSZJZ 0
root@arm:~# echo 'EMTK''NGKMPX'
EMTKNGKMPX
root@arm:~# MARKER='EHBK''WGFSPU' run 'i2cget -y -f 1 0x4b 0xd'
EHBKWGFSPU0x26
EHBKWGFSPU 0
root@arm:~# echo 'HTZX''AGFVFT'
HTZXAGFVFT
root@arm:~# MARKER='SWAW''WSKSKL' run 'echo 1090000 1090000 > /sys/kernel/mva_tesst/regulators/buck1_set'
SWAWWSKSKLSWAWWSKSKL 0
root@arm:~# echo 'ACAT''MALOJW'
ACATMALOJW
root@arm:~# MARKER='ZASN''WHEFHL' run 'i2cget -y -f 1 0x4b 0xd'
ZASNWHEFHL0x27
ZASNWHEFHL 0
root@arm:~# echo 'YQBO''OXKGVH'
YQBOOXKGVH
root@arm:~# MARKER='JKLK''TFFOVJ' run 'echo 1100000 1100000 > /sys/kernel/mva_tesst/regulators/buck1_set'
JKLKTFFOVJJKLKTFFOVJ 0
root@arm:~# echo 'OJQO''VSYEPQ'
OJQOVSYEPQ
root@arm:~# MARKER='EKML''CCSJPF' run 'i2cget -y -f 1 0x4b 0xd'
EKMLCCSJPF0x28
EKMLCCSJPF 0
root@arm:~# echo 'HEXJ''SWPSET'
HEXJSWPSET
root@arm:~# MARKER='YOJK''CZOMGL' run 'echo 1110000 1110000 > /sys/kernel/mva_tesst/regulators/buck1_set'
YOJKCZOMGLYOJKCZOMGL 0
root@arm:~# echo 'WQQN''ZHXBTY'
WQQNZHXBTY
root@arm:~# MARKER='AQUM''FGCXTQ' run 'i2cget -y -f 1 0x4b 0xd'
AQUMFGCXTQ0x29
AQUMFGCXTQ 0
root@arm:~# echo 'KZBX''WQZGCZ'
KZBXWQZGCZ
root@arm:~# MARKER='JBPE''NYBNMX' run 'echo 1120000 1120000 > /sys/kernel/mva_tesst/regulators/buck1_set'
JBPENYBNMXJBPENYBNMX 0
root@arm:~# echo 'AVMQ''MHMGOK'
AVMQMHMGOK
root@arm:~# MARKER='KQWO''KXWUCG' run 'i2cget -y -f 1 0x4b 0xd'
KQWOKXWUCG0x2a
KQWOKXWUCG 0
root@arm:~# echo 'OMGX''KFSSYK'
OMGXKFSSYK
root@arm:~# MARKER='TXJT''VBFKYN' run 'echo 1130000 1130000 > /sys/kernel/mva_tesst/regulators/buck1_set'
TXJTVBFKYNTXJTVBFKYN 0
root@arm:~# echo 'ZMGH''YLMHFW'
ZMGHYLMHFW
root@arm:~# MARKER='TPMF''ACYXXL' run 'i2cget -y -f 1 0x4b 0xd'
TPMFACYXXL0x2b
TPMFACYXXL 0
root@arm:~# echo 'QMXJ''WAAYJX'
QMXJWAAYJX
root@arm:~# MARKER='VJKT''UXHMNN' run 'echo 1140000 1140000 > /sys/kernel/mva_tesst/regulators/buck1_set'
VJKTUXHMNNVJKTUXHMNN 0
root@arm:~# echo 'VHFY''WOZXNC'
VHFYWOZXNC
root@arm:~# MARKER='PNMM''HPUOAM' run 'i2cget -y -f 1 0x4b 0xd'
PNMMHPUOAM0x2c
PNMMHPUOAM 0
root@arm:~# echo 'NPYT''LMUUFZ'
NPYTLMUUFZ
root@arm:~# MARKER='JMTE''OKPNWW' run 'echo 1150000 1150000 > /sys/kernel/mva_tesst/regulators/buck1_set'
JMTEOKPNWWJMTEOKPNWW 0
root@arm:~# echo 'XTGG''BMHLFM'
XTGGBMHLFM
root@arm:~# MARKER='EMLK''NVLUFQ' run 'i2cget -y -f 1 0x4b 0xd'
EMLKNVLUFQ0x2d
EMLKNVLUFQ 0
root@arm:~# echo 'QGZC''KXPOHK'
QGZCKXPOHK
root@arm:~# MARKER='PHXB''COVBEY' run 'echo 1160000 1160000 > /sys/kernel/mva_tesst/regulators/buck1_set'
PHXBCOVBEYPHXBCOVBEY 0
root@arm:~# echo 'VQAY''GQHFKT'
VQAYGQHFKT
root@arm:~# MARKER='LQJO''NLNFZB' run 'i2cget -y -f 1 0x4b 0xd'
LQJONLNFZB0x2e
LQJONLNFZB 0
root@arm:~# echo 'KOZX''ONKLMG'
KOZXONKLMG
root@arm:~# MARKER='FAAP''YAAGOL' run 'echo 1170000 1170000 > /sys/kernel/mva_tesst/regulators/buck1_set'
FAAPYAAGOLFAAPYAAGOL 0
root@arm:~# echo 'SNXO''CTPAUF'
SNXOCTPAUF
root@arm:~# MARKER='NNZM''HSXUHU' run 'i2cget -y -f 1 0x4b 0xd'
NNZMHSXUHU0x2f
NNZMHSXUHU 0
root@arm:~# echo 'GBLN''EJHPFN'
GBLNEJHPFN
root@arm:~# MARKER='FTOE''ESQZZF' run 'echo 1180000 1180000 > /sys/kernel/mva_tesst/regulators/buck1_set'
FTOEESQZZFFTOEESQZZF 0
root@arm:~# echo 'SUZM''ZMKWQY'
SUZMZMKWQY
root@arm:~# MARKER='GMKA''ZCCCSK' run 'i2cget -y -f 1 0x4b 0xd'
GMKAZCCCSK0x30
GMKAZCCCSK 0
root@arm:~# echo 'MHXN''GPEAGU'
MHXNGPEAGU
root@arm:~# MARKER='GVPX''LEVHUJ' run 'echo 1190000 1190000 > /sys/kernel/mva_tesst/regulators/buck1_set'
GVPXLEVHUJGVPXLEVHUJ 0
root@arm:~# echo 'CWVY''FWGHHB'
CWVYFWGHHB
root@arm:~# MARKER='BSJM''VPAVXY' run 'i2cget -y -f 1 0x4b 0xd'
BSJMVPAVXY0x31
BSJMVPAVXY 0
root@arm:~# echo 'NEOQ''NXYZOF'
NEOQNXYZOF
root@arm:~# MARKER='HEOZ''TPZAKN' run 'echo 1200000 1200000 > /sys/kernel/mva_tesst/regulators/buck1_set'
HEOZTPZAKNHEOZTPZAKN 0
root@arm:~# echo 'LJYL''HNWOGH'
LJYLHNWOGH
root@arm:~# MARKER='MGQM''UBCGHO' run 'i2cget -y -f 1 0x4b 0xd'
MGQMUBCGHO0x32
MGQMUBCGHO 0
root@arm:~# echo 'NUBQ''CKQNSE'
NUBQCKQNSE
root@arm:~# MARKER='ZSBT''JXKBOB' run 'echo 1210000 1210000 > /sys/kernel/mva_tesst/regulators/buck1_set'
ZSBTJXKBOBZSBTJXKBOB 0
root@arm:~# echo 'HGWB''CTCEUZ'
HGWBCTCEUZ
root@arm:~# MARKER='QXSB''VJFTBL' run 'i2cget -y -f 1 0x4b 0xd'
QXSBVJFTBL0x33
QXSBVJFTBL 0
root@arm:~# echo 'SQQS''XOAZQN'
SQQSXOAZQN
root@arm:~# MARKER='XBBF''XXZXFQ' run 'echo 1220000 1220000 > /sys/kernel/mva_tesst/regulators/buck1_set'
XBBFXXZXFQXBBFXXZXFQ 0
root@arm:~# echo 'WBTU''FHTOSM'
WBTUFHTOSM
root@arm:~# MARKER='LSUN''SWEQJS' run 'i2cget -y -f 1 0x4b 0xd'
LSUNSWEQJS0x34
LSUNSWEQJS 0
root@arm:~# echo 'HHFP''JQTSBJ'
HHFPJQTSBJ
root@arm:~# MARKER='NZLE''ZOVCGW' run 'echo 1230000 1230000 > /sys/kernel/mva_tesst/regulators/buck1_set'
NZLEZOVCGWNZLEZOVCGW 0
root@arm:~# echo 'YWWV''QVCUVU'
YWWVQVCUVU
root@arm:~# MARKER='GAVO''WYHJKM' run 'i2cget -y -f 1 0x4b 0xd'
GAVOWYHJKM0x35
GAVOWYHJKM 0
root@arm:~# echo 'VSAW''MNXAPS'
VSAWMNXAPS
root@arm:~# MARKER='JULS''ZXHAZN' run 'echo 1240000 1240000 > /sys/kernel/mva_tesst/regulators/buck1_set'
JULSZXHAZNJULSZXHAZN 0
root@arm:~# echo 'OSPT''OZNMJP'
OSPTOZNMJP
root@arm:~# MARKER='HNEB''VSMLUZ' run 'i2cget -y -f 1 0x4b 0xd'
HNEBVSMLUZ0x36
HNEBVSMLUZ 0
root@arm:~# echo 'VNMJ''EZWGHJ'
VNMJEZWGHJ
root@arm:~# MARKER='MMWQ''YNOXNL' run 'echo 1250000 1250000 > /sys/kernel/mva_tesst/regulators/buck1_set'
MMWQYNOXNLMMWQYNOXNL 0
root@arm:~# echo 'KNYP''NKAUEF'
KNYPNKAUEF
root@arm:~# MARKER='ZOHU''UYKWJL' run 'i2cget -y -f 1 0x4b 0xd'
ZOHUUYKWJL0x37
ZOHUUYKWJL 0
root@arm:~# echo 'EYWJ''YMLAAP'
EYWJYMLAAP
root@arm:~# MARKER='HMCO''VSETNL' run 'echo 1260000 1260000 > /sys/kernel/mva_tesst/regulators/buck1_set'
HMCOVSETNLHMCOVSETNL 0
root@arm:~# echo 'CNUX''AJPBOH'
CNUXAJPBOH
root@arm:~# MARKER='HZSA''BTUXXG' run 'i2cget -y -f 1 0x4b 0xd'
HZSABTUXXG0x38
HZSABTUXXG 0
root@arm:~# echo 'EYYC''HBGUYY'
EYYCHBGUYY
root@arm:~# MARKER='CSOM''VPEPCZ' run 'echo 1270000 1270000 > /sys/kernel/mva_tesst/regulators/buck1_set'
CSOMVPEPCZCSOMVPEPCZ 0
root@arm:~# echo 'SPAY''OFLWTB'
SPAYOFLWTB
root@arm:~# MARKER='CJJV''KGJZTF' run 'i2cget -y -f 1 0x4b 0xd'
CJJVKGJZTF0x39
CJJVKGJZTF 0
root@arm:~# echo 'KFMO''WFMVFZ'
KFMOWFMVFZ
root@arm:~# MARKER='PZTO''WTPZBP' run 'echo 1280000 1280000 > /sys/kernel/mva_tesst/regulators/buck1_set'
PZTOWTPZBPPZTOWTPZBP 0
root@arm:~# echo 'OSSZ''HYXYTH'
OSSZHYXYTH
root@arm:~# MARKER='BXEE''VNNLKP' run 'i2cget -y -f 1 0x4b 0xd'
BXEEVNNLKP0x3a
BXEEVNNLKP 0
root@arm:~# echo 'OYZJ''ECZYAG'
OYZJECZYAG
root@arm:~# MARKER='NKNQ''SSKUEF' run 'echo 1290000 1290000 > /sys/kernel/mva_tesst/regulators/buck1_set'
NKNQSSKUEFNKNQSSKUEF 0
root@arm:~# echo 'UAMW''OKCXXE'
UAMWOKCXXE
root@arm:~# MARKER='KOGK''CVQCGX' run 'i2cget -y -f 1 0x4b 0xd'
KOGKCVQCGX0x3b
KOGKCVQCGX 0
root@arm:~# echo 'JYJP''VWZUOW'
JYJPVWZUOW
root@arm:~# MARKER='YKJP''QZMEAP' run 'echo 1300000 1300000 > /sys/kernel/mva_tesst/regulators/buck1_set'
YKJPQZMEAPYKJPQZMEAP 0
root@arm:~# echo 'GLWU''VNMCNB'
GLWUVNMCNB
root@arm:~# MARKER='OAMX''NZVLWP' run 'i2cget -y -f 1 0x4b 0xd'
OAMXNZVLWP0x3c
OAMXNZVLWP 0
root@arm:~# echo 'JWQY''QXPPQV'
JWQYQXPPQV
root@arm:~# MARKER='OKXG''WZALTJ' run 'grep -r -l rohm,bd71847 /proc/device-tree  | sed '"'"'s![^/]*$!!'"'"''
OKXGWZALTJ/proc/device-tree/ocp/interconnect@48000000/segment@0/target-module@2a000/i2c@0/pmic@4b/
OKXGWZALTJ 0
root@arm:~# echo 'TOOF''GVNWBY'
TOOFGVNWBY
root@arm:~# MARKER='SOOH''UUAKHV' run 'test -f /proc/device-tree/ocp/interconnectt\@48000000/segment\@0/target-module\@2a000/i2c\@0/pmic\@4b/regulators/BUCK2/roh m,no-regulator-enable-control ;echo $?'
SOOHUUAKHV1
SOOHUUAKHV 0
root@arm:~# echo 'CCET''GOEEGG'
CCETGOEEGG
root@arm:~# MARKER='UBXK''ASAVVY' run 'i2cget -y -f 1 0x4b 0x6'
UBXKASAVVY0x43
UBXKASAVVY 0
root@arm:~# echo 'UXYM''CLOPMK'
UXYMCLOPMK
root@arm:~# MARKER='NXVG''QOYGYG' run 'echo 700000 700000 > /sys/kernel/mva_test//regulators/buck2_set'
NXVGQOYGYGNXVGQOYGYG 0
root@arm:~# echo 'GTPT''SBEPWL'
GTPTSBEPWL
root@arm:~# MARKER='WZPZ''ALNWBP' run 'i2cget -y -f 1 0x4b 0x10'
WZPZALNWBP0x00
WZPZALNWBP 0
root@arm:~# echo 'PLMB''SBKVOU'
PLMBSBKVOU
root@arm:~# MARKER='XLKW''QTONZE' run 'echo 710000 710000 > /sys/kernel/mva_test//regulators/buck2_set'
XLKWQTONZEXLKWQTONZE 0
root@arm:~# echo 'MFKV''FQZXNE'
MFKVFQZXNE
root@arm:~# MARKER='KBOZ''BZFZXF' run 'i2cget -y -f 1 0x4b 0x10'
KBOZBZFZXF0x01
KBOZBZFZXF 0
root@arm:~# echo 'YEUG''ALKBTY'
YEUGALKBTY
root@arm:~# MARKER='TENE''NFJCMP' run 'echo 720000 720000 > /sys/kernel/mva_test//regulators/buck2_set'
TENENFJCMPTENENFJCMP 0
root@arm:~# echo 'XXXU''MUGAGG'
XXXUMUGAGG
root@arm:~# MARKER='YOVY''JQZWHG' run 'i2cget -y -f 1 0x4b 0x10'
YOVYJQZWHG0x02
YOVYJQZWHG 0
root@arm:~# echo 'AVHA''GPLTJF'
AVHAGPLTJF
root@arm:~# MARKER='XEML''COOSLQ' run 'echo 730000 730000 > /sys/kernel/mva_test//regulators/buck2_set'
XEMLCOOSLQXEMLCOOSLQ 0
root@arm:~# echo 'GEPF''NTKLQW'
GEPFNTKLQW
root@arm:~# MARKER='KLGG''HCJBJA' run 'i2cget -y -f 1 0x4b 0x10'
KLGGHCJBJA0x03
KLGGHCJBJA 0
root@arm:~# echo 'BVGA''XSUGZP'
BVGAXSUGZP
root@arm:~# MARKER='YJCB''LNXFOJ' run 'echo 740000 740000 > /sys/kernel/mva_test//regulators/buck2_set'
YJCBLNXFOJYJCBLNXFOJ 0
root@arm:~# echo 'UMPA''UFLLBQ'
UMPAUFLLBQ
root@arm:~# MARKER='MCVW''QSLOMM' run 'i2cget -y -f 1 0x4b 0x10'
MCVWQSLOMM0x04
MCVWQSLOMM 0
root@arm:~# echo 'XSWX''PJXPGN'
XSWXPJXPGN
root@arm:~# MARKER='YHWJ''YOTSAS' run 'echo 750000 750000 > /sys/kernel/mva_test//regulators/buck2_set'
YHWJYOTSASYHWJYOTSAS 0
root@arm:~# echo 'BUUC''XZNEMN'
BUUCXZNEMN
root@arm:~# MARKER='KVSU''CSEBXT' run 'i2cget -y -f 1 0x4b 0x10'
KVSUCSEBXT0x05
KVSUCSEBXT 0
root@arm:~# echo 'ZNTS''VAGPCN'
ZNTSVAGPCN
root@arm:~# MARKER='PMJT''KLVLTN' run 'echo 760000 760000 > /sys/kernel/mva_test//regulators/buck2_set'
PMJTKLVLTNPMJTKLVLTN 0
root@arm:~# echo 'YFNT''QAOHWW'
YFNTQAOHWW
root@arm:~# MARKER='FOEX''MGBNCP' run 'i2cget -y -f 1 0x4b 0x10'
FOEXMGBNCP0x06
FOEXMGBNCP 0
root@arm:~# echo 'UEAZ''CCBUVH'
UEAZCCBUVH
root@arm:~# MARKER='ZGVP''HGVNFE' run 'echo 770000 770000 > /sys/kernel/mva_test//regulators/buck2_set'
ZGVPHGVNFEZGVPHGVNFE 0
root@arm:~# echo 'NZCN''TGLVYT'
NZCNTGLVYT
root@arm:~# MARKER='ZVAV''OXXVJA' run 'i2cget -y -f 1 0x4b 0x10'
ZVAVOXXVJA0x07
ZVAVOXXVJA 0
root@arm:~# echo 'NJGO''WOSWAV'
NJGOWOSWAV
root@arm:~# MARKER='BVOO''ETNQTJ' run 'echo 780000 780000 > /sys/kernel/mva_test//regulators/buck2_set'
BVOOETNQTJBVOOETNQTJ 0
root@arm:~# echo 'VAHK''MNBNGF'
VAHKMNBNGF
root@arm:~# MARKER='YWXV''BUNGKY' run 'i2cget -y -f 1 0x4b 0x10'
YWXVBUNGKY0x08
YWXVBUNGKY 0
root@arm:~# echo 'GMMG''PFZZTZ'
GMMGPFZZTZ
root@arm:~# MARKER='OJFN''FHVEGW' run 'echo 790000 790000 > /sys/kernel/mva_test//regulators/buck2_set'
OJFNFHVEGWOJFNFHVEGW 0
root@arm:~# echo 'TQMA''ANJEKA'
TQMAANJEKA
root@arm:~# MARKER='MXAH''SJHBSE' run 'i2cget -y -f 1 0x4b 0x10'
MXAHSJHBSE0x09
MXAHSJHBSE 0
root@arm:~# echo 'AMOA''FTVUJX'
AMOAFTVUJX
root@arm:~# MARKER='KXKZ''OCVMQJ' run 'echo 800000 800000 > /sys/kernel/mva_test//regulators/buck2_set'
KXKZOCVMQJKXKZOCVMQJ 0
root@arm:~# echo 'CTWH''EQMZEN'
CTWHEQMZEN
root@arm:~# MARKER='BUOL''FUVXBT' run 'i2cget -y -f 1 0x4b 0x10'
BUOLFUVXBT0x0a
BUOLFUVXBT 0
root@arm:~# echo 'FQTY''NTGWPL'
FQTYNTGWPL
root@arm:~# MARKER='OZNH''XWQHKL' run 'echo 810000 810000 > /sys/kernel/mva_test//regulators/buck2_set'
OZNHXWQHKLOZNHXWQHKL 0
root@arm:~# echo 'NPNX''PFWTYO'
NPNXPFWTYO
root@arm:~# MARKER='YHUL''KUAFVE' run 'i2cget -y -f 1 0x4b 0x10'
YHULKUAFVE0x0b
YHULKUAFVE 0
root@arm:~# echo 'WSOY''HYOKFL'
WSOYHYOKFL
root@arm:~# MARKER='OJXL''ABZHAJ' run 'echo 820000 820000 > /sys/kernel/mva_test//regulators/buck2_set'
OJXLABZHAJOJXLABZHAJ 0
root@arm:~# echo 'YTFA''SJEQLA'
YTFASJEQLA
root@arm:~# MARKER='VAQB''QSTXCY' run 'i2cget -y -f 1 0x4b 0x10'
VAQBQSTXCY0x0c
VAQBQSTXCY 0
root@arm:~# echo 'XGZK''XJSHVH'
XGZKXJSHVH
root@arm:~# MARKER='WABO''JBNSCA' run 'echo 830000 830000 > /sys/kernel/mva_test//regulators/buck2_set'
WABOJBNSCAWABOJBNSCA 0
root@arm:~# echo 'LEQO''XKWCHH'
LEQOXKWCHH
root@arm:~# MARKER='TKYP''SUNKNN' run 'i2cget -y -f 1 0x4b 0x10'
TKYPSUNKNN0x0d
TKYPSUNKNN 0
root@arm:~# echo 'ABAJ''YMXCWQ'
ABAJYMXCWQ
root@arm:~# MARKER='WBNP''ZJTTSW' run 'echo 840000 840000 > /sys/kernel/mva_test//regulators/buck2_set'
WBNPZJTTSWWBNPZJTTSW 0
root@arm:~# echo 'EGSC''ZPESJE'
EGSCZPESJE
root@arm:~# MARKER='UOKK''KXTYHL' run 'i2cget -y -f 1 0x4b 0x10'
UOKKKXTYHL0x0e
UOKKKXTYHL 0
root@arm:~# echo 'QQCQ''WKHMLS'
QQCQWKHMLS
root@arm:~# MARKER='OCTF''GYPZQY' run 'echo 850000 850000 > /sys/kernel/mva_test//regulators/buck2_set'
OCTFGYPZQYOCTFGYPZQY 0
root@arm:~# echo 'ZZTF''UNJBAG'
ZZTFUNJBAG
root@arm:~# MARKER='GHGW''QLBWQJ' run 'i2cget -y -f 1 0x4b 0x10'
GHGWQLBWQJ0x0f
GHGWQLBWQJ 0
root@arm:~# echo 'GQKT''VLPBFX'
GQKTVLPBFX
root@arm:~# MARKER='ALGZ''TXSAWZ' run 'echo 860000 860000 > /sys/kernel/mva_test//regulators/buck2_set'
ALGZTXSAWZALGZTXSAWZ 0
root@arm:~# echo 'MTVB''HKSHHO'
MTVBHKSHHO
root@arm:~# MARKER='AWSP''FPCKCA' run 'i2cget -y -f 1 0x4b 0x10'
AWSPFPCKCA0x10
AWSPFPCKCA 0
root@arm:~# echo 'WQOT''VPUSJA'
WQOTVPUSJA
root@arm:~# MARKER='QBCJ''JPNPMB' run 'echo 870000 870000 > /sys/kernel/mva_test//regulators/buck2_set'
QBCJJPNPMBQBCJJPNPMB 0
root@arm:~# echo 'FUNF''VTQMVE'
FUNFVTQMVE
root@arm:~# MARKER='BXGH''JXCWJT' run 'i2cget -y -f 1 0x4b 0x10'
BXGHJXCWJT0x11
BXGHJXCWJT 0
root@arm:~# echo 'KALF''SXMOUT'
KALFSXMOUT
root@arm:~# MARKER='YXOP''PKTFBM' run 'echo 880000 880000 > /sys/kernel/mva_test//regulators/buck2_set'
YXOPPKTFBMYXOPPKTFBM 0
root@arm:~# echo 'AEZZ''FUHUEJ'
AEZZFUHUEJ
root@arm:~# MARKER='AHFK''JFCOJJ' run 'i2cget -y -f 1 0x4b 0x10'
AHFKJFCOJJ0x12
AHFKJFCOJJ 0
root@arm:~# echo 'MJLF''NJZCZP'
MJLFNJZCZP
root@arm:~# MARKER='MEFC''KAHWCL' run 'echo 890000 890000 > /sys/kernel/mva_test//regulators/buck2_set'
MEFCKAHWCLMEFCKAHWCL 0
root@arm:~# echo 'QCSA''TTOYCQ'
QCSATTOYCQ
root@arm:~# MARKER='XZZZ''XAAGYP' run 'i2cget -y -f 1 0x4b 0x10'
XZZZXAAGYP0x13
XZZZXAAGYP 0
root@arm:~# echo 'ECAU''TKBJBN'
ECAUTKBJBN
root@arm:~# MARKER='ZWZS''JSYBZM' run 'echo 900000 900000 > /sys/kernel/mva_test//regulators/buck2_set'
ZWZSJSYBZMZWZSJSYBZM 0
root@arm:~# echo 'CPVT''CQUQKG'
CPVTCQUQKG
root@arm:~# MARKER='WXMB''SXTGYV' run 'i2cget -y -f 1 0x4b 0x10'
WXMBSXTGYV0x14
WXMBSXTGYV 0
root@arm:~# echo 'BWNP''WOZMZO'
BWNPWOZMZO
root@arm:~# MARKER='FNSV''JPAXAK' run 'echo 910000 910000 > /sys/kernel/mva_test//regulators/buck2_set'
FNSVJPAXAKFNSVJPAXAK 0
root@arm:~# echo 'MTEC''SYJOVK'
MTECSYJOVK
root@arm:~# MARKER='WAXO''BVBQPS' run 'i2cget -y -f 1 0x4b 0x10'
WAXOBVBQPS0x15
WAXOBVBQPS 0
root@arm:~# echo 'KOVU''KUHKJU'
KOVUKUHKJU
root@arm:~# MARKER='JGZJ''PJMWSO' run 'echo 920000 920000 > /sys/kernel/mva_test//regulators/buck2_set'
JGZJPJMWSOJGZJPJMWSO 0
root@arm:~# echo 'ECWC''VLEQSZ'
ECWCVLEQSZ
root@arm:~# MARKER='ABGL''WBKWZW' run 'i2cget -y -f 1 0x4b 0x10'
ABGLWBKWZW0x16
ABGLWBKWZW 0
root@arm:~# echo 'KXBE''LWAUEW'
KXBELWAUEW
root@arm:~# MARKER='STJS''BSZZCO' run 'echo 930000 930000 > /sys/kernel/mva_test//regulators/buck2_set'
STJSBSZZCOSTJSBSZZCO 0
root@arm:~# echo 'MWWW''VFYUOU'
MWWWVFYUOU
root@arm:~# MARKER='CMEQ''WYKGGY' run 'i2cget -y -f 1 0x4b 0x10'
CMEQWYKGGY0x17
CMEQWYKGGY 0
root@arm:~# echo 'XONH''FOKPJM'
XONHFOKPJM
root@arm:~# MARKER='QJEK''QYGYOS' run 'echo 940000 940000 > /sys/kernel/mva_test//regulators/buck2_set'
QJEKQYGYOSQJEKQYGYOS 0
root@arm:~# echo 'ZVAC''HVNVCM'
ZVACHVNVCM
root@arm:~# MARKER='JAUK''ZAMMSK' run 'i2cget -y -f 1 0x4b 0x10'
JAUKZAMMSK0x18
JAUKZAMMSK 0
root@arm:~# echo 'UCUZ''HBNBJV'
UCUZHBNBJV
root@arm:~# MARKER='VCKZ''UBNXQX' run 'echo 950000 950000 > /sys/kernel/mva_test//regulators/buck2_set'
VCKZUBNXQXVCKZUBNXQX 0
root@arm:~# echo 'CACW''EYSYFA'
CACWEYSYFA
root@arm:~# MARKER='WTAP''CPTZEG' run 'i2cget -y -f 1 0x4b 0x10'
WTAPCPTZEG0x19
WTAPCPTZEG 0
root@arm:~# echo 'JQPP''SCZTMV'
JQPPSCZTMV
root@arm:~# MARKER='UCNK''HPSSMZ' run 'echo 960000 960000 > /sys/kernel/mva_test//regulators/buck2_set'
UCNKHPSSMZUCNKHPSSMZ 0
root@arm:~# echo 'CCQC''VCKFLG'
CCQCVCKFLG
root@arm:~# MARKER='HMQZ''FXSTGB' run 'i2cget -y -f 1 0x4b 0x10'
HMQZFXSTGB0x1a
HMQZFXSTGB 0
root@arm:~# echo 'MJAL''YYKGYQ'
MJALYYKGYQ
root@arm:~# MARKER='EEVL''ABZSYN' run 'echo 970000 970000 > /sys/kernel/mva_test//regulators/buck2_set'
EEVLABZSYNEEVLABZSYN 0
root@arm:~# echo 'KOHY''XKYOMU'
KOHYXKYOMU
root@arm:~# MARKER='WMGB''QTMXYF' run 'i2cget -y -f 1 0x4b 0x10'
WMGBQTMXYF0x1b
WMGBQTMXYF 0
root@arm:~# echo 'LMNS''PCEOMS'
LMNSPCEOMS
root@arm:~# MARKER='VBBV''UCKNCQ' run 'echo 980000 980000 > /sys/kernel/mva_test//regulators/buck2_set'
VBBVUCKNCQVBBVUCKNCQ 0
root@arm:~# echo 'ENTG''AXYUQC'
ENTGAXYUQC
root@arm:~# MARKER='UHQN''HCBVAL' run 'i2cget -y -f 1 0x4b 0x10'
UHQNHCBVAL0x1c
UHQNHCBVAL 0
root@arm:~# echo 'ULBE''VEVYOC'
ULBEVEVYOC
root@arm:~# MARKER='CWBN''WQFFWC' run 'echo 990000 990000 > /sys/kernel/mva_test//regulators/buck2_set'
CWBNWQFFWCCWBNWQFFWC 0
root@arm:~# echo 'PUTE''BAQGFQ'
PUTEBAQGFQ
root@arm:~# MARKER='PJMY''AWCJWX' run 'i2cget -y -f 1 0x4b 0x10'
PJMYAWCJWX0x1d
PJMYAWCJWX 0
root@arm:~# echo 'QJUU''XGOJWC'
QJUUXGOJWC
root@arm:~# MARKER='TSAL''FTPEKW' run 'echo 1000000 1000000 > /sys/kernel/mva_tesst/regulators/buck2_set'
TSALFTPEKWTSALFTPEKW 0
root@arm:~# echo 'VQME''SKPHWO'
VQMESKPHWO
root@arm:~# MARKER='SBBZ''LKZVAJ' run 'i2cget -y -f 1 0x4b 0x10'
SBBZLKZVAJ0x1e
SBBZLKZVAJ 0
root@arm:~# echo 'TSKJ''FXKTLK'
TSKJFXKTLK
root@arm:~# MARKER='UFQQ''GLAVBF' run 'echo 1010000 1010000 > /sys/kernel/mva_tesst/regulators/buck2_set'
UFQQGLAVBFUFQQGLAVBF 0
root@arm:~# echo 'MBBQ''SHPHOK'
MBBQSHPHOK
root@arm:~# MARKER='HLAY''FNMYMJ' run 'i2cget -y -f 1 0x4b 0x10'
HLAYFNMYMJ0x1f
HLAYFNMYMJ 0
root@arm:~# echo 'ZMAO''OQUYFP'
ZMAOOQUYFP
root@arm:~# MARKER='XHZV''VZLWGE' run 'echo 1020000 1020000 > /sys/kernel/mva_tesst/regulators/buck2_set'
XHZVVZLWGEXHZVVZLWGE 0
root@arm:~# echo 'QFKH''VELMKE'
QFKHVELMKE
root@arm:~# MARKER='HXJQ''UAVEQQ' run 'i2cget -y -f 1 0x4b 0x10'
HXJQUAVEQQ0x20
HXJQUAVEQQ 0
root@arm:~# echo 'PEAH''CEUZYO'
PEAHCEUZYO
root@arm:~# MARKER='SCVQ''SNXVAT' run 'echo 1030000 1030000 > /sys/kernel/mva_tesst/regulators/buck2_set'
SCVQSNXVATSCVQSNXVAT 0
root@arm:~# echo 'ZYWA''FSPNAP'
ZYWAFSPNAP
root@arm:~# MARKER='UYHL''NTLHUF' run 'i2cget -y -f 1 0x4b 0x10'
UYHLNTLHUF0x21
UYHLNTLHUF 0
root@arm:~# echo 'XSSW''XSQCWF'
XSSWXSQCWF
root@arm:~# MARKER='BSML''YKEETG' run 'echo 1040000 1040000 > /sys/kernel/mva_tesst/regulators/buck2_set'
BSMLYKEETGBSMLYKEETG 0
root@arm:~# echo 'VJJJ''ENUSXG'
VJJJENUSXG
root@arm:~# MARKER='WXZU''VXVOQG' run 'i2cget -y -f 1 0x4b 0x10'
WXZUVXVOQG0x22
WXZUVXVOQG 0
root@arm:~# echo 'JPJG''GCCLLB'
JPJGGCCLLB
root@arm:~# MARKER='YWPC''TYJVBP' run 'echo 1050000 1050000 > /sys/kernel/mva_tesst/regulators/buck2_set'
YWPCTYJVBPYWPCTYJVBP 0
root@arm:~# echo 'XEHW''TFKXBZ'
XEHWTFKXBZ
root@arm:~# MARKER='ZCZC''BGUTPC' run 'i2cget -y -f 1 0x4b 0x10'
ZCZCBGUTPC0x23
ZCZCBGUTPC 0
root@arm:~# echo 'KWGQ''OZOFVO'
KWGQOZOFVO
root@arm:~# MARKER='SBUZ''UFPQYH' run 'echo 1060000 1060000 > /sys/kernel/mva_tesst/regulators/buck2_set'
SBUZUFPQYHSBUZUFPQYH 0
root@arm:~# echo 'XJWE''OQLUHJ'
XJWEOQLUHJ
root@arm:~# MARKER='BJGE''UGCHCW' run 'i2cget -y -f 1 0x4b 0x10'
BJGEUGCHCW0x24
BJGEUGCHCW 0
root@arm:~# echo 'COES''MMQGSW'
COESMMQGSW
root@arm:~# MARKER='VCYV''YTANWP' run 'echo 1070000 1070000 > /sys/kernel/mva_tesst/regulators/buck2_set'
VCYVYTANWPVCYVYTANWP 0
root@arm:~# echo 'JHKS''KANHHE'
JHKSKANHHE
root@arm:~# MARKER='UNAG''KFPXVW' run 'i2cget -y -f 1 0x4b 0x10'
UNAGKFPXVW0x25
UNAGKFPXVW 0
root@arm:~# echo 'JSVE''BHXZQF'
JSVEBHXZQF
root@arm:~# MARKER='PHFS''FCASWN' run 'echo 1080000 1080000 > /sys/kernel/mva_tesst/regulators/buck2_set'
PHFSFCASWNPHFSFCASWN 0
root@arm:~# echo 'JUTE''BKBKNV'
JUTEBKBKNV
root@arm:~# MARKER='JZLN''ANJCGT' run 'i2cget -y -f 1 0x4b 0x10'
JZLNANJCGT0x26
JZLNANJCGT 0
root@arm:~# echo 'OKXC''UHAJUF'
OKXCUHAJUF
root@arm:~# MARKER='KNGT''MZGTXZ' run 'echo 1090000 1090000 > /sys/kernel/mva_tesst/regulators/buck2_set'
KNGTMZGTXZKNGTMZGTXZ 0
root@arm:~# echo 'GCSQ''NKVVPW'
GCSQNKVVPW
root@arm:~# MARKER='CJLK''BNTSZF' run 'i2cget -y -f 1 0x4b 0x10'
CJLKBNTSZF0x27
CJLKBNTSZF 0
root@arm:~# echo 'QEJY''MSNCES'
QEJYMSNCES
root@arm:~# MARKER='GZLF''KBHLMH' run 'echo 1100000 1100000 > /sys/kernel/mva_tesst/regulators/buck2_set'
GZLFKBHLMHGZLFKBHLMH 0
root@arm:~# echo 'GGEN''TZOYJC'
GGENTZOYJC
root@arm:~# MARKER='MYSB''UTBNJF' run 'i2cget -y -f 1 0x4b 0x10'
MYSBUTBNJF0x28
MYSBUTBNJF 0
root@arm:~# echo 'BTZF''QVHOYY'
BTZFQVHOYY
root@arm:~# MARKER='UOXV''WOSXGT' run 'echo 1110000 1110000 > /sys/kernel/mva_tesst/regulators/buck2_set'
UOXVWOSXGTUOXVWOSXGT 0
root@arm:~# echo 'KLJQ''AAUULT'
KLJQAAUULT
root@arm:~# MARKER='SSLQ''NZJQAA' run 'i2cget -y -f 1 0x4b 0x10'
SSLQNZJQAA0x29
SSLQNZJQAA 0
root@arm:~# echo 'SFPO''NPPXOO'
SFPONPPXOO
root@arm:~# MARKER='VYKS''ZKWVFS' run 'echo 1120000 1120000 > /sys/kernel/mva_tesst/regulators/buck2_set'
VYKSZKWVFSVYKSZKWVFS 0
root@arm:~# echo 'QWVB''BGQPUA'
QWVBBGQPUA
root@arm:~# MARKER='UPMH''JOLTNN' run 'i2cget -y -f 1 0x4b 0x10'
UPMHJOLTNN0x2a
UPMHJOLTNN 0
root@arm:~# echo 'BVSA''VCCLLF'
BVSAVCCLLF
root@arm:~# MARKER='JEKE''XKGYTP' run 'echo 1130000 1130000 > /sys/kernel/mva_tesst/regulators/buck2_set'
JEKEXKGYTPJEKEXKGYTP 0
root@arm:~# echo 'HVKV''CQESZJ'
HVKVCQESZJ
root@arm:~# MARKER='AQZU''ZHXXEB' run 'i2cget -y -f 1 0x4b 0x10'
AQZUZHXXEB0x2b
AQZUZHXXEB 0
root@arm:~# echo 'JVZW''NPWSGM'
JVZWNPWSGM
root@arm:~# MARKER='XGQW''GWMZNE' run 'echo 1140000 1140000 > /sys/kernel/mva_tesst/regulators/buck2_set'
XGQWGWMZNEXGQWGWMZNE 0
root@arm:~# echo 'BWFZ''QPBUCV'
BWFZQPBUCV
root@arm:~# MARKER='CCMW''TUQBOF' run 'i2cget -y -f 1 0x4b 0x10'
CCMWTUQBOF0x2c
CCMWTUQBOF 0
root@arm:~# echo 'JKZU''WXGMOO'
JKZUWXGMOO
root@arm:~# MARKER='GLTN''EKXVSV' run 'echo 1150000 1150000 > /sys/kernel/mva_tesst/regulators/buck2_set'
GLTNEKXVSVGLTNEKXVSV 0
root@arm:~# echo 'LGSL''BASOOW'
LGSLBASOOW
root@arm:~# MARKER='SKTM''ATYCGL' run 'i2cget -y -f 1 0x4b 0x10'
SKTMATYCGL0x2d
SKTMATYCGL 0
root@arm:~# echo 'ZUPO''EOBYVB'
ZUPOEOBYVB
root@arm:~# MARKER='UFJE''TVBTJT' run 'echo 1160000 1160000 > /sys/kernel/mva_tesst/regulators/buck2_set'
UFJETVBTJTUFJETVBTJT 0
root@arm:~# echo 'YAHY''XSETHH'
YAHYXSETHH
root@arm:~# MARKER='QNBS''NLVXPX' run 'i2cget -y -f 1 0x4b 0x10'
QNBSNLVXPX0x2e
QNBSNLVXPX 0
root@arm:~# echo 'CQHC''GPULPT'
CQHCGPULPT
root@arm:~# MARKER='OMHU''LXBZEF' run 'echo 1170000 1170000 > /sys/kernel/mva_tesst/regulators/buck2_set'
OMHULXBZEFOMHULXBZEF 0
root@arm:~# echo 'PMES''SYYPMH'
PMESSYYPMH
root@arm:~# MARKER='CCAJ''KNAHZN' run 'i2cget -y -f 1 0x4b 0x10'
CCAJKNAHZN0x2f
CCAJKNAHZN 0
root@arm:~# echo 'HOQV''SSVLXH'
HOQVSSVLXH
root@arm:~# MARKER='KLHL''NNCFBS' run 'echo 1180000 1180000 > /sys/kernel/mva_tesst/regulators/buck2_set'
KLHLNNCFBSKLHLNNCFBS 0
root@arm:~# echo 'JMJV''AFFKQY'
JMJVAFFKQY
root@arm:~# MARKER='JWWP''PQSFEX' run 'i2cget -y -f 1 0x4b 0x10'
JWWPPQSFEX0x30
JWWPPQSFEX 0
root@arm:~# echo 'BOLT''KMNFYY'
BOLTKMNFYY
root@arm:~# MARKER='WNLH''NFFSNL' run 'echo 1190000 1190000 > /sys/kernel/mva_tesst/regulators/buck2_set'
WNLHNFFSNLWNLHNFFSNL 0
root@arm:~# echo 'QUXN''OEMMJQ'
QUXNOEMMJQ
root@arm:~# MARKER='LVMZ''ANCOHU' run 'i2cget -y -f 1 0x4b 0x10'
LVMZANCOHU0x31
LVMZANCOHU 0
root@arm:~# echo 'PSNC''TXXHQP'
PSNCTXXHQP
root@arm:~# MARKER='ZVXZ''VVOUXV' run 'echo 1200000 1200000 > /sys/kernel/mva_tesst/regulators/buck2_set'
ZVXZVVOUXVZVXZVVOUXV 0
root@arm:~# echo 'XYLJ''NUNVOZ'
XYLJNUNVOZ
root@arm:~# MARKER='ZXZV''KTFWWB' run 'i2cget -y -f 1 0x4b 0x10'
ZXZVKTFWWB0x32
ZXZVKTFWWB 0
root@arm:~# echo 'CKXH''PHAPLK'
CKXHPHAPLK
root@arm:~# MARKER='PGUL''BZHOGJ' run 'echo 1210000 1210000 > /sys/kernel/mva_tesst/regulators/buck2_set'
PGULBZHOGJPGULBZHOGJ 0
root@arm:~# echo 'TPXX''JTHKVP'
TPXXJTHKVP
root@arm:~# MARKER='OHAM''XZWQJU' run 'i2cget -y -f 1 0x4b 0x10'
OHAMXZWQJU0x33
OHAMXZWQJU 0
root@arm:~# echo 'QYYC''GGKNYK'
QYYCGGKNYK
root@arm:~# MARKER='KKQQ''BWYLCO' run 'echo 1220000 1220000 > /sys/kernel/mva_tesst/regulators/buck2_set'
KKQQBWYLCOKKQQBWYLCO 0
root@arm:~# echo 'MHJY''SJOQNY'
MHJYSJOQNY
root@arm:~# MARKER='XZJC''EWXMAS' run 'i2cget -y -f 1 0x4b 0x10'
XZJCEWXMAS0x34
XZJCEWXMAS 0
root@arm:~# echo 'JSSE''KGEFLP'
JSSEKGEFLP
root@arm:~# MARKER='CMEH''OWKLYO' run 'echo 1230000 1230000 > /sys/kernel/mva_tesst/regulators/buck2_set'
CMEHOWKLYOCMEHOWKLYO 0
root@arm:~# echo 'LBXG''KHKCTM'
LBXGKHKCTM
root@arm:~# MARKER='MBYG''ZUQSQE' run 'i2cget -y -f 1 0x4b 0x10'
MBYGZUQSQE0x35
MBYGZUQSQE 0
root@arm:~# echo 'CWPX''OLBCQU'
CWPXOLBCQU
root@arm:~# MARKER='LEXE''GHMFSQ' run 'echo 1240000 1240000 > /sys/kernel/mva_tesst/regulators/buck2_set'
LEXEGHMFSQLEXEGHMFSQ 0
root@arm:~# echo 'FLKZ''PQUAKS'
FLKZPQUAKS
root@arm:~# MARKER='OVTQ''LBLNKA' run 'i2cget -y -f 1 0x4b 0x10'
OVTQLBLNKA0x36
OVTQLBLNKA 0
root@arm:~# echo 'NBAA''BYJNTA'
NBAABYJNTA
root@arm:~# MARKER='CEQH''BXXZNE' run 'echo 1250000 1250000 > /sys/kernel/mva_tesst/regulators/buck2_set'
CEQHBXXZNECEQHBXXZNE 0
root@arm:~# echo 'QJFZ''XQYSCW'
QJFZXQYSCW
root@arm:~# MARKER='FMGY''SOQUKF' run 'i2cget -y -f 1 0x4b 0x10'
FMGYSOQUKF0x37
FMGYSOQUKF 0
root@arm:~# echo 'MUTY''CECNVH'
MUTYCECNVH
root@arm:~# MARKER='CKQV''CTEENM' run 'echo 1260000 1260000 > /sys/kernel/mva_tesst/regulators/buck2_set'
CKQVCTEENMCKQVCTEENM 0
root@arm:~# echo 'ZXMK''ASLXGL'
ZXMKASLXGL
root@arm:~# MARKER='WMYB''GMFGZZ' run 'i2cget -y -f 1 0x4b 0x10'
WMYBGMFGZZ0x38
WMYBGMFGZZ 0
root@arm:~# echo 'NXXW''GMYCUJ'
NXXWGMYCUJ
root@arm:~# MARKER='NBOC''NJHZEH' run 'echo 1270000 1270000 > /sys/kernel/mva_tesst/regulators/buck2_set'
NBOCNJHZEHNBOCNJHZEH 0
root@arm:~# echo 'ZJGN''XCHGYN'
ZJGNXCHGYN
root@arm:~# MARKER='EBBV''PEMTLA' run 'i2cget -y -f 1 0x4b 0x10'
EBBVPEMTLA0x39
EBBVPEMTLA 0
root@arm:~# echo 'GPNP''KTALHC'
GPNPKTALHC
root@arm:~# MARKER='YNCM''UMJGOU' run 'echo 1280000 1280000 > /sys/kernel/mva_tesst/regulators/buck2_set'
YNCMUMJGOUYNCMUMJGOU 0
root@arm:~# echo 'EXKG''JOAQAS'
EXKGJOAQAS
root@arm:~# MARKER='ESPP''TTWJGW' run 'i2cget -y -f 1 0x4b 0x10'
ESPPTTWJGW0x3a
ESPPTTWJGW 0
root@arm:~# echo 'BUMZ''UPMYCJ'
BUMZUPMYCJ
root@arm:~# MARKER='BWEH''BBSPSB' run 'echo 1290000 1290000 > /sys/kernel/mva_tesst/regulators/buck2_set'
BWEHBBSPSBBWEHBBSPSB 0
root@arm:~# echo 'PCVO''GGENPC'
PCVOGGENPC
root@arm:~# MARKER='JNCL''BFNSZN' run 'i2cget -y -f 1 0x4b 0x10'
JNCLBFNSZN0x3b
JNCLBFNSZN 0
root@arm:~# echo 'ALTO''FJCPYM'
ALTOFJCPYM
root@arm:~# MARKER='OFMZ''HCGQUQ' run 'echo 1300000 1300000 > /sys/kernel/mva_tesst/regulators/buck2_set'
OFMZHCGQUQOFMZHCGQUQ 0
root@arm:~# echo 'YZGC''NGGBSE'
YZGCNGGBSE
root@arm:~# MARKER='ETQM''TAKJXM' run 'i2cget -y -f 1 0x4b 0x10'
ETQMTAKJXM0x3c
ETQMTAKJXM 0
root@arm:~# echo 'YYCN''KSVBTO'
YYCNKSVBTO
root@arm:~# MARKER='OYGS''JGFAWF' run 'grep -r -l rohm,bd71847 /proc/device-tree  | sed '"'"'s![^/]*$!!'"'"''
OYGSJGFAWF/proc/device-tree/ocp/interconnect@48000000/segment@0/target-module@2a000/i2c@0/pmic@4b/
OYGSJGFAWF 0
root@arm:~# echo 'ZVYC''CGGKUX'
ZVYCCGGKUX
root@arm:~# MARKER='PKGX''EPZBUF' run 'test -f /proc/device-tree/ocp/interconnectt\@48000000/segment\@0/target-module\@2a000/i2c\@0/pmic\@4b/regulators/BUCK3/rohmm,no-regulator-enable-control ;echo $?'
PKGXEPZBUF0
PKGXEPZBUF 0
root@arm:~# echo 'EMGW''HEGNUZ'
EMGWHEGNUZ
root@arm:~# MARKER='GSYP''PXNVBX' run 'echo 700000 700000 > /sys/kernel/mva_test//regulators/buck3_set'
GSYPPXNVBXGSYPPXNVBX 0
root@arm:~# echo 'FWEJ''OQSKQK'
FWEJOQSKQK
root@arm:~# MARKER='JOUQ''VWXQQV' run 'i2cget -y -f 1 0x4b 0x14'
JOUQVWXQQV0x00
JOUQVWXQQV 0
root@arm:~# echo 'QOPJ''BOYSQA'
QOPJBOYSQA
root@arm:~# MARKER='JYUP''TLCWWG' run 'echo 800000 800000 > /sys/kernel/mva_test//regulators/buck3_set'
JYUPTLCWWGJYUPTLCWWG 0
root@arm:~# echo 'QOFJ''OMHYOP'
QOFJOMHYOP
root@arm:~# MARKER='MPFK''SALBFS' run 'i2cget -y -f 1 0x4b 0x14'
MPFKSALBFS0x01
MPFKSALBFS 0
root@arm:~# echo 'KAAG''FJENVW'
KAAGFJENVW
root@arm:~# MARKER='FCTK''FKVMYC' run 'echo 900000 900000 > /sys/kernel/mva_test//regulators/buck3_set'
FCTKFKVMYCFCTKFKVMYC 0
root@arm:~# echo 'TQXZ''AVNBQZ'
TQXZAVNBQZ
root@arm:~# MARKER='YUYA''MUFNCM' run 'i2cget -y -f 1 0x4b 0x14'
YUYAMUFNCM0x02
YUYAMUFNCM 0
root@arm:~# echo 'WOFQ''ZXTCFP'
WOFQZXTCFP
root@arm:~# MARKER='QQLG''ZKZWEW' run 'echo 1000000 1000000 > /sys/kernel/mva_tesst/regulators/buck3_set'
QQLGZKZWEWQQLGZKZWEW 0
root@arm:~# echo 'MKSJ''ZGYXJM'
MKSJZGYXJM
root@arm:~# MARKER='HCJB''XBCSQF' run 'i2cget -y -f 1 0x4b 0x14'
HCJBXBCSQF0x03
HCJBXBCSQF 0
root@arm:~# echo 'WEQM''MJYBYU'
WEQMMJYBYU
root@arm:~# MARKER='WHMA''MXZVZL' run 'echo 1050000 1050000 > /sys/kernel/mva_tesst/regulators/buck3_set'
WHMAMXZVZLWHMAMXZVZL 0
root@arm:~# echo 'KJSY''PGFPMT'
KJSYPGFPMT
root@arm:~# MARKER='YSQN''EQGLXK' run 'i2cget -y -f 1 0x4b 0x14'
YSQNEQGLXK0x04
YSQNEQGLXK 0
root@arm:~# echo 'WLWF''MPWUSG'
WLWFMPWUSG
root@arm:~# MARKER='CBNO''EVFOBL' run 'echo 1100000 1100000 > /sys/kernel/mva_tesst/regulators/buck3_set'
CBNOEVFOBLCBNOEVFOBL 0
root@arm:~# echo 'KOJM''KEVCSA'
KOJMKEVCSA
root@arm:~# MARKER='VPNL''NMMCUE' run 'i2cget -y -f 1 0x4b 0x14'
VPNLNMMCUE0x05
VPNLNMMCUE 0
root@arm:~# echo 'FFEO''UGYBVX'
FFEOUGYBVX
root@arm:~# MARKER='VATF''GUJNSX' run 'echo 1200000 1200000 > /sys/kernel/mva_tesst/regulators/buck3_set'
VATFGUJNSXVATFGUJNSX 0
root@arm:~# echo 'JJXE''HVPYPF'
JJXEHVPYPF
root@arm:~# MARKER='PYMA''SOVAWH' run 'i2cget -y -f 1 0x4b 0x14'
PYMASOVAWH0x06
PYMASOVAWH 0
root@arm:~# echo 'XWAN''KYEFHS'
XWANKYEFHS
root@arm:~# MARKER='TQCM''EMPJVO' run 'echo 1350000 1350000 > /sys/kernel/mva_tesst/regulators/buck3_set'
TQCMEMPJVOTQCMEMPJVO 0
root@arm:~# echo 'XHCW''QWCQOB'
XHCWQWCQOB
root@arm:~# MARKER='UEOP''XCPYGW' run 'i2cget -y -f 1 0x4b 0x14'
UEOPXCPYGW0x07
UEOPXCPYGW 0
root@arm:~# echo 'UQMJ''PNJPOU'
UQMJPNJPOU
root@arm:~# MARKER='GYUH''FSYTQN' run 'echo 550000 550000 > /sys/kernel/mva_test//regulators/buck3_set'
GYUHFSYTQNGYUHFSYTQN 0
root@arm:~# echo 'FXPX''TKLJYF'
FXPXTKLJYF
root@arm:~# MARKER='XQTN''SMXXKN' run 'i2cget -y -f 1 0x4b 0x14'
XQTNSMXXKN0x40
XQTNSMXXKN 0
root@arm:~# echo 'FTNO''QXNVQS'
FTNOQXNVQS
root@arm:~# MARKER='CCTZ''CYMPLW' run 'echo 600000 600000 > /sys/kernel/mva_test//regulators/buck3_set'
CCTZCYMPLWCCTZCYMPLW 0
root@arm:~# echo 'LLKW''VUSFAX'
LLKWVUSFAX
root@arm:~# MARKER='PEPN''ENHQEC' run 'i2cget -y -f 1 0x4b 0x14'
PEPNENHQEC0x41
PEPNENHQEC 0
root@arm:~# echo 'ZTVQ''ZLSXWQ'
ZTVQZLSXWQ
root@arm:~# MARKER='XBNM''MSXYMU' run 'echo 650000 650000 > /sys/kernel/mva_test//regulators/buck3_set'
XBNMMSXYMUXBNMMSXYMU 0
root@arm:~# echo 'UBPZ''YTENMY'
UBPZYTENMY
root@arm:~# MARKER='PNSJ''CNEXJC' run 'i2cget -y -f 1 0x4b 0x14'
PNSJCNEXJC0x42
PNSJCNEXJC 0
root@arm:~# echo 'STAG''MBQQZY'
STAGMBQQZY
root@arm:~# MARKER='SPHS''WYYHVN' run 'echo 700000 700000 > /sys/kernel/mva_test//regulators/buck3_set'
SPHSWYYHVNSPHSWYYHVN 0
root@arm:~# echo 'HWLC''QSBFQH'
HWLCQSBFQH
root@arm:~# MARKER='WXOW''PECEPH' run 'i2cget -y -f 1 0x4b 0x14'
WXOWPECEPH0x00
WXOWPECEPH 0
root@arm:~# echo 'ZOPY''TLNENM'
ZOPYTLNENM
root@arm:~# MARKER='ZGTL''TCQKJP' run 'echo 750000 750000 > /sys/kernel/mva_test//regulators/buck3_set'
ZGTLTCQKJPZGTLTCQKJP 0
root@arm:~# echo 'GFMZ''KBXJJT'
GFMZKBXJJT
root@arm:~# MARKER='SBYJ''CVKBCF' run 'i2cget -y -f 1 0x4b 0x14'
SBYJCVKBCF0x44
SBYJCVKBCF 0
root@arm:~# echo 'ATOL''ULOBNY'
ATOLULOBNY
root@arm:~# MARKER='JAYN''QPPZPF' run 'echo 800000 800000 > /sys/kernel/mva_test//regulators/buck3_set'
JAYNQPPZPFJAYNQPPZPF 0
root@arm:~# echo 'AAXC''UYHSMY'
AAXCUYHSMY
root@arm:~# MARKER='MOBJ''AYEGOP' run 'i2cget -y -f 1 0x4b 0x14'
MOBJAYEGOP0x01
MOBJAYEGOP 0
root@arm:~# echo 'AHWW''UEXBYV'
AHWWUEXBYV
root@arm:~# MARKER='CMJW''AEQQJP' run 'echo 850000 850000 > /sys/kernel/mva_test//regulators/buck3_set'
CMJWAEQQJPCMJWAEQQJP 0
root@arm:~# echo 'QGEF''JJYZXY'
QGEFJJYZXY
root@arm:~# MARKER='SKLB''KOKLNM' run 'i2cget -y -f 1 0x4b 0x14'
SKLBKOKLNM0x46
SKLBKOKLNM 0
root@arm:~# echo 'FTJP''VNQCGF'
FTJPVNQCGF
root@arm:~# MARKER='CAOM''UOJQVS' run 'echo 900000 900000 > /sys/kernel/mva_test//regulators/buck3_set'
CAOMUOJQVSCAOMUOJQVS 0
root@arm:~# echo 'WQZE''WMUKOW'
WQZEWMUKOW
root@arm:~# MARKER='UCQY''ZJPWGZ' run 'i2cget -y -f 1 0x4b 0x14'
UCQYZJPWGZ0x02
UCQYZJPWGZ 0
root@arm:~# echo 'KXHT''AWATUP'
KXHTAWATUP
root@arm:~# MARKER='ZESF''PYZWJE' run 'echo 675000 675000 > /sys/kernel/mva_test//regulators/buck3_set'
ZESFPYZWJEZESFPYZWJE 0
root@arm:~# echo 'FTFA''NUHHLC'
FTFANUHHLC
root@arm:~# MARKER='NYAF''XUPCMW' run 'i2cget -y -f 1 0x4b 0x14'
NYAFXUPCMW0x80
NYAFXUPCMW 0
root@arm:~# echo 'ZPPK''AXGTVT'
ZPPKAXGTVT
root@arm:~# MARKER='FJPW''GLQGNQ' run 'echo 775000 775000 > /sys/kernel/mva_test//regulators/buck3_set'
FJPWGLQGNQFJPWGLQGNQ 0
root@arm:~# echo 'VPPA''SWLZAW'
VPPASWLZAW
root@arm:~# MARKER='PXLP''GOYFYB' run 'i2cget -y -f 1 0x4b 0x14'
PXLPGOYFYB0x81
PXLPGOYFYB 0
root@arm:~# echo 'JQWW''HUJGSH'
JQWWHUJGSH
root@arm:~# MARKER='JWYH''VVQEKF' run 'echo 875000 875000 > /sys/kernel/mva_test//regulators/buck3_set'
JWYHVVQEKFJWYHVVQEKF 0
root@arm:~# echo 'XVTJ''LOYNHX'
XVTJLOYNHX
root@arm:~# MARKER='AGGQ''MZAQBB' run 'i2cget -y -f 1 0x4b 0x14'
AGGQMZAQBB0x82
AGGQMZAQBB 0
root@arm:~# echo 'YXLK''AYASFJ'
YXLKAYASFJ
root@arm:~# MARKER='ZOZE''JGTUMY' run 'echo 975000 975000 > /sys/kernel/mva_test//regulators/buck3_set'
ZOZEJGTUMYZOZEJGTUMY 0
root@arm:~# echo 'YXJW''QYCSGE'
YXJWQYCSGE
root@arm:~# MARKER='OQFS''ZJJJAO' run 'i2cget -y -f 1 0x4b 0x14'
OQFSZJJJAO0x83
OQFSZJJJAO 0
root@arm:~# echo 'PYNB''YJCYTO'
PYNBYJCYTO
root@arm:~# MARKER='AJJC''EEACHW' run 'echo 1025000 1025000 > /sys/kernel/mva_tesst/regulators/buck3_set'
AJJCEEACHWAJJCEEACHW 0
root@arm:~# echo 'NMHW''OTJVCC'
NMHWOTJVCC
root@arm:~# MARKER='TVJB''SYVZKF' run 'i2cget -y -f 1 0x4b 0x14'
TVJBSYVZKF0x84
TVJBSYVZKF 0
root@arm:~# echo 'CLVS''QWUCMG'
CLVSQWUCMG
root@arm:~# MARKER='MCMW''JLAZJY' run 'echo 1075000 1075000 > /sys/kernel/mva_tesst/regulators/buck3_set'
MCMWJLAZJYMCMWJLAZJY 0
root@arm:~# echo 'BBCF''CLEMOO'
BBCFCLEMOO
root@arm:~# MARKER='SMQL''FMGWFX' run 'i2cget -y -f 1 0x4b 0x14'
SMQLFMGWFX0x85
SMQLFMGWFX 0
root@arm:~# echo 'NTGW''KGSBZK'
NTGWKGSBZK
root@arm:~# MARKER='XOTQ''TWAPNU' run 'echo 1175000 1175000 > /sys/kernel/mva_tesst/regulators/buck3_set'
XOTQTWAPNUXOTQTWAPNU 0
root@arm:~# echo 'TSLP''WNFQVA'
TSLPWNFQVA
root@arm:~# MARKER='HUCS''AAGHNB' run 'i2cget -y -f 1 0x4b 0x14'
HUCSAAGHNB0x86
HUCSAAGHNB 0
root@arm:~# echo 'BEVG''PXWKGY'
BEVGPXWKGY
root@arm:~# MARKER='AHUM''UGLOTV' run 'echo 1325000 1325000 > /sys/kernel/mva_tesst/regulators/buck3_set'
AHUMUGLOTVAHUMUGLOTV 0
root@arm:~# echo 'GASU''ZUCJSG'
GASUZUCJSG
root@arm:~# MARKER='CWKL''KLXEEU' run 'i2cget -y -f 1 0x4b 0x14'
CWKLKLXEEU0x87
CWKLKLXEEU 0
root@arm:~# echo 'NJZJ''FHQBEA'
NJZJFHQBEA
root@arm:~# MARKER='PJPS''XYGJYU' run 'grep -r -l rohm,bd71847 /proc/device-tree  | sed '"'"'s![^/]*$!!'"'"''
PJPSXYGJYU/proc/device-tree/ocp/interconnect@48000000/segment@0/target-module@2a000/i2c@0/pmic@4b/
PJPSXYGJYU 0
root@arm:~# echo 'PEGQ''PGOAKM'
PEGQPGOAKM
root@arm:~# MARKER='NSEZ''YGZLUY' run 'test -f /proc/device-tree/ocp/interconnectt\@48000000/segment\@0/target-module\@2a000/i2c\@0/pmic\@4b/regulators/BUCK4/roh m,no-regulator-enable-control ;echo $?'
NSEZYGZLUY1
NSEZYGZLUY 0
root@arm:~# echo 'QNEN''LKUAAO'
QNENLKUAAO
root@arm:~# MARKER='GPVA''CTGUQL' run 'i2cget -y -f 1 0x4b 0xa'
GPVACTGUQL0x02
GPVACTGUQL 0
root@arm:~# echo 'JCQV''QTBMBY'
JCQVQTBMBY
root@arm:~# MARKER='FTCH''UFZFVQ' run 'echo 3000000 3000000 > /sys/kernel/mva_tesst/regulators/buck4_set'
FTCHUFZFVQFTCHUFZFVQ 0
root@arm:~# echo 'XZUQ''SYYEFB'
XZUQSYYEFB
root@arm:~# MARKER='XWUJ''KQCHNY' run 'i2cget -y -f 1 0x4b 0x15'
XWUJKQCHNY0x00
XWUJKQCHNY 0
root@arm:~# echo 'GHYG''PAEJSE'
GHYGPAEJSE
root@arm:~# MARKER='SBAB''HBKAJH' run 'echo 3100000 3100000 > /sys/kernel/mva_tesst/regulators/buck4_set'
SBABHBKAJHSBABHBKAJH 0
root@arm:~# echo 'SNUU''BHTCXM'
SNUUBHTCXM
root@arm:~# MARKER='TMFP''PNTFEK' run 'i2cget -y -f 1 0x4b 0x15'
TMFPPNTFEK0x01
TMFPPNTFEK 0
root@arm:~# echo 'VAYF''JJNNYK'
VAYFJJNNYK
root@arm:~# MARKER='HJBZ''TGKJPM' run 'echo 3200000 3200000 > /sys/kernel/mva_tesst/regulators/buck4_set'
HJBZTGKJPMHJBZTGKJPM 0
root@arm:~# echo 'MOMY''COCLMJ'
MOMYCOCLMJ
root@arm:~# MARKER='WEWJ''MGUKTT' run 'i2cget -y -f 1 0x4b 0x15'
WEWJMGUKTT0x02
WEWJMGUKTT 0
root@arm:~# echo 'HXFP''LTBLMF'
HXFPLTBLMF
root@arm:~# MARKER='ZEKE''UCEKEX' run 'echo 3300000 3300000 > /sys/kernel/mva_tesst/regulators/buck4_set'
ZEKEUCEKEXZEKEUCEKEX 0
root@arm:~# echo 'WUXB''ZBBYJV'
WUXBZBBYJV
root@arm:~# MARKER='EGPT''JUOCLB' run 'i2cget -y -f 1 0x4b 0x15'
EGPTJUOCLB0x03
EGPTJUOCLB 0
root@arm:~# echo 'FHEG''NBZHME'
FHEGNBZHME
root@arm:~# MARKER='PFOA''EFYPUJ' run 'echo 2600000 2600000 > /sys/kernel/mva_tesst/regulators/buck4_set'
PFOAEFYPUJPFOAEFYPUJ 0
root@arm:~# echo 'EKYA''GUUMHS'
EKYAGUUMHS
root@arm:~# MARKER='VWQV''FSOLLU' run 'i2cget -y -f 1 0x4b 0x15'
VWQVFSOLLU0x40
VWQVFSOLLU 0
root@arm:~# echo 'YECK''KQASZM'
YECKKQASZM
root@arm:~# MARKER='LKUJ''HYHYTW' run 'echo 2700000 2700000 > /sys/kernel/mva_tesst/regulators/buck4_set'
LKUJHYHYTWLKUJHYHYTW 0
root@arm:~# echo 'NYEA''HKTUTU'
NYEAHKTUTU
root@arm:~# MARKER='YAHX''AFQSLA' run 'i2cget -y -f 1 0x4b 0x15'
YAHXAFQSLA0x41
YAHXAFQSLA 0
root@arm:~# echo 'POMT''BBQGWQ'
POMTBBQGWQ
root@arm:~# MARKER='PBPN''WHULWZ' run 'echo 2800000 2800000 > /sys/kernel/mva_tesst/regulators/buck4_set'
PBPNWHULWZPBPNWHULWZ 0
root@arm:~# echo 'TWKB''ABKNZX'
TWKBABKNZX
root@arm:~# MARKER='VLTG''HAMZXV' run 'i2cget -y -f 1 0x4b 0x15'
VLTGHAMZXV0x42
VLTGHAMZXV 0
root@arm:~# echo 'SOYG''YQEZMW'
SOYGYQEZMW
root@arm:~# MARKER='QWPT''OKTTUQ' run 'echo 2900000 2900000 > /sys/kernel/mva_tesst/regulators/buck4_set'
QWPTOKTTUQQWPTOKTTUQ 0
root@arm:~# echo 'YMHF''LAOXHW'
YMHFLAOXHW
root@arm:~# MARKER='KBTF''SZEBJF' run 'i2cget -y -f 1 0x4b 0x15'
KBTFSZEBJF0x43
KBTFSZEBJF 0
root@arm:~# echo 'OVKB''SGCZSG'
OVKBSGCZSG
root@arm:~# MARKER='KNFJ''LHTXAC' run 'grep -r -l rohm,bd71847 /proc/device-tree  | sed '"'"'s![^/]*$!!'"'"''
KNFJLHTXAC/proc/device-tree/ocp/interconnect@48000000/segment@0/target-module@2a000/i2c@0/pmic@4b/
KNFJLHTXAC 0
root@arm:~# echo 'CVFF''YYYLYX'
CVFFYYYLYX
root@arm:~# MARKER='OFOX''CVWEYJ' run 'test -f /proc/device-tree/ocp/interconnectt\@48000000/segment\@0/target-module\@2a000/i2c\@0/pmic\@4b/regulators/BUCK5/rohmm,no-regulator-enable-control ;echo $?'
OFOXCVWEYJ1
OFOXCVWEYJ 0
root@arm:~# echo 'LNSE''VPKGTY'
LNSEVPKGTY
root@arm:~# MARKER='AAEK''AWTUHC' run 'i2cget -y -f 1 0x4b 0xb'
AAEKAWTUHC0x02
AAEKAWTUHC 0
root@arm:~# echo 'ZPPT''TTGXZG'
ZPPTTTGXZG
root@arm:~# MARKER='EUOH''MAUCCB' run 'echo 1605000 1605000 > /sys/kernel/mva_tesst/regulators/buck5_set'
EUOHMAUCCBEUOHMAUCCB 0
root@arm:~# echo 'GUXZ''YQYXMJ'
GUXZYQYXMJ
root@arm:~# MARKER='JZLO''ZCXWTP' run 'i2cget -y -f 1 0x4b 0x16'
JZLOZCXWTP0x00
JZLOZCXWTP 0
root@arm:~# echo 'XGQA''EJGAGU'
XGQAEJGAGU
root@arm:~# MARKER='KHEP''ZVKELZ' run 'echo 1695000 1695000 > /sys/kernel/mva_tesst/regulators/buck5_set'
KHEPZVKELZKHEPZVKELZ 0
root@arm:~# echo 'AWBT''BBKCGL'
AWBTBBKCGL
root@arm:~# MARKER='EMBJ''VXAJFN' run 'i2cget -y -f 1 0x4b 0x16'
EMBJVXAJFN0x01
EMBJVXAJFN 0
root@arm:~# echo 'PXSP''BHCQMJ'
PXSPBHCQMJ
root@arm:~# MARKER='OVZE''PXBNJV' run 'echo 1755000 1755000 > /sys/kernel/mva_tesst/regulators/buck5_set'
OVZEPXBNJVOVZEPXBNJV 0
root@arm:~# echo 'OZFU''LGPMTA'
OZFULGPMTA
root@arm:~# MARKER='ZEWC''HWXNFC' run 'i2cget -y -f 1 0x4b 0x16'
ZEWCHWXNFC0x02
ZEWCHWXNFC 0
root@arm:~# echo 'TWKL''YZWUGU'
TWKLYZWUGU
root@arm:~# MARKER='QJZT''GSQFYA' run 'echo 1800000 1800000 > /sys/kernel/mva_tesst/regulators/buck5_set'
QJZTGSQFYAQJZTGSQFYA 0
root@arm:~# echo 'FXFZ''AUNMHE'
FXFZAUNMHE
root@arm:~# MARKER='QCZT''QHXZZA' run 'i2cget -y -f 1 0x4b 0x16'
QCZTQHXZZA0x03
QCZTQHXZZA 0
root@arm:~# echo 'HGTQ''PQHBSC'
HGTQPQHBSC
root@arm:~# MARKER='YUXG''MSQOYN' run 'echo 1845000 1845000 > /sys/kernel/mva_tesst/regulators/buck5_set'
YUXGMSQOYNYUXGMSQOYN 0
root@arm:~# echo 'LGGU''PBHKOU'
LGGUPBHKOU
root@arm:~# MARKER='GTKW''KXCMLM' run 'i2cget -y -f 1 0x4b 0x16'
GTKWKXCMLM0x04
GTKWKXCMLM 0
root@arm:~# echo 'YFGT''MUFHWF'
YFGTMUFHWF
root@arm:~# MARKER='CXAU''LFJXOZ' run 'echo 1905000 1905000 > /sys/kernel/mva_tesst/regulators/buck5_set'
CXAULFJXOZCXAULFJXOZ 0
root@arm:~# echo 'YALC''YSSKAN'
YALCYSSKAN
root@arm:~# MARKER='NPSN''SYTSME' run 'i2cget -y -f 1 0x4b 0x16'
NPSNSYTSME0x05
NPSNSYTSME 0
root@arm:~# echo 'HAXG''UCTYEA'
HAXGUCTYEA
root@arm:~# MARKER='VANN''CEGKGO' run 'echo 1950000 1950000 > /sys/kernel/mva_tesst/regulators/buck5_set'
VANNCEGKGOVANNCEGKGO 0
root@arm:~# echo 'AYTM''XLFGSX'
AYTMXLFGSX
root@arm:~# MARKER='HNSF''ZZUHUQ' run 'i2cget -y -f 1 0x4b 0x16'
HNSFZZUHUQ0x06
HNSFZZUHUQ 0
root@arm:~# echo 'BWZT''FEGQOL'
BWZTFEGQOL
root@arm:~# MARKER='CXXF''SEFKVJ' run 'echo 1995000 1995000 > /sys/kernel/mva_tesst/regulators/buck5_set'
CXXFSEFKVJCXXFSEFKVJ 0
root@arm:~# echo 'UCNZ''YYTLHJ'
UCNZYYTLHJ
root@arm:~# MARKER='HQSZ''FENLWH' run 'i2cget -y -f 1 0x4b 0x16'
HQSZFENLWH0x07
HQSZFENLWH 0
root@arm:~# echo 'KZGZ''KFMFYK'
KZGZKFMFYK
root@arm:~# MARKER='FKNE''LQPOPM' run 'grep -r -l rohm,bd71847 /proc/device-tree  | sed '"'"'s![^/]*$!!'"'"''
FKNELQPOPM/proc/device-tree/ocp/interconnect@48000000/segment@0/target-module@2a000/i2c@0/pmic@4b/
FKNELQPOPM 0
root@arm:~# echo 'OFPH''MCAGQS'
OFPHMCAGQS
root@arm:~# MARKER='UBMU''EYJQBQ' run 'test -f /proc/device-tree/ocp/interconnectt\@48000000/segment\@0/target-module\@2a000/i2c\@0/pmic\@4b/regulators/BUCK6/rohmm,no-regulator-enable-control ;echo $?'
UBMUEYJQBQ1
UBMUEYJQBQ 0
root@arm:~# echo 'OCJY''HMWYLQ'
OCJYHMWYLQ
root@arm:~# MARKER='HSSG''JMALAO' run 'i2cget -y -f 1 0x4b 0xc'
HSSGJMALAO0x02
HSSGJMALAO 0
root@arm:~# echo 'ULTZ''QGQGPZ'
ULTZQGQGPZ
root@arm:~# MARKER='BVVU''UMNTKE' run 'echo 800000 800000 > /sys/kernel/mva_test//regulators/buck6_set'
BVVUUMNTKEBVVUUMNTKE 0
root@arm:~# echo 'SNUB''WCOPEA'
SNUBWCOPEA
root@arm:~# MARKER='TEZH''AQPSAG' run 'i2cget -y -f 1 0x4b 0x17'
TEZHAQPSAG0x00
TEZHAQPSAG 0
root@arm:~# echo 'BZYF''HZGUAJ'
BZYFHZGUAJ
root@arm:~# MARKER='LUEA''MEKEJS' run 'echo 810000 810000 > /sys/kernel/mva_test//regulators/buck6_set'
LUEAMEKEJSLUEAMEKEJS 0
root@arm:~# echo 'QUHG''ZXGZBB'
QUHGZXGZBB
root@arm:~# MARKER='TKAY''GFNTPG' run 'i2cget -y -f 1 0x4b 0x17'
TKAYGFNTPG0x01
TKAYGFNTPG 0
root@arm:~# echo 'AOXX''KSBLLO'
AOXXKSBLLO
root@arm:~# MARKER='WLJJ''PMMCAG' run 'echo 820000 820000 > /sys/kernel/mva_test//regulators/buck6_set'
WLJJPMMCAGWLJJPMMCAG 0
root@arm:~# echo 'ONZA''HQMJHW'
ONZAHQMJHW
root@arm:~# MARKER='XFOC''CTKJJY' run 'i2cget -y -f 1 0x4b 0x17'
XFOCCTKJJY0x02
XFOCCTKJJY 0
root@arm:~# echo 'GHXA''GCBHQQ'
GHXAGCBHQQ
root@arm:~# MARKER='BMMM''CNPMSV' run 'echo 830000 830000 > /sys/kernel/mva_test//regulators/buck6_set'
BMMMCNPMSVBMMMCNPMSV 0
root@arm:~# echo 'QNMF''OLCUEK'
QNMFOLCUEK
root@arm:~# MARKER='PJUN''NGTSET' run 'i2cget -y -f 1 0x4b 0x17'
PJUNNGTSET0x03
PJUNNGTSET 0
root@arm:~# echo 'SSEV''TKCLYS'
SSEVTKCLYS
root@arm:~# MARKER='OHEV''USFKPF' run 'echo 840000 840000 > /sys/kernel/mva_test//regulators/buck6_set'
OHEVUSFKPFOHEVUSFKPF 0
root@arm:~# echo 'UAJH''COEPCE'
UAJHCOEPCE
root@arm:~# MARKER='KXQC''UUVSHP' run 'i2cget -y -f 1 0x4b 0x17'
KXQCUUVSHP0x04
KXQCUUVSHP 0
root@arm:~# echo 'NWJK''NUSLJA'
NWJKNUSLJA
root@arm:~# MARKER='UYMS''VYLUUH' run 'echo 850000 850000 > /sys/kernel/mva_test//regulators/buck6_set'
UYMSVYLUUHUYMSVYLUUH 0
root@arm:~# echo 'YBXL''SQNSMU'
YBXLSQNSMU
root@arm:~# MARKER='KSCC''OKBLGN' run 'i2cget -y -f 1 0x4b 0x17'
KSCCOKBLGN0x05
KSCCOKBLGN 0
root@arm:~# echo 'GMVY''UCQHEB'
GMVYUCQHEB
root@arm:~# MARKER='SPCB''CZUFFS' run 'echo 860000 860000 > /sys/kernel/mva_test//regulators/buck6_set'
SPCBCZUFFSSPCBCZUFFS 0
root@arm:~# echo 'FOAK''QUSCGU'
FOAKQUSCGU
root@arm:~# MARKER='XMQJ''HJLPQB' run 'i2cget -y -f 1 0x4b 0x17'
XMQJHJLPQB0x06
XMQJHJLPQB 0
root@arm:~# echo 'NUQS''QONZNN'
NUQSQONZNN
root@arm:~# MARKER='QXLV''FSTANU' run 'echo 870000 870000 > /sys/kernel/mva_test//regulators/buck6_set'
QXLVFSTANUQXLVFSTANU 0
root@arm:~# echo 'QYOU''EHCTCZ'
QYOUEHCTCZ
root@arm:~# MARKER='SVYH''YMPWVH' run 'i2cget -y -f 1 0x4b 0x17'
SVYHYMPWVH0x07
SVYHYMPWVH 0
root@arm:~# echo 'HESF''EBVYPV'
HESFEBVYPV
root@arm:~# MARKER='GUTJ''AWNTLK' run 'echo 880000 880000 > /sys/kernel/mva_test//regulators/buck6_set'
GUTJAWNTLKGUTJAWNTLK 0
root@arm:~# echo 'ZEQT''OSYHEB'
ZEQTOSYHEB
root@arm:~# MARKER='KUNF''XZKCJV' run 'i2cget -y -f 1 0x4b 0x17'
KUNFXZKCJV0x08
KUNFXZKCJV 0
root@arm:~# echo 'EOHW''VOOONY'
EOHWVOOONY
root@arm:~# MARKER='WEJX''CAFTNJ' run 'echo 890000 890000 > /sys/kernel/mva_test//regulators/buck6_set'
WEJXCAFTNJWEJXCAFTNJ 0
root@arm:~# echo 'LYZC''OVAJXS'
LYZCOVAJXS
root@arm:~# MARKER='ZNMW''EEQBPA' run 'i2cget -y -f 1 0x4b 0x17'
ZNMWEEQBPA0x09
ZNMWEEQBPA 0
root@arm:~# echo 'KMSA''ELGFOM'
KMSAELGFOM
root@arm:~# MARKER='KPNS''BJCEZU' run 'echo 900000 900000 > /sys/kernel/mva_test//regulators/buck6_set'
KPNSBJCEZUKPNSBJCEZU 0
root@arm:~# echo 'FKAC''JSUWEF'
FKACJSUWEF
root@arm:~# MARKER='FPUQ''TVSBZP' run 'i2cget -y -f 1 0x4b 0x17'
FPUQTVSBZP0x0a
FPUQTVSBZP 0
root@arm:~# echo 'FFYA''VYGPWP'
FFYAVYGPWP
root@arm:~# MARKER='ZOZB''NMFLGS' run 'echo 910000 910000 > /sys/kernel/mva_test//regulators/buck6_set'
ZOZBNMFLGSZOZBNMFLGS 0
root@arm:~# echo 'FUAJ''GQQCMV'
FUAJGQQCMV
root@arm:~# MARKER='CEHY''VBWCXT' run 'i2cget -y -f 1 0x4b 0x17'
CEHYVBWCXT0x0b
CEHYVBWCXT 0
root@arm:~# echo 'QPYC''POTNAE'
QPYCPOTNAE
root@arm:~# MARKER='ENQS''UCNVSO' run 'echo 920000 920000 > /sys/kernel/mva_test//regulators/buck6_set'
ENQSUCNVSOENQSUCNVSO 0
root@arm:~# echo 'ESBA''LWKGXF'
ESBALWKGXF
root@arm:~# MARKER='PLTC''SSBMXH' run 'i2cget -y -f 1 0x4b 0x17'
PLTCSSBMXH0x0c
PLTCSSBMXH 0
root@arm:~# echo 'LPTN''UAJMNS'
LPTNUAJMNS
root@arm:~# MARKER='GLXS''YSVNVL' run 'echo 930000 930000 > /sys/kernel/mva_test//regulators/buck6_set'
GLXSYSVNVLGLXSYSVNVL 0
root@arm:~# echo 'BOCU''HTZSVO'
BOCUHTZSVO
root@arm:~# MARKER='MTWL''BMQXXC' run 'i2cget -y -f 1 0x4b 0x17'
MTWLBMQXXC0x0d
MTWLBMQXXC 0
root@arm:~# echo 'BVOX''TZSUPQ'
BVOXTZSUPQ
root@arm:~# MARKER='MWPX''ZBPGGT' run 'echo 940000 940000 > /sys/kernel/mva_test//regulators/buck6_set'
MWPXZBPGGTMWPXZBPGGT 0
root@arm:~# echo 'BUEJ''PYXLVV'
BUEJPYXLVV
root@arm:~# MARKER='MMUG''NCPWCE' run 'i2cget -y -f 1 0x4b 0x17'
MMUGNCPWCE0x0e
MMUGNCPWCE 0
root@arm:~# echo 'BUZH''KJZPFH'
BUZHKJZPFH
root@arm:~# MARKER='OYUU''CPLOWG' run 'echo 950000 950000 > /sys/kernel/mva_test//regulators/buck6_set'
OYUUCPLOWGOYUUCPLOWG 0
root@arm:~# echo 'MMKN''ZFQTKT'
MMKNZFQTKT
root@arm:~# MARKER='TPVP''ZOTFPA' run 'i2cget -y -f 1 0x4b 0x17'
TPVPZOTFPA0x0f
TPVPZOTFPA 0
root@arm:~# echo 'KFLO''CYVYYS'
KFLOCYVYYS
root@arm:~# MARKER='SHJH''JBXWZU' run 'echo 960000 960000 > /sys/kernel/mva_test//regulators/buck6_set'
SHJHJBXWZUSHJHJBXWZU 0
root@arm:~# echo 'BXWW''WAUSAC'
BXWWWAUSAC
root@arm:~# MARKER='EBQG''SYLLJK' run 'i2cget -y -f 1 0x4b 0x17'
EBQGSYLLJK0x10
EBQGSYLLJK 0
root@arm:~# echo 'GZBV''WWOEWN'
GZBVWWOEWN
root@arm:~# MARKER='MXPC''XKPKCY' run 'echo 970000 970000 > /sys/kernel/mva_test//regulators/buck6_set'
MXPCXKPKCYMXPCXKPKCY 0
root@arm:~# echo 'UQEX''ZTPFYN'
UQEXZTPFYN
root@arm:~# MARKER='ALTH''KNGVSL' run 'i2cget -y -f 1 0x4b 0x17'
ALTHKNGVSL0x11
ALTHKNGVSL 0
root@arm:~# echo 'NZJF''TWEHUF'
NZJFTWEHUF
root@arm:~# MARKER='ZQZN''XEGGMW' run 'echo 980000 980000 > /sys/kernel/mva_test//regulators/buck6_set'
ZQZNXEGGMWZQZNXEGGMW 0
root@arm:~# echo 'NAVM''MVFFOE'
NAVMMVFFOE
root@arm:~# MARKER='BXQB''ZVNHJB' run 'i2cget -y -f 1 0x4b 0x17'
BXQBZVNHJB0x12
BXQBZVNHJB 0
root@arm:~# echo 'HUOV''ELGPQO'
HUOVELGPQO
root@arm:~# MARKER='FUHA''OELACW' run 'echo 990000 990000 > /sys/kernel/mva_test//regulators/buck6_set'
FUHAOELACWFUHAOELACW 0
root@arm:~# echo 'TTXY''BJPCAJ'
TTXYBJPCAJ
root@arm:~# MARKER='HKFL''TEXHTJ' run 'i2cget -y -f 1 0x4b 0x17'
HKFLTEXHTJ0x13
HKFLTEXHTJ 0
root@arm:~# echo 'LPPU''BQZQSZ'
LPPUBQZQSZ
root@arm:~# MARKER='AZFX''VUQOCM' run 'echo 1000000 1000000 > /sys/kernel/mva_tesst/regulators/buck6_set'
AZFXVUQOCMAZFXVUQOCM 0
root@arm:~# echo 'JCSZ''JZJFQQ'
JCSZJZJFQQ
root@arm:~# MARKER='AVSL''NOFWCG' run 'i2cget -y -f 1 0x4b 0x17'
AVSLNOFWCG0x14
AVSLNOFWCG 0
root@arm:~# echo 'QALB''GWLBZO'
QALBGWLBZO
root@arm:~# MARKER='SUCO''WZGUKC' run 'echo 1010000 1010000 > /sys/kernel/mva_tesst/regulators/buck6_set'
SUCOWZGUKCSUCOWZGUKC 0
root@arm:~# echo 'HFQW''CTZNMX'
HFQWCTZNMX
root@arm:~# MARKER='HVEY''SMSHQA' run 'i2cget -y -f 1 0x4b 0x17'
HVEYSMSHQA0x15
HVEYSMSHQA 0
root@arm:~# echo 'LFJX''QCTBSW'
LFJXQCTBSW
root@arm:~# MARKER='FWZG''OTCBSY' run 'echo 1020000 1020000 > /sys/kernel/mva_tesst/regulators/buck6_set'
FWZGOTCBSYFWZGOTCBSY 0
root@arm:~# echo 'LTTT''EYTWSJ'
LTTTEYTWSJ
root@arm:~# MARKER='CQSC''UOAEZJ' run 'i2cget -y -f 1 0x4b 0x17'
CQSCUOAEZJ0x16
CQSCUOAEZJ 0
root@arm:~# echo 'JOKB''HUUJFL'
JOKBHUUJFL
root@arm:~# MARKER='JEYW''WMPVOZ' run 'echo 1030000 1030000 > /sys/kernel/mva_tesst/regulators/buck6_set'
JEYWWMPVOZJEYWWMPVOZ 0
root@arm:~# echo 'HBVJ''UNMFBN'
HBVJUNMFBN
root@arm:~# MARKER='FCKC''BTQCJB' run 'i2cget -y -f 1 0x4b 0x17'
FCKCBTQCJB0x17
FCKCBTQCJB 0
root@arm:~# echo 'QXLM''QUQEBK'
QXLMQUQEBK
root@arm:~# MARKER='QYAV''ZSSYSK' run 'echo 1040000 1040000 > /sys/kernel/mva_tesst/regulators/buck6_set'
QYAVZSSYSKQYAVZSSYSK 0
root@arm:~# echo 'ECHL''VVCLKQ'
ECHLVVCLKQ
root@arm:~# MARKER='ZUJX''PTEAPX' run 'i2cget -y -f 1 0x4b 0x17'
ZUJXPTEAPX0x18
ZUJXPTEAPX 0
root@arm:~# echo 'QLPP''EQHQOL'
QLPPEQHQOL
root@arm:~# MARKER='JMPW''AXQFSY' run 'echo 1050000 1050000 > /sys/kernel/mva_tesst/regulators/buck6_set'
JMPWAXQFSYJMPWAXQFSY 0
root@arm:~# echo 'KTJA''CWGOSG'
KTJACWGOSG
root@arm:~# MARKER='ZGEG''FXPWFF' run 'i2cget -y -f 1 0x4b 0x17'
ZGEGFXPWFF0x19
ZGEGFXPWFF 0
root@arm:~# echo 'ZZWE''ZLXEAO'
ZZWEZLXEAO
root@arm:~# MARKER='XPGY''NBYOYV' run 'echo 1060000 1060000 > /sys/kernel/mva_tesst/regulators/buck6_set'
XPGYNBYOYVXPGYNBYOYV 0
root@arm:~# echo 'YKKK''GWTVXP'
YKKKGWTVXP
root@arm:~# MARKER='WOZY''JPPMEW' run 'i2cget -y -f 1 0x4b 0x17'
WOZYJPPMEW0x1a
WOZYJPPMEW 0
root@arm:~# echo 'VGMX''JPVAFS'
VGMXJPVAFS
root@arm:~# MARKER='BOUH''ELEKWN' run 'echo 1070000 1070000 > /sys/kernel/mva_tesst/regulators/buck6_set'
BOUHELEKWNBOUHELEKWN 0
root@arm:~# echo 'ZBKH''ZBGCBJ'
ZBKHZBGCBJ
root@arm:~# MARKER='FFCE''SUGGVH' run 'i2cget -y -f 1 0x4b 0x17'
FFCESUGGVH0x1b
FFCESUGGVH 0
root@arm:~# echo 'QSJC''QXYTHN'
QSJCQXYTHN
root@arm:~# MARKER='LYBS''WFATXF' run 'echo 1080000 1080000 > /sys/kernel/mva_tesst/regulators/buck6_set'
LYBSWFATXFLYBSWFATXF 0
root@arm:~# echo 'ESMA''CUEVQL'
ESMACUEVQL
root@arm:~# MARKER='UBXQ''NXAPKQ' run 'i2cget -y -f 1 0x4b 0x17'
UBXQNXAPKQ0x1c
UBXQNXAPKQ 0
root@arm:~# echo 'OPZY''CTSXEA'
OPZYCTSXEA
root@arm:~# MARKER='HUVJ''CSOCCS' run 'echo 1090000 1090000 > /sys/kernel/mva_tesst/regulators/buck6_set'
HUVJCSOCCSHUVJCSOCCS 0
root@arm:~# echo 'KVPJ''TJYWAL'
KVPJTJYWAL
root@arm:~# MARKER='GKHA''WMLFLC' run 'i2cget -y -f 1 0x4b 0x17'
GKHAWMLFLC0x1d
GKHAWMLFLC 0
root@arm:~# echo 'NXYZ''VPHSLS'
NXYZVPHSLS
root@arm:~# MARKER='UQFB''HMWQGU' run 'echo 1100000 1100000 > /sys/kernel/mva_tesst/regulators/buck6_set'
UQFBHMWQGUUQFBHMWQGU 0
root@arm:~# echo 'WGOZ''MJVAJT'
WGOZMJVAJT
root@arm:~# MARKER='BWQV''QPVCSL' run 'i2cget -y -f 1 0x4b 0x17'
BWQVQPVCSL0x1e
BWQVQPVCSL 0
root@arm:~# echo 'XCHZ''VOBGCK'
XCHZVOBGCK
root@arm:~# MARKER='WWVP''MHPFGV' run 'echo 1110000 1110000 > /sys/kernel/mva_tesst/regulators/buck6_set'
WWVPMHPFGVWWVPMHPFGV 0
root@arm:~# echo 'GUJN''ENHAFT'
GUJNENHAFT
root@arm:~# MARKER='WEKL''OGZCGM' run 'i2cget -y -f 1 0x4b 0x17'
WEKLOGZCGM0x1f
WEKLOGZCGM 0
root@arm:~# echo 'ENXN''LBUUUC'
ENXNLBUUUC
root@arm:~# MARKER='FNGQ''ETVVUJ' run 'echo 1120000 1120000 > /sys/kernel/mva_tesst/regulators/buck6_set'
FNGQETVVUJFNGQETVVUJ 0
root@arm:~# echo 'GWCE''SCNQYY'
GWCESCNQYY
root@arm:~# MARKER='GGQO''NKPMUJ' run 'i2cget -y -f 1 0x4b 0x17'
GGQONKPMUJ0x20
GGQONKPMUJ 0
root@arm:~# echo 'KQCE''KVMGCE'
KQCEKVMGCE
root@arm:~# MARKER='PUOW''WOPOEF' run 'echo 1130000 1130000 > /sys/kernel/mva_tesst/regulators/buck6_set'
PUOWWOPOEFPUOWWOPOEF 0
root@arm:~# echo 'MZKN''SZZMTZ'
MZKNSZZMTZ
root@arm:~# MARKER='TKWB''HPTUKM' run 'i2cget -y -f 1 0x4b 0x17'
TKWBHPTUKM0x21
TKWBHPTUKM 0
root@arm:~# echo 'WCYF''ACGPTC'
WCYFACGPTC
root@arm:~# MARKER='BVKE''PNPOLP' run 'echo 1140000 1140000 > /sys/kernel/mva_tesst/regulators/buck6_set'
BVKEPNPOLPBVKEPNPOLP 0
root@arm:~# echo 'BLKN''MCUYMZ'
BLKNMCUYMZ
root@arm:~# MARKER='HYCP''SSEVCF' run 'i2cget -y -f 1 0x4b 0x17'
HYCPSSEVCF0x22
HYCPSSEVCF 0
root@arm:~# echo 'JPSN''LTJKHM'
JPSNLTJKHM
root@arm:~# MARKER='AEKV''GPYUQV' run 'echo 1150000 1150000 > /sys/kernel/mva_tesst/regulators/buck6_set'
AEKVGPYUQVAEKVGPYUQV 0
root@arm:~# echo 'KVBH''FAXCFU'
KVBHFAXCFU
root@arm:~# MARKER='AGYO''VFLXQY' run 'i2cget -y -f 1 0x4b 0x17'
AGYOVFLXQY0x23
AGYOVFLXQY 0
root@arm:~# echo 'AEZW''VEQPWH'
AEZWVEQPWH
root@arm:~# MARKER='SXSC''OCQFZU' run 'echo 1160000 1160000 > /sys/kernel/mva_tesst/regulators/buck6_set'
SXSCOCQFZUSXSCOCQFZU 0
root@arm:~# echo 'HAZA''WVGJJG'
HAZAWVGJJG
root@arm:~# MARKER='JWOY''HTQPZG' run 'i2cget -y -f 1 0x4b 0x17'
JWOYHTQPZG0x24
JWOYHTQPZG 0
root@arm:~# echo 'CZCJ''QAMATN'
CZCJQAMATN
root@arm:~# MARKER='AMWU''SFBSQT' run 'echo 1170000 1170000 > /sys/kernel/mva_tesst/regulators/buck6_set'
AMWUSFBSQTAMWUSFBSQT 0
root@arm:~# echo 'CFUB''PLNSCE'
CFUBPLNSCE
root@arm:~# MARKER='OFML''XVLAFA' run 'i2cget -y -f 1 0x4b 0x17'
OFMLXVLAFA0x25
OFMLXVLAFA 0
root@arm:~# echo 'TOGZ''JJJLKS'
TOGZJJJLKS
root@arm:~# MARKER='HBBZ''KVLVTV' run 'echo 1180000 1180000 > /sys/kernel/mva_tesst/regulators/buck6_set'
HBBZKVLVTVHBBZKVLVTV 0
root@arm:~# echo 'HAPE''OKGVZE'
HAPEOKGVZE
root@arm:~# MARKER='KQWJ''TOPVTJ' run 'i2cget -y -f 1 0x4b 0x17'
KQWJTOPVTJ0x26
KQWJTOPVTJ 0
root@arm:~# echo 'BNXO''CKVXQH'
BNXOCKVXQH
root@arm:~# MARKER='VEMG''OXKJEM' run 'echo 1190000 1190000 > /sys/kernel/mva_tesst/regulators/buck6_set'
VEMGOXKJEMVEMGOXKJEM 0
root@arm:~# echo 'GWUP''QPLHOC'
GWUPQPLHOC
root@arm:~# MARKER='HFAO''JBWKSX' run 'i2cget -y -f 1 0x4b 0x17'
HFAOJBWKSX0x27
HFAOJBWKSX 0
root@arm:~# echo 'XFZS''UGAHNE'
XFZSUGAHNE
root@arm:~# MARKER='EGHO''KMMYTA' run 'echo 1200000 1200000 > /sys/kernel/mva_tesst/regulators/buck6_set'
EGHOKMMYTAEGHOKMMYTA 0
root@arm:~# echo 'CPXK''AXKPQV'
CPXKAXKPQV
root@arm:~# MARKER='LKNN''ASQUBH' run 'i2cget -y -f 1 0x4b 0x17'
LKNNASQUBH0x28
LKNNASQUBH 0
root@arm:~# echo 'ZFXL''MPHHWW'
ZFXLMPHHWW
root@arm:~# MARKER='VWGW''FYYKQS' run 'echo 1210000 1210000 > /sys/kernel/mva_tesst/regulators/buck6_set'
VWGWFYYKQSVWGWFYYKQS 0
root@arm:~# echo 'NKBW''BKXHJS'
NKBWBKXHJS
root@arm:~# MARKER='YHGQ''NOLSNM' run 'i2cget -y -f 1 0x4b 0x17'
YHGQNOLSNM0x29
YHGQNOLSNM 0
root@arm:~# echo 'VNKW''PBBSUQ'
VNKWPBBSUQ
root@arm:~# MARKER='EJVY''ATCUCF' run 'echo 1220000 1220000 > /sys/kernel/mva_tesst/regulators/buck6_set'
EJVYATCUCFEJVYATCUCF 0
root@arm:~# echo 'XWFF''ZVOTZX'
XWFFZVOTZX
root@arm:~# MARKER='KZOJ''GEFTNM' run 'i2cget -y -f 1 0x4b 0x17'
KZOJGEFTNM0x2a
KZOJGEFTNM 0
root@arm:~# echo 'HBJF''NHTSNY'
HBJFNHTSNY
root@arm:~# MARKER='OXQM''CVPEQS' run 'echo 1230000 1230000 > /sys/kernel/mva_tesst/regulators/buck6_set'
OXQMCVPEQSOXQMCVPEQS 0
root@arm:~# echo 'BKWU''TMWLZW'
BKWUTMWLZW
root@arm:~# MARKER='UCCY''BTQWAP' run 'i2cget -y -f 1 0x4b 0x17'
UCCYBTQWAP0x2b
UCCYBTQWAP 0
root@arm:~# echo 'CNJV''SXQVFA'
CNJVSXQVFA
root@arm:~# MARKER='ZMLE''QOPLUK' run 'echo 1240000 1240000 > /sys/kernel/mva_tesst/regulators/buck6_set'
ZMLEQOPLUKZMLEQOPLUK 0
root@arm:~# echo 'EESV''HSLOLX'
EESVHSLOLX
root@arm:~# MARKER='TAWK''BKMEJS' run 'i2cget -y -f 1 0x4b 0x17'
TAWKBKMEJS0x2c
TAWKBKMEJS 0
root@arm:~# echo 'FZTT''LCQKSO'
FZTTLCQKSO
root@arm:~# MARKER='NMHY''JXBEVH' run 'echo 1250000 1250000 > /sys/kernel/mva_tesst/regulators/buck6_set'
NMHYJXBEVHNMHYJXBEVH 0
root@arm:~# echo 'KOEZ''POOYYW'
KOEZPOOYYW
root@arm:~# MARKER='ZUWS''VPLMOL' run 'i2cget -y -f 1 0x4b 0x17'
ZUWSVPLMOL0x2d
ZUWSVPLMOL 0
root@arm:~# echo 'NQKG''PVFLXG'
NQKGPVFLXG
root@arm:~# MARKER='TPJZ''OSFZTO' run 'echo 1260000 1260000 > /sys/kernel/mva_tesst/regulators/buck6_set'
TPJZOSFZTOTPJZOSFZTO 0
root@arm:~# echo 'HJVK''SJZLEG'
HJVKSJZLEG
root@arm:~# MARKER='NUCE''AZCQYU' run 'i2cget -y -f 1 0x4b 0x17'
NUCEAZCQYU0x2e
NUCEAZCQYU 0
root@arm:~# echo 'VBPT''CJZJNV'
VBPTCJZJNV
root@arm:~# MARKER='MOZT''KZZUZK' run 'echo 1270000 1270000 > /sys/kernel/mva_tesst/regulators/buck6_set'
MOZTKZZUZKMOZTKZZUZK 0
root@arm:~# echo 'JHHG''OAGWVL'
JHHGOAGWVL
root@arm:~# MARKER='KUWV''NKHSNE' run 'i2cget -y -f 1 0x4b 0x17'
KUWVNKHSNE0x2f
KUWVNKHSNE 0
root@arm:~# echo 'TOGY''HUUQPQ'
TOGYHUUQPQ
root@arm:~# MARKER='VVOG''HLKSJS' run 'echo 1280000 1280000 > /sys/kernel/mva_tesst/regulators/buck6_set'
VVOGHLKSJSVVOGHLKSJS 0
root@arm:~# echo 'WBUB''PXLVCS'
WBUBPXLVCS
root@arm:~# MARKER='ETPU''QSUKFH' run 'i2cget -y -f 1 0x4b 0x17'
ETPUQSUKFH0x30
ETPUQSUKFH 0
root@arm:~# echo 'NQZW''HEMFFQ'
NQZWHEMFFQ
root@arm:~# MARKER='ZFBL''LTHXME' run 'echo 1290000 1290000 > /sys/kernel/mva_tesst/regulators/buck6_set'
ZFBLLTHXMEZFBLLTHXME 0
root@arm:~# echo 'THHL''JBMBWE'
THHLJBMBWE
root@arm:~# MARKER='NSWT''UZYKVX' run 'i2cget -y -f 1 0x4b 0x17'
NSWTUZYKVX0x31
NSWTUZYKVX 0
root@arm:~# echo 'MFGQ''VUCCXH'
MFGQVUCCXH
root@arm:~# MARKER='HEHH''HHWMMC' run 'echo 1300000 1300000 > /sys/kernel/mva_tesst/regulators/buck6_set'
HEHHHHWMMCHEHHHHWMMC 0
root@arm:~# echo 'OEGK''YMMXAO'
OEGKYMMXAO
root@arm:~# MARKER='AETU''NLXGYP' run 'i2cget -y -f 1 0x4b 0x17'
AETUNLXGYP0x32
AETUNLXGYP 0
root@arm:~# echo 'FKKU''TVPXGK'
FKKUTVPXGK
root@arm:~# MARKER='JPYO''WMHHSH' run 'echo 1310000 1310000 > /sys/kernel/mva_tesst/regulators/buck6_set'
JPYOWMHHSHJPYOWMHHSH 0
root@arm:~# echo 'WUJA''PNUSLF'
WUJAPNUSLF
root@arm:~# MARKER='GLGS''VEWVAJ' run 'i2cget -y -f 1 0x4b 0x17'
GLGSVEWVAJ0x33
GLGSVEWVAJ 0
root@arm:~# echo 'KCFW''SVBETF'
KCFWSVBETF
root@arm:~# MARKER='YNTB''SSCVUJ' run 'echo 1320000 1320000 > /sys/kernel/mva_tesst/regulators/buck6_set'
YNTBSSCVUJYNTBSSCVUJ 0
root@arm:~# echo 'QSSP''MWQGVS'
QSSPMWQGVS
root@arm:~# MARKER='OCTB''BMFQUT' run 'i2cget -y -f 1 0x4b 0x17'
OCTBBMFQUT0x34
OCTBBMFQUT 0
root@arm:~# echo 'NMSF''HFPVME'
NMSFHFPVME
root@arm:~# MARKER='GKZW''OSMUPB' run 'echo 1330000 1330000 > /sys/kernel/mva_tesst/regulators/buck6_set'
GKZWOSMUPBGKZWOSMUPB 0
root@arm:~# echo 'LGPN''KOHJOH'
LGPNKOHJOH
root@arm:~# MARKER='CVFQ''YUVCZG' run 'i2cget -y -f 1 0x4b 0x17'
CVFQYUVCZG0x35
CVFQYUVCZG 0
root@arm:~# echo 'YGHB''EJTJAA'
YGHBEJTJAA
root@arm:~# MARKER='BTFS''FQVZZC' run 'echo 1340000 1340000 > /sys/kernel/mva_tesst/regulators/buck6_set'
BTFSFQVZZCBTFSFQVZZC 0
root@arm:~# echo 'XZEV''WLQVWA'
XZEVWLQVWA
root@arm:~# MARKER='EKGX''FUZBAL' run 'i2cget -y -f 1 0x4b 0x17'
EKGXFUZBAL0x36
EKGXFUZBAL 0
root@arm:~# echo 'VKTO''FGMCQL'
VKTOFGMCQL
root@arm:~# MARKER='ABXX''UGAWPM' run 'echo 1350000 1350000 > /sys/kernel/mva_tesst/regulators/buck6_set'
ABXXUGAWPMABXXUGAWPM 0
root@arm:~# echo 'JBLG''GCKOOQ'
JBLGGCKOOQ
root@arm:~# MARKER='MXGX''SQSCFG' run 'i2cget -y -f 1 0x4b 0x17'
MXGXSQSCFG0x37
MXGXSQSCFG 0
root@arm:~# echo 'ONJS''BNZTLQ'
ONJSBNZTLQ
root@arm:~# MARKER='SQXU''NHOUMM' run 'echo 1360000 1360000 > /sys/kernel/mva_tesst/regulators/buck6_set'
SQXUNHOUMMSQXUNHOUMM 0
root@arm:~# echo 'FCUE''KUPQAQ'
FCUEKUPQAQ
root@arm:~# MARKER='WQUQ''NXLGOE' run 'i2cget -y -f 1 0x4b 0x17'
WQUQNXLGOE0x38
WQUQNXLGOE 0
root@arm:~# echo 'CHFH''JNBKTJ'
CHFHJNBKTJ
root@arm:~# MARKER='OAUY''PHHBTU' run 'echo 1370000 1370000 > /sys/kernel/mva_tesst/regulators/buck6_set'
OAUYPHHBTUOAUYPHHBTU 0
root@arm:~# echo 'NGVW''FPTHTO'
NGVWFPTHTO
root@arm:~# MARKER='KKQO''ENSOKE' run 'i2cget -y -f 1 0x4b 0x17'
KKQOENSOKE0x39
KKQOENSOKE 0
root@arm:~# echo 'AYAU''NSSLYX'
AYAUNSSLYX
root@arm:~# MARKER='NUXH''KFLLTA' run 'echo 1380000 1380000 > /sys/kernel/mva_tesst/regulators/buck6_set'
NUXHKFLLTANUXHKFLLTA 0
root@arm:~# echo 'KFNE''CJYKMH'
KFNECJYKMH
root@arm:~# MARKER='EYCY''NCPYVW' run 'i2cget -y -f 1 0x4b 0x17'
EYCYNCPYVW0x3a
EYCYNCPYVW 0
root@arm:~# echo 'ACHO''SXOPTK'
ACHOSXOPTK
root@arm:~# MARKER='KTNQ''LHFVMO' run 'echo 1390000 1390000 > /sys/kernel/mva_tesst/regulators/buck6_set'
KTNQLHFVMOKTNQLHFVMO 0
root@arm:~# echo 'FMFP''ZQNHHF'
FMFPZQNHHF
root@arm:~# MARKER='SAPN''QAOLUH' run 'i2cget -y -f 1 0x4b 0x17'
SAPNQAOLUH0x3b
SAPNQAOLUH 0
root@arm:~# echo 'MNYG''HYHCOT'
MNYGHYHCOT
root@arm:~# MARKER='OLKK''JZQFOM' run 'echo 1400000 1400000 > /sys/kernel/mva_tesst/regulators/buck6_set'
OLKKJZQFOMOLKKJZQFOM 0
root@arm:~# echo 'AVYY''MCAJFL'
AVYYMCAJFL
root@arm:~# MARKER='SGOB''CMYUTY' run 'i2cget -y -f 1 0x4b 0x17'
SGOBCMYUTY0x3c
SGOBCMYUTY 0
root@arm:~# echo 'JTUB''WACQJS'
JTUBWACQJS
root@arm:~# MARKER='WPHL''UWUMCT' run 'grep -r -l rohm,bd71847 /proc/device-tree  | sed '"'"'s![^/]*$!!'"'"''
WPHLUWUMCT/proc/device-tree/ocp/interconnect@48000000/segment@0/target-module@2a000/i2c@0/pmic@4b/
WPHLUWUMCT 0
root@arm:~# echo 'YENH''GVTQCP'
YENHGVTQCP
root@arm:~# MARKER='JYFB''OOMFGT' run 'test -f /proc/device-tree/ocp/interconnectt\@48000000/segment\@0/target-module\@2a000/i2c\@0/pmic\@4b/regulators/LDO1/rohm,,no-regulator-enable-control ;echo $?'
JYFBOOMFGT1
JYFBOOMFGT 0
root@arm:~# echo 'JKOU''AHXCTM'
JKOUAHXCTM
root@arm:~# MARKER='VVKX''ZJNOYW' run 'i2cget -y -f 1 0x4b 0x18'
VVKXZJNOYW0xa2
VVKXZJNOYW 0
root@arm:~# echo 'GJOT''WYPZYJ'
GJOTWYPZYJ
