Labgrid Console Logfile for main
Logfile started at 2025-04-15 10:46:49.086259
=== Log starts here ===

root@arm:~# run() { echo -n "$MARKER"; sh -c "$@"; echo "$MARKER $?"; }
root@arm:~# echo 'ESYS''XZCJGT'
ESYSXZCJGT
root@arm:~# MARKER='SWWV''GMFTCX' run 'grep -r -l rohm,bd71837 /proc/device-tree  | sed '"'"'s![^/]*$!!'"'"''
SWWVGMFTCX/proc/device-tree/ocp/interconnect@48000000/segment@100000/target-module@9c000/i2c@0/pmic@4b/
SWWVGMFTCX 0
root@arm:~# echo 'ZPMM''NFTPKQ'
ZPMMNFTPKQ
root@arm:~# MARKER='HSXL''AFCJPC' run 'test -f /proc/device-tree/ocp/interconnectt\@48000000/segment\@100000/target-module\@9c000/i2c\@0/pmic\@4b/regulators/BUCK11/rohm,no-regulator-enable-control ;echo $?'
HSXLAFCJPC1
HSXLAFCJPC 0
root@arm:~# echo 'QTJA''UFEWFW'
QTJAUFEWFW
root@arm:~# MARKER='HXBA''PAYEXX' run 'echo 1 > /sys/kernel/mva_test/regulators/bbuck1_en'
HXBAPAYEXXHXBAPAYEXX 0
root@arm:~# echo 'OMOB''XOBUUT'
OMOBXOBUUT
root@arm:~# MARKER='WGSH''OMJTGX' run 'i2cget -y -f 2 0x4b 0x5'
WGSHOMJTGX0x03
WGSHOMJTGX 0
root@arm:~# echo 'WQSF''PQASPX'
WQSFPQASPX
root@arm:~# MARKER='WYTA''ESGCJB' run 'grep -r -l rohm,bd71837 /proc/device-tree  | sed '"'"'s![^/]*$!!'"'"''
WYTAESGCJB/proc/device-tree/ocp/interconnect@48000000/segment@100000/target-module@9c000/i2c@0/pmic@4b/
WYTAESGCJB 0
root@arm:~# echo 'MKUX''YQZJBX'
MKUXYQZJBX
root@arm:~# MARKER='LFOQ''FABHPE' run 'test -f /proc/device-tree/ocp/interconnectt\@48000000/segment\@100000/target-module\@9c000/i2c\@0/pmic\@4b/regulators/BUCK11/rohm,no-regulator-enable-control ;echo $?'
LFOQFABHPE1
LFOQFABHPE 0
root@arm:~# echo 'WLEU''HYZZZX'
WLEUHYZZZX
root@arm:~# MARKER='EAEN''UUZSVJ' run 'grep -r -l rohm,bd71837 /proc/device-tree  | sed '"'"'s![^/]*$!!'"'"''
EAENUUZSVJ/proc/device-tree/ocp/interconnect@48000000/segment@100000/target-module@9c000/i2c@0/pmic@4b/
EAENUUZSVJ 0
root@arm:~# echo 'JNSO''MPYBVM'
JNSOMPYBVM
root@arm:~# MARKER='NNEW''QEAJUX' run 'test -f /proc/device-tree/ocp/interconnectt\@48000000/segment\@100000/target-module\@9c000/i2c\@0/pmic\@4b/regulators/BUCK11/regulator-always-on ;echo $?'
NNEWQEAJUX1
NNEWQEAJUX 0
root@arm:~# echo 'YZWP''YJCSTW'
YZWPYJCSTW
root@arm:~# MARKER='EPYV''USVKLO' run 'echo 0 > /sys/kernel/mva_test/regulators/bbuck1_en'
EPYVUSVKLOEPYVUSVKLO 0
root@arm:~# echo 'CTJS''MBBGOX'
CTJSMBBGOX
root@arm:~# MARKER='YPSN''JWGWGQ' run 'i2cget -y -f 2 0x4b 0x5'
YPSNJWGWGQ0x02
YPSNJWGWGQ 0
root@arm:~# echo 'JCJX''VLVLAC'
JCJXVLVLAC
root@arm:~# MARKER='FNZF''ZSVSBF' run 'grep -r -l rohm,bd71837 /proc/device-tree  | sed '"'"'s![^/]*$!!'"'"''
FNZFZSVSBF/proc/device-tree/ocp/interconnect@48000000/segment@100000/target-module@9c000/i2c@0/pmic@4b/
FNZFZSVSBF 0
root@arm:~# echo 'MQQK''XCHAMH'
MQQKXCHAMH
root@arm:~# MARKER='TNMM''ZWBQKZ' run 'test -f /proc/device-tree/ocp/interconnectt\@48000000/segment\@100000/target-module\@9c000/i2c\@0/pmic\@4b/regulators/BUCK22/rohm,no-regulator-enable-control ;echo $?'
TNMMZWBQKZ1
TNMMZWBQKZ 0
root@arm:~# echo 'OLOQ''MAQPFH'
OLOQMAQPFH
root@arm:~# MARKER='PULW''THWVXY' run 'echo 1 > /sys/kernel/mva_test/regulators/bbuck2_en'
PULWTHWVXYPULWTHWVXY 0
root@arm:~# echo 'VQSF''EWYOFP'
VQSFEWYOFP
root@arm:~# MARKER='GOXQ''CVKNTX' run 'i2cget -y -f 2 0x4b 0x6'
GOXQCVKNTX0x43
GOXQCVKNTX 0
root@arm:~# echo 'FUBL''ASGMOZ'
FUBLASGMOZ
root@arm:~# MARKER='YMGZ''UVAUWQ' run 'grep -r -l rohm,bd71837 /proc/device-tree  | sed '"'"'s![^/]*$!!'"'"''
YMGZUVAUWQ/proc/device-tree/ocp/interconnect@48000000/segment@100000/target-module@9c000/i2c@0/pmic@4b/
YMGZUVAUWQ 0
root@arm:~# echo 'CTEE''UAMXKO'
CTEEUAMXKO
root@arm:~# MARKER='NXAJ''HBPEQC' run 'test -f /proc/device-tree/ocp/interconnectt\@48000000/segment\@100000/target-module\@9c000/i2c\@0/pmic\@4b/regulators/BUCK22/rohm,no-regulator-enable-control ;echo $?'
NXAJHBPEQC1
NXAJHBPEQC 0
root@arm:~# echo 'XCJJ''VMZWBH'
XCJJVMZWBH
root@arm:~# MARKER='FXBA''VJNONZ' run 'grep -r -l rohm,bd71837 /proc/device-tree  | sed '"'"'s![^/]*$!!'"'"''
FXBAVJNONZ/proc/device-tree/ocp/interconnect@48000000/segment@100000/target-module@9c000/i2c@0/pmic@4b/
FXBAVJNONZ 0
root@arm:~# echo 'HQYM''MQGCEV'
HQYMMQGCEV
root@arm:~# MARKER='HJPK''CWUKBC' run 'test -f /proc/device-tree/ocp/interconnectt\@48000000/segment\@100000/target-module\@9c000/i2c\@0/pmic\@4b/regulators/BUCK22/regulator-always-on ;echo $?'
HJPKCWUKBC0
HJPKCWUKBC 0
root@arm:~# echo 'JSYE''GGMOSH'
JSYEGGMOSH
root@arm:~# MARKER='LXTE''MGJUGL' run 'grep -r -l rohm,bd71837 /proc/device-tree  | sed '"'"'s![^/]*$!!'"'"''
LXTEMGJUGL/proc/device-tree/ocp/interconnect@48000000/segment@100000/target-module@9c000/i2c@0/pmic@4b/
LXTEMGJUGL 0
root@arm:~# echo 'UJWJ''ZVKHJT'
UJWJZVKHJT
root@arm:~# MARKER='BFVC''ZEZAQP' run 'test -f /proc/device-tree/ocp/interconnectt\@48000000/segment\@100000/target-module\@9c000/i2c\@0/pmic\@4b/regulators/BUCK33/rohm,no-regulator-enable-control ;echo $?'
BFVCZEZAQP0
BFVCZEZAQP 0
root@arm:~# echo 'OBBL''YGMVYY'
OBBLYGMVYY
root@arm:~# MARKER='ULVZ''GHCJEW' run 'grep -r -l rohm,bd71837 /proc/device-tree  | sed '"'"'s![^/]*$!!'"'"''
ULVZGHCJEW/proc/device-tree/ocp/interconnect@48000000/segment@100000/target-module@9c000/i2c@0/pmic@4b/
ULVZGHCJEW 0
root@arm:~# echo 'HLBP''PKGUXY'
HLBPPKGUXY
root@arm:~# MARKER='JZHC''MHEMFC' run 'test -f /proc/device-tree/ocp/interconnectt\@48000000/segment\@100000/target-module\@9c000/i2c\@0/pmic\@4b/regulators/BUCK33/rohm,no-regulator-enable-control ;echo $?'
JZHCMHEMFC0
JZHCMHEMFC 0
root@arm:~# echo 'AWKL''LMEBJN'
AWKLLMEBJN
root@arm:~# MARKER='GNGG''YMUMLG' run 'grep -r -l rohm,bd71837 /proc/device-tree  | sed '"'"'s![^/]*$!!'"'"''
GNGGYMUMLG/proc/device-tree/ocp/interconnect@48000000/segment@100000/target-module@9c000/i2c@0/pmic@4b/
GNGGYMUMLG 0
root@arm:~# echo 'MQPN''BEACZH'
MQPNBEACZH
root@arm:~# MARKER='JZUU''MBPQTX' run 'test -f /proc/device-tree/ocp/interconnectt\@48000000/segment\@100000/target-module\@9c000/i2c\@0/pmic\@4b/regulators/BUCK44/rohm,no-regulator-enable-control ;echo $?'
JZUUMBPQTX1
JZUUMBPQTX 0
root@arm:~# echo 'QWGM''LYZLQE'
QWGMLYZLQE
root@arm:~# MARKER='CTCJ''UUEOWM' run 'echo 1 > /sys/kernel/mva_test/regulators/bbuck4_en'
CTCJUUEOWMCTCJUUEOWM 0
root@arm:~# echo 'MKJT''WJTPKU'
MKJTWJTPKU
root@arm:~# MARKER='BMBE''YHZMVC' run 'i2cget -y -f 2 0x4b 0x8'
BMBEYHZMVC0xc7
BMBEYHZMVC 0
root@arm:~# echo 'AVQH''SOPLCC'
AVQHSOPLCC
root@arm:~# MARKER='NNZL''YXKPQQ' run 'grep -r -l rohm,bd71837 /proc/device-tree  | sed '"'"'s![^/]*$!!'"'"''
NNZLYXKPQQ/proc/device-tree/ocp/interconnect@48000000/segment@100000/target-module@9c000/i2c@0/pmic@4b/
NNZLYXKPQQ 0
root@arm:~# echo 'XPOQ''THUAMX'
XPOQTHUAMX
root@arm:~# MARKER='MAGV''LBKXJY' run 'test -f /proc/device-tree/ocp/interconnectt\@48000000/segment\@100000/target-module\@9c000/i2c\@0/pmic\@4b/regulators/BUCK44/rohm,no-regulator-enable-control ;echo $?'
MAGVLBKXJY1
MAGVLBKXJY 0
root@arm:~# echo 'VPEY''YHNYKZ'
VPEYYHNYKZ
root@arm:~# MARKER='JEBV''JKZOJX' run 'grep -r -l rohm,bd71837 /proc/device-tree  | sed '"'"'s![^/]*$!!'"'"''
JEBVJKZOJX/proc/device-tree/ocp/interconnect@48000000/segment@100000/target-module@9c000/i2c@0/pmic@4b/
JEBVJKZOJX 0
root@arm:~# echo 'XCXN''UUPWYT'
XCXNUUPWYT
root@arm:~# MARKER='HJEZ''GHMCFT' run 'test -f /proc/device-tree/ocp/interconnectt\@48000000/segment\@100000/target-module\@9c000/i2c\@0/pmic\@4b/regulators/BUCK44/regulator-always-on ;echo $?'
HJEZGHMCFT1
HJEZGHMCFT 0
root@arm:~# echo 'JNAF''NGBQKC'
JNAFNGBQKC
root@arm:~# MARKER='QATX''YZHOJE' run 'echo 0 > /sys/kernel/mva_test/regulators/bbuck4_en'
QATXYZHOJEQATXYZHOJE 0
root@arm:~# echo 'WXFX''VOYTPY'
WXFXVOYTPY
root@arm:~# MARKER='KJTM''CFHFSQ' run 'i2cget -y -f 2 0x4b 0x8'
KJTMCFHFSQ0xc6
KJTMCFHFSQ 0
root@arm:~# echo 'HBXF''WJCYAL'
HBXFWJCYAL
root@arm:~# MARKER='UHOC''SBOEZA' run 'grep -r -l rohm,bd71837 /proc/device-tree  | sed '"'"'s![^/]*$!!'"'"''
UHOCSBOEZA/proc/device-tree/ocp/interconnect@48000000/segment@100000/target-module@9c000/i2c@0/pmic@4b/
UHOCSBOEZA 0
root@arm:~# echo 'XJEB''TFUEVB'
XJEBTFUEVB
root@arm:~# MARKER='CKZC''XMUEOG' run 'test -f /proc/device-tree/ocp/interconnectt\@48000000/segment\@100000/target-module\@9c000/i2c\@0/pmic\@4b/regulators/BUCK55/rohm,no-regulator-enable-control ;echo $?'
CKZCXMUEOG1
CKZCXMUEOG 0
root@arm:~# echo 'HGGT''NEEXVX'
HGGTNEEXVX
root@arm:~# MARKER='HBKB''YYWXQT' run 'echo 1 > /sys/kernel/mva_test/regulators/bbuck5_en'
HBKBYYWXQTHBKBYYWXQT 0
root@arm:~# echo 'KLUP''LVWUAH'
KLUPLVWUAH
root@arm:~# MARKER='STBS''UWTQHO' run 'i2cget -y -f 2 0x4b 0x9'
STBSUWTQHO0x03
STBSUWTQHO 0
root@arm:~# echo 'MWKF''WKNFMZ'
MWKFWKNFMZ
root@arm:~# MARKER='NEEW''EYBOWL' run 'grep -r -l rohm,bd71837 /proc/device-tree  | sed '"'"'s![^/]*$!!'"'"''
NEEWEYBOWL/proc/device-tree/ocp/interconnect@48000000/segment@100000/target-module@9c000/i2c@0/pmic@4b/
NEEWEYBOWL 0
root@arm:~# echo 'XVGE''BKBOFN'
XVGEBKBOFN
root@arm:~# MARKER='TQYP''MBHEQZ' run 'test -f /proc/device-tree/ocp/interconnectt\@48000000/segment\@100000/target-module\@9c000/i2c\@0/pmic\@4b/regulators/BUCK55/rohm,no-regulator-enable-control ;echo $?'
TQYPMBHEQZ1
TQYPMBHEQZ 0
root@arm:~# echo 'AFYB''VLOECG'
AFYBVLOECG
root@arm:~# MARKER='NCNV''VAUCNE' run 'grep -r -l rohm,bd71837 /proc/device-tree  | sed '"'"'s![^/]*$!!'"'"''
NCNVVAUCNE/proc/device-tree/ocp/interconnect@48000000/segment@100000/target-module@9c000/i2c@0/pmic@4b/
NCNVVAUCNE 0
root@arm:~# echo 'FSZC''CYSGAH'
FSZCCYSGAH
root@arm:~# MARKER='AVCO''FLKJCV' run 'test -f /proc/device-tree/ocp/interconnectt\@48000000/segment\@100000/target-module\@9c000/i2c\@0/pmic\@4b/regulators/BUCK55/regulator-always-on ;echo $?'
AVCOFLKJCV1
AVCOFLKJCV 0
root@arm:~# echo 'SOOT''VLMHSP'
SOOTVLMHSP
root@arm:~# MARKER='WAFB''WXZSLK' run 'echo 0 > /sys/kernel/mva_test/regulators/bbuck5_en'
WAFBWXZSLKWAFBWXZSLK 0
root@arm:~# echo 'QFEH''FQCOSH'
QFEHFQCOSH
root@arm:~# MARKER='SLYM''JWAQFA' run 'i2cget -y -f 2 0x4b 0x9'
SLYMJWAQFA0x02
SLYMJWAQFA 0
root@arm:~# echo 'NHYE''JSEXWB'
NHYEJSEXWB
root@arm:~# MARKER='KUTL''CBWYAJ' run 'grep -r -l rohm,bd71837 /proc/device-tree  | sed '"'"'s![^/]*$!!'"'"''
KUTLCBWYAJ/proc/device-tree/ocp/interconnect@48000000/segment@100000/target-module@9c000/i2c@0/pmic@4b/
KUTLCBWYAJ 0
root@arm:~# echo 'TKVJ''FQLTTK'
TKVJFQLTTK
root@arm:~# MARKER='BNZJ''PUJFME' run 'test -f /proc/device-tree/ocp/interconnectt\@48000000/segment\@100000/target-module\@9c000/i2c\@0/pmic\@4b/regulators/BUCK66/rohm,no-regulator-enable-control ;echo $?'
BNZJPUJFME1
BNZJPUJFME 0
root@arm:~# echo 'NSBC''HOWJAW'
NSBCHOWJAW
root@arm:~# MARKER='EEFU''YCYTUJ' run 'echo 1 > /sys/kernel/mva_test/regulators/bbuck6_en'
EEFUYCYTUJEEFUYCYTUJ 0
root@arm:~# echo 'MJWN''NXSPGN'
MJWNNXSPGN
root@arm:~# MARKER='CFYG''ECXMHQ' run 'i2cget -y -f 2 0x4b 0xa'
CFYGECXMHQ0x03
CFYGECXMHQ 0
root@arm:~# echo 'TZVT''FFJTYX'
TZVTFFJTYX
root@arm:~# MARKER='WUWY''QQLHLJ' run 'grep -r -l rohm,bd71837 /proc/device-tree  | sed '"'"'s![^/]*$!!'"'"''
WUWYQQLHLJ/proc/device-tree/ocp/interconnect@48000000/segment@100000/target-module@9c000/i2c@0/pmic@4b/
WUWYQQLHLJ 0
root@arm:~# echo 'AMNL''VVYPVV'
AMNLVVYPVV
root@arm:~# MARKER='ZYEH''KTOKGU' run 'test -f /proc/device-tree/ocp/interconnectt\@48000000/segment\@100000/target-module\@9c000/i2c\@0/pmic\@4b/regulators/BUCK66/rohm,no-regulator-enable-control ;echo $?'
ZYEHKTOKGU1
ZYEHKTOKGU 0
root@arm:~# echo 'OVAK''YQGSJG'
OVAKYQGSJG
root@arm:~# MARKER='JAMY''LVTAVG' run 'grep -r -l rohm,bd71837 /proc/device-tree  | sed '"'"'s![^/]*$!!'"'"''
JAMYLVTAVG/proc/device-tree/ocp/interconnect@48000000/segment@100000/target-module@9c000/i2c@0/pmic@4b/
JAMYLVTAVG 0
root@arm:~# echo 'KEQS''WBHAGZ'
KEQSWBHAGZ
root@arm:~# MARKER='GWNH''MUHGKP' run 'test -f /proc/device-tree/ocp/interconnectt\@48000000/segment\@100000/target-module\@9c000/i2c\@0/pmic\@4b/regulators/BUCK66/regulator-always-on ;echo $?'
GWNHMUHGKP1
GWNHMUHGKP 0
root@arm:~# echo 'PKXY''PNSYPH'
PKXYPNSYPH
root@arm:~# MARKER='PCUE''XQFFNH' run 'echo 0 > /sys/kernel/mva_test/regulators/bbuck6_en'
PCUEXQFFNHPCUEXQFFNH 0
root@arm:~# echo 'USJV''KUMOFH'
USJVKUMOFH
root@arm:~# MARKER='EVNT''XEEAPO' run 'i2cget -y -f 2 0x4b 0xa'
EVNTXEEAPO0x02
EVNTXEEAPO 0
root@arm:~# echo 'SOBV''XZEGMC'
SOBVXZEGMC
root@arm:~# MARKER='VPNF''MBQUZN' run 'grep -r -l rohm,bd71837 /proc/device-tree  | sed '"'"'s![^/]*$!!'"'"''
VPNFMBQUZN/proc/device-tree/ocp/interconnect@48000000/segment@100000/target-module@9c000/i2c@0/pmic@4b/
VPNFMBQUZN 0
root@arm:~# echo 'JAFV''SFMNEF'
JAFVSFMNEF
root@arm:~# MARKER='YGFS''HQHMZM' run 'test -f /proc/device-tree/ocp/interconnectt\@48000000/segment\@100000/target-module\@9c000/i2c\@0/pmic\@4b/regulators/BUCK77/rohm,no-regulator-enable-control ;echo $?'
YGFSHQHMZM1
YGFSHQHMZM 0
root@arm:~# echo 'MYBE''KQLEJS'
MYBEKQLEJS
root@arm:~# MARKER='CWVJ''JQCFEE' run 'echo 1 > /sys/kernel/mva_test/regulators/bbuck7_en'
CWVJJQCFEECWVJJQCFEE 0
root@arm:~# echo 'BMOU''XWOTBP'
BMOUXWOTBP
root@arm:~# MARKER='CWFA''XXVONN' run 'i2cget -y -f 2 0x4b 0xb'
CWFAXXVONN0x03
CWFAXXVONN 0
root@arm:~# echo 'FLWK''LMXQNX'
FLWKLMXQNX
root@arm:~# MARKER='PLMF''KWUXKP' run 'grep -r -l rohm,bd71837 /proc/device-tree  | sed '"'"'s![^/]*$!!'"'"''
PLMFKWUXKP/proc/device-tree/ocp/interconnect@48000000/segment@100000/target-module@9c000/i2c@0/pmic@4b/
PLMFKWUXKP 0
root@arm:~# echo 'LVME''FAAJJQ'
LVMEFAAJJQ
root@arm:~# MARKER='AKYC''EWKCZX' run 'test -f /proc/device-tree/ocp/interconnectt\@48000000/segment\@100000/target-module\@9c000/i2c\@0/pmic\@4b/regulators/BUCK77/rohm,no-regulator-enable-control ;echo $?'
AKYCEWKCZX1
AKYCEWKCZX 0
root@arm:~# echo 'LVHB''SQHFTT'
LVHBSQHFTT
root@arm:~# MARKER='YCYU''YFHBNX' run 'grep -r -l rohm,bd71837 /proc/device-tree  | sed '"'"'s![^/]*$!!'"'"''
YCYUYFHBNX/proc/device-tree/ocp/interconnect@48000000/segment@100000/target-module@9c000/i2c@0/pmic@4b/
YCYUYFHBNX 0
root@arm:~# echo 'GLZZ''LYACEL'
GLZZLYACEL
root@arm:~# MARKER='PZTB''ONJUAT' run 'test -f /proc/device-tree/ocp/interconnectt\@48000000/segment\@100000/target-module\@9c000/i2c\@0/pmic\@4b/regulators/BUCK77/regulator-always-on ;echo $?'
PZTBONJUAT1
PZTBONJUAT 0
root@arm:~# echo 'HPFG''LWEAUF'
HPFGLWEAUF
root@arm:~# MARKER='PKJU''JWHONC' run 'echo 0 > /sys/kernel/mva_test/regulators/bbuck7_en'
PKJUJWHONCPKJUJWHONC 0
root@arm:~# echo 'XCOF''YJNAGU'
XCOFYJNAGU
root@arm:~# MARKER='TGCL''HZQGSZ' run 'i2cget -y -f 2 0x4b 0xb'
TGCLHZQGSZ0x02
TGCLHZQGSZ 0
root@arm:~# echo 'PHCG''BLCPKT'
PHCGBLCPKT
root@arm:~# MARKER='KVBU''VHFYTO' run 'grep -r -l rohm,bd71837 /proc/device-tree  | sed '"'"'s![^/]*$!!'"'"''
KVBUVHFYTO/proc/device-tree/ocp/interconnect@48000000/segment@100000/target-module@9c000/i2c@0/pmic@4b/
KVBUVHFYTO 0
root@arm:~# echo 'QFSZ''TVVKVK'
QFSZTVVKVK
root@arm:~# MARKER='GFVE''EWLSTJ' run 'test -f /proc/device-tree/ocp/interconnectt\@48000000/segment\@100000/target-module\@9c000/i2c\@0/pmic\@4b/regulators/BUCK88/rohm,no-regulator-enable-control ;echo $?'
GFVEEWLSTJ1
GFVEEWLSTJ 0
root@arm:~# echo 'EESO''AZHTZX'
EESOAZHTZX
root@arm:~# MARKER='VQUV''ZQJMNU' run 'echo 1 > /sys/kernel/mva_test/regulators/bbuck8_en'
VQUVZQJMNUVQUVZQJMNU 0
root@arm:~# echo 'JLYY''EUEXKA'
JLYYEUEXKA
root@arm:~# MARKER='EQMC''MLJELM' run 'i2cget -y -f 2 0x4b 0xc'
EQMCMLJELM0x03
EQMCMLJELM 0
root@arm:~# echo 'EQZB''YWPHQA'
EQZBYWPHQA
root@arm:~# MARKER='ZGQZ''BXUCHY' run 'grep -r -l rohm,bd71837 /proc/device-tree  | sed '"'"'s![^/]*$!!'"'"''
ZGQZBXUCHY/proc/device-tree/ocp/interconnect@48000000/segment@100000/target-module@9c000/i2c@0/pmic@4b/
ZGQZBXUCHY 0
root@arm:~# echo 'QFNW''XNUQVS'
QFNWXNUQVS
root@arm:~# MARKER='WNUU''TCCEEJ' run 'test -f /proc/device-tree/ocp/interconnectt\@48000000/segment\@100000/target-module\@9c000/i2c\@0/pmic\@4b/regulators/BUCK88/rohm,no-regulator-enable-control ;echo $?'
WNUUTCCEEJ1
WNUUTCCEEJ 0
root@arm:~# echo 'JTLY''WWVHZL'
JTLYWWVHZL
root@arm:~# MARKER='OEYM''CWKJMP' run 'grep -r -l rohm,bd71837 /proc/device-tree  | sed '"'"'s![^/]*$!!'"'"''
OEYMCWKJMP/proc/device-tree/ocp/interconnect@48000000/segment@100000/target-module@9c000/i2c@0/pmic@4b/
OEYMCWKJMP 0
root@arm:~# echo 'QLYH''QUOTYL'
QLYHQUOTYL
root@arm:~# MARKER='ABMF''AAGBKL' run 'test -f /proc/device-tree/ocp/interconnectt\@48000000/segment\@100000/target-module\@9c000/i2c\@0/pmic\@4b/regulators/BUCK88/regulator-always-on ;echo $?'
ABMFAAGBKL1
ABMFAAGBKL 0
root@arm:~# echo 'GVPX''BBEWAH'
GVPXBBEWAH
root@arm:~# MARKER='TYAZ''LTGOTW' run 'echo 0 > /sys/kernel/mva_test/regulators/bbuck8_en'
TYAZLTGOTWTYAZLTGOTW 0
root@arm:~# echo 'WXFL''YSKBHG'
WXFLYSKBHG
root@arm:~# MARKER='UNQL''JUTTJA' run 'i2cget -y -f 2 0x4b 0xc'
UNQLJUTTJA0x02
UNQLJUTTJA 0
root@arm:~# echo 'OWZC''VXCLXN'
OWZCVXCLXN
root@arm:~# MARKER='EEMO''OSFXVA' run 'grep -r -l rohm,bd71837 /proc/device-tree  | sed '"'"'s![^/]*$!!'"'"''
EEMOOSFXVA/proc/device-tree/ocp/interconnect@48000000/segment@100000/target-module@9c000/i2c@0/pmic@4b/
EEMOOSFXVA 0
root@arm:~# echo 'FTVU''FHEJCA'
FTVUFHEJCA
root@arm:~# MARKER='KNEM''YOSSJH' run 'test -f /proc/device-tree/ocp/interconnectt\@48000000/segment\@100000/target-module\@9c000/i2c\@0/pmic\@4b/regulators/LDO1//rohm,no-regulator-enable-control ;echo $?'
KNEMYOSSJH1
KNEMYOSSJH 0
root@arm:~# echo 'TPQP''QCWPLW'
TPQPQCWPLW
root@arm:~# MARKER='JGSQ''AJBXZK' run 'echo 1 > /sys/kernel/mva_test/regulators/bbuck9_en'
JGSQAJBXZKJGSQAJBXZK 0
root@arm:~# echo 'VAFK''VYMWMZ'
VAFKVYMWMZ
root@arm:~# MARKER='UOKG''YXWLJK' run 'i2cget -y -f 2 0x4b 0x18'
UOKGYXWLJK0xc3
UOKGYXWLJK 0
root@arm:~# echo 'CZVP''TWFFNJ'
CZVPTWFFNJ
root@arm:~# MARKER='VXFL''JWOYGC' run 'grep -r -l rohm,bd71837 /proc/device-tree  | sed '"'"'s![^/]*$!!'"'"''
VXFLJWOYGC/proc/device-tree/ocp/interconnect@48000000/segment@100000/target-module@9c000/i2c@0/pmic@4b/
VXFLJWOYGC 0
root@arm:~# echo 'JOQW''FOSJYS'
JOQWFOSJYS
root@arm:~# MARKER='WQVU''XGEFVH' run 'test -f /proc/device-tree/ocp/interconnectt\@48000000/segment\@100000/target-module\@9c000/i2c\@0/pmic\@4b/regulators/LDO1//rohm,no-regulator-enable-control ;echo $?'
WQVUXGEFVH1
WQVUXGEFVH 0
root@arm:~# echo 'SOGJ''HVKMGH'
SOGJHVKMGH
root@arm:~# MARKER='UOFC''BAWMWF' run 'grep -r -l rohm,bd71837 /proc/device-tree  | sed '"'"'s![^/]*$!!'"'"''
UOFCBAWMWF/proc/device-tree/ocp/interconnect@48000000/segment@100000/target-module@9c000/i2c@0/pmic@4b/
UOFCBAWMWF 0
root@arm:~# echo 'QAFH''ZHQWTY'
QAFHZHQWTY
root@arm:~# MARKER='MHZJ''KWUJGF' run 'test -f /proc/device-tree/ocp/interconnectt\@48000000/segment\@100000/target-module\@9c000/i2c\@0/pmic\@4b/regulators/LDO1//regulator-always-on ;echo $?'
MHZJKWUJGF1
MHZJKWUJGF 0
root@arm:~# echo 'JKHQ''QTXUJQ'
JKHQQTXUJQ
root@arm:~# MARKER='XUKK''UQOLWY' run 'echo 0 > /sys/kernel/mva_test/regulators/bbuck9_en'
XUKKUQOLWYXUKKUQOLWY 0
root@arm:~# echo 'MFBW''GOOWCW'
MFBWGOOWCW
root@arm:~# MARKER='ZYZO''YZATWC' run 'i2cget -y -f 2 0x4b 0x18'
ZYZOYZATWC0x83
ZYZOYZATWC 0
root@arm:~# echo 'XMEJ''SBKQOA'
XMEJSBKQOA
root@arm:~# MARKER='YTEF''MXPESL' run 'grep -r -l rohm,bd71837 /proc/device-tree  | sed '"'"'s![^/]*$!!'"'"''
YTEFMXPESL/proc/device-tree/ocp/interconnect@48000000/segment@100000/target-module@9c000/i2c@0/pmic@4b/
YTEFMXPESL 0
root@arm:~# echo 'VTXF''LTHGKY'
VTXFLTHGKY
root@arm:~# MARKER='KLSL''GJYFGF' run 'test -f /proc/device-tree/ocp/interconnectt\@48000000/segment\@100000/target-module\@9c000/i2c\@0/pmic\@4b/regulators/LDO2//rohm,no-regulator-enable-control ;echo $?'
KLSLGJYFGF1
KLSLGJYFGF 0
root@arm:~# echo 'YVKX''NOPMGJ'
YVKXNOPMGJ
root@arm:~# MARKER='HXBT''JFHHGZ' run 'echo 1 > /sys/kernel/mva_test/regulators/bbuck10_en'
HXBTJFHHGZHXBTJFHHGZ 0
root@arm:~# echo 'CTLG''VKZNST'
CTLGVKZNST
root@arm:~# MARKER='ZVVV''HZQOQL' run 'i2cget -y -f 2 0x4b 0x19'
ZVVVHZQOQL0xc0
ZVVVHZQOQL 0
root@arm:~# echo 'YXHT''KMWSLF'
YXHTKMWSLF
root@arm:~# MARKER='FFYQ''CEFXAO' run 'grep -r -l rohm,bd71837 /proc/device-tree  | sed '"'"'s![^/]*$!!'"'"''
FFYQCEFXAO/proc/device-tree/ocp/interconnect@48000000/segment@100000/target-module@9c000/i2c@0/pmic@4b/
FFYQCEFXAO 0
root@arm:~# echo 'QLAG''FQXFTU'
QLAGFQXFTU
root@arm:~# MARKER='MMCG''AKVVTM' run 'test -f /proc/device-tree/ocp/interconnectt\@48000000/segment\@100000/target-module\@9c000/i2c\@0/pmic\@4b/regulators/LDO2//rohm,no-regulator-enable-control ;echo $?'
MMCGAKVVTM1
MMCGAKVVTM 0
root@arm:~# echo 'FSGZ''EMPSJG'
FSGZEMPSJG
root@arm:~# MARKER='BNKM''HASXGB' run 'grep -r -l rohm,bd71837 /proc/device-tree  | sed '"'"'s![^/]*$!!'"'"''
BNKMHASXGB/proc/device-tree/ocp/interconnect@48000000/segment@100000/target-module@9c000/i2c@0/pmic@4b/
BNKMHASXGB 0
root@arm:~# echo 'XFBZ''BGLNYF'
XFBZBGLNYF
root@arm:~# MARKER='VSVT''OHVFUV' run 'test -f /proc/device-tree/ocp/interconnectt\@48000000/segment\@100000/target-module\@9c000/i2c\@0/pmic\@4b/regulators/LDO2//regulator-always-on ;echo $?'
VSVTOHVFUV1
VSVTOHVFUV 0
root@arm:~# echo 'SONH''XBHLOQ'
SONHXBHLOQ
root@arm:~# MARKER='KPZO''LNYXGK' run 'echo 0 > /sys/kernel/mva_test/regulators/bbuck10_en'
KPZOLNYXGKKPZOLNYXGK 0
root@arm:~# echo 'BGMS''VGNQFN'
BGMSVGNQFN
root@arm:~# MARKER='ZJWQ''QGEHUW' run 'i2cget -y -f 2 0x4b 0x19'
ZJWQQGEHUW0x80
ZJWQQGEHUW 0
root@arm:~# echo 'BJXE''LMKJZT'
BJXELMKJZT
root@arm:~# MARKER='HUUA''TCNBNJ' run 'grep -r -l rohm,bd71837 /proc/device-tree  | sed '"'"'s![^/]*$!!'"'"''
HUUATCNBNJ/proc/device-tree/ocp/interconnect@48000000/segment@100000/target-module@9c000/i2c@0/pmic@4b/
HUUATCNBNJ 0
root@arm:~# echo 'PEQF''CPNFUL'
PEQFCPNFUL
root@arm:~# MARKER='BQXE''VXJNPN' run 'test -f /proc/device-tree/ocp/interconnectt\@48000000/segment\@100000/target-module\@9c000/i2c\@0/pmic\@4b/regulators/LDO3//rohm,no-regulator-enable-control ;echo $?'
BQXEVXJNPN1
BQXEVXJNPN 0
root@arm:~# echo 'TMMX''FCQBMJ'
TMMXFCQBMJ
root@arm:~# MARKER='KVPL''UPGNVM' run 'echo 1 > /sys/kernel/mva_test/regulators/bbuck11_en'
KVPLUPGNVMKVPLUPGNVM 0
root@arm:~# echo 'WOOU''TNVMZA'
WOOUTNVMZA
root@arm:~# MARKER='THMQ''FYTAFQ' run 'i2cget -y -f 2 0x4b 0x1a'
THMQFYTAFQ0xc0
THMQFYTAFQ 0
root@arm:~# echo 'TVPC''AUOJJG'
TVPCAUOJJG
root@arm:~# MARKER='AVCZ''AKNUUP' run 'grep -r -l rohm,bd71837 /proc/device-tree  | sed '"'"'s![^/]*$!!'"'"''
AVCZAKNUUP/proc/device-tree/ocp/interconnect@48000000/segment@100000/target-module@9c000/i2c@0/pmic@4b/
AVCZAKNUUP 0
root@arm:~# echo 'XYKC''KECOHS'
XYKCKECOHS
root@arm:~# MARKER='TUGK''UOQQLO' run 'test -f /proc/device-tree/ocp/interconnectt\@48000000/segment\@100000/target-module\@9c000/i2c\@0/pmic\@4b/regulators/LDO3//rohm,no-regulator-enable-control ;echo $?'
TUGKUOQQLO1
TUGKUOQQLO 0
root@arm:~# echo 'ONPL''XAKAXO'
ONPLXAKAXO
root@arm:~# MARKER='YVOO''HXTBXV' run 'grep -r -l rohm,bd71837 /proc/device-tree  | sed '"'"'s![^/]*$!!'"'"''
YVOOHXTBXV/proc/device-tree/ocp/interconnect@48000000/segment@100000/target-module@9c000/i2c@0/pmic@4b/
YVOOHXTBXV 0
root@arm:~# echo 'HHUV''ZYHBHF'
HHUVZYHBHF
root@arm:~# MARKER='WOOT''EYCZLA' run 'test -f /proc/device-tree/ocp/interconnectt\@48000000/segment\@100000/target-module\@9c000/i2c\@0/pmic\@4b/regulators/LDO3//regulator-always-on ;echo $?'
WOOTEYCZLA1
WOOTEYCZLA 0
root@arm:~# echo 'UKFB''ZSVEUV'
UKFBZSVEUV
root@arm:~# MARKER='QPXW''PNUNQQ' run 'echo 0 > /sys/kernel/mva_test/regulators/bbuck11_en'
QPXWPNUNQQQPXWPNUNQQ 0
root@arm:~# echo 'CUMY''SYGACE'
CUMYSYGACE
root@arm:~# MARKER='KYJS''BMQSBA' run 'i2cget -y -f 2 0x4b 0x1a'
KYJSBMQSBA0x80
KYJSBMQSBA 0
root@arm:~# echo 'KUVF''XTECQJ'
KUVFXTECQJ
root@arm:~# MARKER='CLEN''MGUSWG' run 'grep -r -l rohm,bd71837 /proc/device-tree  | sed '"'"'s![^/]*$!!'"'"''
CLENMGUSWG/proc/device-tree/ocp/interconnect@48000000/segment@100000/target-module@9c000/i2c@0/pmic@4b/
CLENMGUSWG 0
root@arm:~# echo 'CLSA''JQJKPJ'
CLSAJQJKPJ
root@arm:~# MARKER='OXKO''ANVCVX' run 'test -f /proc/device-tree/ocp/interconnectt\@48000000/segment\@100000/target-module\@9c000/i2c\@0/pmic\@4b/regulators/LDO4//rohm,no-regulator-enable-control ;echo $?'
OXKOANVCVX1
OXKOANVCVX 0
root@arm:~# echo 'OXYZ''GHKFFW'
OXYZGHKFFW
root@arm:~# MARKER='JUQQ''OSOQVT' run 'echo 1 > /sys/kernel/mva_test/regulators/bbuck12_en'
JUQQOSOQVTJUQQOSOQVT 0
root@arm:~# echo 'WOWZ''ZELHXA'
WOWZZELHXA
root@arm:~# MARKER='TQYB''ZWYVGU' run 'i2cget -y -f 2 0x4b 0x1b'
TQYBZWYVGU0xc0
TQYBZWYVGU 0
root@arm:~# echo 'AFXL''TMJCVL'
AFXLTMJCVL
root@arm:~# MARKER='CFGE''NOFWZH' run 'grep -r -l rohm,bd71837 /proc/device-tree  | sed '"'"'s![^/]*$!!'"'"''
CFGENOFWZH/proc/device-tree/ocp/interconnect@48000000/segment@100000/target-module@9c000/i2c@0/pmic@4b/
CFGENOFWZH 0
root@arm:~# echo 'AMHS''HKPJWS'
AMHSHKPJWS
root@arm:~# MARKER='FJEG''SKKSUY' run 'test -f /proc/device-tree/ocp/interconnectt\@48000000/segment\@100000/target-module\@9c000/i2c\@0/pmic\@4b/regulators/LDO4//rohm,no-regulator-enable-control ;echo $?'
FJEGSKKSUY1
FJEGSKKSUY 0
root@arm:~# echo 'OEMT''ZFNHAJ'
OEMTZFNHAJ
root@arm:~# MARKER='VAXS''PBOHMG' run 'grep -r -l rohm,bd71837 /proc/device-tree  | sed '"'"'s![^/]*$!!'"'"''
VAXSPBOHMG/proc/device-tree/ocp/interconnect@48000000/segment@100000/target-module@9c000/i2c@0/pmic@4b/
VAXSPBOHMG 0
root@arm:~# echo 'KPFQ''SPYLGY'
KPFQSPYLGY
root@arm:~# MARKER='TZQX''CQMWNZ' run 'test -f /proc/device-tree/ocp/interconnectt\@48000000/segment\@100000/target-module\@9c000/i2c\@0/pmic\@4b/regulators/LDO4//regulator-always-on ;echo $?'
TZQXCQMWNZ1
TZQXCQMWNZ 0
root@arm:~# echo 'MGHW''SNFUXP'
MGHWSNFUXP
root@arm:~# MARKER='ZFMG''WLAZXW' run 'echo 0 > /sys/kernel/mva_test/regulators/bbuck12_en'
ZFMGWLAZXWZFMGWLAZXW 0
root@arm:~# echo 'UFEY''GNMFGY'
UFEYGNMFGY
root@arm:~# MARKER='CYTP''TMVXOQ' run 'i2cget -y -f 2 0x4b 0x1b'
CYTPTMVXOQ0x80
CYTPTMVXOQ 0
root@arm:~# echo 'WZSC''SOTZPG'
WZSCSOTZPG
root@arm:~# MARKER='CMOJ''TPQFOV' run 'grep -r -l rohm,bd71837 /proc/device-tree  | sed '"'"'s![^/]*$!!'"'"''
CMOJTPQFOV/proc/device-tree/ocp/interconnect@48000000/segment@100000/target-module@9c000/i2c@0/pmic@4b/
CMOJTPQFOV 0
root@arm:~# echo 'JVAF''MXGHCX'
JVAFMXGHCX
root@arm:~# MARKER='KWSE''BPMXTH' run 'test -f /proc/device-tree/ocp/interconnectt\@48000000/segment\@100000/target-module\@9c000/i2c\@0/pmic\@4b/regulators/LDO5//rohm,no-regulator-enable-control ;echo $?'
KWSEBPMXTH0
KWSEBPMXTH 0
root@arm:~# echo 'SYKE''YJFOSN'
SYKEYJFOSN
root@arm:~# MARKER='AOZH''XLKAFJ' run 'grep -r -l rohm,bd71837 /proc/device-tree  | sed '"'"'s![^/]*$!!'"'"''
AOZHXLKAFJ/proc/device-tree/ocp/interconnect@48000000/segment@100000/target-module@9c000/i2c@0/pmic@4b/
AOZHXLKAFJ 0
root@arm:~# echo 'KOHG''VUKXXQ'
KOHGVUKXXQ
root@arm:~# MARKER='KSXO''GYQTTB' run 'test -f /proc/device-tree/ocp/interconnectt\@48000000/segment\@100000/target-module\@9c000/i2c\@0/pmic\@4b/regulators/LDO5//rohm,no-regulator-enable-control ;echo $?'
KSXOGYQTTB0
KSXOGYQTTB 0
root@arm:~# echo 'TUKL''HGSGCY'
TUKLHGSGCY
root@arm:~# MARKER='SYCH''VWCPXU' run 'grep -r -l rohm,bd71837 /proc/device-tree  | sed '"'"'s![^/]*$!!'"'"''
SYCHVWCPXU/proc/device-tree/ocp/interconnect@48000000/segment@100000/target-module@9c000/i2c@0/pmic@4b/
SYCHVWCPXU 0
root@arm:~# echo 'OTUQ''WYZCTB'
OTUQWYZCTB
root@arm:~# MARKER='FLEM''VUBVON' run 'test -f /proc/device-tree/ocp/interconnectt\@48000000/segment\@100000/target-module\@9c000/i2c\@0/pmic\@4b/regulators/LDO6//rohm,no-regulator-enable-control ;echo $?'
FLEMVUBVON1
FLEMVUBVON 0
root@arm:~# echo 'FBNE''OMEKAS'
FBNEOMEKAS
root@arm:~# MARKER='ZGUQ''QTGZNH' run 'echo 1 > /sys/kernel/mva_test/regulators/bbuck14_en'
ZGUQQTGZNHZGUQQTGZNH 0
root@arm:~# echo 'BZFH''FTWNSZ'
BZFHFTWNSZ
root@arm:~# MARKER='HPQJ''JWPHCW' run 'i2cget -y -f 2 0x4b 0x1d'
HPQJJWPHCW0xc0
HPQJJWPHCW 0
root@arm:~# echo 'EPVO''LBVNYE'
EPVOLBVNYE
root@arm:~# MARKER='TPEN''VAKQYL' run 'grep -r -l rohm,bd71837 /proc/device-tree  | sed '"'"'s![^/]*$!!'"'"''
TPENVAKQYL/proc/device-tree/ocp/interconnect@48000000/segment@100000/target-module@9c000/i2c@0/pmic@4b/
TPENVAKQYL 0
root@arm:~# echo 'JJGX''QJYBZZ'
JJGXQJYBZZ
root@arm:~# MARKER='NPKX''ZNUKHC' run 'test -f /proc/device-tree/ocp/interconnectt\@48000000/segment\@100000/target-module\@9c000/i2c\@0/pmic\@4b/regulators/LDO6//rohm,no-regulator-enable-control ;echo $?'
NPKXZNUKHC1
NPKXZNUKHC 0
root@arm:~# echo 'QLEC''YUAGPV'
QLECYUAGPV
root@arm:~# MARKER='TYBC''ZMNKCE' run 'grep -r -l rohm,bd71837 /proc/device-tree  | sed '"'"'s![^/]*$!!'"'"''
TYBCZMNKCE/proc/device-tree/ocp/interconnect@48000000/segment@100000/target-module@9c000/i2c@0/pmic@4b/
TYBCZMNKCE 0
root@arm:~# echo 'GQGS''SBWJHJ'
GQGSSBWJHJ
root@arm:~# MARKER='YUCP''GOKFFW' run 'test -f /proc/device-tree/ocp/interconnectt\@48000000/segment\@100000/target-module\@9c000/i2c\@0/pmic\@4b/regulators/LDO6//regulator-always-on ;echo $?'
YUCPGOKFFW1
YUCPGOKFFW 0
root@arm:~# echo 'EVKU''PUCWYW'
EVKUPUCWYW
root@arm:~# MARKER='SFQL''GGYWWK' run 'echo 0 > /sys/kernel/mva_test/regulators/bbuck14_en'
SFQLGGYWWKSFQLGGYWWK 0
root@arm:~# echo 'GEGO''MWOGKK'
GEGOMWOGKK
root@arm:~# MARKER='MYCF''BJNBXW' run 'i2cget -y -f 2 0x4b 0x1d'
MYCFBJNBXW0x80
MYCFBJNBXW 0
root@arm:~# echo 'MXYB''BWTNSZ'
MXYBBWTNSZ
root@arm:~# MARKER='LJOS''BTVLZT' run 'grep -r -l rohm,bd71837 /proc/device-tree  | sed '"'"'s![^/]*$!!'"'"''
LJOSBTVLZT/proc/device-tree/ocp/interconnect@48000000/segment@100000/target-module@9c000/i2c@0/pmic@4b/
LJOSBTVLZT 0
root@arm:~# echo 'TXEZ''MGXUYQ'
TXEZMGXUYQ
root@arm:~# MARKER='TCLE''NFZASB' run 'test -f /proc/device-tree/ocp/interconnectt\@48000000/segment\@100000/target-module\@9c000/i2c\@0/pmic\@4b/regulators/LDO7//rohm,no-regulator-enable-control ;echo $?'
TCLENFZASB1
TCLENFZASB 0
root@arm:~# echo 'FZSH''WKHHHU'
FZSHWKHHHU
root@arm:~# MARKER='NANF''YPCYYV' run 'echo 1 > /sys/kernel/mva_test/regulators/bbuck15_en'
NANFYPCYYVNANFYPCYYV 0
root@arm:~# echo 'EUJY''LXFKKE'
EUJYLXFKKE
root@arm:~# MARKER='UEJK''CSALYG' run 'i2cget -y -f 2 0x4b 0x1e'
UEJKCSALYG0xcf
UEJKCSALYG 0
root@arm:~# echo 'JAKX''HEZMOX'
JAKXHEZMOX
root@arm:~# MARKER='XHEM''XFFJOY' run 'grep -r -l rohm,bd71837 /proc/device-tree  | sed '"'"'s![^/]*$!!'"'"''
XHEMXFFJOY/proc/device-tree/ocp/interconnect@48000000/segment@100000/target-module@9c000/i2c@0/pmic@4b/
XHEMXFFJOY 0
root@arm:~# echo 'USZV''HFNFMM'
USZVHFNFMM
root@arm:~# MARKER='ZZJU''MNJMGO' run 'test -f /proc/device-tree/ocp/interconnectt\@48000000/segment\@100000/target-module\@9c000/i2c\@0/pmic\@4b/regulators/LDO7//rohm,no-regulator-enable-control ;echo $?'
ZZJUMNJMGO1
ZZJUMNJMGO 0
root@arm:~# echo 'AKWC''QOUHGX'
AKWCQOUHGX
root@arm:~# MARKER='ULUQ''PWUAOJ' run 'grep -r -l rohm,bd71837 /proc/device-tree  | sed '"'"'s![^/]*$!!'"'"''
ULUQPWUAOJ/proc/device-tree/ocp/interconnect@48000000/segment@100000/target-module@9c000/i2c@0/pmic@4b/
ULUQPWUAOJ 0
root@arm:~# echo 'BQZU''ZXKQWA'
BQZUZXKQWA
root@arm:~# MARKER='XAVA''WGZUZF' run 'test -f /proc/device-tree/ocp/interconnectt\@48000000/segment\@100000/target-module\@9c000/i2c\@0/pmic\@4b/regulators/LDO7//regulator-always-on ;echo $?'
XAVAWGZUZF1
XAVAWGZUZF 0
root@arm:~# echo 'STJH''VXHPFO'
STJHVXHPFO
root@arm:~# MARKER='WAXB''BSYHJB' run 'echo 0 > /sys/kernel/mva_test/regulators/bbuck15_en'
WAXBBSYHJBWAXBBSYHJB 0
root@arm:~# echo 'GXOL''VSHPHM'
GXOLVSHPHM
root@arm:~# MARKER='FPJF''SAGWMT' run 'i2cget -y -f 2 0x4b 0x1e'
FPJFSAGWMT0x8f
FPJFSAGWMT 0
root@arm:~# Labgrid Console Logfile for main
Logfile started at 2025-04-15 10:47:23.325504
=== Log starts here ===

root@arm:~# run() { echo -n "$MARKER"; sh -c "$@"; echo "$MARKER $?"; }
root@arm:~# echo 'AONT''XQYNXW'
AONTXQYNXW
root@arm:~# MARKER='LJTQ''QLVXAS' run 'grep -r -l rohm,bd71837 /proc/device-tree  | sed '"'"'s![^/]*$!!'"'"''
LJTQQLVXAS/proc/device-tree/ocp/interconnect@48000000/segment@100000/target-module@9c000/i2c@0/pmic@4b/
LJTQQLVXAS 0
root@arm:~# echo 'OVGT''MJAYXV'
OVGTMJAYXV
root@arm:~# MARKER='FKGU''KZXFWV' run 'test -f /proc/device-tree/ocp/interconnectt\@48000000/segment\@100000/target-module\@9c000/i2c\@0/pmic\@4b/regulators/BUCK11/rohm,no-regulator-enable-control ;echo $?'
FKGUKZXFWV1
FKGUKZXFWV 0
root@arm:~# echo 'VJQT''BSYMZJ'
VJQTBSYMZJ
root@arm:~# MARKER='UOEY''FQWKWF' run 'i2cget -y -f 2 0x4b 0x5'
UOEYFQWKWF0x02
UOEYFQWKWF 0
root@arm:~# echo 'WGLN''GGSEVV'
WGLNGGSEVV
root@arm:~# MARKER='WCBX''UMAUCP' run 'echo 700000 700000 > /sys/kernel/mva_test//regulators/buck1_set'
WCBXUMAUCPWCBXUMAUCP 0
root@arm:~# echo 'THOM''SYNPVO'
THOMSYNPVO
root@arm:~# MARKER='FMEA''XEHKLQ' run 'i2cget -y -f 2 0x4b 0xd'
FMEAXEHKLQ0x00
FMEAXEHKLQ 0
root@arm:~# echo 'ZMYX''GGVZGW'
ZMYXGGVZGW
root@arm:~# MARKER='ZOHO''AMBYNO' run 'echo 710000 710000 > /sys/kernel/mva_test//regulators/buck1_set'
ZOHOAMBYNOZOHOAMBYNO 0
root@arm:~# echo 'BXYQ''BBBPBN'
BXYQBBBPBN
root@arm:~# MARKER='ULPE''LHSQQT' run 'i2cget -y -f 2 0x4b 0xd'
ULPELHSQQT0x01
ULPELHSQQT 0
root@arm:~# echo 'MGSV''SFSLAZ'
MGSVSFSLAZ
root@arm:~# MARKER='AYFT''CXCPKH' run 'echo 720000 720000 > /sys/kernel/mva_test//regulators/buck1_set'
AYFTCXCPKHAYFTCXCPKH 0
root@arm:~# echo 'VOXK''UYGXTY'
VOXKUYGXTY
root@arm:~# MARKER='OJVK''KKNMNV' run 'i2cget -y -f 2 0x4b 0xd'
OJVKKKNMNV0x02
OJVKKKNMNV 0
root@arm:~# echo 'QGUF''WLEZMT'
QGUFWLEZMT
root@arm:~# MARKER='CZZF''VBZWYP' run 'echo 730000 730000 > /sys/kernel/mva_test//regulators/buck1_set'
CZZFVBZWYPCZZFVBZWYP 0
root@arm:~# echo 'TASY''TGEFGP'
TASYTGEFGP
root@arm:~# MARKER='XPVA''QTWXEQ' run 'i2cget -y -f 2 0x4b 0xd'
XPVAQTWXEQ0x03
XPVAQTWXEQ 0
root@arm:~# echo 'ECFG''CTUYMH'
ECFGCTUYMH
root@arm:~# MARKER='LBPB''GBHGSO' run 'echo 740000 740000 > /sys/kernel/mva_test//regulators/buck1_set'
LBPBGBHGSOLBPBGBHGSO 0
root@arm:~# echo 'ZOWX''VSJPQG'
ZOWXVSJPQG
root@arm:~# MARKER='BZMG''XFLGSC' run 'i2cget -y -f 2 0x4b 0xd'
BZMGXFLGSC0x04
BZMGXFLGSC 0
root@arm:~# echo 'EZEP''OJXXJB'
EZEPOJXXJB
root@arm:~# MARKER='CFNK''EQGTJO' run 'echo 750000 750000 > /sys/kernel/mva_test//regulators/buck1_set'
CFNKEQGTJOCFNKEQGTJO 0
root@arm:~# echo 'JJYO''MWQOTU'
JJYOMWQOTU
root@arm:~# MARKER='KNHN''JWTELA' run 'i2cget -y -f 2 0x4b 0xd'
KNHNJWTELA0x05
KNHNJWTELA 0
root@arm:~# echo 'OLAG''FNAYMP'
OLAGFNAYMP
root@arm:~# MARKER='CLUL''YAYONY' run 'echo 760000 760000 > /sys/kernel/mva_test//regulators/buck1_set'
CLULYAYONYCLULYAYONY 0
root@arm:~# echo 'PUTM''UAZZLE'
PUTMUAZZLE
root@arm:~# MARKER='YGWT''KGEPLO' run 'i2cget -y -f 2 0x4b 0xd'
YGWTKGEPLO0x06
YGWTKGEPLO 0
root@arm:~# echo 'KCFZ''JZJZGH'
KCFZJZJZGH
root@arm:~# MARKER='VCBA''VOFKEA' run 'echo 770000 770000 > /sys/kernel/mva_test//regulators/buck1_set'
VCBAVOFKEAVCBAVOFKEA 0
root@arm:~# echo 'UPGC''EJFEEZ'
UPGCEJFEEZ
root@arm:~# MARKER='CKKY''UBHSSL' run 'i2cget -y -f 2 0x4b 0xd'
CKKYUBHSSL0x07
CKKYUBHSSL 0
root@arm:~# echo 'WLOY''UUMKVM'
WLOYUUMKVM
root@arm:~# MARKER='HOWS''FMLXSY' run 'echo 780000 780000 > /sys/kernel/mva_test//regulators/buck1_set'
HOWSFMLXSYHOWSFMLXSY 0
root@arm:~# echo 'UYMT''FLNAFF'
UYMTFLNAFF
root@arm:~# MARKER='YZKB''YBCFVJ' run 'i2cget -y -f 2 0x4b 0xd'
YZKBYBCFVJ0x08
YZKBYBCFVJ 0
root@arm:~# echo 'GJAJ''MEHHOP'
GJAJMEHHOP
root@arm:~# MARKER='EVQC''OKHQNL' run 'echo 790000 790000 > /sys/kernel/mva_test//regulators/buck1_set'
EVQCOKHQNLEVQCOKHQNL 0
root@arm:~# echo 'NFAV''QWWLAS'
NFAVQWWLAS
root@arm:~# MARKER='HXTZ''UXTTMK' run 'i2cget -y -f 2 0x4b 0xd'
HXTZUXTTMK0x09
HXTZUXTTMK 0
root@arm:~# echo 'GSPH''OSLYQC'
GSPHOSLYQC
root@arm:~# MARKER='OZPY''UWHKXC' run 'echo 800000 800000 > /sys/kernel/mva_test//regulators/buck1_set'
OZPYUWHKXCOZPYUWHKXC 0
root@arm:~# echo 'AGYL''KNWQMO'
AGYLKNWQMO
root@arm:~# MARKER='GSSZ''HMNUWW' run 'i2cget -y -f 2 0x4b 0xd'
GSSZHMNUWW0x0a
GSSZHMNUWW 0
root@arm:~# echo 'NOVN''ZOZOOB'
NOVNZOZOOB
root@arm:~# MARKER='HHNK''ZBHLTP' run 'echo 810000 810000 > /sys/kernel/mva_test//regulators/buck1_set'
HHNKZBHLTPHHNKZBHLTP 0
root@arm:~# echo 'XQPW''MPOJLG'
XQPWMPOJLG
root@arm:~# MARKER='XTBP''AQYFOP' run 'i2cget -y -f 2 0x4b 0xd'
XTBPAQYFOP0x0b
XTBPAQYFOP 0
root@arm:~# echo 'GMUA''OJWMXW'
GMUAOJWMXW
root@arm:~# MARKER='SWEX''JKNACH' run 'echo 820000 820000 > /sys/kernel/mva_test//regulators/buck1_set'
SWEXJKNACHSWEXJKNACH 0
root@arm:~# echo 'ZJHW''WZYWKN'
ZJHWWZYWKN
root@arm:~# MARKER='NZNO''XZMXLA' run 'i2cget -y -f 2 0x4b 0xd'
NZNOXZMXLA0x0c
NZNOXZMXLA 0
root@arm:~# echo 'VABU''QWCNYX'
VABUQWCNYX
root@arm:~# MARKER='SGMU''MGAQGN' run 'echo 830000 830000 > /sys/kernel/mva_test//regulators/buck1_set'
SGMUMGAQGNSGMUMGAQGN 0
root@arm:~# echo 'QBYB''ELHCLQ'
QBYBELHCLQ
root@arm:~# MARKER='HPJW''FHFQMB' run 'i2cget -y -f 2 0x4b 0xd'
HPJWFHFQMB0x0d
HPJWFHFQMB 0
root@arm:~# echo 'XSWU''UNGBHH'
XSWUUNGBHH
root@arm:~# MARKER='FPYF''YFEKLT' run 'echo 840000 840000 > /sys/kernel/mva_test//regulators/buck1_set'
FPYFYFEKLTFPYFYFEKLT 0
root@arm:~# echo 'WBXG''VNSSCK'
WBXGVNSSCK
root@arm:~# MARKER='OCCE''OXYJHC' run 'i2cget -y -f 2 0x4b 0xd'
OCCEOXYJHC0x0e
OCCEOXYJHC 0
root@arm:~# echo 'MMVA''OBPWOJ'
MMVAOBPWOJ
root@arm:~# MARKER='HQZX''FHHVVS' run 'echo 850000 850000 > /sys/kernel/mva_test//regulators/buck1_set'
HQZXFHHVVSHQZXFHHVVS 0
root@arm:~# echo 'WYNV''MVVUYZ'
WYNVMVVUYZ
root@arm:~# MARKER='GUKP''ZWGBVE' run 'i2cget -y -f 2 0x4b 0xd'
GUKPZWGBVE0x0f
GUKPZWGBVE 0
root@arm:~# echo 'ZOHH''ZYOWTA'
ZOHHZYOWTA
root@arm:~# MARKER='UEPN''MVQSVC' run 'echo 860000 860000 > /sys/kernel/mva_test//regulators/buck1_set'
UEPNMVQSVCUEPNMVQSVC 0
root@arm:~# echo 'FSQT''WCJHEB'
FSQTWCJHEB
root@arm:~# MARKER='SSXT''PCEBBV' run 'i2cget -y -f 2 0x4b 0xd'
SSXTPCEBBV0x10
SSXTPCEBBV 0
root@arm:~# echo 'EGOS''VBFQEA'
EGOSVBFQEA
root@arm:~# MARKER='ZWQG''AOELZU' run 'echo 870000 870000 > /sys/kernel/mva_test//regulators/buck1_set'
ZWQGAOELZUZWQGAOELZU 0
root@arm:~# echo 'EUPO''CBLBEO'
EUPOCBLBEO
root@arm:~# MARKER='YNHG''QZTEGB' run 'i2cget -y -f 2 0x4b 0xd'
YNHGQZTEGB0x11
YNHGQZTEGB 0
root@arm:~# echo 'KSLN''HTWZXG'
KSLNHTWZXG
root@arm:~# MARKER='VNTX''CQECGV' run 'echo 880000 880000 > /sys/kernel/mva_test//regulators/buck1_set'
VNTXCQECGVVNTXCQECGV 0
root@arm:~# echo 'YSQG''KOVGGM'
YSQGKOVGGM
root@arm:~# MARKER='OMEE''UOGBGG' run 'i2cget -y -f 2 0x4b 0xd'
OMEEUOGBGG0x12
OMEEUOGBGG 0
root@arm:~# echo 'SATF''JGCFYG'
SATFJGCFYG
root@arm:~# MARKER='BYFV''APHBKZ' run 'echo 890000 890000 > /sys/kernel/mva_test//regulators/buck1_set'
BYFVAPHBKZBYFVAPHBKZ 0
root@arm:~# echo 'JPYF''KBLSNE'
JPYFKBLSNE
root@arm:~# MARKER='VNVS''MXQLOY' run 'i2cget -y -f 2 0x4b 0xd'
VNVSMXQLOY0x13
VNVSMXQLOY 0
root@arm:~# echo 'APZJ''UHETBE'
APZJUHETBE
root@arm:~# MARKER='OKGT''JLWUKP' run 'echo 900000 900000 > /sys/kernel/mva_test//regulators/buck1_set'
OKGTJLWUKPOKGTJLWUKP 0
root@arm:~# echo 'VHBV''PCOBQF'
VHBVPCOBQF
root@arm:~# MARKER='QJAB''UUQZWH' run 'i2cget -y -f 2 0x4b 0xd'
QJABUUQZWH0x14
QJABUUQZWH 0
root@arm:~# echo 'JTJF''QEOBBA'
JTJFQEOBBA
root@arm:~# MARKER='JTEL''ZTCSQL' run 'echo 910000 910000 > /sys/kernel/mva_test//regulators/buck1_set'
JTELZTCSQLJTELZTCSQL 0
root@arm:~# echo 'LOSA''SPZHVN'
LOSASPZHVN
root@arm:~# MARKER='PYKU''GNWGCU' run 'i2cget -y -f 2 0x4b 0xd'
PYKUGNWGCU0x15
PYKUGNWGCU 0
root@arm:~# echo 'FNCY''JYOTKX'
FNCYJYOTKX
root@arm:~# MARKER='OGVF''WNFOUY' run 'echo 920000 920000 > /sys/kernel/mva_test//regulators/buck1_set'
OGVFWNFOUYOGVFWNFOUY 0
root@arm:~# echo 'TEKW''AAZWLM'
TEKWAAZWLM
root@arm:~# MARKER='VULH''UPHOAH' run 'i2cget -y -f 2 0x4b 0xd'
VULHUPHOAH0x16
VULHUPHOAH 0
root@arm:~# echo 'JTLG''BJGKAB'
JTLGBJGKAB
root@arm:~# MARKER='UPLE''KZBVQX' run 'echo 930000 930000 > /sys/kernel/mva_test//regulators/buck1_set'
UPLEKZBVQXUPLEKZBVQX 0
root@arm:~# echo 'HAYX''XBMJFX'
HAYXXBMJFX
root@arm:~# MARKER='MUHL''ZPNPEA' run 'i2cget -y -f 2 0x4b 0xd'
MUHLZPNPEA0x17
MUHLZPNPEA 0
root@arm:~# echo 'HSYU''VKBJLG'
HSYUVKBJLG
root@arm:~# MARKER='NXCT''WTFQAU' run 'echo 940000 940000 > /sys/kernel/mva_test//regulators/buck1_set'
NXCTWTFQAUNXCTWTFQAU 0
root@arm:~# echo 'LTBZ''NCAGXV'
LTBZNCAGXV
root@arm:~# MARKER='BCQJ''CJXSFL' run 'i2cget -y -f 2 0x4b 0xd'
BCQJCJXSFL0x18
BCQJCJXSFL 0
root@arm:~# echo 'MYBH''OHWFBT'
MYBHOHWFBT
root@arm:~# MARKER='MZCU''BOYFGN' run 'echo 950000 950000 > /sys/kernel/mva_test//regulators/buck1_set'
MZCUBOYFGNMZCUBOYFGN 0
root@arm:~# echo 'FEGY''SCHSHG'
FEGYSCHSHG
root@arm:~# MARKER='TGLH''TCXZHS' run 'i2cget -y -f 2 0x4b 0xd'
TGLHTCXZHS0x19
TGLHTCXZHS 0
root@arm:~# echo 'UXLJ''FLGSYV'
UXLJFLGSYV
root@arm:~# MARKER='GQOX''QPFWBL' run 'echo 960000 960000 > /sys/kernel/mva_test//regulators/buck1_set'
GQOXQPFWBLGQOXQPFWBL 0
root@arm:~# echo 'VLUC''FUGJOG'
VLUCFUGJOG
root@arm:~# MARKER='TEML''AHLYGX' run 'i2cget -y -f 2 0x4b 0xd'
TEMLAHLYGX0x1a
TEMLAHLYGX 0
root@arm:~# echo 'CWOF''UXTZLW'
CWOFUXTZLW
root@arm:~# MARKER='VVNK''UXZLQF' run 'echo 970000 970000 > /sys/kernel/mva_test//regulators/buck1_set'
VVNKUXZLQFVVNKUXZLQF 0
root@arm:~# echo 'XCYB''VLLKQP'
XCYBVLLKQP
root@arm:~# MARKER='FMTW''GUOAWM' run 'i2cget -y -f 2 0x4b 0xd'
FMTWGUOAWM0x1b
FMTWGUOAWM 0
root@arm:~# echo 'PVMQ''VLWQSM'
PVMQVLWQSM
root@arm:~# MARKER='KJME''WTMQEK' run 'echo 980000 980000 > /sys/kernel/mva_test//regulators/buck1_set'
KJMEWTMQEKKJMEWTMQEK 0
root@arm:~# echo 'QOSH''QMAEMY'
QOSHQMAEMY
root@arm:~# MARKER='OQHK''EPWTVO' run 'i2cget -y -f 2 0x4b 0xd'
OQHKEPWTVO0x1c
OQHKEPWTVO 0
root@arm:~# echo 'PMPX''NLJUJF'
PMPXNLJUJF
root@arm:~# MARKER='PKMY''AFZFHO' run 'echo 990000 990000 > /sys/kernel/mva_test//regulators/buck1_set'
PKMYAFZFHOPKMYAFZFHO 0
root@arm:~# echo 'VWMH''EOLBEK'
VWMHEOLBEK
root@arm:~# MARKER='TMGS''XGYZSL' run 'i2cget -y -f 2 0x4b 0xd'
TMGSXGYZSL0x1d
TMGSXGYZSL 0
root@arm:~# echo 'NCKH''LJCMNC'
NCKHLJCMNC
root@arm:~# MARKER='XJJM''NGFHAU' run 'echo 1000000 1000000 > /sys/kernel/mva_tesst/regulators/buck1_set'
XJJMNGFHAUXJJMNGFHAU 0
root@arm:~# echo 'KPPH''TPOVNF'
KPPHTPOVNF
root@arm:~# MARKER='VSKK''KYWZHA' run 'i2cget -y -f 2 0x4b 0xd'
VSKKKYWZHA0x1e
VSKKKYWZHA 0
root@arm:~# echo 'KCSU''YMMVUL'
KCSUYMMVUL
root@arm:~# MARKER='JXST''VPVUHY' run 'echo 1010000 1010000 > /sys/kernel/mva_tesst/regulators/buck1_set'
JXSTVPVUHYJXSTVPVUHY 0
root@arm:~# echo 'YTUA''GWZGUV'
YTUAGWZGUV
root@arm:~# MARKER='OXEL''ZBCVLX' run 'i2cget -y -f 2 0x4b 0xd'
OXELZBCVLX0x1f
OXELZBCVLX 0
root@arm:~# echo 'LMWO''MKWAOU'
LMWOMKWAOU
root@arm:~# MARKER='QGZE''UXCTWQ' run 'echo 1020000 1020000 > /sys/kernel/mva_tesst/regulators/buck1_set'
QGZEUXCTWQQGZEUXCTWQ 0
root@arm:~# echo 'OXFB''BAVFGY'
OXFBBAVFGY
root@arm:~# MARKER='XZYC''UBATPV' run 'i2cget -y -f 2 0x4b 0xd'
XZYCUBATPV0x20
XZYCUBATPV 0
root@arm:~# echo 'PKON''OOHQGK'
PKONOOHQGK
root@arm:~# MARKER='MBOL''VFXYLC' run 'echo 1030000 1030000 > /sys/kernel/mva_tesst/regulators/buck1_set'
MBOLVFXYLCMBOLVFXYLC 0
root@arm:~# echo 'UFFY''NVAOLK'
UFFYNVAOLK
root@arm:~# MARKER='CPAO''WJFEVJ' run 'i2cget -y -f 2 0x4b 0xd'
CPAOWJFEVJ0x21
CPAOWJFEVJ 0
root@arm:~# echo 'WGPB''EXUBEY'
WGPBEXUBEY
root@arm:~# MARKER='TNSV''EAUKZA' run 'echo 1040000 1040000 > /sys/kernel/mva_tesst/regulators/buck1_set'
TNSVEAUKZATNSVEAUKZA 0
root@arm:~# echo 'KCBP''UTHNWO'
KCBPUTHNWO
root@arm:~# MARKER='LUWX''GGTKXZ' run 'i2cget -y -f 2 0x4b 0xd'
LUWXGGTKXZ0x22
LUWXGGTKXZ 0
root@arm:~# echo 'NFJQ''CYZYBL'
NFJQCYZYBL
root@arm:~# MARKER='WQLA''NEQXKO' run 'echo 1050000 1050000 > /sys/kernel/mva_tesst/regulators/buck1_set'
WQLANEQXKOWQLANEQXKO 0
root@arm:~# echo 'AKOW''MYUHJM'
AKOWMYUHJM
root@arm:~# MARKER='AWKW''FXHKYA' run 'i2cget -y -f 2 0x4b 0xd'
AWKWFXHKYA0x23
AWKWFXHKYA 0
root@arm:~# echo 'CQLA''FYVQAY'
CQLAFYVQAY
root@arm:~# MARKER='HHSO''ZJPHQX' run 'echo 1060000 1060000 > /sys/kernel/mva_tesst/regulators/buck1_set'
HHSOZJPHQXHHSOZJPHQX 0
root@arm:~# echo 'NYVH''YMMPOC'
NYVHYMMPOC
root@arm:~# MARKER='VOQE''LTJTME' run 'i2cget -y -f 2 0x4b 0xd'
VOQELTJTME0x24
VOQELTJTME 0
root@arm:~# echo 'KSAN''CYZFAQ'
KSANCYZFAQ
root@arm:~# MARKER='FQZA''LOFZFA' run 'echo 1070000 1070000 > /sys/kernel/mva_tesst/regulators/buck1_set'
FQZALOFZFAFQZALOFZFA 0
root@arm:~# echo 'EKAN''KNFYWH'
EKANKNFYWH
root@arm:~# MARKER='JKHK''ZLJFBN' run 'i2cget -y -f 2 0x4b 0xd'
JKHKZLJFBN0x25
JKHKZLJFBN 0
root@arm:~# echo 'YCTL''CSYYVF'
YCTLCSYYVF
root@arm:~# MARKER='XHNO''NFAGAK' run 'echo 1080000 1080000 > /sys/kernel/mva_tesst/regulators/buck1_set'
XHNONFAGAKXHNONFAGAK 0
root@arm:~# echo 'XBFA''ZFAFYH'
XBFAZFAFYH
root@arm:~# MARKER='NQVP''CGUOAN' run 'i2cget -y -f 2 0x4b 0xd'
NQVPCGUOAN0x26
NQVPCGUOAN 0
root@arm:~# echo 'OLAH''GVNCPL'
OLAHGVNCPL
root@arm:~# MARKER='HHYU''HTCXLA' run 'echo 1090000 1090000 > /sys/kernel/mva_tesst/regulators/buck1_set'
HHYUHTCXLAHHYUHTCXLA 0
root@arm:~# echo 'ZUCZ''SFBAUF'
ZUCZSFBAUF
root@arm:~# MARKER='JXBH''EPNEPG' run 'i2cget -y -f 2 0x4b 0xd'
JXBHEPNEPG0x27
JXBHEPNEPG 0
root@arm:~# echo 'ZELE''MXFSQV'
ZELEMXFSQV
root@arm:~# MARKER='KNJW''KPPTHM' run 'echo 1100000 1100000 > /sys/kernel/mva_tesst/regulators/buck1_set'
KNJWKPPTHMKNJWKPPTHM 0
root@arm:~# echo 'EHNX''TNXNGF'
EHNXTNXNGF
root@arm:~# MARKER='YQEJ''WNCPWX' run 'i2cget -y -f 2 0x4b 0xd'
YQEJWNCPWX0x28
YQEJWNCPWX 0
root@arm:~# echo 'ZUXB''WMFWGK'
ZUXBWMFWGK
root@arm:~# MARKER='VSPQ''MFEOTH' run 'echo 1110000 1110000 > /sys/kernel/mva_tesst/regulators/buck1_set'
VSPQMFEOTHVSPQMFEOTH 0
root@arm:~# echo 'JJWS''GXULQK'
JJWSGXULQK
root@arm:~# MARKER='GEMG''KVQQLA' run 'i2cget -y -f 2 0x4b 0xd'
GEMGKVQQLA0x29
GEMGKVQQLA 0
root@arm:~# echo 'OVJL''VJYHUX'
OVJLVJYHUX
root@arm:~# MARKER='MYKW''AYBHUV' run 'echo 1120000 1120000 > /sys/kernel/mva_tesst/regulators/buck1_set'
MYKWAYBHUVMYKWAYBHUV 0
root@arm:~# echo 'MUJS''TLKSNX'
MUJSTLKSNX
root@arm:~# MARKER='NGFM''HLTXCT' run 'i2cget -y -f 2 0x4b 0xd'
NGFMHLTXCT0x2a
NGFMHLTXCT 0
root@arm:~# echo 'MPBF''LUQMOL'
MPBFLUQMOL
root@arm:~# MARKER='SQLO''OBOCAC' run 'echo 1130000 1130000 > /sys/kernel/mva_tesst/regulators/buck1_set'
SQLOOBOCACSQLOOBOCAC 0
root@arm:~# echo 'TGGG''GHTFUB'
TGGGGHTFUB
root@arm:~# MARKER='QAMG''XFJQSV' run 'i2cget -y -f 2 0x4b 0xd'
QAMGXFJQSV0x2b
QAMGXFJQSV 0
root@arm:~# echo 'QSKC''MUEFXX'
QSKCMUEFXX
root@arm:~# MARKER='PQZG''YKOAQK' run 'echo 1140000 1140000 > /sys/kernel/mva_tesst/regulators/buck1_set'
PQZGYKOAQKPQZGYKOAQK 0
root@arm:~# echo 'PZUE''UFVAFY'
PZUEUFVAFY
root@arm:~# MARKER='AVNV''ZAXXQU' run 'i2cget -y -f 2 0x4b 0xd'
AVNVZAXXQU0x2c
AVNVZAXXQU 0
root@arm:~# echo 'TJGH''GPWCXS'
TJGHGPWCXS
root@arm:~# MARKER='VZTP''APHSPS' run 'echo 1150000 1150000 > /sys/kernel/mva_tesst/regulators/buck1_set'
VZTPAPHSPSVZTPAPHSPS 0
root@arm:~# echo 'ALWJ''JQFWSS'
ALWJJQFWSS
root@arm:~# MARKER='GVCF''WYXVUE' run 'i2cget -y -f 2 0x4b 0xd'
GVCFWYXVUE0x2d
GVCFWYXVUE 0
root@arm:~# echo 'PGYV''BMYKHS'
PGYVBMYKHS
root@arm:~# MARKER='LKKK''TWUQVQ' run 'echo 1160000 1160000 > /sys/kernel/mva_tesst/regulators/buck1_set'
LKKKTWUQVQLKKKTWUQVQ 0
root@arm:~# echo 'EBBQ''NVGBVN'
EBBQNVGBVN
root@arm:~# MARKER='SFZT''JECFVA' run 'i2cget -y -f 2 0x4b 0xd'
SFZTJECFVA0x2e
SFZTJECFVA 0
root@arm:~# echo 'BEEP''WJCUUH'
BEEPWJCUUH
root@arm:~# MARKER='NSNA''XKZUNU' run 'echo 1170000 1170000 > /sys/kernel/mva_tesst/regulators/buck1_set'
NSNAXKZUNUNSNAXKZUNU 0
root@arm:~# echo 'EAAP''QMHCLY'
EAAPQMHCLY
root@arm:~# MARKER='EHOL''ANYOSM' run 'i2cget -y -f 2 0x4b 0xd'
EHOLANYOSM0x2f
EHOLANYOSM 0
root@arm:~# echo 'KWJM''NEQGKV'
KWJMNEQGKV
root@arm:~# MARKER='EZWP''KNPFJW' run 'echo 1180000 1180000 > /sys/kernel/mva_tesst/regulators/buck1_set'
EZWPKNPFJWEZWPKNPFJW 0
root@arm:~# echo 'OTTV''BHBEMJ'
OTTVBHBEMJ
root@arm:~# MARKER='HHYL''TBOPSU' run 'i2cget -y -f 2 0x4b 0xd'
HHYLTBOPSU0x30
HHYLTBOPSU 0
root@arm:~# echo 'HZQC''UOQGOG'
HZQCUOQGOG
root@arm:~# MARKER='XKQH''JXNQZJ' run 'echo 1190000 1190000 > /sys/kernel/mva_tesst/regulators/buck1_set'
XKQHJXNQZJXKQHJXNQZJ 0
root@arm:~# echo 'YGXT''WPSFXV'
YGXTWPSFXV
root@arm:~# MARKER='PGWX''BVKFKS' run 'i2cget -y -f 2 0x4b 0xd'
PGWXBVKFKS0x31
PGWXBVKFKS 0
root@arm:~# echo 'AMOQ''YPGHKJ'
AMOQYPGHKJ
root@arm:~# MARKER='OZPL''LBHPAU' run 'echo 1200000 1200000 > /sys/kernel/mva_tesst/regulators/buck1_set'
OZPLLBHPAUOZPLLBHPAU 0
root@arm:~# echo 'SGJO''JHOCGX'
SGJOJHOCGX
root@arm:~# MARKER='TYUJ''MTUCOW' run 'i2cget -y -f 2 0x4b 0xd'
TYUJMTUCOW0x32
TYUJMTUCOW 0
root@arm:~# echo 'CBJA''BELKMH'
CBJABELKMH
root@arm:~# MARKER='LMNO''CVOXEV' run 'echo 1210000 1210000 > /sys/kernel/mva_tesst/regulators/buck1_set'
LMNOCVOXEVLMNOCVOXEV 0
root@arm:~# echo 'JNUB''JNHFPA'
JNUBJNHFPA
root@arm:~# MARKER='KVSU''LTAKCC' run 'i2cget -y -f 2 0x4b 0xd'
KVSULTAKCC0x33
KVSULTAKCC 0
root@arm:~# echo 'LZKM''LUGGJF'
LZKMLUGGJF
root@arm:~# MARKER='TYYW''CFCOOW' run 'echo 1220000 1220000 > /sys/kernel/mva_tesst/regulators/buck1_set'
TYYWCFCOOWTYYWCFCOOW 0
root@arm:~# echo 'XHGG''QBYTTK'
XHGGQBYTTK
root@arm:~# MARKER='PLEN''KMUKOX' run 'i2cget -y -f 2 0x4b 0xd'
PLENKMUKOX0x34
PLENKMUKOX 0
root@arm:~# echo 'BYPP''PPUPZE'
BYPPPPUPZE
root@arm:~# MARKER='XZQT''CWNUOQ' run 'echo 1230000 1230000 > /sys/kernel/mva_tesst/regulators/buck1_set'
XZQTCWNUOQXZQTCWNUOQ 0
root@arm:~# echo 'EFBV''XPXTJX'
EFBVXPXTJX
root@arm:~# MARKER='OPVN''FBKFYX' run 'i2cget -y -f 2 0x4b 0xd'
OPVNFBKFYX0x35
OPVNFBKFYX 0
root@arm:~# echo 'OYAY''SBAOMM'
OYAYSBAOMM
root@arm:~# MARKER='VLCJ''UBQXNY' run 'echo 1240000 1240000 > /sys/kernel/mva_tesst/regulators/buck1_set'
VLCJUBQXNYVLCJUBQXNY 0
root@arm:~# echo 'YUXF''KCWHXW'
YUXFKCWHXW
root@arm:~# MARKER='OOBF''KVXNMJ' run 'i2cget -y -f 2 0x4b 0xd'
OOBFKVXNMJ0x36
OOBFKVXNMJ 0
root@arm:~# echo 'ANKE''MSJVYW'
ANKEMSJVYW
root@arm:~# MARKER='UHNM''AHLAZL' run 'echo 1250000 1250000 > /sys/kernel/mva_tesst/regulators/buck1_set'
UHNMAHLAZLUHNMAHLAZL 0
root@arm:~# echo 'COAL''FWQETL'
COALFWQETL
root@arm:~# MARKER='XNBO''EBBBTC' run 'i2cget -y -f 2 0x4b 0xd'
XNBOEBBBTC0x37
XNBOEBBBTC 0
root@arm:~# echo 'LSUG''JAKHJF'
LSUGJAKHJF
root@arm:~# MARKER='EPPP''SOPULH' run 'echo 1260000 1260000 > /sys/kernel/mva_tesst/regulators/buck1_set'
EPPPSOPULHEPPPSOPULH 0
root@arm:~# echo 'AMQG''LEPLPP'
AMQGLEPLPP
root@arm:~# MARKER='QTLG''EMAWKW' run 'i2cget -y -f 2 0x4b 0xd'
QTLGEMAWKW0x38
QTLGEMAWKW 0
root@arm:~# echo 'NMLE''XWUHVK'
NMLEXWUHVK
root@arm:~# MARKER='JWUZ''KPWJTY' run 'echo 1270000 1270000 > /sys/kernel/mva_tesst/regulators/buck1_set'
JWUZKPWJTYJWUZKPWJTY 0
root@arm:~# echo 'PVVT''WJGLZG'
PVVTWJGLZG
root@arm:~# MARKER='ANUE''GUYXLN' run 'i2cget -y -f 2 0x4b 0xd'
ANUEGUYXLN0x39
ANUEGUYXLN 0
root@arm:~# echo 'PUQL''SHPOUY'
PUQLSHPOUY
root@arm:~# MARKER='WVXL''YHTUQY' run 'echo 1280000 1280000 > /sys/kernel/mva_tesst/regulators/buck1_set'
WVXLYHTUQYWVXLYHTUQY 0
root@arm:~# echo 'KGXM''HCMUSO'
KGXMHCMUSO
root@arm:~# MARKER='EPVQ''UTEMBY' run 'i2cget -y -f 2 0x4b 0xd'
EPVQUTEMBY0x3a
EPVQUTEMBY 0
root@arm:~# echo 'VZBX''QPYMOH'
VZBXQPYMOH
root@arm:~# MARKER='LWTA''ZNOTGS' run 'echo 1290000 1290000 > /sys/kernel/mva_tesst/regulators/buck1_set'
LWTAZNOTGSLWTAZNOTGS 0
root@arm:~# echo 'HQTZ''YEEBAG'
HQTZYEEBAG
root@arm:~# MARKER='LZSQ''EPZGNM' run 'i2cget -y -f 2 0x4b 0xd'
LZSQEPZGNM0x3b
LZSQEPZGNM 0
root@arm:~# echo 'WYUY''GVVNFA'
WYUYGVVNFA
root@arm:~# MARKER='XATB''MPTUHE' run 'echo 1300000 1300000 > /sys/kernel/mva_tesst/regulators/buck1_set'
XATBMPTUHEXATBMPTUHE 0
root@arm:~# echo 'UAWP''MTKLJL'
UAWPMTKLJL
root@arm:~# MARKER='TMHX''SEFBWF' run 'i2cget -y -f 2 0x4b 0xd'
TMHXSEFBWF0x3c
TMHXSEFBWF 0
root@arm:~# echo 'OBYL''FYFLYW'
OBYLFYFLYW
root@arm:~# MARKER='LKVU''YLGFFS' run 'grep -r -l rohm,bd71837 /proc/device-tree  | sed '"'"'s![^/]*$!!'"'"''
LKVUYLGFFS/proc/device-tree/ocp/interconnect@48000000/segment@100000/target-module@9c000/i2c@0/pmic@4b/
LKVUYLGFFS 0
root@arm:~# echo 'MGOZ''YKEBSH'
MGOZYKEBSH
root@arm:~# MARKER='UNTW''ENMXUO' run 'test -f /proc/device-tree/ocp/interconnectt\@48000000/segment\@100000/target-module\@9c000/i2c\@0/pmic\@4b/regulators/BUCK22/rohm,no-regulator-enable-control ;echo $?'
UNTWENMXUO1
UNTWENMXUO 0
root@arm:~# echo 'LVBJ''ZJYQXN'
LVBJZJYQXN
root@arm:~# MARKER='XFTK''ZKFPJS' run 'i2cget -y -f 2 0x4b 0x6'
XFTKZKFPJS0x43
XFTKZKFPJS 0
root@arm:~# echo 'AFFH''ZVAKNZ'
AFFHZVAKNZ
root@arm:~# MARKER='NOUY''SGEAXK' run 'echo 700000 700000 > /sys/kernel/mva_test//regulators/buck2_set'
NOUYSGEAXKNOUYSGEAXK 0
root@arm:~# echo 'JQAY''NNBOMX'
JQAYNNBOMX
root@arm:~# MARKER='TNQN''CFHVHC' run 'i2cget -y -f 2 0x4b 0x10'
TNQNCFHVHC0x00
TNQNCFHVHC 0
root@arm:~# echo 'ZMFB''WPHYLU'
ZMFBWPHYLU
root@arm:~# MARKER='LFFY''BJELGL' run 'echo 710000 710000 > /sys/kernel/mva_test//regulators/buck2_set'
LFFYBJELGLLFFYBJELGL 0
root@arm:~# echo 'TCLS''FECTCL'
TCLSFECTCL
root@arm:~# MARKER='EGST''MQGLNS' run 'i2cget -y -f 2 0x4b 0x10'
EGSTMQGLNS0x01
EGSTMQGLNS 0
root@arm:~# echo 'JACA''YCSCMO'
JACAYCSCMO
root@arm:~# MARKER='TVFW''UFPJWA' run 'echo 720000 720000 > /sys/kernel/mva_test//regulators/buck2_set'
TVFWUFPJWATVFWUFPJWA 0
root@arm:~# echo 'ZQZE''APAOXS'
ZQZEAPAOXS
root@arm:~# MARKER='YOKE''ZFWPUL' run 'i2cget -y -f 2 0x4b 0x10'
YOKEZFWPUL0x02
YOKEZFWPUL 0
root@arm:~# echo 'QZOU''CGMFUA'
QZOUCGMFUA
root@arm:~# MARKER='WYKL''HVWXOJ' run 'echo 730000 730000 > /sys/kernel/mva_test//regulators/buck2_set'
WYKLHVWXOJWYKLHVWXOJ 0
root@arm:~# echo 'MKEA''EOHQEM'
MKEAEOHQEM
root@arm:~# MARKER='JMOE''APCQUC' run 'i2cget -y -f 2 0x4b 0x10'
JMOEAPCQUC0x03
JMOEAPCQUC 0
root@arm:~# echo 'ZSEE''VHOZUG'
ZSEEVHOZUG
root@arm:~# MARKER='OFSX''WKFLWA' run 'echo 740000 740000 > /sys/kernel/mva_test//regulators/buck2_set'
OFSXWKFLWAOFSXWKFLWA 0
root@arm:~# echo 'QNJP''KWHZNQ'
QNJPKWHZNQ
root@arm:~# MARKER='TXUA''WJLAYN' run 'i2cget -y -f 2 0x4b 0x10'
TXUAWJLAYN0x04
TXUAWJLAYN 0
root@arm:~# echo 'LGXH''VYPQXU'
LGXHVYPQXU
root@arm:~# MARKER='OJLA''JSQPLK' run 'echo 750000 750000 > /sys/kernel/mva_test//regulators/buck2_set'
OJLAJSQPLKOJLAJSQPLK 0
root@arm:~# echo 'OWBV''VVGYJX'
OWBVVVGYJX
root@arm:~# MARKER='JQNL''VEEUSU' run 'i2cget -y -f 2 0x4b 0x10'
JQNLVEEUSU0x05
JQNLVEEUSU 0
root@arm:~# echo 'BMCS''YHJFTS'
BMCSYHJFTS
root@arm:~# MARKER='YZHM''ZENLNX' run 'echo 760000 760000 > /sys/kernel/mva_test//regulators/buck2_set'
YZHMZENLNXYZHMZENLNX 0
root@arm:~# echo 'ZKCO''ZWUVTL'
ZKCOZWUVTL
root@arm:~# MARKER='BGZA''CEOMLE' run 'i2cget -y -f 2 0x4b 0x10'
BGZACEOMLE0x06
BGZACEOMLE 0
root@arm:~# echo 'WEPY''WXVTMJ'
WEPYWXVTMJ
root@arm:~# MARKER='WSAU''GZCNWB' run 'echo 770000 770000 > /sys/kernel/mva_test//regulators/buck2_set'
WSAUGZCNWBWSAUGZCNWB 0
root@arm:~# echo 'VJBK''POJZGX'
VJBKPOJZGX
root@arm:~# MARKER='MYPC''EWTZBC' run 'i2cget -y -f 2 0x4b 0x10'
MYPCEWTZBC0x07
MYPCEWTZBC 0
root@arm:~# echo 'YQAU''XNMHUU'
YQAUXNMHUU
root@arm:~# MARKER='QESZ''JTSJKP' run 'echo 780000 780000 > /sys/kernel/mva_test//regulators/buck2_set'
QESZJTSJKPQESZJTSJKP 0
root@arm:~# echo 'UJHA''SWLCBF'
UJHASWLCBF
root@arm:~# MARKER='FXXM''QPYJAH' run 'i2cget -y -f 2 0x4b 0x10'
FXXMQPYJAH0x08
FXXMQPYJAH 0
root@arm:~# echo 'UHQE''QACOUT'
UHQEQACOUT
root@arm:~# MARKER='SHUN''JUJBCX' run 'echo 790000 790000 > /sys/kernel/mva_test//regulators/buck2_set'
SHUNJUJBCXSHUNJUJBCX 0
root@arm:~# echo 'ETNB''TZHQEY'
ETNBTZHQEY
root@arm:~# MARKER='PFUN''PWXVEO' run 'i2cget -y -f 2 0x4b 0x10'
PFUNPWXVEO0x09
PFUNPWXVEO 0
root@arm:~# echo 'EFCH''MNPQHT'
EFCHMNPQHT
root@arm:~# MARKER='OEML''ZJUYHF' run 'echo 800000 800000 > /sys/kernel/mva_test//regulators/buck2_set'
OEMLZJUYHFOEMLZJUYHF 0
root@arm:~# echo 'BMWC''FVBVVA'
BMWCFVBVVA
root@arm:~# MARKER='KUFK''SYXYHA' run 'i2cget -y -f 2 0x4b 0x10'
KUFKSYXYHA0x0a
KUFKSYXYHA 0
root@arm:~# echo 'MXHW''ZUOAKE'
MXHWZUOAKE
root@arm:~# MARKER='ZJYW''EVKYBA' run 'echo 810000 810000 > /sys/kernel/mva_test//regulators/buck2_set'
ZJYWEVKYBAZJYWEVKYBA 0
root@arm:~# echo 'VBPY''ZUVJPF'
VBPYZUVJPF
root@arm:~# MARKER='ZLPU''YAPXQZ' run 'i2cget -y -f 2 0x4b 0x10'
ZLPUYAPXQZ0x0b
ZLPUYAPXQZ 0
root@arm:~# echo 'BUWK''NAMBME'
BUWKNAMBME
root@arm:~# MARKER='CHQA''MXTGAT' run 'echo 820000 820000 > /sys/kernel/mva_test//regulators/buck2_set'
CHQAMXTGATCHQAMXTGAT 0
root@arm:~# echo 'KSFM''HFJAZY'
KSFMHFJAZY
root@arm:~# MARKER='OTWP''BEHHUP' run 'i2cget -y -f 2 0x4b 0x10'
OTWPBEHHUP0x0c
OTWPBEHHUP 0
root@arm:~# echo 'AYCB''AKHUQB'
AYCBAKHUQB
root@arm:~# MARKER='JHXM''NLZFMM' run 'echo 830000 830000 > /sys/kernel/mva_test//regulators/buck2_set'
JHXMNLZFMMJHXMNLZFMM 0
root@arm:~# echo 'HXXU''GWBKEQ'
HXXUGWBKEQ
root@arm:~# MARKER='FVXW''UCHBWQ' run 'i2cget -y -f 2 0x4b 0x10'
FVXWUCHBWQ0x0d
FVXWUCHBWQ 0
root@arm:~# echo 'PGKT''YWCOSV'
PGKTYWCOSV
root@arm:~# MARKER='TUKN''CWANLJ' run 'echo 840000 840000 > /sys/kernel/mva_test//regulators/buck2_set'
TUKNCWANLJTUKNCWANLJ 0
root@arm:~# echo 'KAQH''GKPBUG'
KAQHGKPBUG
root@arm:~# MARKER='FFBM''KYZNUL' run 'i2cget -y -f 2 0x4b 0x10'
FFBMKYZNUL0x0e
FFBMKYZNUL 0
root@arm:~# echo 'LFXC''PVBKJP'
LFXCPVBKJP
root@arm:~# MARKER='TQZV''MOEOVL' run 'echo 850000 850000 > /sys/kernel/mva_test//regulators/buck2_set'
TQZVMOEOVLTQZVMOEOVL 0
root@arm:~# echo 'QHMJ''GXPYNW'
QHMJGXPYNW
root@arm:~# MARKER='ZGKF''ZQXHAJ' run 'i2cget -y -f 2 0x4b 0x10'
ZGKFZQXHAJ0x0f
ZGKFZQXHAJ 0
root@arm:~# echo 'LXGH''OWSXUJ'
LXGHOWSXUJ
root@arm:~# MARKER='HWHK''GCFLKC' run 'echo 860000 860000 > /sys/kernel/mva_test//regulators/buck2_set'
HWHKGCFLKCHWHKGCFLKC 0
root@arm:~# echo 'JVFG''WFKPHJ'
JVFGWFKPHJ
root@arm:~# MARKER='LUQG''KHGQZW' run 'i2cget -y -f 2 0x4b 0x10'
LUQGKHGQZW0x10
LUQGKHGQZW 0
root@arm:~# echo 'PWFL''TUCPSJ'
PWFLTUCPSJ
root@arm:~# MARKER='ZCYZ''MAABXM' run 'echo 870000 870000 > /sys/kernel/mva_test//regulators/buck2_set'
ZCYZMAABXMZCYZMAABXM 0
root@arm:~# echo 'MPJY''NPQNPZ'
MPJYNPQNPZ
root@arm:~# MARKER='TQSM''OFCAJB' run 'i2cget -y -f 2 0x4b 0x10'
TQSMOFCAJB0x11
TQSMOFCAJB 0
root@arm:~# echo 'KKHB''AEXUXM'
KKHBAEXUXM
root@arm:~# MARKER='QKEQ''KSBCTS' run 'echo 880000 880000 > /sys/kernel/mva_test//regulators/buck2_set'
QKEQKSBCTSQKEQKSBCTS 0
root@arm:~# echo 'LZUX''SPGGEW'
LZUXSPGGEW
root@arm:~# MARKER='ABZE''SNYQFU' run 'i2cget -y -f 2 0x4b 0x10'
ABZESNYQFU0x12
ABZESNYQFU 0
root@arm:~# echo 'SZWU''QPXOSE'
SZWUQPXOSE
root@arm:~# MARKER='LYMJ''AVZQPT' run 'echo 890000 890000 > /sys/kernel/mva_test//regulators/buck2_set'
LYMJAVZQPTLYMJAVZQPT 0
root@arm:~# echo 'MWOY''SLNLZF'
MWOYSLNLZF
root@arm:~# MARKER='HAOV''ZZEFLT' run 'i2cget -y -f 2 0x4b 0x10'
HAOVZZEFLT0x13
HAOVZZEFLT 0
root@arm:~# echo 'VQXG''BNSGUA'
VQXGBNSGUA
root@arm:~# MARKER='XZYF''PTHZNN' run 'echo 900000 900000 > /sys/kernel/mva_test//regulators/buck2_set'
XZYFPTHZNNXZYFPTHZNN 0
root@arm:~# echo 'QHKP''CFCEJA'
QHKPCFCEJA
root@arm:~# MARKER='PALL''UMUVBC' run 'i2cget -y -f 2 0x4b 0x10'
PALLUMUVBC0x14
PALLUMUVBC 0
root@arm:~# echo 'JUBP''WKPPBM'
JUBPWKPPBM
root@arm:~# MARKER='ASBQ''XEUTVP' run 'echo 910000 910000 > /sys/kernel/mva_test//regulators/buck2_set'
ASBQXEUTVPASBQXEUTVP 0
root@arm:~# echo 'MBMH''PTGTYG'
MBMHPTGTYG
root@arm:~# MARKER='MFQG''UVMSGG' run 'i2cget -y -f 2 0x4b 0x10'
MFQGUVMSGG0x15
MFQGUVMSGG 0
root@arm:~# echo 'PLZN''UBYHGB'
PLZNUBYHGB
root@arm:~# MARKER='SWVX''JMLCQA' run 'echo 920000 920000 > /sys/kernel/mva_test//regulators/buck2_set'
SWVXJMLCQASWVXJMLCQA 0
root@arm:~# echo 'SZJS''XHOGAP'
SZJSXHOGAP
root@arm:~# MARKER='WBBA''YYFMPS' run 'i2cget -y -f 2 0x4b 0x10'
WBBAYYFMPS0x16
WBBAYYFMPS 0
root@arm:~# echo 'GVSO''PYAOSO'
GVSOPYAOSO
root@arm:~# MARKER='NESA''JXSJMU' run 'echo 930000 930000 > /sys/kernel/mva_test//regulators/buck2_set'
NESAJXSJMUNESAJXSJMU 0
root@arm:~# echo 'JCVA''JQTJCK'
JCVAJQTJCK
root@arm:~# MARKER='ZYQK''GKSLLQ' run 'i2cget -y -f 2 0x4b 0x10'
ZYQKGKSLLQ0x17
ZYQKGKSLLQ 0
root@arm:~# echo 'LQBK''GWYGBB'
LQBKGWYGBB
root@arm:~# MARKER='YBXK''KZYWAM' run 'echo 940000 940000 > /sys/kernel/mva_test//regulators/buck2_set'
YBXKKZYWAMYBXKKZYWAM 0
root@arm:~# echo 'SWCG''CVPJPO'
SWCGCVPJPO
root@arm:~# MARKER='SSTE''SLOFEJ' run 'i2cget -y -f 2 0x4b 0x10'
SSTESLOFEJ0x18
SSTESLOFEJ 0
root@arm:~# echo 'CJVZ''TOFKVW'
CJVZTOFKVW
root@arm:~# MARKER='PVSN''HYJBSN' run 'echo 950000 950000 > /sys/kernel/mva_test//regulators/buck2_set'
PVSNHYJBSNPVSNHYJBSN 0
root@arm:~# echo 'CMVP''QKTGMN'
CMVPQKTGMN
root@arm:~# MARKER='OMLO''ZXWNPB' run 'i2cget -y -f 2 0x4b 0x10'
OMLOZXWNPB0x19
OMLOZXWNPB 0
root@arm:~# echo 'HZHL''NMETBG'
HZHLNMETBG
root@arm:~# MARKER='BPUQ''YNOGSC' run 'echo 960000 960000 > /sys/kernel/mva_test//regulators/buck2_set'
BPUQYNOGSCBPUQYNOGSC 0
root@arm:~# echo 'WFOX''GLWOMZ'
WFOXGLWOMZ
root@arm:~# MARKER='UQNJ''COWEML' run 'i2cget -y -f 2 0x4b 0x10'
UQNJCOWEML0x1a
UQNJCOWEML 0
root@arm:~# echo 'KPNK''HJNGSS'
KPNKHJNGSS
root@arm:~# MARKER='ATTZ''BNCWCN' run 'echo 970000 970000 > /sys/kernel/mva_test//regulators/buck2_set'
ATTZBNCWCNATTZBNCWCN 0
root@arm:~# echo 'XNXK''LNOACO'
XNXKLNOACO
root@arm:~# MARKER='OMTS''CLCLVN' run 'i2cget -y -f 2 0x4b 0x10'
OMTSCLCLVN0x1b
OMTSCLCLVN 0
root@arm:~# echo 'GBTH''QNALFG'
GBTHQNALFG
root@arm:~# MARKER='HJVM''SNCVYY' run 'echo 980000 980000 > /sys/kernel/mva_test//regulators/buck2_set'
HJVMSNCVYYHJVMSNCVYY 0
root@arm:~# echo 'BNVS''TGJFBM'
BNVSTGJFBM
root@arm:~# MARKER='MNKM''MCMAAJ' run 'i2cget -y -f 2 0x4b 0x10'
MNKMMCMAAJ0x1c
MNKMMCMAAJ 0
root@arm:~# echo 'OUYN''GNLANF'
OUYNGNLANF
root@arm:~# MARKER='LHWW''NPYQWE' run 'echo 990000 990000 > /sys/kernel/mva_test//regulators/buck2_set'
LHWWNPYQWELHWWNPYQWE 0
root@arm:~# echo 'SYCS''BKLXEU'
SYCSBKLXEU
root@arm:~# MARKER='UFJT''CAQLFZ' run 'i2cget -y -f 2 0x4b 0x10'
UFJTCAQLFZ0x1d
UFJTCAQLFZ 0
root@arm:~# echo 'VBBF''BLTJKY'
VBBFBLTJKY
root@arm:~# MARKER='NBLQ''JSFFPG' run 'echo 1000000 1000000 > /sys/kernel/mva_tesst/regulators/buck2_set'
NBLQJSFFPGNBLQJSFFPG 0
root@arm:~# echo 'BVWH''VANKBP'
BVWHVANKBP
root@arm:~# MARKER='YMUT''ETFTBN' run 'i2cget -y -f 2 0x4b 0x10'
YMUTETFTBN0x1e
YMUTETFTBN 0
root@arm:~# echo 'TTPU''NWBJBT'
TTPUNWBJBT
root@arm:~# MARKER='UUKA''OTXWFE' run 'echo 1010000 1010000 > /sys/kernel/mva_tesst/regulators/buck2_set'
UUKAOTXWFEUUKAOTXWFE 0
root@arm:~# echo 'EVNH''VOCLJW'
EVNHVOCLJW
root@arm:~# MARKER='GWVQ''CONYJU' run 'i2cget -y -f 2 0x4b 0x10'
GWVQCONYJU0x1f
GWVQCONYJU 0
root@arm:~# echo 'MFHC''OQEHZP'
MFHCOQEHZP
root@arm:~# MARKER='MXVH''WTTSYZ' run 'echo 1020000 1020000 > /sys/kernel/mva_tesst/regulators/buck2_set'
MXVHWTTSYZMXVHWTTSYZ 0
root@arm:~# echo 'VPWM''ZJHFFA'
VPWMZJHFFA
root@arm:~# MARKER='KSNC''ETOWBY' run 'i2cget -y -f 2 0x4b 0x10'
KSNCETOWBY0x20
KSNCETOWBY 0
root@arm:~# echo 'MSJF''NCBCXE'
MSJFNCBCXE
root@arm:~# MARKER='YWSA''MATXOB' run 'echo 1030000 1030000 > /sys/kernel/mva_tesst/regulators/buck2_set'
YWSAMATXOBYWSAMATXOB 0
root@arm:~# echo 'MBNJ''PVHNSA'
MBNJPVHNSA
root@arm:~# MARKER='NAXC''YCZSST' run 'i2cget -y -f 2 0x4b 0x10'
NAXCYCZSST0x21
NAXCYCZSST 0
root@arm:~# echo 'ZMNY''SBOMOZ'
ZMNYSBOMOZ
root@arm:~# MARKER='BLHM''XJWYHK' run 'echo 1040000 1040000 > /sys/kernel/mva_tesst/regulators/buck2_set'
BLHMXJWYHKBLHMXJWYHK 0
root@arm:~# echo 'OLOH''VUQGPH'
OLOHVUQGPH
root@arm:~# MARKER='FXUV''ABCMMQ' run 'i2cget -y -f 2 0x4b 0x10'
FXUVABCMMQ0x22
FXUVABCMMQ 0
root@arm:~# echo 'CNFV''JKENEH'
CNFVJKENEH
root@arm:~# MARKER='NHBA''JSSOHH' run 'echo 1050000 1050000 > /sys/kernel/mva_tesst/regulators/buck2_set'
NHBAJSSOHHNHBAJSSOHH 0
root@arm:~# echo 'OFOO''VPTXKX'
OFOOVPTXKX
root@arm:~# MARKER='JFEF''ZOVGHF' run 'i2cget -y -f 2 0x4b 0x10'
JFEFZOVGHF0x23
JFEFZOVGHF 0
root@arm:~# echo 'KGBK''SFYOQM'
KGBKSFYOQM
root@arm:~# MARKER='ZGJH''WPZCYW' run 'echo 1060000 1060000 > /sys/kernel/mva_tesst/regulators/buck2_set'
ZGJHWPZCYWZGJHWPZCYW 0
root@arm:~# echo 'XZYQ''KQFLHM'
XZYQKQFLHM
root@arm:~# MARKER='LPCU''XMOBLN' run 'i2cget -y -f 2 0x4b 0x10'
LPCUXMOBLN0x24
LPCUXMOBLN 0
root@arm:~# echo 'XEJZ''WCSOWX'
XEJZWCSOWX
root@arm:~# MARKER='YBSJ''KEHQGS' run 'echo 1070000 1070000 > /sys/kernel/mva_tesst/regulators/buck2_set'
YBSJKEHQGSYBSJKEHQGS 0
root@arm:~# echo 'ASWE''YONBTU'
ASWEYONBTU
root@arm:~# MARKER='VFHU''NSQPBT' run 'i2cget -y -f 2 0x4b 0x10'
VFHUNSQPBT0x25
VFHUNSQPBT 0
root@arm:~# echo 'HZAS''KMGAGL'
HZASKMGAGL
root@arm:~# MARKER='UCOB''GGVBWL' run 'echo 1080000 1080000 > /sys/kernel/mva_tesst/regulators/buck2_set'
UCOBGGVBWLUCOBGGVBWL 0
root@arm:~# echo 'NSET''LWHHBG'
NSETLWHHBG
root@arm:~# MARKER='CKNV''OKPFLE' run 'i2cget -y -f 2 0x4b 0x10'
CKNVOKPFLE0x26
CKNVOKPFLE 0
root@arm:~# echo 'MXOA''KMWTHZ'
MXOAKMWTHZ
root@arm:~# MARKER='MSXK''FHSABE' run 'echo 1090000 1090000 > /sys/kernel/mva_tesst/regulators/buck2_set'
MSXKFHSABEMSXKFHSABE 0
root@arm:~# echo 'HHKY''BQCHJE'
HHKYBQCHJE
root@arm:~# MARKER='ZHPC''ATPKGF' run 'i2cget -y -f 2 0x4b 0x10'
ZHPCATPKGF0x27
ZHPCATPKGF 0
root@arm:~# echo 'MZNQ''UOPFZG'
MZNQUOPFZG
root@arm:~# MARKER='SMTQ''YOMOYS' run 'echo 1100000 1100000 > /sys/kernel/mva_tesst/regulators/buck2_set'
SMTQYOMOYSSMTQYOMOYS 0
root@arm:~# echo 'JLKO''ULJUUH'
JLKOULJUUH
root@arm:~# MARKER='FPJW''EKHBAF' run 'i2cget -y -f 2 0x4b 0x10'
FPJWEKHBAF0x28
FPJWEKHBAF 0
root@arm:~# echo 'UNLU''WXYZTU'
UNLUWXYZTU
root@arm:~# MARKER='NLES''EUOJNZ' run 'echo 1110000 1110000 > /sys/kernel/mva_tesst/regulators/buck2_set'
NLESEUOJNZNLESEUOJNZ 0
root@arm:~# echo 'SZPN''TWFCHT'
SZPNTWFCHT
root@arm:~# MARKER='SEBF''AOYGXJ' run 'i2cget -y -f 2 0x4b 0x10'
SEBFAOYGXJ0x29
SEBFAOYGXJ 0
root@arm:~# echo 'WMNU''SHHVJG'
WMNUSHHVJG
root@arm:~# MARKER='FYNG''BTYVNK' run 'echo 1120000 1120000 > /sys/kernel/mva_tesst/regulators/buck2_set'
FYNGBTYVNKFYNGBTYVNK 0
root@arm:~# echo 'YHYP''ZBHFGW'
YHYPZBHFGW
root@arm:~# MARKER='HSBL''UAMZVM' run 'i2cget -y -f 2 0x4b 0x10'
HSBLUAMZVM0x2a
HSBLUAMZVM 0
root@arm:~# echo 'CLHA''FGEVBP'
CLHAFGEVBP
root@arm:~# MARKER='KFFM''EQEGLX' run 'echo 1130000 1130000 > /sys/kernel/mva_tesst/regulators/buck2_set'
KFFMEQEGLXKFFMEQEGLX 0
root@arm:~# echo 'VFEU''XJXVNW'
VFEUXJXVNW
root@arm:~# MARKER='JPSC''PUTNYS' run 'i2cget -y -f 2 0x4b 0x10'
JPSCPUTNYS0x2b
JPSCPUTNYS 0
root@arm:~# echo 'YSWZ''AAGGVU'
YSWZAAGGVU
root@arm:~# MARKER='NAWZ''WOGCME' run 'echo 1140000 1140000 > /sys/kernel/mva_tesst/regulators/buck2_set'
NAWZWOGCMENAWZWOGCME 0
root@arm:~# echo 'AZLS''HVJLZK'
AZLSHVJLZK
root@arm:~# MARKER='UQPW''TWEOHW' run 'i2cget -y -f 2 0x4b 0x10'
UQPWTWEOHW0x2c
UQPWTWEOHW 0
root@arm:~# echo 'VWEA''FTQLJN'
VWEAFTQLJN
root@arm:~# MARKER='BWMT''FPQLOO' run 'echo 1150000 1150000 > /sys/kernel/mva_tesst/regulators/buck2_set'
BWMTFPQLOOBWMTFPQLOO 0
root@arm:~# echo 'XCGQ''UABWYU'
XCGQUABWYU
root@arm:~# MARKER='JVXP''KMKMKU' run 'i2cget -y -f 2 0x4b 0x10'
JVXPKMKMKU0x2d
JVXPKMKMKU 0
root@arm:~# echo 'QCXS''XOEGCK'
QCXSXOEGCK
root@arm:~# MARKER='BOOX''UUFECW' run 'echo 1160000 1160000 > /sys/kernel/mva_tesst/regulators/buck2_set'
BOOXUUFECWBOOXUUFECW 0
root@arm:~# echo 'KYZS''XOUYMX'
KYZSXOUYMX
root@arm:~# MARKER='XAZW''EAJKZX' run 'i2cget -y -f 2 0x4b 0x10'
XAZWEAJKZX0x2e
XAZWEAJKZX 0
root@arm:~# echo 'HXGV''THYFWM'
HXGVTHYFWM
root@arm:~# MARKER='TWNK''VJGXOE' run 'echo 1170000 1170000 > /sys/kernel/mva_tesst/regulators/buck2_set'
TWNKVJGXOETWNKVJGXOE 0
root@arm:~# echo 'JMZJ''ETUAMP'
JMZJETUAMP
root@arm:~# MARKER='OMZK''POEKQW' run 'i2cget -y -f 2 0x4b 0x10'
OMZKPOEKQW0x2f
OMZKPOEKQW 0
root@arm:~# echo 'XLQX''MJUGMP'
XLQXMJUGMP
root@arm:~# MARKER='PSNG''UTLGMM' run 'echo 1180000 1180000 > /sys/kernel/mva_tesst/regulators/buck2_set'
PSNGUTLGMMPSNGUTLGMM 0
root@arm:~# echo 'PHZP''FPPAJE'
PHZPFPPAJE
root@arm:~# MARKER='LUUC''XSBFKV' run 'i2cget -y -f 2 0x4b 0x10'
LUUCXSBFKV0x30
LUUCXSBFKV 0
root@arm:~# echo 'QKBS''XVMWZW'
QKBSXVMWZW
root@arm:~# MARKER='WKMU''UMOQKF' run 'echo 1190000 1190000 > /sys/kernel/mva_tesst/regulators/buck2_set'
WKMUUMOQKFWKMUUMOQKF 0
root@arm:~# echo 'GBQK''BJAEQG'
GBQKBJAEQG
root@arm:~# MARKER='YNKZ''XNVSFG' run 'i2cget -y -f 2 0x4b 0x10'
YNKZXNVSFG0x31
YNKZXNVSFG 0
root@arm:~# echo 'ZFQQ''BCSOFG'
ZFQQBCSOFG
root@arm:~# MARKER='MOLY''SABGMU' run 'echo 1200000 1200000 > /sys/kernel/mva_tesst/regulators/buck2_set'
MOLYSABGMUMOLYSABGMU 0
root@arm:~# echo 'ZFKP''EQYKYY'
ZFKPEQYKYY
root@arm:~# MARKER='UFEK''ZJXJEH' run 'i2cget -y -f 2 0x4b 0x10'
UFEKZJXJEH0x32
UFEKZJXJEH 0
root@arm:~# echo 'MQPM''LAQWUB'
MQPMLAQWUB
root@arm:~# MARKER='CQEZ''AKOYGF' run 'echo 1210000 1210000 > /sys/kernel/mva_tesst/regulators/buck2_set'
CQEZAKOYGFCQEZAKOYGF 0
root@arm:~# echo 'JYHN''GOFKAN'
JYHNGOFKAN
root@arm:~# MARKER='SVLQ''EOPBJA' run 'i2cget -y -f 2 0x4b 0x10'
SVLQEOPBJA0x33
SVLQEOPBJA 0
root@arm:~# echo 'KPMM''BOUJWH'
KPMMBOUJWH
root@arm:~# MARKER='UPPU''UFAXAM' run 'echo 1220000 1220000 > /sys/kernel/mva_tesst/regulators/buck2_set'
UPPUUFAXAMUPPUUFAXAM 0
root@arm:~# echo 'PGCE''TLAZQY'
PGCETLAZQY
root@arm:~# MARKER='XBQC''HZPAOG' run 'i2cget -y -f 2 0x4b 0x10'
XBQCHZPAOG0x34
XBQCHZPAOG 0
root@arm:~# echo 'VYBX''OBXGNM'
VYBXOBXGNM
root@arm:~# MARKER='GFHS''KTWUKU' run 'echo 1230000 1230000 > /sys/kernel/mva_tesst/regulators/buck2_set'
GFHSKTWUKUGFHSKTWUKU 0
root@arm:~# echo 'OVWV''TQFBFV'
OVWVTQFBFV
root@arm:~# MARKER='ZMQB''ZWJZVB' run 'i2cget -y -f 2 0x4b 0x10'
ZMQBZWJZVB0x35
ZMQBZWJZVB 0
root@arm:~# echo 'TCKB''AWOWCF'
TCKBAWOWCF
root@arm:~# MARKER='KMYH''TWHHMB' run 'echo 1240000 1240000 > /sys/kernel/mva_tesst/regulators/buck2_set'
KMYHTWHHMBKMYHTWHHMB 0
root@arm:~# echo 'UPZL''WKLKXQ'
UPZLWKLKXQ
root@arm:~# MARKER='XWUO''YKBESS' run 'i2cget -y -f 2 0x4b 0x10'
XWUOYKBESS0x36
XWUOYKBESS 0
root@arm:~# echo 'JBPS''FCJZJN'
JBPSFCJZJN
root@arm:~# MARKER='KAQQ''WHGEOV' run 'echo 1250000 1250000 > /sys/kernel/mva_tesst/regulators/buck2_set'
KAQQWHGEOVKAQQWHGEOV 0
root@arm:~# echo 'YGTQ''HSFSVW'
YGTQHSFSVW
root@arm:~# MARKER='YKJG''KFSYJT' run 'i2cget -y -f 2 0x4b 0x10'
YKJGKFSYJT0x37
YKJGKFSYJT 0
root@arm:~# echo 'XLMW''HEWUHV'
XLMWHEWUHV
root@arm:~# MARKER='BKBQ''HQOWVJ' run 'echo 1260000 1260000 > /sys/kernel/mva_tesst/regulators/buck2_set'
BKBQHQOWVJBKBQHQOWVJ 0
root@arm:~# echo 'MPTY''BUANZY'
MPTYBUANZY
root@arm:~# MARKER='QZNM''APFAOG' run 'i2cget -y -f 2 0x4b 0x10'
QZNMAPFAOG0x38
QZNMAPFAOG 0
root@arm:~# echo 'XCUT''YBVPZH'
XCUTYBVPZH
root@arm:~# MARKER='ZBBH''WSFZTX' run 'echo 1270000 1270000 > /sys/kernel/mva_tesst/regulators/buck2_set'
ZBBHWSFZTXZBBHWSFZTX 0
root@arm:~# echo 'VOAE''VHJPFH'
VOAEVHJPFH
root@arm:~# MARKER='AYML''CXGGWY' run 'i2cget -y -f 2 0x4b 0x10'
AYMLCXGGWY0x39
AYMLCXGGWY 0
root@arm:~# echo 'WGGS''LOCHES'
WGGSLOCHES
root@arm:~# MARKER='LQVC''PFTESZ' run 'echo 1280000 1280000 > /sys/kernel/mva_tesst/regulators/buck2_set'
LQVCPFTESZLQVCPFTESZ 0
root@arm:~# echo 'TKXJ''AMTMAM'
TKXJAMTMAM
root@arm:~# MARKER='XJPY''UAJVFH' run 'i2cget -y -f 2 0x4b 0x10'
XJPYUAJVFH0x3a
XJPYUAJVFH 0
root@arm:~# echo 'OOQK''ZMTGQZ'
OOQKZMTGQZ
root@arm:~# MARKER='LVLC''UNBHVM' run 'echo 1290000 1290000 > /sys/kernel/mva_tesst/regulators/buck2_set'
LVLCUNBHVMLVLCUNBHVM 0
root@arm:~# echo 'FUJS''QXWBKV'
FUJSQXWBKV
root@arm:~# MARKER='HENJ''WTZQEM' run 'i2cget -y -f 2 0x4b 0x10'
HENJWTZQEM0x3b
HENJWTZQEM 0
root@arm:~# echo 'SAWM''OBBVHL'
SAWMOBBVHL
root@arm:~# MARKER='BAUW''AGMYEU' run 'echo 1300000 1300000 > /sys/kernel/mva_tesst/regulators/buck2_set'
BAUWAGMYEUBAUWAGMYEU 0
root@arm:~# echo 'WFHJ''MJNUXT'
WFHJMJNUXT
root@arm:~# MARKER='EUSY''XCVAOU' run 'i2cget -y -f 2 0x4b 0x10'
EUSYXCVAOU0x3c
EUSYXCVAOU 0
root@arm:~# echo 'KFCL''MLNLVS'
KFCLMLNLVS
root@arm:~# MARKER='BHWB''BKNEPK' run 'grep -r -l rohm,bd71837 /proc/device-tree  | sed '"'"'s![^/]*$!!'"'"''
BHWBBKNEPK/proc/device-tree/ocp/interconnect@48000000/segment@100000/target-module@9c000/i2c@0/pmic@4b/
BHWBBKNEPK 0
root@arm:~# echo 'KVCL''SLZBPS'
KVCLSLZBPS
root@arm:~# MARKER='ZWEH''GSXLLF' run 'test -f /proc/device-tree/ocp/interconnectt\@48000000/segment\@100000/target-module\@9c000/i2c\@0/pmic\@4b/regulators/BUCK33/rohm,no-regulator-enable-control ;echo $?'
ZWEHGSXLLF0
ZWEHGSXLLF 0
root@arm:~# echo 'VUWF''JUXZSZ'
VUWFJUXZSZ
root@arm:~# MARKER='GALM''UYUBCP' run 'echo 700000 700000 > /sys/kernel/mva_test//regulators/buck3_set'
GALMUYUBCPGALMUYUBCP 0
root@arm:~# echo 'UCLU''MKOSNW'
UCLUMKOSNW
root@arm:~# MARKER='TCMT''FCOZXW' run 'i2cget -y -f 2 0x4b 0x12'
TCMTFCOZXW0x00
TCMTFCOZXW 0
root@arm:~# echo 'HCOE''CZMACT'
HCOECZMACT
root@arm:~# MARKER='BJLS''BPLUYV' run 'echo 710000 710000 > /sys/kernel/mva_test//regulators/buck3_set'
BJLSBPLUYVBJLSBPLUYV 0
root@arm:~# echo 'KGGL''ZSZSMG'
KGGLZSZSMG
root@arm:~# MARKER='YPBE''FVUPMX' run 'i2cget -y -f 2 0x4b 0x12'
YPBEFVUPMX0x01
YPBEFVUPMX 0
root@arm:~# echo 'GVAF''NBQBYG'
GVAFNBQBYG
root@arm:~# MARKER='UUKE''ZQWHJN' run 'echo 720000 720000 > /sys/kernel/mva_test//regulators/buck3_set'
UUKEZQWHJNUUKEZQWHJN 0
root@arm:~# echo 'MQBY''AQMLXW'
MQBYAQMLXW
root@arm:~# MARKER='QYYT''VLVLFZ' run 'i2cget -y -f 2 0x4b 0x12'
QYYTVLVLFZ0x02
QYYTVLVLFZ 0
root@arm:~# echo 'PKGO''BLQLEK'
PKGOBLQLEK
root@arm:~# MARKER='BOHH''CUWNUA' run 'echo 730000 730000 > /sys/kernel/mva_test//regulators/buck3_set'
BOHHCUWNUABOHHCUWNUA 0
root@arm:~# echo 'GXAH''MBQVTM'
GXAHMBQVTM
root@arm:~# MARKER='KXLA''CCHHYJ' run 'i2cget -y -f 2 0x4b 0x12'
KXLACCHHYJ0x03
KXLACCHHYJ 0
root@arm:~# echo 'TBAS''XLKOGT'
TBASXLKOGT
root@arm:~# MARKER='JWEW''JNHNKG' run 'echo 740000 740000 > /sys/kernel/mva_test//regulators/buck3_set'
JWEWJNHNKGJWEWJNHNKG 0
root@arm:~# echo 'WUCQ''YSHQWV'
WUCQYSHQWV
root@arm:~# MARKER='UNKF''PPPVAH' run 'i2cget -y -f 2 0x4b 0x12'
UNKFPPPVAH0x04
UNKFPPPVAH 0
root@arm:~# echo 'FSCY''TNFSKE'
FSCYTNFSKE
root@arm:~# MARKER='YKUG''ZOKUCW' run 'echo 750000 750000 > /sys/kernel/mva_test//regulators/buck3_set'
YKUGZOKUCWYKUGZOKUCW 0
root@arm:~# echo 'FHHO''VMEKGL'
FHHOVMEKGL
root@arm:~# MARKER='QUQT''BUQSQY' run 'i2cget -y -f 2 0x4b 0x12'
QUQTBUQSQY0x05
QUQTBUQSQY 0
root@arm:~# echo 'EZQU''BBUOCM'
EZQUBBUOCM
root@arm:~# MARKER='NSAJ''OZXWZK' run 'echo 760000 760000 > /sys/kernel/mva_test//regulators/buck3_set'
NSAJOZXWZKNSAJOZXWZK 0
root@arm:~# echo 'JUVF''ZMAEVT'
JUVFZMAEVT
root@arm:~# MARKER='OLKW''EGEOMV' run 'i2cget -y -f 2 0x4b 0x12'
OLKWEGEOMV0x06
OLKWEGEOMV 0
root@arm:~# echo 'PFFN''UAEGOM'
PFFNUAEGOM
root@arm:~# MARKER='ANYS''EGVXZH' run 'echo 770000 770000 > /sys/kernel/mva_test//regulators/buck3_set'
ANYSEGVXZHANYSEGVXZH 0
root@arm:~# echo 'OBJP''QPPASP'
OBJPQPPASP
root@arm:~# MARKER='CXHG''GHKMAQ' run 'i2cget -y -f 2 0x4b 0x12'
CXHGGHKMAQ0x07
CXHGGHKMAQ 0
root@arm:~# echo 'BPGU''BHUBSU'
BPGUBHUBSU
root@arm:~# MARKER='KQUY''ZGWZXF' run 'echo 780000 780000 > /sys/kernel/mva_test//regulators/buck3_set'
KQUYZGWZXFKQUYZGWZXF 0
root@arm:~# echo 'EHKB''LAOKOW'
EHKBLAOKOW
root@arm:~# MARKER='FCNY''AQCOFV' run 'i2cget -y -f 2 0x4b 0x12'
FCNYAQCOFV0x08
FCNYAQCOFV 0
root@arm:~# echo 'TXAN''OMZVFO'
TXANOMZVFO
root@arm:~# MARKER='XEEP''LUBYCL' run 'echo 790000 790000 > /sys/kernel/mva_test//regulators/buck3_set'
XEEPLUBYCLXEEPLUBYCL 0
root@arm:~# echo 'QXUJ''XQFATV'
QXUJXQFATV
root@arm:~# MARKER='AWMX''GNBFFA' run 'i2cget -y -f 2 0x4b 0x12'
AWMXGNBFFA0x09
AWMXGNBFFA 0
root@arm:~# echo 'VAQT''EOGJYH'
VAQTEOGJYH
root@arm:~# MARKER='SHWB''MVOWCF' run 'echo 800000 800000 > /sys/kernel/mva_test//regulators/buck3_set'
SHWBMVOWCFSHWBMVOWCF 0
root@arm:~# echo 'HOHU''FTCLNS'
HOHUFTCLNS
root@arm:~# MARKER='QKCN''BUZKTN' run 'i2cget -y -f 2 0x4b 0x12'
QKCNBUZKTN0x0a
QKCNBUZKTN 0
root@arm:~# echo 'MZBF''GTGUMN'
MZBFGTGUMN
root@arm:~# MARKER='BUZH''XTFVUO' run 'echo 810000 810000 > /sys/kernel/mva_test//regulators/buck3_set'
BUZHXTFVUOBUZHXTFVUO 0
root@arm:~# echo 'EUEG''PUTHFX'
EUEGPUTHFX
root@arm:~# MARKER='OWUB''BHFMFY' run 'i2cget -y -f 2 0x4b 0x12'
OWUBBHFMFY0x0b
OWUBBHFMFY 0
root@arm:~# echo 'LEYH''HVXGAC'
LEYHHVXGAC
root@arm:~# MARKER='PMNE''WHXVUY' run 'echo 820000 820000 > /sys/kernel/mva_test//regulators/buck3_set'
PMNEWHXVUYPMNEWHXVUY 0
root@arm:~# echo 'TSBB''VGYYHV'
TSBBVGYYHV
root@arm:~# MARKER='YFEN''CLESYC' run 'i2cget -y -f 2 0x4b 0x12'
YFENCLESYC0x0c
YFENCLESYC 0
root@arm:~# echo 'XACP''AVSPMS'
XACPAVSPMS
root@arm:~# MARKER='OWUK''TTLWKT' run 'echo 830000 830000 > /sys/kernel/mva_test//regulators/buck3_set'
OWUKTTLWKTOWUKTTLWKT 0
root@arm:~# echo 'FWCB''LTVPLC'
FWCBLTVPLC
root@arm:~# MARKER='YZKP''WHVBPF' run 'i2cget -y -f 2 0x4b 0x12'
YZKPWHVBPF0x0d
YZKPWHVBPF 0
root@arm:~# echo 'APPQ''JSTHNB'
APPQJSTHNB
root@arm:~# MARKER='TQLC''GOZAHE' run 'echo 840000 840000 > /sys/kernel/mva_test//regulators/buck3_set'
TQLCGOZAHETQLCGOZAHE 0
root@arm:~# echo 'OFZN''TSZBAC'
OFZNTSZBAC
root@arm:~# MARKER='VEEY''TPOECK' run 'i2cget -y -f 2 0x4b 0x12'
VEEYTPOECK0x0e
VEEYTPOECK 0
root@arm:~# echo 'XLHN''EOHXBT'
XLHNEOHXBT
root@arm:~# MARKER='KFGL''EZFJLJ' run 'echo 850000 850000 > /sys/kernel/mva_test//regulators/buck3_set'
KFGLEZFJLJKFGLEZFJLJ 0
root@arm:~# echo 'KHPK''QWFUTF'
KHPKQWFUTF
root@arm:~# MARKER='AMSG''NLTBZP' run 'i2cget -y -f 2 0x4b 0x12'
AMSGNLTBZP0x0f
AMSGNLTBZP 0
root@arm:~# echo 'YLOA''LNLOOM'
YLOALNLOOM
root@arm:~# MARKER='LNOL''BXNULC' run 'echo 860000 860000 > /sys/kernel/mva_test//regulators/buck3_set'
LNOLBXNULCLNOLBXNULC 0
root@arm:~# echo 'WMOV''NYWEJO'
WMOVNYWEJO
root@arm:~# MARKER='QPTN''SLEHBC' run 'i2cget -y -f 2 0x4b 0x12'
QPTNSLEHBC0x10
QPTNSLEHBC 0
root@arm:~# echo 'CWVG''XVGNCN'
CWVGXVGNCN
root@arm:~# MARKER='HSXA''PUYVFG' run 'echo 870000 870000 > /sys/kernel/mva_test//regulators/buck3_set'
HSXAPUYVFGHSXAPUYVFG 0
root@arm:~# echo 'WOHA''BCOGQF'
WOHABCOGQF
root@arm:~# MARKER='KWYB''KZKHUH' run 'i2cget -y -f 2 0x4b 0x12'
KWYBKZKHUH0x11
KWYBKZKHUH 0
root@arm:~# echo 'CCQX''ZCQCEF'
CCQXZCQCEF
root@arm:~# MARKER='JXMY''OGUKSK' run 'echo 880000 880000 > /sys/kernel/mva_test//regulators/buck3_set'
JXMYOGUKSKJXMYOGUKSK 0
root@arm:~# echo 'BAHW''BZOSQC'
BAHWBZOSQC
root@arm:~# MARKER='NQGN''ULBEEM' run 'i2cget -y -f 2 0x4b 0x12'
NQGNULBEEM0x12
NQGNULBEEM 0
root@arm:~# echo 'XWBS''TAJMVU'
XWBSTAJMVU
root@arm:~# MARKER='GHXF''KPYSEC' run 'echo 890000 890000 > /sys/kernel/mva_test//regulators/buck3_set'
GHXFKPYSECGHXFKPYSEC 0
root@arm:~# echo 'HEVK''GOFGGP'
HEVKGOFGGP
root@arm:~# MARKER='ZCCS''GAQJVG' run 'i2cget -y -f 2 0x4b 0x12'
ZCCSGAQJVG0x13
ZCCSGAQJVG 0
root@arm:~# echo 'GACH''CEFENN'
GACHCEFENN
root@arm:~# MARKER='MFEZ''CWALOP' run 'echo 900000 900000 > /sys/kernel/mva_test//regulators/buck3_set'
MFEZCWALOPMFEZCWALOP 0
root@arm:~# echo 'YYZK''JBSGGH'
YYZKJBSGGH
root@arm:~# MARKER='NJCJ''YHSQEN' run 'i2cget -y -f 2 0x4b 0x12'
NJCJYHSQEN0x14
NJCJYHSQEN 0
root@arm:~# echo 'SNES''XZLAKV'
SNESXZLAKV
root@arm:~# MARKER='AFFQ''JZJLUC' run 'echo 910000 910000 > /sys/kernel/mva_test//regulators/buck3_set'
AFFQJZJLUCAFFQJZJLUC 0
root@arm:~# echo 'VFTO''AHKGPN'
VFTOAHKGPN
root@arm:~# MARKER='OHVK''JNFCTE' run 'i2cget -y -f 2 0x4b 0x12'
OHVKJNFCTE0x15
OHVKJNFCTE 0
root@arm:~# echo 'FTAH''QMYAMV'
FTAHQMYAMV
root@arm:~# MARKER='UJHX''ULOWVW' run 'echo 920000 920000 > /sys/kernel/mva_test//regulators/buck3_set'
UJHXULOWVWUJHXULOWVW 0
root@arm:~# echo 'UOZE''KEZWJU'
UOZEKEZWJU
root@arm:~# MARKER='JJKP''AKZGWB' run 'i2cget -y -f 2 0x4b 0x12'
JJKPAKZGWB0x16
JJKPAKZGWB 0
root@arm:~# echo 'OBSL''KJXGFJ'
OBSLKJXGFJ
root@arm:~# MARKER='WPKK''LPLZZC' run 'echo 930000 930000 > /sys/kernel/mva_test//regulators/buck3_set'
WPKKLPLZZCWPKKLPLZZC 0
root@arm:~# echo 'BPMG''JUSQWC'
BPMGJUSQWC
root@arm:~# MARKER='FUCU''KSAOKL' run 'i2cget -y -f 2 0x4b 0x12'
FUCUKSAOKL0x17
FUCUKSAOKL 0
root@arm:~# echo 'FUUV''WVKPZV'
FUUVWVKPZV
root@arm:~# MARKER='PZSF''WMOHKM' run 'echo 940000 940000 > /sys/kernel/mva_test//regulators/buck3_set'
PZSFWMOHKMPZSFWMOHKM 0
root@arm:~# echo 'NTZE''CXQVSM'
NTZECXQVSM
root@arm:~# MARKER='VUPW''ZSEFBP' run 'i2cget -y -f 2 0x4b 0x12'
VUPWZSEFBP0x18
VUPWZSEFBP 0
root@arm:~# echo 'LFWZ''TJOJKF'
LFWZTJOJKF
root@arm:~# MARKER='LLHG''YVAGGF' run 'echo 950000 950000 > /sys/kernel/mva_test//regulators/buck3_set'
LLHGYVAGGFLLHGYVAGGF 0
root@arm:~# echo 'HXKN''XKXHLW'
HXKNXKXHLW
root@arm:~# MARKER='FOES''MZKWWA' run 'i2cget -y -f 2 0x4b 0x12'
FOESMZKWWA0x19
FOESMZKWWA 0
root@arm:~# echo 'BMZJ''JVYTBQ'
BMZJJVYTBQ
root@arm:~# MARKER='HKEG''JTGCGZ' run 'echo 960000 960000 > /sys/kernel/mva_test//regulators/buck3_set'
HKEGJTGCGZHKEGJTGCGZ 0
root@arm:~# echo 'QTTO''BQXSOE'
QTTOBQXSOE
root@arm:~# MARKER='NSMX''VNPOMT' run 'i2cget -y -f 2 0x4b 0x12'
NSMXVNPOMT0x1a
NSMXVNPOMT 0
root@arm:~# echo 'BGJB''PSBMYJ'
BGJBPSBMYJ
root@arm:~# MARKER='JWZB''ZCUMYA' run 'echo 970000 970000 > /sys/kernel/mva_test//regulators/buck3_set'
JWZBZCUMYAJWZBZCUMYA 0
root@arm:~# echo 'UFMB''NFQSTX'
UFMBNFQSTX
root@arm:~# MARKER='AUNH''MQSCHB' run 'i2cget -y -f 2 0x4b 0x12'
AUNHMQSCHB0x1b
AUNHMQSCHB 0
root@arm:~# echo 'FXZW''CKALFB'
FXZWCKALFB
root@arm:~# MARKER='AHPZ''NGUUEA' run 'echo 980000 980000 > /sys/kernel/mva_test//regulators/buck3_set'
AHPZNGUUEAAHPZNGUUEA 0
root@arm:~# echo 'NPYQ''EPEYUT'
NPYQEPEYUT
root@arm:~# MARKER='NAOV''QTUGHO' run 'i2cget -y -f 2 0x4b 0x12'
NAOVQTUGHO0x1c
NAOVQTUGHO 0
root@arm:~# echo 'GCTG''OOATVU'
GCTGOOATVU
root@arm:~# MARKER='ZSET''NXNKBH' run 'echo 990000 990000 > /sys/kernel/mva_test//regulators/buck3_set'
ZSETNXNKBHZSETNXNKBH 0
root@arm:~# echo 'GEVQ''PXYUZW'
GEVQPXYUZW
root@arm:~# MARKER='TBYM''OVVWHG' run 'i2cget -y -f 2 0x4b 0x12'
TBYMOVVWHG0x1d
TBYMOVVWHG 0
root@arm:~# echo 'WKNT''FOGAOO'
WKNTFOGAOO
root@arm:~# MARKER='UVXP''VXGPJS' run 'echo 1000000 1000000 > /sys/kernel/mva_tesst/regulators/buck3_set'
UVXPVXGPJSUVXPVXGPJS 0
root@arm:~# echo 'ZXMC''BCHWSL'
ZXMCBCHWSL
root@arm:~# MARKER='MZZC''CJHJNV' run 'i2cget -y -f 2 0x4b 0x12'
MZZCCJHJNV0x1e
MZZCCJHJNV 0
root@arm:~# echo 'GBTT''GENAGP'
GBTTGENAGP
root@arm:~# MARKER='ZOUP''EGMOZG' run 'echo 1010000 1010000 > /sys/kernel/mva_tesst/regulators/buck3_set'
ZOUPEGMOZGZOUPEGMOZG 0
root@arm:~# echo 'QNEZ''ATKQOS'
QNEZATKQOS
root@arm:~# MARKER='UQPT''PZQAHF' run 'i2cget -y -f 2 0x4b 0x12'
UQPTPZQAHF0x1f
UQPTPZQAHF 0
root@arm:~# echo 'FJCF''VCTYUH'
FJCFVCTYUH
root@arm:~# MARKER='MYXO''PGKFQZ' run 'echo 1020000 1020000 > /sys/kernel/mva_tesst/regulators/buck3_set'
MYXOPGKFQZMYXOPGKFQZ 0
root@arm:~# echo 'XGWF''OQBMWY'
XGWFOQBMWY
root@arm:~# MARKER='KTTO''BCUYWW' run 'i2cget -y -f 2 0x4b 0x12'
KTTOBCUYWW0x20
KTTOBCUYWW 0
root@arm:~# echo 'KCHP''SNGUFE'
KCHPSNGUFE
root@arm:~# MARKER='VQLM''JTEEMW' run 'echo 1030000 1030000 > /sys/kernel/mva_tesst/regulators/buck3_set'
VQLMJTEEMWVQLMJTEEMW 0
root@arm:~# echo 'TLEC''SSWSKF'
TLECSSWSKF
root@arm:~# MARKER='OBHE''WVBSLC' run 'i2cget -y -f 2 0x4b 0x12'
OBHEWVBSLC0x21
OBHEWVBSLC 0
root@arm:~# echo 'WVOV''TFHTQE'
WVOVTFHTQE
root@arm:~# MARKER='PZMW''XESUWL' run 'echo 1040000 1040000 > /sys/kernel/mva_tesst/regulators/buck3_set'
PZMWXESUWLPZMWXESUWL 0
root@arm:~# echo 'UAHN''JXXPGS'
UAHNJXXPGS
root@arm:~# MARKER='COGV''XBTEWF' run 'i2cget -y -f 2 0x4b 0x12'
COGVXBTEWF0x22
COGVXBTEWF 0
root@arm:~# echo 'MKPB''KMOJGO'
MKPBKMOJGO
root@arm:~# MARKER='CUNG''ATOHMY' run 'echo 1050000 1050000 > /sys/kernel/mva_tesst/regulators/buck3_set'
CUNGATOHMYCUNGATOHMY 0
root@arm:~# echo 'GCBL''YYBXZO'
GCBLYYBXZO
root@arm:~# MARKER='BGZC''SFBUCY' run 'i2cget -y -f 2 0x4b 0x12'
BGZCSFBUCY0x23
BGZCSFBUCY 0
root@arm:~# echo 'AMKW''AXLNZJ'
AMKWAXLNZJ
root@arm:~# MARKER='NALM''WPWJNY' run 'echo 1060000 1060000 > /sys/kernel/mva_tesst/regulators/buck3_set'
NALMWPWJNYNALMWPWJNY 0
root@arm:~# echo 'QBKK''OQYZBX'
QBKKOQYZBX
root@arm:~# MARKER='FZWV''FVQBQM' run 'i2cget -y -f 2 0x4b 0x12'
FZWVFVQBQM0x24
FZWVFVQBQM 0
root@arm:~# echo 'TVQF''FQEVKP'
TVQFFQEVKP
root@arm:~# MARKER='NEXY''SAFXWU' run 'echo 1070000 1070000 > /sys/kernel/mva_tesst/regulators/buck3_set'
NEXYSAFXWUNEXYSAFXWU 0
root@arm:~# echo 'PBHC''QFNBSA'
PBHCQFNBSA
root@arm:~# MARKER='ELXM''MZKVVL' run 'i2cget -y -f 2 0x4b 0x12'
ELXMMZKVVL0x25
ELXMMZKVVL 0
root@arm:~# echo 'SYLT''LVTVYU'
SYLTLVTVYU
root@arm:~# MARKER='NKFY''GZHBJH' run 'echo 1080000 1080000 > /sys/kernel/mva_tesst/regulators/buck3_set'
NKFYGZHBJHNKFYGZHBJH 0
root@arm:~# echo 'XMLO''GJWQTA'
XMLOGJWQTA
root@arm:~# MARKER='JEQW''WBPTGG' run 'i2cget -y -f 2 0x4b 0x12'
JEQWWBPTGG0x26
JEQWWBPTGG 0
root@arm:~# echo 'CCNK''ZSYCJL'
CCNKZSYCJL
root@arm:~# MARKER='SAPO''UWSQMZ' run 'echo 1090000 1090000 > /sys/kernel/mva_tesst/regulators/buck3_set'
SAPOUWSQMZSAPOUWSQMZ 0
root@arm:~# echo 'LBYF''OMENTY'
LBYFOMENTY
root@arm:~# MARKER='JXQA''OGOTQN' run 'i2cget -y -f 2 0x4b 0x12'
JXQAOGOTQN0x27
JXQAOGOTQN 0
root@arm:~# echo 'TVLC''XUYUCM'
TVLCXUYUCM
root@arm:~# MARKER='CPLG''EZOVXW' run 'echo 1100000 1100000 > /sys/kernel/mva_tesst/regulators/buck3_set'
CPLGEZOVXWCPLGEZOVXW 0
root@arm:~# echo 'QMZK''LULVGG'
QMZKLULVGG
root@arm:~# MARKER='SCSF''LPLVNK' run 'i2cget -y -f 2 0x4b 0x12'
SCSFLPLVNK0x28
SCSFLPLVNK 0
root@arm:~# echo 'NFCE''CTUTAB'
NFCECTUTAB
root@arm:~# MARKER='EJHT''JGEAUT' run 'echo 1110000 1110000 > /sys/kernel/mva_tesst/regulators/buck3_set'
EJHTJGEAUTEJHTJGEAUT 0
root@arm:~# echo 'AXBT''ANQXTG'
AXBTANQXTG
root@arm:~# MARKER='XVVM''QPCSQQ' run 'i2cget -y -f 2 0x4b 0x12'
XVVMQPCSQQ0x29
XVVMQPCSQQ 0
root@arm:~# echo 'NACK''UKGHOC'
NACKUKGHOC
root@arm:~# MARKER='ZHVY''HGTEJS' run 'echo 1120000 1120000 > /sys/kernel/mva_tesst/regulators/buck3_set'
ZHVYHGTEJSZHVYHGTEJS 0
root@arm:~# echo 'JJOT''JBCTZQ'
JJOTJBCTZQ
root@arm:~# MARKER='HZZK''EZWLUH' run 'i2cget -y -f 2 0x4b 0x12'
HZZKEZWLUH0x2a
HZZKEZWLUH 0
root@arm:~# echo 'TBJP''GYVECK'
TBJPGYVECK
root@arm:~# MARKER='GOHN''TEPOWC' run 'echo 1130000 1130000 > /sys/kernel/mva_tesst/regulators/buck3_set'
GOHNTEPOWCGOHNTEPOWC 0
root@arm:~# echo 'MYXL''LLUVOF'
MYXLLLUVOF
root@arm:~# MARKER='UQQG''PKOJLT' run 'i2cget -y -f 2 0x4b 0x12'
UQQGPKOJLT0x2b
UQQGPKOJLT 0
root@arm:~# echo 'XASS''CJWNZA'
XASSCJWNZA
root@arm:~# MARKER='YUUC''ONXJBP' run 'echo 1140000 1140000 > /sys/kernel/mva_tesst/regulators/buck3_set'
YUUCONXJBPYUUCONXJBP 0
root@arm:~# echo 'AMHC''JLBYHV'
AMHCJLBYHV
root@arm:~# MARKER='MXUZ''SGNJXN' run 'i2cget -y -f 2 0x4b 0x12'
MXUZSGNJXN0x2c
MXUZSGNJXN 0
root@arm:~# echo 'UQCG''AMACUM'
UQCGAMACUM
root@arm:~# MARKER='MAES''TAWMNO' run 'echo 1150000 1150000 > /sys/kernel/mva_tesst/regulators/buck3_set'
MAESTAWMNOMAESTAWMNO 0
root@arm:~# echo 'PKYK''NFWBKT'
PKYKNFWBKT
root@arm:~# MARKER='ZNFU''ZAUHOF' run 'i2cget -y -f 2 0x4b 0x12'
ZNFUZAUHOF0x2d
ZNFUZAUHOF 0
root@arm:~# echo 'CBQH''SPLNYC'
CBQHSPLNYC
root@arm:~# MARKER='JUWO''MVVLBW' run 'echo 1160000 1160000 > /sys/kernel/mva_tesst/regulators/buck3_set'
JUWOMVVLBWJUWOMVVLBW 0
root@arm:~# echo 'WBSP''KGYCPN'
WBSPKGYCPN
root@arm:~# MARKER='ENLE''PENJTU' run 'i2cget -y -f 2 0x4b 0x12'
ENLEPENJTU0x2e
ENLEPENJTU 0
root@arm:~# echo 'ZSYS''GYVNYM'
ZSYSGYVNYM
root@arm:~# MARKER='JKEE''AXEBAW' run 'echo 1170000 1170000 > /sys/kernel/mva_tesst/regulators/buck3_set'
JKEEAXEBAWJKEEAXEBAW 0
root@arm:~# echo 'AWGS''HMVKAV'
AWGSHMVKAV
root@arm:~# MARKER='GLNB''KBTWBF' run 'i2cget -y -f 2 0x4b 0x12'
GLNBKBTWBF0x2f
GLNBKBTWBF 0
root@arm:~# echo 'CQZF''KOWGWK'
CQZFKOWGWK
root@arm:~# MARKER='QUOH''TEHYXG' run 'echo 1180000 1180000 > /sys/kernel/mva_tesst/regulators/buck3_set'
QUOHTEHYXGQUOHTEHYXG 0
root@arm:~# echo 'PQTH''LOTNPW'
PQTHLOTNPW
root@arm:~# MARKER='ZUHG''WUBLZM' run 'i2cget -y -f 2 0x4b 0x12'
ZUHGWUBLZM0x30
ZUHGWUBLZM 0
root@arm:~# echo 'LUZF''LPSHSS'
LUZFLPSHSS
root@arm:~# MARKER='VAQW''LCGJEE' run 'echo 1190000 1190000 > /sys/kernel/mva_tesst/regulators/buck3_set'
VAQWLCGJEEVAQWLCGJEE 0
root@arm:~# echo 'BJCP''TSCFSX'
BJCPTSCFSX
root@arm:~# MARKER='MPUN''PYUWNG' run 'i2cget -y -f 2 0x4b 0x12'
MPUNPYUWNG0x31
MPUNPYUWNG 0
root@arm:~# echo 'TFNK''CUAZEX'
TFNKCUAZEX
root@arm:~# MARKER='TEFL''VQTYKE' run 'echo 1200000 1200000 > /sys/kernel/mva_tesst/regulators/buck3_set'
TEFLVQTYKETEFLVQTYKE 0
root@arm:~# echo 'FOMO''JOFWBS'
FOMOJOFWBS
root@arm:~# MARKER='SKLW''FFMZMA' run 'i2cget -y -f 2 0x4b 0x12'
SKLWFFMZMA0x32
SKLWFFMZMA 0
root@arm:~# echo 'WQZQ''BXLKNQ'
WQZQBXLKNQ
root@arm:~# MARKER='SSUQ''EJXSKC' run 'echo 1210000 1210000 > /sys/kernel/mva_tesst/regulators/buck3_set'
SSUQEJXSKCSSUQEJXSKC 0
root@arm:~# echo 'MOXE''GKHUAO'
MOXEGKHUAO
root@arm:~# MARKER='SAYO''SQUHXU' run 'i2cget -y -f 2 0x4b 0x12'
SAYOSQUHXU0x33
SAYOSQUHXU 0
root@arm:~# echo 'MVLU''JZYLZU'
MVLUJZYLZU
root@arm:~# MARKER='BKZS''FNHAUZ' run 'echo 1220000 1220000 > /sys/kernel/mva_tesst/regulators/buck3_set'
BKZSFNHAUZBKZSFNHAUZ 0
root@arm:~# echo 'PQHB''AEHLCE'
PQHBAEHLCE
root@arm:~# MARKER='TTYV''GNKVSW' run 'i2cget -y -f 2 0x4b 0x12'
TTYVGNKVSW0x34
TTYVGNKVSW 0
root@arm:~# echo 'NGGU''GYFFZM'
NGGUGYFFZM
root@arm:~# MARKER='XJBQ''QVVHQY' run 'echo 1230000 1230000 > /sys/kernel/mva_tesst/regulators/buck3_set'
XJBQQVVHQYXJBQQVVHQY 0
root@arm:~# echo 'WGUZ''PGOBGM'
WGUZPGOBGM
root@arm:~# MARKER='WHPK''OVTCSZ' run 'i2cget -y -f 2 0x4b 0x12'
WHPKOVTCSZ0x35
WHPKOVTCSZ 0
root@arm:~# echo 'FEVU''PEGPSN'
FEVUPEGPSN
root@arm:~# MARKER='BVUC''AAXWMC' run 'echo 1240000 1240000 > /sys/kernel/mva_tesst/regulators/buck3_set'
BVUCAAXWMCBVUCAAXWMC 0
root@arm:~# echo 'BEHE''MESLQF'
BEHEMESLQF
root@arm:~# MARKER='LFQQ''TQFZVW' run 'i2cget -y -f 2 0x4b 0x12'
LFQQTQFZVW0x36
LFQQTQFZVW 0
root@arm:~# echo 'JEWL''XPLSGT'
JEWLXPLSGT
root@arm:~# MARKER='HPQV''JSPZFK' run 'echo 1250000 1250000 > /sys/kernel/mva_tesst/regulators/buck3_set'
HPQVJSPZFKHPQVJSPZFK 0
root@arm:~# echo 'PTPH''HSBPOX'
PTPHHSBPOX
root@arm:~# MARKER='ESSV''CCEGNS' run 'i2cget -y -f 2 0x4b 0x12'
ESSVCCEGNS0x37
ESSVCCEGNS 0
root@arm:~# echo 'NVYY''JNNNOT'
NVYYJNNNOT
root@arm:~# MARKER='QZGP''AYUXTM' run 'echo 1260000 1260000 > /sys/kernel/mva_tesst/regulators/buck3_set'
QZGPAYUXTMQZGPAYUXTM 0
root@arm:~# echo 'ZJYS''ECFVGG'
ZJYSECFVGG
root@arm:~# MARKER='TVJM''BXMBUW' run 'i2cget -y -f 2 0x4b 0x12'
TVJMBXMBUW0x38
TVJMBXMBUW 0
root@arm:~# echo 'SVAX''YWNPSK'
SVAXYWNPSK
root@arm:~# MARKER='WWZG''PWPFJJ' run 'echo 1270000 1270000 > /sys/kernel/mva_tesst/regulators/buck3_set'
WWZGPWPFJJWWZGPWPFJJ 0
root@arm:~# echo 'QPJG''FCGOPA'
QPJGFCGOPA
root@arm:~# MARKER='KTCK''GJBPZQ' run 'i2cget -y -f 2 0x4b 0x12'
KTCKGJBPZQ0x39
KTCKGJBPZQ 0
root@arm:~# echo 'PKTX''CZBQTZ'
PKTXCZBQTZ
root@arm:~# MARKER='JATC''OXCGAU' run 'echo 1280000 1280000 > /sys/kernel/mva_tesst/regulators/buck3_set'
JATCOXCGAUJATCOXCGAU 0
root@arm:~# echo 'NVOV''HYKQKJ'
NVOVHYKQKJ
root@arm:~# MARKER='NHWZ''TZBNCZ' run 'i2cget -y -f 2 0x4b 0x12'
NHWZTZBNCZ0x3a
NHWZTZBNCZ 0
root@arm:~# echo 'COHB''KWVJVC'
COHBKWVJVC
root@arm:~# MARKER='XCHB''YVCOJG' run 'echo 1290000 1290000 > /sys/kernel/mva_tesst/regulators/buck3_set'
XCHBYVCOJGXCHBYVCOJG 0
root@arm:~# echo 'HYTG''VULXLQ'
HYTGVULXLQ
root@arm:~# MARKER='VLAJ''QMAEXO' run 'i2cget -y -f 2 0x4b 0x12'
VLAJQMAEXO0x3b
VLAJQMAEXO 0
root@arm:~# echo 'UGVG''FBYZSC'
UGVGFBYZSC
root@arm:~# MARKER='XMMB''VYEAZW' run 'echo 1300000 1300000 > /sys/kernel/mva_tesst/regulators/buck3_set'
XMMBVYEAZWXMMBVYEAZW 0
root@arm:~# echo 'VTEO''ZXAUWK'
VTEOZXAUWK
root@arm:~# MARKER='FZBZ''XLUOUG' run 'i2cget -y -f 2 0x4b 0x12'
FZBZXLUOUG0x3c
FZBZXLUOUG 0
root@arm:~# echo 'LQWV''HJSUQW'
LQWVHJSUQW
root@arm:~# MARKER='ZNMB''JGSMSQ' run 'grep -r -l rohm,bd71837 /proc/device-tree  | sed '"'"'s![^/]*$!!'"'"''
ZNMBJGSMSQ/proc/device-tree/ocp/interconnect@48000000/segment@100000/target-module@9c000/i2c@0/pmic@4b/
ZNMBJGSMSQ 0
root@arm:~# echo 'WQKK''WXXMUG'
WQKKWXXMUG
root@arm:~# MARKER='ZLJH''OFOMSV' run 'test -f /proc/device-tree/ocp/interconnectt\@48000000/segment\@100000/target-module\@9c000/i2c\@0/pmic\@4b/regulators/BUCK44/rohm,no-regulator-enable-control ;echo $?'
ZLJHOFOMSV1
ZLJHOFOMSV 0
root@arm:~# echo 'GHMY''QQVKYJ'
GHMYQQVKYJ
root@arm:~# MARKER='GPHV''QTFHEG' run 'i2cget -y -f 2 0x4b 0x8'
GPHVQTFHEG0xc6
GPHVQTFHEG 0
root@arm:~# echo 'BVFB''KAWGST'
BVFBKAWGST
root@arm:~# MARKER='EFFW''XUGOXJ' run 'echo 700000 700000 > /sys/kernel/mva_test//regulators/buck4_set'
EFFWXUGOXJEFFWXUGOXJ 0
root@arm:~# echo 'KECM''XPBLZL'
KECMXPBLZL
root@arm:~# MARKER='OGML''MJYNAZ' run 'i2cget -y -f 2 0x4b 0x13'
OGMLMJYNAZ0x00
OGMLMJYNAZ 0
root@arm:~# echo 'XVWC''EVYYTN'
XVWCEVYYTN
root@arm:~# MARKER='ZPUU''KQKWUZ' run 'echo 710000 710000 > /sys/kernel/mva_test//regulators/buck4_set'
ZPUUKQKWUZZPUUKQKWUZ 0
root@arm:~# echo 'KBVS''XONKGA'
KBVSXONKGA
root@arm:~# MARKER='KAEW''SZJPZL' run 'i2cget -y -f 2 0x4b 0x13'
KAEWSZJPZL0x01
KAEWSZJPZL 0
root@arm:~# echo 'AEFP''PBPYVG'
AEFPPBPYVG
root@arm:~# MARKER='QOCC''JALHYH' run 'echo 720000 720000 > /sys/kernel/mva_test//regulators/buck4_set'
QOCCJALHYHQOCCJALHYH 0
root@arm:~# echo 'UABP''ACYGPO'
UABPACYGPO
root@arm:~# MARKER='UBLG''VEFNAY' run 'i2cget -y -f 2 0x4b 0x13'
UBLGVEFNAY0x02
UBLGVEFNAY 0
root@arm:~# echo 'EQUL''ZOGGHE'
EQULZOGGHE
root@arm:~# MARKER='GNQK''GQQUCN' run 'echo 730000 730000 > /sys/kernel/mva_test//regulators/buck4_set'
GNQKGQQUCNGNQKGQQUCN 0
root@arm:~# echo 'ZAYE''PVFSNO'
ZAYEPVFSNO
root@arm:~# MARKER='VCCP''UFYLYG' run 'i2cget -y -f 2 0x4b 0x13'
VCCPUFYLYG0x03
VCCPUFYLYG 0
root@arm:~# echo 'BATK''CVQAUY'
BATKCVQAUY
root@arm:~# MARKER='KFLJ''CZOTTG' run 'echo 740000 740000 > /sys/kernel/mva_test//regulators/buck4_set'
KFLJCZOTTGKFLJCZOTTG 0
root@arm:~# echo 'JKMZ''XVXZYJ'
JKMZXVXZYJ
root@arm:~# MARKER='OFMW''PXKOZC' run 'i2cget -y -f 2 0x4b 0x13'
OFMWPXKOZC0x04
OFMWPXKOZC 0
root@arm:~# echo 'NUJK''GWCUCL'
NUJKGWCUCL
root@arm:~# MARKER='TPLM''YSOXFU' run 'echo 750000 750000 > /sys/kernel/mva_test//regulators/buck4_set'
TPLMYSOXFUTPLMYSOXFU 0
root@arm:~# echo 'LYPY''KZLOPG'
LYPYKZLOPG
root@arm:~# MARKER='QXBJ''YFEQLK' run 'i2cget -y -f 2 0x4b 0x13'
QXBJYFEQLK0x05
QXBJYFEQLK 0
root@arm:~# echo 'FEBF''TTJTLV'
FEBFTTJTLV
root@arm:~# MARKER='UAWS''OYYGTU' run 'echo 760000 760000 > /sys/kernel/mva_test//regulators/buck4_set'
UAWSOYYGTUUAWSOYYGTU 0
root@arm:~# echo 'YXOX''GJOXAG'
YXOXGJOXAG
root@arm:~# MARKER='ZEFZ''PCJOAL' run 'i2cget -y -f 2 0x4b 0x13'
ZEFZPCJOAL0x06
ZEFZPCJOAL 0
root@arm:~# echo 'MBMC''SWPHQN'
MBMCSWPHQN
root@arm:~# MARKER='HEXA''NBUGPO' run 'echo 770000 770000 > /sys/kernel/mva_test//regulators/buck4_set'
HEXANBUGPOHEXANBUGPO 0
root@arm:~# echo 'UYLT''ECBSYO'
UYLTECBSYO
root@arm:~# MARKER='EVSH''UNPWAK' run 'i2cget -y -f 2 0x4b 0x13'
EVSHUNPWAK0x07
EVSHUNPWAK 0
root@arm:~# echo 'ONMG''TMYCQN'
ONMGTMYCQN
root@arm:~# MARKER='JSNK''KKOTQM' run 'echo 780000 780000 > /sys/kernel/mva_test//regulators/buck4_set'
JSNKKKOTQMJSNKKKOTQM 0
root@arm:~# echo 'HWYF''WNUYOV'
HWYFWNUYOV
root@arm:~# MARKER='TNFE''SLTZYO' run 'i2cget -y -f 2 0x4b 0x13'
TNFESLTZYO0x08
TNFESLTZYO 0
root@arm:~# echo 'WNWA''CVQSTQ'
WNWACVQSTQ
root@arm:~# MARKER='EMJF''BZOACK' run 'echo 790000 790000 > /sys/kernel/mva_test//regulators/buck4_set'
EMJFBZOACKEMJFBZOACK 0
root@arm:~# echo 'BVNL''ZFBEMW'
BVNLZFBEMW
root@arm:~# MARKER='WENW''GXZXVO' run 'i2cget -y -f 2 0x4b 0x13'
WENWGXZXVO0x09
WENWGXZXVO 0
root@arm:~# echo 'BMAN''TCZFPP'
BMANTCZFPP
root@arm:~# MARKER='EBOG''WFQCOE' run 'echo 800000 800000 > /sys/kernel/mva_test//regulators/buck4_set'
EBOGWFQCOEEBOGWFQCOE 0
root@arm:~# echo 'YEZG''QFNHJT'
YEZGQFNHJT
root@arm:~# MARKER='ZJQA''UEEZPL' run 'i2cget -y -f 2 0x4b 0x13'
ZJQAUEEZPL0x0a
ZJQAUEEZPL 0
root@arm:~# echo 'JOGT''YMOOBX'
JOGTYMOOBX
root@arm:~# MARKER='LHWL''CWQTZO' run 'echo 810000 810000 > /sys/kernel/mva_test//regulators/buck4_set'
LHWLCWQTZOLHWLCWQTZO 0
root@arm:~# echo 'LGAW''GOLPFX'
LGAWGOLPFX
root@arm:~# MARKER='ZLXV''MOTJAO' run 'i2cget -y -f 2 0x4b 0x13'
ZLXVMOTJAO0x0b
ZLXVMOTJAO 0
root@arm:~# echo 'ZLWZ''ACGVLC'
ZLWZACGVLC
root@arm:~# MARKER='LBTH''XANYBL' run 'echo 820000 820000 > /sys/kernel/mva_test//regulators/buck4_set'
LBTHXANYBLLBTHXANYBL 0
root@arm:~# echo 'FABN''KMOTQL'
FABNKMOTQL
root@arm:~# MARKER='ONAL''TZQLBS' run 'i2cget -y -f 2 0x4b 0x13'
ONALTZQLBS0x0c
ONALTZQLBS 0
root@arm:~# echo 'FQHX''GGNGCZ'
FQHXGGNGCZ
root@arm:~# MARKER='GXOE''HJEOPJ' run 'echo 830000 830000 > /sys/kernel/mva_test//regulators/buck4_set'
GXOEHJEOPJGXOEHJEOPJ 0
root@arm:~# echo 'KPHV''UCGWOL'
KPHVUCGWOL
root@arm:~# MARKER='EKHV''YFSECN' run 'i2cget -y -f 2 0x4b 0x13'
EKHVYFSECN0x0d
EKHVYFSECN 0
root@arm:~# echo 'POHN''GCMAQG'
POHNGCMAQG
root@arm:~# MARKER='ONQN''JEWMGG' run 'echo 840000 840000 > /sys/kernel/mva_test//regulators/buck4_set'
ONQNJEWMGGONQNJEWMGG 0
root@arm:~# echo 'NELU''QLNUGW'
NELUQLNUGW
root@arm:~# MARKER='ZMJN''MHGPJN' run 'i2cget -y -f 2 0x4b 0x13'
ZMJNMHGPJN0x0e
ZMJNMHGPJN 0
root@arm:~# echo 'ETNP''QMYNWZ'
ETNPQMYNWZ
root@arm:~# MARKER='MPCJ''NLMMWQ' run 'echo 850000 850000 > /sys/kernel/mva_test//regulators/buck4_set'
MPCJNLMMWQMPCJNLMMWQ 0
root@arm:~# echo 'PTQZ''KOCZUT'
PTQZKOCZUT
root@arm:~# MARKER='YVJS''LCUXBM' run 'i2cget -y -f 2 0x4b 0x13'
YVJSLCUXBM0x0f
YVJSLCUXBM 0
root@arm:~# echo 'VBCT''NWHKMO'
VBCTNWHKMO
root@arm:~# MARKER='YWBL''ECSAEE' run 'echo 860000 860000 > /sys/kernel/mva_test//regulators/buck4_set'
YWBLECSAEEYWBLECSAEE 0
root@arm:~# echo 'NMZL''KEKLUH'
NMZLKEKLUH
root@arm:~# MARKER='ZWLT''NYKXQK' run 'i2cget -y -f 2 0x4b 0x13'
ZWLTNYKXQK0x10
ZWLTNYKXQK 0
root@arm:~# echo 'GGGQ''XUBTCW'
GGGQXUBTCW
root@arm:~# MARKER='XUFQ''GVOMOY' run 'echo 870000 870000 > /sys/kernel/mva_test//regulators/buck4_set'
XUFQGVOMOYXUFQGVOMOY 0
root@arm:~# echo 'JUVS''GWEKQZ'
JUVSGWEKQZ
root@arm:~# MARKER='VABS''UWWCHP' run 'i2cget -y -f 2 0x4b 0x13'
VABSUWWCHP0x11
VABSUWWCHP 0
root@arm:~# echo 'FOMT''BEALVA'
FOMTBEALVA
root@arm:~# MARKER='VOFC''MZQEWF' run 'echo 880000 880000 > /sys/kernel/mva_test//regulators/buck4_set'
VOFCMZQEWFVOFCMZQEWF 0
root@arm:~# echo 'MNHT''XSYHSB'
MNHTXSYHSB
root@arm:~# MARKER='UPMO''HYWBMA' run 'i2cget -y -f 2 0x4b 0x13'
UPMOHYWBMA0x12
UPMOHYWBMA 0
root@arm:~# echo 'KQMJ''LVCZYY'
KQMJLVCZYY
root@arm:~# MARKER='YNFG''BZLFML' run 'echo 890000 890000 > /sys/kernel/mva_test//regulators/buck4_set'
YNFGBZLFMLYNFGBZLFML 0
root@arm:~# echo 'FWWQ''KGNPBW'
FWWQKGNPBW
root@arm:~# MARKER='QLXB''KXMXPB' run 'i2cget -y -f 2 0x4b 0x13'
QLXBKXMXPB0x13
QLXBKXMXPB 0
root@arm:~# echo 'THMH''QGVZZV'
THMHQGVZZV
root@arm:~# MARKER='USPG''VSUYGV' run 'echo 900000 900000 > /sys/kernel/mva_test//regulators/buck4_set'
USPGVSUYGVUSPGVSUYGV 0
root@arm:~# echo 'YQCE''UXULQE'
YQCEUXULQE
root@arm:~# MARKER='OEFS''VQCOGN' run 'i2cget -y -f 2 0x4b 0x13'
OEFSVQCOGN0x14
OEFSVQCOGN 0
root@arm:~# echo 'NKKM''LSMAZL'
NKKMLSMAZL
root@arm:~# MARKER='TXLW''QQEXAQ' run 'echo 910000 910000 > /sys/kernel/mva_test//regulators/buck4_set'
TXLWQQEXAQTXLWQQEXAQ 0
root@arm:~# echo 'BSBC''UXYEVS'
BSBCUXYEVS
root@arm:~# MARKER='AOLZ''GKYTVF' run 'i2cget -y -f 2 0x4b 0x13'
AOLZGKYTVF0x15
AOLZGKYTVF 0
root@arm:~# echo 'BWCV''NBUJMS'
BWCVNBUJMS
root@arm:~# MARKER='BELJ''COLWKU' run 'echo 920000 920000 > /sys/kernel/mva_test//regulators/buck4_set'
BELJCOLWKUBELJCOLWKU 0
root@arm:~# echo 'QYOG''NEEOMU'
QYOGNEEOMU
root@arm:~# MARKER='ZXXX''BPJCJM' run 'i2cget -y -f 2 0x4b 0x13'
ZXXXBPJCJM0x16
ZXXXBPJCJM 0
root@arm:~# echo 'BTGO''UAMMPJ'
BTGOUAMMPJ
root@arm:~# MARKER='XMZS''WTHJJA' run 'echo 930000 930000 > /sys/kernel/mva_test//regulators/buck4_set'
XMZSWTHJJAXMZSWTHJJA 0
root@arm:~# echo 'NFHT''ETJNOK'
NFHTETJNOK
root@arm:~# MARKER='FQNB''KLYJQV' run 'i2cget -y -f 2 0x4b 0x13'
FQNBKLYJQV0x17
FQNBKLYJQV 0
root@arm:~# echo 'TQJW''CPCKPC'
TQJWCPCKPC
