Labgrid Console Logfile for main
Logfile started at 2026-08-24 11:39:29.014724
=== Log starts here ===

root@arm:~# run() { echo -n "$MARKER"; sh -c "$@"; echo "$MARKER $?"; }
root@arm:~# echo 'OJVP''KWVFTO'
OJVPKWVFTO
root@arm:~# MARKER='MCQF''WWLKML' run 'grep -r -l rohm,bd71847 /proc/device-tree  | sed '"'"'s![^/]*$!!'"'"''
MCQFWWLKML/proc/device-tree/ocp/interconnect@48000000/segment@0/target-module@2a000/i2c@0/pmic@4b/
MCQFWWLKML 0
root@arm:~# echo 'XXNN''XVATNW'
XXNNXVATNW
root@arm:~# MARKER='EHVZ''JGFXEA' run 'test -f /proc/device-tree/ocp/interconnectt\@48000000/segment\@0/target-module\@2a000/i2c\@0/pmic\@4b/regulators/BUCK1/rohmm,no-regulator-enable-control ;echo $?'
EHVZJGFXEA1
EHVZJGFXEA 0
root@arm:~# echo 'JSKV''GOGUWN'
JSKVGOGUWN
root@arm:~# MARKER='YBZW''XLTUPV' run 'echo 1 > /sys/kernel/mva_test/regulators/bbuck1_en'
YBZWXLTUPVYBZWXLTUPV 0
root@arm:~# echo 'XEPV''UEMNOJ'
XEPVUEMNOJ
root@arm:~# MARKER='OOQT''OEWHFV' run 'i2cget -y -f 1 0x4b 0x5'
OOQTOEWHFV0x03
OOQTOEWHFV 0
root@arm:~# echo 'BFCK''QSUAJU'
BFCKQSUAJU
root@arm:~# MARKER='LLLP''OWCCVX' run 'grep -r -l rohm,bd71847 /proc/device-tree  | sed '"'"'s![^/]*$!!'"'"''
LLLPOWCCVX/proc/device-tree/ocp/interconnect@48000000/segment@0/target-module@2a000/i2c@0/pmic@4b/
LLLPOWCCVX 0
root@arm:~# echo 'KZFG''VUUBMV'
KZFGVUUBMV
root@arm:~# MARKER='UNNP''TNBSCE' run 'test -f /proc/device-tree/ocp/interconnectt\@48000000/segment\@0/target-module\@2a000/i2c\@0/pmic\@4b/regulators/BUCK1/rohmm,no-regulator-enable-control ;echo $?'
UNNPTNBSCE1
UNNPTNBSCE 0
root@arm:~# echo 'VQGA''GJKANF'
VQGAGJKANF
root@arm:~# MARKER='VMAY''CUNVBT' run 'grep -r -l rohm,bd71847 /proc/device-tree  | sed '"'"'s![^/]*$!!'"'"''
VMAYCUNVBT/proc/device-tree/ocp/interconnect@48000000/segment@0/target-module@2a000/i2c@0/pmic@4b/
VMAYCUNVBT 0
root@arm:~# echo 'FMSB''VMEEAP'
FMSBVMEEAP
root@arm:~# MARKER='PJXO''UNZKBP' run 'test -f /proc/device-tree/ocp/interconnectt\@48000000/segment\@0/target-module\@2a000/i2c\@0/pmic\@4b/regulators/BUCK1/reguulator-always-on ;echo $?'
PJXOUNZKBP1
PJXOUNZKBP 0
root@arm:~# echo 'JEQX''FJWXBX'
JEQXFJWXBX
root@arm:~# MARKER='OQBL''TJVQJE' run 'echo 0 > /sys/kernel/mva_test/regulators/bbuck1_en'
OQBLTJVQJEOQBLTJVQJE 0
root@arm:~# echo 'TKKU''JGFBWB'
TKKUJGFBWB
root@arm:~# MARKER='HAYZ''SYTVHN' run 'i2cget -y -f 1 0x4b 0x5'
HAYZSYTVHN0x02
HAYZSYTVHN 0
root@arm:~# echo 'PVBN''BHQZLM'
PVBNBHQZLM
root@arm:~# MARKER='VWNJ''SYAJJP' run 'grep -r -l rohm,bd71847 /proc/device-tree  | sed '"'"'s![^/]*$!!'"'"''
VWNJSYAJJP/proc/device-tree/ocp/interconnect@48000000/segment@0/target-module@2a000/i2c@0/pmic@4b/
VWNJSYAJJP 0
root@arm:~# echo 'LSHS''LONWKV'
LSHSLONWKV
root@arm:~# MARKER='XANO''HJJKOP' run 'test -f /proc/device-tree/ocp/interconnectt\@48000000/segment\@0/target-module\@2a000/i2c\@0/pmic\@4b/regulators/BUCK2/rohmm,no-regulator-enable-control ;echo $?'
XANOHJJKOP1
XANOHJJKOP 0
root@arm:~# echo 'TBSU''SVQKMC'
TBSUSVQKMC
root@arm:~# MARKER='CHJA''SJBMZE' run 'echo 1 > /sys/kernel/mva_test/regulators/bbuck2_en'
CHJASJBMZECHJASJBMZE 0
root@arm:~# echo 'YPQW''FHUOCW'
YPQWFHUOCW
root@arm:~# MARKER='KTZK''CYXSQP' run 'i2cget -y -f 1 0x4b 0x6'
KTZKCYXSQP0x43
KTZKCYXSQP 0
root@arm:~# echo 'NSQL''UZLCJL'
NSQLUZLCJL
root@arm:~# MARKER='YHSF''MVLUAP' run 'grep -r -l rohm,bd71847 /proc/device-tree  | sed '"'"'s![^/]*$!!'"'"''
YHSFMVLUAP/proc/device-tree/ocp/interconnect@48000000/segment@0/target-module@2a000/i2c@0/pmic@4b/
YHSFMVLUAP 0
root@arm:~# echo 'XSYJ''GWHKSK'
XSYJGWHKSK
root@arm:~# MARKER='JPOC''YHOGPN' run 'test -f /proc/device-tree/ocp/interconnectt\@48000000/segment\@0/target-module\@2a000/i2c\@0/pmic\@4b/regulators/BUCK2/rohmm,no-regulator-enable-control ;echo $?'
JPOCYHOGPN1
JPOCYHOGPN 0
root@arm:~# echo 'LBGV''PQJCQA'
LBGVPQJCQA
root@arm:~# MARKER='XZTM''NSGOKB' run 'grep -r -l rohm,bd71847 /proc/device-tree  | sed '"'"'s![^/]*$!!'"'"''
XZTMNSGOKB/proc/device-tree/ocp/interconnect@48000000/segment@0/target-module@2a000/i2c@0/pmic@4b/
XZTMNSGOKB 0
root@arm:~# echo 'CZMN''YHHSGG'
CZMNYHHSGG
root@arm:~# MARKER='XFOU''UQBTGK' run 'test -f /proc/device-tree/ocp/interconnectt\@48000000/segment\@0/target-module\@2a000/i2c\@0/pmic\@4b/regulators/BUCK2/reguulator-always-on ;echo $?'
XFOUUQBTGK0
XFOUUQBTGK 0
root@arm:~# echo 'OGTU''GHSKVY'
OGTUGHSKVY
root@arm:~# MARKER='HBXY''CPETHV' run 'grep -r -l rohm,bd71847 /proc/device-tree  | sed '"'"'s![^/]*$!!'"'"''
HBXYCPETHV/proc/device-tree/ocp/interconnect@48000000/segment@0/target-module@2a000/i2c@0/pmic@4b/
HBXYCPETHV 0
root@arm:~# echo 'XBTU''SPVCGM'
XBTUSPVCGM
root@arm:~# MARKER='OMOM''TLPPHN' run 'test -f /proc/device-tree/ocp/interconnectt\@48000000/segment\@0/target-module\@2a000/i2c\@0/pmic\@4b/regulators/BUCK3/rohmm,no-regulator-enable-control ;echo $?'
OMOMTLPPHN0
OMOMTLPPHN 0
root@arm:~# echo 'YEHL''JJWTWJ'
YEHLJJWTWJ
root@arm:~# MARKER='UVTU''EFMEVY' run 'grep -r -l rohm,bd71847 /proc/device-tree  | sed '"'"'s![^/]*$!!'"'"''
UVTUEFMEVY/proc/device-tree/ocp/interconnect@48000000/segment@0/target-module@2a000/i2c@0/pmic@4b/
UVTUEFMEVY 0
root@arm:~# echo 'PYQC''QTCZBO'
PYQCQTCZBO
root@arm:~# MARKER='UWLB''YCZAZE' run 'test -f /proc/device-tree/ocp/interconnectt\@48000000/segment\@0/target-module\@2a000/i2c\@0/pmic\@4b/regulators/BUCK3/rohmm,no-regulator-enable-control ;echo $?'
UWLBYCZAZE0
UWLBYCZAZE 0
root@arm:~# echo 'QWQE''JSMPJK'
QWQEJSMPJK
root@arm:~# MARKER='ABBQ''MCJLSN' run 'grep -r -l rohm,bd71847 /proc/device-tree  | sed '"'"'s![^/]*$!!'"'"''
ABBQMCJLSN/proc/device-tree/ocp/interconnect@48000000/segment@0/target-module@2a000/i2c@0/pmic@4b/
ABBQMCJLSN 0
root@arm:~# echo 'CXAU''UVOYCO'
CXAUUVOYCO
root@arm:~# MARKER='NOKB''NGHXEF' run 'test -f /proc/device-tree/ocp/interconnectt\@48000000/segment\@0/target-module\@2a000/i2c\@0/pmic\@4b/regulators/BUCK4/rohmm,no-regulator-enable-control ;echo $?'
NOKBNGHXEF1
NOKBNGHXEF 0
root@arm:~# echo 'PATT''OPLYJT'
PATTOPLYJT
root@arm:~# MARKER='SAAY''ZUEJEE' run 'echo 1 > /sys/kernel/mva_test/regulators/bbuck4_en'
SAAYZUEJEESAAYZUEJEE 0
root@arm:~# echo 'HJJU''XASAMW'
HJJUXASAMW
root@arm:~# MARKER='AHEF''YMCVUF' run 'i2cget -y -f 1 0x4b 0xa'
AHEFYMCVUF0x03
AHEFYMCVUF 0
root@arm:~# echo 'UZAM''VXASPC'
UZAMVXASPC
root@arm:~# MARKER='VGWW''KNJMFK' run 'grep -r -l rohm,bd71847 /proc/device-tree  | sed '"'"'s![^/]*$!!'"'"''
VGWWKNJMFK/proc/device-tree/ocp/interconnect@48000000/segment@0/target-module@2a000/i2c@0/pmic@4b/
VGWWKNJMFK 0
root@arm:~# echo 'SNYG''NXMPPA'
SNYGNXMPPA
root@arm:~# MARKER='LQHB''TMSGVZ' run 'test -f /proc/device-tree/ocp/interconnectt\@48000000/segment\@0/target-module\@2a000/i2c\@0/pmic\@4b/regulators/BUCK4/rohmm,no-regulator-enable-control ;echo $?'
LQHBTMSGVZ1
LQHBTMSGVZ 0
root@arm:~# echo 'YJKP''SLLYCJ'
YJKPSLLYCJ
root@arm:~# MARKER='YUCF''GGZQQE' run 'grep -r -l rohm,bd71847 /proc/device-tree  | sed '"'"'s![^/]*$!!'"'"''
YUCFGGZQQE/proc/device-tree/ocp/interconnect@48000000/segment@0/target-module@2a000/i2c@0/pmic@4b/
YUCFGGZQQE 0
root@arm:~# echo 'JJNY''GZSFEF'
JJNYGZSFEF
root@arm:~# MARKER='QJTH''YCZOQC' run 'test -f /proc/device-tree/ocp/interconnectt\@48000000/segment\@0/target-module\@2a000/i2c\@0/pmic\@4b/regulators/BUCK4/reguulator-always-on ;echo $?'
QJTHYCZOQC1
QJTHYCZOQC 0
root@arm:~# echo 'KXXP''PCNKEY'
KXXPPCNKEY
root@arm:~# MARKER='YWUA''WAHSCW' run 'echo 0 > /sys/kernel/mva_test/regulators/bbuck4_en'
YWUAWAHSCWYWUAWAHSCW 0
root@arm:~# echo 'JKCY''GJPYUO'
JKCYGJPYUO
root@arm:~# MARKER='XESG''AVPXQX' run 'i2cget -y -f 1 0x4b 0xa'
XESGAVPXQX0x02
XESGAVPXQX 0
root@arm:~# echo 'QNXC''OYSEKK'
QNXCOYSEKK
root@arm:~# MARKER='PAPA''MJQFYQ' run 'grep -r -l rohm,bd71847 /proc/device-tree  | sed '"'"'s![^/]*$!!'"'"''
PAPAMJQFYQ/proc/device-tree/ocp/interconnect@48000000/segment@0/target-module@2a000/i2c@0/pmic@4b/
PAPAMJQFYQ 0
root@arm:~# echo 'NHUK''XYGVQU'
NHUKXYGVQU
root@arm:~# MARKER='HUOZ''LGTNTK' run 'test -f /proc/device-tree/ocp/interconnectt\@48000000/segment\@0/target-module\@2a000/i2c\@0/pmic\@4b/regulators/BUCK5/rohmm,no-regulator-enable-control ;echo $?'
HUOZLGTNTK1
HUOZLGTNTK 0
root@arm:~# echo 'NYZZ''ULCSZQ'
NYZZULCSZQ
root@arm:~# MARKER='CLPO''MFJBJV' run 'echo 1 > /sys/kernel/mva_test/regulators/bbuck5_en'
CLPOMFJBJVCLPOMFJBJV 0
root@arm:~# echo 'PXBZ''SCYMVN'
PXBZSCYMVN
root@arm:~# MARKER='YXZS''PPQYXP' run 'i2cget -y -f 1 0x4b 0xb'
YXZSPPQYXP0x03
YXZSPPQYXP 0
root@arm:~# echo 'NJMZ''PGPCKO'
NJMZPGPCKO
root@arm:~# MARKER='AHQO''HEGBJG' run 'grep -r -l rohm,bd71847 /proc/device-tree  | sed '"'"'s![^/]*$!!'"'"''
AHQOHEGBJG/proc/device-tree/ocp/interconnect@48000000/segment@0/target-module@2a000/i2c@0/pmic@4b/
AHQOHEGBJG 0
root@arm:~# echo 'EZMO''AHLYWL'
EZMOAHLYWL
root@arm:~# MARKER='SJHP''OWATLV' run 'test -f /proc/device-tree/ocp/interconnectt\@48000000/segment\@0/target-module\@2a000/i2c\@0/pmic\@4b/regulators/BUCK5/rohmm,no-regulator-enable-control ;echo $?'
SJHPOWATLV1
SJHPOWATLV 0
root@arm:~# echo 'PHFQ''HXPCTZ'
PHFQHXPCTZ
root@arm:~# MARKER='VPUK''UMFGQE' run 'grep -r -l rohm,bd71847 /proc/device-tree  | sed '"'"'s![^/]*$!!'"'"''
VPUKUMFGQE/proc/device-tree/ocp/interconnect@48000000/segment@0/target-module@2a000/i2c@0/pmic@4b/
VPUKUMFGQE 0
root@arm:~# echo 'WYPM''QJKVNQ'
WYPMQJKVNQ
root@arm:~# MARKER='WUGA''BBENMW' run 'test -f /proc/device-tree/ocp/interconnectt\@48000000/segment\@0/target-module\@2a000/i2c\@0/pmic\@4b/regulators/BUCK5/reguulator-always-on ;echo $?'
WUGABBENMW1
WUGABBENMW 0
root@arm:~# echo 'UBHY''YMJGZV'
UBHYYMJGZV
root@arm:~# MARKER='TMEU''JJELLZ' run 'echo 0 > /sys/kernel/mva_test/regulators/bbuck5_en'
TMEUJJELLZTMEUJJELLZ 0
root@arm:~# echo 'GMAN''VBMAAT'
GMANVBMAAT
root@arm:~# MARKER='EKAB''FVPZXM' run 'i2cget -y -f 1 0x4b 0xb'
EKABFVPZXM0x02
EKABFVPZXM 0
root@arm:~# echo 'JKYF''LYAVSA'
JKYFLYAVSA
root@arm:~# MARKER='WWLX''XCATHJ' run 'grep -r -l rohm,bd71847 /proc/device-tree  | sed '"'"'s![^/]*$!!'"'"''
WWLXXCATHJ/proc/device-tree/ocp/interconnect@48000000/segment@0/target-module@2a000/i2c@0/pmic@4b/
WWLXXCATHJ 0
root@arm:~# echo 'ZAKT''STNCHS'
ZAKTSTNCHS
root@arm:~# MARKER='PZUM''SMHYKV' run 'test -f /proc/device-tree/ocp/interconnectt\@48000000/segment\@0/target-module\@2a000/i2c\@0/pmic\@4b/regulators/BUCK6/rohmm,no-regulator-enable-control ;echo $?'
PZUMSMHYKV1
PZUMSMHYKV 0
root@arm:~# echo 'WUCB''SECFTE'
WUCBSECFTE
root@arm:~# MARKER='FCWW''WTXTWX' run 'echo 1 > /sys/kernel/mva_test/regulators/bbuck6_en'
FCWWWTXTWXFCWWWTXTWX 0
root@arm:~# echo 'HOYJ''CUFKNQ'
HOYJCUFKNQ
root@arm:~# MARKER='EQNE''WFCUOW' run 'i2cget -y -f 1 0x4b 0xc'
EQNEWFCUOW0x03
EQNEWFCUOW 0
root@arm:~# echo 'JMAK''SOCJQP'
JMAKSOCJQP
root@arm:~# MARKER='HVET''EUOMPG' run 'grep -r -l rohm,bd71847 /proc/device-tree  | sed '"'"'s![^/]*$!!'"'"''
HVETEUOMPG/proc/device-tree/ocp/interconnect@48000000/segment@0/target-module@2a000/i2c@0/pmic@4b/
HVETEUOMPG 0
root@arm:~# echo 'GSTF''VKTBFA'
GSTFVKTBFA
root@arm:~# MARKER='TGGT''VQKHNG' run 'test -f /proc/device-tree/ocp/interconnectt\@48000000/segment\@0/target-module\@2a000/i2c\@0/pmic\@4b/regulators/BUCK6/rohmm,no-regulator-enable-control ;echo $?'
TGGTVQKHNG1
TGGTVQKHNG 0
root@arm:~# echo 'WHZY''BZUZYC'
WHZYBZUZYC
root@arm:~# MARKER='QMCL''AYYMJW' run 'grep -r -l rohm,bd71847 /proc/device-tree  | sed '"'"'s![^/]*$!!'"'"''
QMCLAYYMJW/proc/device-tree/ocp/interconnect@48000000/segment@0/target-module@2a000/i2c@0/pmic@4b/
QMCLAYYMJW 0
root@arm:~# echo 'FBOP''GBUETF'
FBOPGBUETF
root@arm:~# MARKER='PBQC''VPUBYY' run 'test -f /proc/device-tree/ocp/interconnectt\@48000000/segment\@0/target-module\@2a000/i2c\@0/pmic\@4b/regulators/BUCK6/reguulator-always-on ;echo $?'
PBQCVPUBYY1
PBQCVPUBYY 0
root@arm:~# echo 'AUZC''WEBVLM'
AUZCWEBVLM
root@arm:~# MARKER='WAHB''WUYENN' run 'echo 0 > /sys/kernel/mva_test/regulators/bbuck6_en'
WAHBWUYENNWAHBWUYENN 0
root@arm:~# echo 'LYBF''BEOZFK'
LYBFBEOZFK
root@arm:~# MARKER='YAMS''FUTELN' run 'i2cget -y -f 1 0x4b 0xc'
YAMSFUTELN0x02
YAMSFUTELN 0
root@arm:~# echo 'VTEU''ZECFPY'
VTEUZECFPY
root@arm:~# MARKER='LGHK''TJPCUE' run 'grep -r -l rohm,bd71847 /proc/device-tree  | sed '"'"'s![^/]*$!!'"'"''
LGHKTJPCUE/proc/device-tree/ocp/interconnect@48000000/segment@0/target-module@2a000/i2c@0/pmic@4b/
LGHKTJPCUE 0
root@arm:~# echo 'MHSS''NVHTAC'
MHSSNVHTAC
root@arm:~# MARKER='NKKU''HZZECT' run 'test -f /proc/device-tree/ocp/interconnectt\@48000000/segment\@0/target-module\@2a000/i2c\@0/pmic\@4b/regulators/LDO1/rohm,,no-regulator-enable-control ;echo $?'
NKKUHZZECT1
NKKUHZZECT 0
root@arm:~# echo 'HYCF''POKXVE'
HYCFPOKXVE
root@arm:~# MARKER='ZBFS''EZNXVS' run 'echo 1 > /sys/kernel/mva_test/regulators/bbuck7_en'
ZBFSEZNXVSZBFSEZNXVS 0
root@arm:~# echo 'YZHG''PGHGTT'
YZHGPGHGTT
root@arm:~# MARKER='LSWC''WJSTKT' run 'i2cget -y -f 1 0x4b 0x18'
LSWCWJSTKT0xe2
LSWCWJSTKT 0
root@arm:~# echo 'OOVK''WQPQQO'
OOVKWQPQQO
root@arm:~# MARKER='GQNG''EAMBJQ' run 'grep -r -l rohm,bd71847 /proc/device-tree  | sed '"'"'s![^/]*$!!'"'"''
GQNGEAMBJQ/proc/device-tree/ocp/interconnect@48000000/segment@0/target-module@2a000/i2c@0/pmic@4b/
GQNGEAMBJQ 0
root@arm:~# echo 'UWVL''WHAPAW'
UWVLWHAPAW
root@arm:~# MARKER='JOWL''CQKZXV' run 'test -f /proc/device-tree/ocp/interconnectt\@48000000/segment\@0/target-module\@2a000/i2c\@0/pmic\@4b/regulators/LDO1/rohm,,no-regulator-enable-control ;echo $?'
JOWLCQKZXV1
JOWLCQKZXV 0
root@arm:~# echo 'GWCO''APWGFF'
GWCOAPWGFF
root@arm:~# MARKER='KHOU''TATZZY' run 'grep -r -l rohm,bd71847 /proc/device-tree  | sed '"'"'s![^/]*$!!'"'"''
KHOUTATZZY/proc/device-tree/ocp/interconnect@48000000/segment@0/target-module@2a000/i2c@0/pmic@4b/
KHOUTATZZY 0
root@arm:~# echo 'VYBQ''JXUENA'
VYBQJXUENA
root@arm:~# MARKER='CUCT''ACOSLT' run 'test -f /proc/device-tree/ocp/interconnectt\@48000000/segment\@0/target-module\@2a000/i2c\@0/pmic\@4b/regulators/LDO1/regullator-always-on ;echo $?'
CUCTACOSLT1
CUCTACOSLT 0
root@arm:~# echo 'FZPT''FXMETL'
FZPTFXMETL
root@arm:~# MARKER='WLHQ''HWGGVU' run 'echo 0 > /sys/kernel/mva_test/regulators/bbuck7_en'
WLHQHWGGVUWLHQHWGGVU 0
root@arm:~# echo 'JWAJ''MFUZYZ'
JWAJMFUZYZ
root@arm:~# MARKER='MTYP''SOVXVF' run 'i2cget -y -f 1 0x4b 0x18'
MTYPSOVXVF0xa2
MTYPSOVXVF 0
root@arm:~# echo 'SEJQ''TZSOVU'
SEJQTZSOVU
root@arm:~# MARKER='SEXA''YGHQMT' run 'grep -r -l rohm,bd71847 /proc/device-tree  | sed '"'"'s![^/]*$!!'"'"''
SEXAYGHQMT/proc/device-tree/ocp/interconnect@48000000/segment@0/target-module@2a000/i2c@0/pmic@4b/
SEXAYGHQMT 0
root@arm:~# echo 'YESV''SABFJZ'
YESVSABFJZ
root@arm:~# MARKER='QSJG''OZKMSS' run 'test -f /proc/device-tree/ocp/interconnectt\@48000000/segment\@0/target-module\@2a000/i2c\@0/pmic\@4b/regulators/LDO2/rohm,,no-regulator-enable-control ;echo $?'
QSJGOZKMSS1
QSJGOZKMSS 0
root@arm:~# echo 'BQKK''FCNHPH'
BQKKFCNHPH
root@arm:~# MARKER='PKNW''GSAOHP' run 'echo 1 > /sys/kernel/mva_test/regulators/bbuck8_en'
PKNWGSAOHPPKNWGSAOHP 0
root@arm:~# echo 'UGSS''LMJBGS'
UGSSLMJBGS
root@arm:~# MARKER='SJLS''KFGYHQ' run 'i2cget -y -f 1 0x4b 0x19'
SJLSKFGYHQ0xe0
SJLSKFGYHQ 0
root@arm:~# echo 'HZEA''WCXBOE'
HZEAWCXBOE
root@arm:~# MARKER='VSEP''GPHWNZ' run 'grep -r -l rohm,bd71847 /proc/device-tree  | sed '"'"'s![^/]*$!!'"'"''
VSEPGPHWNZ/proc/device-tree/ocp/interconnect@48000000/segment@0/target-module@2a000/i2c@0/pmic@4b/
VSEPGPHWNZ 0
root@arm:~# echo 'YXOO''UJSMNA'
YXOOUJSMNA
root@arm:~# MARKER='HUKQ''NCLXHE' run 'test -f /proc/device-tree/ocp/interconnectt\@48000000/segment\@0/target-module\@2a000/i2c\@0/pmic\@4b/regulators/LDO2/rohm,,no-regulator-enable-control ;echo $?'
HUKQNCLXHE1
HUKQNCLXHE 0
root@arm:~# echo 'EXKM''FKTLCA'
EXKMFKTLCA
root@arm:~# MARKER='MTZW''ANFYEN' run 'grep -r -l rohm,bd71847 /proc/device-tree  | sed '"'"'s![^/]*$!!'"'"''
MTZWANFYEN/proc/device-tree/ocp/interconnect@48000000/segment@0/target-module@2a000/i2c@0/pmic@4b/
MTZWANFYEN 0
root@arm:~# echo 'HYUA''ESMGLO'
HYUAESMGLO
root@arm:~# MARKER='AQFN''LCNNZE' run 'test -f /proc/device-tree/ocp/interconnectt\@48000000/segment\@0/target-module\@2a000/i2c\@0/pmic\@4b/regulators/LDO2/regullator-always-on ;echo $?'
AQFNLCNNZE1
AQFNLCNNZE 0
root@arm:~# echo 'KESG''TABCMT'
KESGTABCMT
root@arm:~# MARKER='OTBY''SLNLGE' run 'echo 0 > /sys/kernel/mva_test/regulators/bbuck8_en'
OTBYSLNLGEOTBYSLNLGE 0
root@arm:~# echo 'QBMZ''KCKOYJ'
QBMZKCKOYJ
root@arm:~# MARKER='GXVE''PZUAFW' run 'i2cget -y -f 1 0x4b 0x19'
GXVEPZUAFW0xa0
GXVEPZUAFW 0
root@arm:~# echo 'PXUE''BYHPTE'
PXUEBYHPTE
root@arm:~# MARKER='FWQC''VPULXP' run 'grep -r -l rohm,bd71847 /proc/device-tree  | sed '"'"'s![^/]*$!!'"'"''
FWQCVPULXP/proc/device-tree/ocp/interconnect@48000000/segment@0/target-module@2a000/i2c@0/pmic@4b/
FWQCVPULXP 0
root@arm:~# echo 'GVBE''FFQBOG'
GVBEFFQBOG
root@arm:~# MARKER='ECNO''OEAQFJ' run 'test -f /proc/device-tree/ocp/interconnectt\@48000000/segment\@0/target-module\@2a000/i2c\@0/pmic\@4b/regulators/LDO3/rohm,,no-regulator-enable-control ;echo $?'
ECNOOEAQFJ1
ECNOOEAQFJ 0
root@arm:~# echo 'ZUEV''EBXUGW'
ZUEVEBXUGW
root@arm:~# MARKER='BLNT''ZWYVVZ' run 'echo 1 > /sys/kernel/mva_test/regulators/bbuck9_en'
BLNTZWYVVZBLNTZWYVVZ 0
root@arm:~# echo 'MZBQ''NNLEYA'
MZBQNNLEYA
root@arm:~# MARKER='GYAL''HGFVBZ' run 'i2cget -y -f 1 0x4b 0x1a'
GYALHGFVBZ0xc0
GYALHGFVBZ 0
root@arm:~# echo 'YGJZ''QAWTFL'
YGJZQAWTFL
root@arm:~# MARKER='WJVX''JFLAWW' run 'grep -r -l rohm,bd71847 /proc/device-tree  | sed '"'"'s![^/]*$!!'"'"''
WJVXJFLAWW/proc/device-tree/ocp/interconnect@48000000/segment@0/target-module@2a000/i2c@0/pmic@4b/
WJVXJFLAWW 0
root@arm:~# echo 'NGPH''OXVMKY'
NGPHOXVMKY
root@arm:~# MARKER='PNTV''LQMBQC' run 'test -f /proc/device-tree/ocp/interconnectt\@48000000/segment\@0/target-module\@2a000/i2c\@0/pmic\@4b/regulators/LDO3/rohm,,no-regulator-enable-control ;echo $?'
PNTVLQMBQC1
PNTVLQMBQC 0
root@arm:~# echo 'HPQF''KOOXAO'
HPQFKOOXAO
root@arm:~# MARKER='NCYX''BHLPVM' run 'grep -r -l rohm,bd71847 /proc/device-tree  | sed '"'"'s![^/]*$!!'"'"''
NCYXBHLPVM/proc/device-tree/ocp/interconnect@48000000/segment@0/target-module@2a000/i2c@0/pmic@4b/
NCYXBHLPVM 0
root@arm:~# echo 'EZKK''TFWBSL'
EZKKTFWBSL
root@arm:~# MARKER='JSFG''GGCUCK' run 'test -f /proc/device-tree/ocp/interconnectt\@48000000/segment\@0/target-module\@2a000/i2c\@0/pmic\@4b/regulators/LDO3/regullator-always-on ;echo $?'
JSFGGGCUCK1
JSFGGGCUCK 0
root@arm:~# echo 'CMBE''GJTBCU'
CMBEGJTBCU
root@arm:~# MARKER='PVHN''WGFTXJ' run 'echo 0 > /sys/kernel/mva_test/regulators/bbuck9_en'
PVHNWGFTXJPVHNWGFTXJ 0
root@arm:~# echo 'TECB''SSZOHM'
TECBSSZOHM
root@arm:~# MARKER='VENG''TAWGVB' run 'i2cget -y -f 1 0x4b 0x1a'
VENGTAWGVB0x80
VENGTAWGVB 0
root@arm:~# echo 'ETBE''KUKFET'
ETBEKUKFET
root@arm:~# MARKER='ONTB''CNNQHE' run 'grep -r -l rohm,bd71847 /proc/device-tree  | sed '"'"'s![^/]*$!!'"'"''
ONTBCNNQHE/proc/device-tree/ocp/interconnect@48000000/segment@0/target-module@2a000/i2c@0/pmic@4b/
ONTBCNNQHE 0
root@arm:~# echo 'HHHN''CGTOEY'
HHHNCGTOEY
root@arm:~# MARKER='WACC''YXYCTO' run 'test -f /proc/device-tree/ocp/interconnectt\@48000000/segment\@0/target-module\@2a000/i2c\@0/pmic\@4b/regulators/LDO4/rohm,,no-regulator-enable-control ;echo $?'
WACCYXYCTO1
WACCYXYCTO 0
root@arm:~# echo 'YOWB''GNOSHQ'
YOWBGNOSHQ
root@arm:~# MARKER='FAGE''JZJOLP' run 'echo 1 > /sys/kernel/mva_test/regulators/bbuck10_en'
FAGEJZJOLPFAGEJZJOLP 0
root@arm:~# echo 'XOJE''XAOESE'
XOJEXAOESE
root@arm:~# MARKER='OMEJ''PQGHJX' run 'i2cget -y -f 1 0x4b 0x1b'
OMEJPQGHJX0xc0
OMEJPQGHJX 0
root@arm:~# echo 'LVXK''GHQMFN'
LVXKGHQMFN
root@arm:~# MARKER='ZFHF''VFHGQP' run 'grep -r -l rohm,bd71847 /proc/device-tree  | sed '"'"'s![^/]*$!!'"'"''
ZFHFVFHGQP/proc/device-tree/ocp/interconnect@48000000/segment@0/target-module@2a000/i2c@0/pmic@4b/
ZFHFVFHGQP 0
root@arm:~# echo 'GGMC''HOKVFW'
GGMCHOKVFW
root@arm:~# MARKER='WSYC''UMLKKT' run 'test -f /proc/device-tree/ocp/interconnectt\@48000000/segment\@0/target-module\@2a000/i2c\@0/pmic\@4b/regulators/LDO4/rohm,,no-regulator-enable-control ;echo $?'
WSYCUMLKKT1
WSYCUMLKKT 0
root@arm:~# echo 'YFOB''BHZHSA'
YFOBBHZHSA
root@arm:~# MARKER='AYLA''QOBYFP' run 'grep -r -l rohm,bd71847 /proc/device-tree  | sed '"'"'s![^/]*$!!'"'"''
AYLAQOBYFP/proc/device-tree/ocp/interconnect@48000000/segment@0/target-module@2a000/i2c@0/pmic@4b/
AYLAQOBYFP 0
root@arm:~# echo 'ZBWU''EWVSPW'
ZBWUEWVSPW
root@arm:~# MARKER='TTFA''JAQAJW' run 'test -f /proc/device-tree/ocp/interconnectt\@48000000/segment\@0/target-module\@2a000/i2c\@0/pmic\@4b/regulators/LDO4/regullator-always-on ;echo $?'
TTFAJAQAJW1
TTFAJAQAJW 0
root@arm:~# echo 'QQEE''QQZNBS'
QQEEQQZNBS
root@arm:~# MARKER='NLFB''BXPMLW' run 'echo 0 > /sys/kernel/mva_test/regulators/bbuck10_en'
NLFBBXPMLWNLFBBXPMLW 0
root@arm:~# echo 'XCUM''CFEQCS'
XCUMCFEQCS
root@arm:~# MARKER='BTOH''GOTJOJ' run 'i2cget -y -f 1 0x4b 0x1b'
BTOHGOTJOJ0x80
BTOHGOTJOJ 0
root@arm:~# echo 'KNYM''XJVXKW'
KNYMXJVXKW
root@arm:~# MARKER='EZLT''QOEFYH' run 'grep -r -l rohm,bd71847 /proc/device-tree  | sed '"'"'s![^/]*$!!'"'"''
EZLTQOEFYH/proc/device-tree/ocp/interconnect@48000000/segment@0/target-module@2a000/i2c@0/pmic@4b/
EZLTQOEFYH 0
root@arm:~# echo 'FXKV''XJOXBZ'
FXKVXJOXBZ
root@arm:~# MARKER='QCXK''VFGJBL' run 'test -f /proc/device-tree/ocp/interconnectt\@48000000/segment\@0/target-module\@2a000/i2c\@0/pmic\@4b/regulators/LDO5/rohm,,no-regulator-enable-control ;echo $?'
QCXKVFGJBL0
QCXKVFGJBL 0
root@arm:~# echo 'MMOX''HUQTTT'
MMOXHUQTTT
root@arm:~# MARKER='MMAL''LVHNVS' run 'grep -r -l rohm,bd71847 /proc/device-tree  | sed '"'"'s![^/]*$!!'"'"''
MMALLVHNVS/proc/device-tree/ocp/interconnect@48000000/segment@0/target-module@2a000/i2c@0/pmic@4b/
MMALLVHNVS 0
root@arm:~# echo 'GAKX''KGGVNO'
GAKXKGGVNO
root@arm:~# MARKER='WEOK''KUMVAQ' run 'test -f /proc/device-tree/ocp/interconnectt\@48000000/segment\@0/target-module\@2a000/i2c\@0/pmic\@4b/regulators/LDO5/rohm,,no-regulator-enable-control ;echo $?'
WEOKKUMVAQ0
WEOKKUMVAQ 0
root@arm:~# echo 'OMWA''TXAXMH'
OMWATXAXMH
root@arm:~# MARKER='SPXV''KKMLMP' run 'grep -r -l rohm,bd71847 /proc/device-tree  | sed '"'"'s![^/]*$!!'"'"''
SPXVKKMLMP/proc/device-tree/ocp/interconnect@48000000/segment@0/target-module@2a000/i2c@0/pmic@4b/
SPXVKKMLMP 0
root@arm:~# echo 'XTUS''TBUNOH'
XTUSTBUNOH
root@arm:~# MARKER='GQFZ''OOLOUV' run 'test -f /proc/device-tree/ocp/interconnectt\@48000000/segment\@0/target-module\@2a000/i2c\@0/pmic\@4b/regulators/LDO6/rohm,,no-regulator-enable-control ;echo $?'
GQFZOOLOUV1
GQFZOOLOUV 0
root@arm:~# echo 'LHZP''MAKSUC'
LHZPMAKSUC
root@arm:~# MARKER='APGZ''COFCCB' run 'echo 1 > /sys/kernel/mva_test/regulators/bbuck12_en'
APGZCOFCCBAPGZCOFCCB 0
root@arm:~# echo 'AEXY''FFKCEQ'
AEXYFFKCEQ
root@arm:~# MARKER='HOAG''AFJUBP' run 'i2cget -y -f 1 0x4b 0x1d'
HOAGAFJUBP0xc3
HOAGAFJUBP 0
root@arm:~# echo 'UVZS''YJBHVF'
UVZSYJBHVF
root@arm:~# MARKER='WFBC''SUYGSU' run 'grep -r -l rohm,bd71847 /proc/device-tree  | sed '"'"'s![^/]*$!!'"'"''
WFBCSUYGSU/proc/device-tree/ocp/interconnect@48000000/segment@0/target-module@2a000/i2c@0/pmic@4b/
WFBCSUYGSU 0
root@arm:~# echo 'TQLS''MPQSLH'
TQLSMPQSLH
root@arm:~# MARKER='HAJE''KUGGPK' run 'test -f /proc/device-tree/ocp/interconnectt\@48000000/segment\@0/target-module\@2a000/i2c\@0/pmic\@4b/regulators/LDO6/rohm,,no-regulator-enable-control ;echo $?'
HAJEKUGGPK1
HAJEKUGGPK 0
root@arm:~# echo 'GZYM''CMWXNX'
GZYMCMWXNX
root@arm:~# MARKER='EQMA''VKGOCS' run 'grep -r -l rohm,bd71847 /proc/device-tree  | sed '"'"'s![^/]*$!!'"'"''
EQMAVKGOCS/proc/device-tree/ocp/interconnect@48000000/segment@0/target-module@2a000/i2c@0/pmic@4b/
EQMAVKGOCS 0
root@arm:~# echo 'BQSV''ACVMHF'
BQSVACVMHF
root@arm:~# MARKER='WOET''OEXVAK' run 'test -f /proc/device-tree/ocp/interconnectt\@48000000/segment\@0/target-module\@2a000/i2c\@0/pmic\@4b/regulators/LDO6/regullator-always-on ;echo $?'
WOETOEXVAK1
WOETOEXVAK 0
root@arm:~# echo 'BZHF''TYHGVA'
BZHFTYHGVA
root@arm:~# MARKER='UJHP''AZKNEC' run 'echo 0 > /sys/kernel/mva_test/regulators/bbuck12_en'
UJHPAZKNECUJHPAZKNEC 0
root@arm:~# echo 'TTMJ''ZOACBG'
TTMJZOACBG
root@arm:~# MARKER='CPBP''ZLNBWZ' run 'i2cget -y -f 1 0x4b 0x1d'
CPBPZLNBWZ0x83
CPBPZLNBWZ 0
root@arm:~# Labgrid Console Logfile for main
Logfile started at 2026-08-24 11:39:56.932485
=== Log starts here ===

root@arm:~# run() { echo -n "$MARKER"; sh -c "$@"; echo "$MARKER $?"; }
root@arm:~# echo 'LUWT''XJHWBG'
LUWTXJHWBG
root@arm:~# MARKER='KVZB''AALGPH' run 'grep -r -l rohm,bd71847 /proc/device-tree  | sed '"'"'s![^/]*$!!'"'"''
KVZBAALGPH/proc/device-tree/ocp/interconnect@48000000/segment@0/target-module@2a000/i2c@0/pmic@4b/
KVZBAALGPH 0
root@arm:~# echo 'QYOC''HLMHVZ'
QYOCHLMHVZ
root@arm:~# MARKER='OWXB''PLKYHS' run 'test -f /proc/device-tree/ocp/interconnectt\@48000000/segment\@0/target-module\@2a000/i2c\@0/pmic\@4b/regulators/BUCK1/rohmm,no-regulator-enable-control ;echo $?'
OWXBPLKYHS1
OWXBPLKYHS 0
root@arm:~# echo 'CECN''KGKXAH'
CECNKGKXAH
root@arm:~# MARKER='TPWU''NEMCYZ' run 'i2cget -y -f 1 0x4b 0x5'
TPWUNEMCYZ0x02
TPWUNEMCYZ 0
root@arm:~# echo 'QMFY''AYOTYY'
QMFYAYOTYY
root@arm:~# MARKER='LHXF''UEOAFH' run 'echo 700000 700000 > /sys/kernel/mva_test//regulators/buck1_set'
LHXFUEOAFHLHXFUEOAFH 0
root@arm:~# echo 'ZJHS''GJWNBF'
ZJHSGJWNBF
root@arm:~# MARKER='GAQS''NZFSWO' run 'i2cget -y -f 1 0x4b 0xd'
GAQSNZFSWO0x00
GAQSNZFSWO 0
root@arm:~# echo 'QAAL''LKULLT'
QAALLKULLT
root@arm:~# MARKER='GALX''QZPCHS' run 'echo 710000 710000 > /sys/kernel/mva_test//regulators/buck1_set'
GALXQZPCHSGALXQZPCHS 0
root@arm:~# echo 'XSWF''PFBMUA'
XSWFPFBMUA
root@arm:~# MARKER='JYZZ''HSZPKE' run 'i2cget -y -f 1 0x4b 0xd'
JYZZHSZPKE0x01
JYZZHSZPKE 0
root@arm:~# echo 'JZWK''XLGUQQ'
JZWKXLGUQQ
root@arm:~# MARKER='ETKJ''GGOCMY' run 'echo 720000 720000 > /sys/kernel/mva_test//regulators/buck1_set'
ETKJGGOCMYETKJGGOCMY 0
root@arm:~# echo 'ATKL''SUJBPH'
ATKLSUJBPH
root@arm:~# MARKER='EMJO''OVHOFY' run 'i2cget -y -f 1 0x4b 0xd'
EMJOOVHOFY0x02
EMJOOVHOFY 0
root@arm:~# echo 'CVEW''GBYOMB'
CVEWGBYOMB
root@arm:~# MARKER='BYBV''MWMZAY' run 'echo 730000 730000 > /sys/kernel/mva_test//regulators/buck1_set'
BYBVMWMZAYBYBVMWMZAY 0
root@arm:~# echo 'UOCH''VNYSQX'
UOCHVNYSQX
root@arm:~# MARKER='ZHNF''OAHTTJ' run 'i2cget -y -f 1 0x4b 0xd'
ZHNFOAHTTJ0x03
ZHNFOAHTTJ 0
root@arm:~# echo 'VWOE''ZOUMPU'
VWOEZOUMPU
root@arm:~# MARKER='XZTL''BFJNQV' run 'echo 740000 740000 > /sys/kernel/mva_test//regulators/buck1_set'
XZTLBFJNQVXZTLBFJNQV 0
root@arm:~# echo 'MACL''WSLAZW'
MACLWSLAZW
root@arm:~# MARKER='FASF''SPZNKM' run 'i2cget -y -f 1 0x4b 0xd'
FASFSPZNKM0x04
FASFSPZNKM 0
root@arm:~# echo 'KPZX''GTOSFU'
KPZXGTOSFU
root@arm:~# MARKER='OLBS''LCFMYE' run 'echo 750000 750000 > /sys/kernel/mva_test//regulators/buck1_set'
OLBSLCFMYEOLBSLCFMYE 0
root@arm:~# echo 'OEQY''XXQWCB'
OEQYXXQWCB
root@arm:~# MARKER='ESUT''TSACTP' run 'i2cget -y -f 1 0x4b 0xd'
ESUTTSACTP0x05
ESUTTSACTP 0
root@arm:~# echo 'QPSV''BJTLTA'
QPSVBJTLTA
root@arm:~# MARKER='KJVJ''ASXNEG' run 'echo 760000 760000 > /sys/kernel/mva_test//regulators/buck1_set'
KJVJASXNEGKJVJASXNEG 0
root@arm:~# echo 'WNJW''BQQHHU'
WNJWBQQHHU
root@arm:~# MARKER='YTNX''VAEHQA' run 'i2cget -y -f 1 0x4b 0xd'
YTNXVAEHQA0x06
YTNXVAEHQA 0
root@arm:~# echo 'KFAT''TCXCUX'
KFATTCXCUX
root@arm:~# MARKER='FHXU''HAWLYA' run 'echo 770000 770000 > /sys/kernel/mva_test//regulators/buck1_set'
FHXUHAWLYAFHXUHAWLYA 0
root@arm:~# echo 'XMPL''AGXPMC'
XMPLAGXPMC
root@arm:~# MARKER='YVMH''PSUBPO' run 'i2cget -y -f 1 0x4b 0xd'
YVMHPSUBPO0x07
YVMHPSUBPO 0
root@arm:~# echo 'EQJK''WFBNWV'
EQJKWFBNWV
root@arm:~# MARKER='USLU''KMFNYZ' run 'echo 780000 780000 > /sys/kernel/mva_test//regulators/buck1_set'
USLUKMFNYZUSLUKMFNYZ 0
root@arm:~# echo 'KAVN''BYLMFY'
KAVNBYLMFY
root@arm:~# MARKER='FTOT''NPPEVW' run 'i2cget -y -f 1 0x4b 0xd'
FTOTNPPEVW0x08
FTOTNPPEVW 0
root@arm:~# echo 'NZAH''AZTEOG'
NZAHAZTEOG
root@arm:~# MARKER='XVJZ''NSEJBV' run 'echo 790000 790000 > /sys/kernel/mva_test//regulators/buck1_set'
XVJZNSEJBVXVJZNSEJBV 0
root@arm:~# echo 'APSH''VVLSYK'
APSHVVLSYK
root@arm:~# MARKER='YXQO''PBZUAE' run 'i2cget -y -f 1 0x4b 0xd'
YXQOPBZUAE0x09
YXQOPBZUAE 0
root@arm:~# echo 'ZETG''YOLBNH'
ZETGYOLBNH
root@arm:~# MARKER='BPNP''ZNWWUJ' run 'echo 800000 800000 > /sys/kernel/mva_test//regulators/buck1_set'
BPNPZNWWUJBPNPZNWWUJ 0
root@arm:~# echo 'LVSO''VTJHFY'
LVSOVTJHFY
root@arm:~# MARKER='APYS''NUWMFV' run 'i2cget -y -f 1 0x4b 0xd'
APYSNUWMFV0x0a
APYSNUWMFV 0
root@arm:~# echo 'PKBQ''FGEULL'
PKBQFGEULL
root@arm:~# MARKER='OVGW''QFJQCZ' run 'echo 810000 810000 > /sys/kernel/mva_test//regulators/buck1_set'
OVGWQFJQCZOVGWQFJQCZ 0
root@arm:~# echo 'LEMF''YECVLT'
LEMFYECVLT
root@arm:~# MARKER='FJUK''OZMFJP' run 'i2cget -y -f 1 0x4b 0xd'
FJUKOZMFJP0x0b
FJUKOZMFJP 0
root@arm:~# echo 'EKJW''BETLBQ'
EKJWBETLBQ
root@arm:~# MARKER='OYCX''EQXWOU' run 'echo 820000 820000 > /sys/kernel/mva_test//regulators/buck1_set'
OYCXEQXWOUOYCXEQXWOU 0
root@arm:~# echo 'WSZE''NQZPGU'
WSZENQZPGU
root@arm:~# MARKER='GCMQ''PYGMNN' run 'i2cget -y -f 1 0x4b 0xd'
GCMQPYGMNN0x0c
GCMQPYGMNN 0
root@arm:~# echo 'OHTF''XNFVAH'
OHTFXNFVAH
root@arm:~# MARKER='AMTC''GNOPBK' run 'echo 830000 830000 > /sys/kernel/mva_test//regulators/buck1_set'
AMTCGNOPBKAMTCGNOPBK 0
root@arm:~# echo 'LQKE''ETWNOC'
LQKEETWNOC
root@arm:~# MARKER='MAGK''EHVVAZ' run 'i2cget -y -f 1 0x4b 0xd'
MAGKEHVVAZ0x0d
MAGKEHVVAZ 0
root@arm:~# echo 'XZJT''SEEGBA'
XZJTSEEGBA
root@arm:~# MARKER='GSTL''TUXEBJ' run 'echo 840000 840000 > /sys/kernel/mva_test//regulators/buck1_set'
GSTLTUXEBJGSTLTUXEBJ 0
root@arm:~# echo 'TYMG''ZMHKTX'
TYMGZMHKTX
root@arm:~# MARKER='MOTN''KSPCMK' run 'i2cget -y -f 1 0x4b 0xd'
MOTNKSPCMK0x0e
MOTNKSPCMK 0
root@arm:~# echo 'BKWK''JNULYF'
BKWKJNULYF
root@arm:~# MARKER='OTXL''GNXNMV' run 'echo 850000 850000 > /sys/kernel/mva_test//regulators/buck1_set'
OTXLGNXNMVOTXLGNXNMV 0
root@arm:~# echo 'SBMT''YEWMKU'
SBMTYEWMKU
root@arm:~# MARKER='JTHY''LPNTUZ' run 'i2cget -y -f 1 0x4b 0xd'
JTHYLPNTUZ0x0f
JTHYLPNTUZ 0
root@arm:~# echo 'GUOX''OKYJXU'
GUOXOKYJXU
root@arm:~# MARKER='WHVJ''LCFGQC' run 'echo 860000 860000 > /sys/kernel/mva_test//regulators/buck1_set'
WHVJLCFGQCWHVJLCFGQC 0
root@arm:~# echo 'UNPZ''SFPBVU'
UNPZSFPBVU
root@arm:~# MARKER='ZJLQ''TEZYVV' run 'i2cget -y -f 1 0x4b 0xd'
ZJLQTEZYVV0x10
ZJLQTEZYVV 0
root@arm:~# echo 'OPBC''HGHCAZ'
OPBCHGHCAZ
root@arm:~# MARKER='PHZA''NZOBCT' run 'echo 870000 870000 > /sys/kernel/mva_test//regulators/buck1_set'
PHZANZOBCTPHZANZOBCT 0
root@arm:~# echo 'MZHZ''VAFWYJ'
MZHZVAFWYJ
root@arm:~# MARKER='GLXF''VOXSNM' run 'i2cget -y -f 1 0x4b 0xd'
GLXFVOXSNM0x11
GLXFVOXSNM 0
root@arm:~# echo 'FXCM''QMAOBW'
FXCMQMAOBW
root@arm:~# MARKER='HGCY''LCYFYG' run 'echo 880000 880000 > /sys/kernel/mva_test//regulators/buck1_set'
HGCYLCYFYGHGCYLCYFYG 0
root@arm:~# echo 'KJXP''NCXJET'
KJXPNCXJET
root@arm:~# MARKER='BNGA''VJCXEL' run 'i2cget -y -f 1 0x4b 0xd'
BNGAVJCXEL0x12
BNGAVJCXEL 0
root@arm:~# echo 'BLSA''WLWYYO'
BLSAWLWYYO
root@arm:~# MARKER='VGMH''BMGFQS' run 'echo 890000 890000 > /sys/kernel/mva_test//regulators/buck1_set'
VGMHBMGFQSVGMHBMGFQS 0
root@arm:~# echo 'YKNM''YUOKHA'
YKNMYUOKHA
root@arm:~# MARKER='QLTF''LAVWUJ' run 'i2cget -y -f 1 0x4b 0xd'
QLTFLAVWUJ0x13
QLTFLAVWUJ 0
root@arm:~# echo 'WLHF''NNUGGT'
WLHFNNUGGT
root@arm:~# MARKER='JSEW''YVUOFJ' run 'echo 900000 900000 > /sys/kernel/mva_test//regulators/buck1_set'
JSEWYVUOFJJSEWYVUOFJ 0
root@arm:~# echo 'WAPH''KJQXUS'
WAPHKJQXUS
root@arm:~# MARKER='HEGC''FGUNOY' run 'i2cget -y -f 1 0x4b 0xd'
HEGCFGUNOY0x14
HEGCFGUNOY 0
root@arm:~# echo 'LLWF''GBUGQJ'
LLWFGBUGQJ
root@arm:~# MARKER='NCVM''BBEZAY' run 'echo 910000 910000 > /sys/kernel/mva_test//regulators/buck1_set'
NCVMBBEZAYNCVMBBEZAY 0
root@arm:~# echo 'GBSX''HPMCCZ'
GBSXHPMCCZ
root@arm:~# MARKER='GWZF''TNPNPK' run 'i2cget -y -f 1 0x4b 0xd'
GWZFTNPNPK0x15
GWZFTNPNPK 0
root@arm:~# echo 'ZBTP''TCQYNX'
ZBTPTCQYNX
root@arm:~# MARKER='YJQK''ULYKPE' run 'echo 920000 920000 > /sys/kernel/mva_test//regulators/buck1_set'
YJQKULYKPEYJQKULYKPE 0
root@arm:~# echo 'OCAE''CXOSEK'
OCAECXOSEK
root@arm:~# MARKER='GFBJ''FXJWAE' run 'i2cget -y -f 1 0x4b 0xd'
GFBJFXJWAE0x16
GFBJFXJWAE 0
root@arm:~# echo 'OWWH''UZOWVY'
OWWHUZOWVY
root@arm:~# MARKER='XOCN''YTGAVZ' run 'echo 930000 930000 > /sys/kernel/mva_test//regulators/buck1_set'
XOCNYTGAVZXOCNYTGAVZ 0
root@arm:~# echo 'AEJF''MYUOWV'
AEJFMYUOWV
root@arm:~# MARKER='ZLWN''UTGHJV' run 'i2cget -y -f 1 0x4b 0xd'
ZLWNUTGHJV0x17
ZLWNUTGHJV 0
root@arm:~# echo 'PNTU''FWUPBN'
PNTUFWUPBN
root@arm:~# MARKER='KHVW''MHEYCK' run 'echo 940000 940000 > /sys/kernel/mva_test//regulators/buck1_set'
KHVWMHEYCKKHVWMHEYCK 0
root@arm:~# echo 'APTX''QHKXJZ'
APTXQHKXJZ
root@arm:~# MARKER='JANH''HYKWQN' run 'i2cget -y -f 1 0x4b 0xd'
JANHHYKWQN0x18
JANHHYKWQN 0
root@arm:~# echo 'GQBP''LLOTZZ'
GQBPLLOTZZ
root@arm:~# MARKER='HNSE''LHMYPF' run 'echo 950000 950000 > /sys/kernel/mva_test//regulators/buck1_set'
HNSELHMYPFHNSELHMYPF 0
root@arm:~# echo 'LJNX''QCPYTB'
LJNXQCPYTB
root@arm:~# MARKER='NCFK''MAENZE' run 'i2cget -y -f 1 0x4b 0xd'
NCFKMAENZE0x19
NCFKMAENZE 0
root@arm:~# echo 'XVWK''JMHGUO'
XVWKJMHGUO
root@arm:~# MARKER='KYJB''OMXCKU' run 'echo 960000 960000 > /sys/kernel/mva_test//regulators/buck1_set'
KYJBOMXCKUKYJBOMXCKU 0
root@arm:~# echo 'OGFS''QOMCOC'
OGFSQOMCOC
root@arm:~# MARKER='NUOO''HYNXCP' run 'i2cget -y -f 1 0x4b 0xd'
NUOOHYNXCP0x1a
NUOOHYNXCP 0
root@arm:~# echo 'WYNH''LXECBV'
WYNHLXECBV
root@arm:~# MARKER='HVMC''XCGCZE' run 'echo 970000 970000 > /sys/kernel/mva_test//regulators/buck1_set'
HVMCXCGCZEHVMCXCGCZE 0
root@arm:~# echo 'HFOL''OGGWGT'
HFOLOGGWGT
root@arm:~# MARKER='FFPB''QYSEWS' run 'i2cget -y -f 1 0x4b 0xd'
FFPBQYSEWS0x1b
FFPBQYSEWS 0
root@arm:~# echo 'PKBN''SFTZFX'
PKBNSFTZFX
root@arm:~# MARKER='NXEF''QKEXZN' run 'echo 980000 980000 > /sys/kernel/mva_test//regulators/buck1_set'
NXEFQKEXZNNXEFQKEXZN 0
root@arm:~# echo 'BTSA''XKJYXF'
BTSAXKJYXF
root@arm:~# MARKER='CPAY''TXJHPU' run 'i2cget -y -f 1 0x4b 0xd'
CPAYTXJHPU0x1c
CPAYTXJHPU 0
root@arm:~# echo 'YOEO''HVBCSQ'
YOEOHVBCSQ
root@arm:~# MARKER='YOLB''OFKQSU' run 'echo 990000 990000 > /sys/kernel/mva_test//regulators/buck1_set'
YOLBOFKQSUYOLBOFKQSU 0
root@arm:~# echo 'GEXO''KMFQYP'
GEXOKMFQYP
root@arm:~# MARKER='UJSJ''TXCVBM' run 'i2cget -y -f 1 0x4b 0xd'
UJSJTXCVBM0x1d
UJSJTXCVBM 0
root@arm:~# echo 'QJVT''OBZVHW'
QJVTOBZVHW
root@arm:~# MARKER='UAJA''QCNHVP' run 'echo 1000000 1000000 > /sys/kernel/mva_tesst/regulators/buck1_set'
UAJAQCNHVPUAJAQCNHVP 0
root@arm:~# echo 'ANPH''JUHFZK'
ANPHJUHFZK
root@arm:~# MARKER='NJKQ''LTCFKG' run 'i2cget -y -f 1 0x4b 0xd'
NJKQLTCFKG0x1e
NJKQLTCFKG 0
root@arm:~# echo 'WJEO''PFHWHG'
WJEOPFHWHG
root@arm:~# MARKER='STYG''HQCLSJ' run 'echo 1010000 1010000 > /sys/kernel/mva_tesst/regulators/buck1_set'
STYGHQCLSJSTYGHQCLSJ 0
root@arm:~# echo 'NQFV''WLTFSM'
NQFVWLTFSM
root@arm:~# MARKER='EJBZ''LZWEJN' run 'i2cget -y -f 1 0x4b 0xd'
EJBZLZWEJN0x1f
EJBZLZWEJN 0
root@arm:~# echo 'ZCYE''ABKWCY'
ZCYEABKWCY
root@arm:~# MARKER='EPZC''GEVEME' run 'echo 1020000 1020000 > /sys/kernel/mva_tesst/regulators/buck1_set'
EPZCGEVEMEEPZCGEVEME 0
root@arm:~# echo 'NAAB''CFQBGB'
NAABCFQBGB
root@arm:~# MARKER='ETBH''FYZPWT' run 'i2cget -y -f 1 0x4b 0xd'
ETBHFYZPWT0x20
ETBHFYZPWT 0
root@arm:~# echo 'ABYF''SMWHUP'
ABYFSMWHUP
root@arm:~# MARKER='WMGC''OVBMUE' run 'echo 1030000 1030000 > /sys/kernel/mva_tesst/regulators/buck1_set'
WMGCOVBMUEWMGCOVBMUE 0
root@arm:~# echo 'BZCQ''XZSNPC'
BZCQXZSNPC
root@arm:~# MARKER='QNTL''YNJYNC' run 'i2cget -y -f 1 0x4b 0xd'
QNTLYNJYNC0x21
QNTLYNJYNC 0
root@arm:~# echo 'SHAE''LLQBCZ'
SHAELLQBCZ
root@arm:~# MARKER='ZZLF''KLCOYL' run 'echo 1040000 1040000 > /sys/kernel/mva_tesst/regulators/buck1_set'
ZZLFKLCOYLZZLFKLCOYL 0
root@arm:~# echo 'PFGQ''OFCQVM'
PFGQOFCQVM
root@arm:~# MARKER='PMPC''MNNYSL' run 'i2cget -y -f 1 0x4b 0xd'
PMPCMNNYSL0x22
PMPCMNNYSL 0
root@arm:~# echo 'OZYJ''EHZQGG'
OZYJEHZQGG
root@arm:~# MARKER='YOGU''WLKXXG' run 'echo 1050000 1050000 > /sys/kernel/mva_tesst/regulators/buck1_set'
YOGUWLKXXGYOGUWLKXXG 0
root@arm:~# echo 'JTQA''SCOYCA'
JTQASCOYCA
root@arm:~# MARKER='KKLS''VKVGAX' run 'i2cget -y -f 1 0x4b 0xd'
KKLSVKVGAX0x23
KKLSVKVGAX 0
root@arm:~# echo 'CGYB''KKPPCJ'
CGYBKKPPCJ
root@arm:~# MARKER='HTCS''CNMGVA' run 'echo 1060000 1060000 > /sys/kernel/mva_tesst/regulators/buck1_set'
HTCSCNMGVAHTCSCNMGVA 0
root@arm:~# echo 'UZLZ''XLWGZN'
UZLZXLWGZN
root@arm:~# MARKER='ZNMN''YYCSAH' run 'i2cget -y -f 1 0x4b 0xd'
ZNMNYYCSAH0x24
ZNMNYYCSAH 0
root@arm:~# echo 'LZYJ''LNOEOK'
LZYJLNOEOK
root@arm:~# MARKER='ZYZF''UBSLGV' run 'echo 1070000 1070000 > /sys/kernel/mva_tesst/regulators/buck1_set'
ZYZFUBSLGVZYZFUBSLGV 0
root@arm:~# echo 'GZCL''KVLSMV'
GZCLKVLSMV
root@arm:~# MARKER='FTVF''ANOEXN' run 'i2cget -y -f 1 0x4b 0xd'
FTVFANOEXN0x25
FTVFANOEXN 0
root@arm:~# echo 'AQNW''QXVAMT'
AQNWQXVAMT
root@arm:~# MARKER='QNOO''LGAWYK' run 'echo 1080000 1080000 > /sys/kernel/mva_tesst/regulators/buck1_set'
QNOOLGAWYKQNOOLGAWYK 0
root@arm:~# echo 'YGVP''GLLZAF'
YGVPGLLZAF
root@arm:~# MARKER='TWKF''NYJQWS' run 'i2cget -y -f 1 0x4b 0xd'
TWKFNYJQWS0x26
TWKFNYJQWS 0
root@arm:~# echo 'GZOV''ZGAVPP'
GZOVZGAVPP
root@arm:~# MARKER='TNJP''PSTBUG' run 'echo 1090000 1090000 > /sys/kernel/mva_tesst/regulators/buck1_set'
TNJPPSTBUGTNJPPSTBUG 0
root@arm:~# echo 'XXLM''FPQBQV'
XXLMFPQBQV
root@arm:~# MARKER='FPSM''SPQXBV' run 'i2cget -y -f 1 0x4b 0xd'
FPSMSPQXBV0x27
FPSMSPQXBV 0
root@arm:~# echo 'HYAC''WEYFJM'
HYACWEYFJM
root@arm:~# MARKER='HMVW''XBFEQT' run 'echo 1100000 1100000 > /sys/kernel/mva_tesst/regulators/buck1_set'
HMVWXBFEQTHMVWXBFEQT 0
root@arm:~# echo 'FNWY''GQJVJX'
FNWYGQJVJX
root@arm:~# MARKER='BFGY''ZJBNKO' run 'i2cget -y -f 1 0x4b 0xd'
BFGYZJBNKO0x28
BFGYZJBNKO 0
root@arm:~# echo 'NHVS''EVZQPK'
NHVSEVZQPK
root@arm:~# MARKER='KWBF''CLNVSM' run 'echo 1110000 1110000 > /sys/kernel/mva_tesst/regulators/buck1_set'
KWBFCLNVSMKWBFCLNVSM 0
root@arm:~# echo 'HYGW''XKLCJQ'
HYGWXKLCJQ
root@arm:~# MARKER='WJLT''FQTFFB' run 'i2cget -y -f 1 0x4b 0xd'
WJLTFQTFFB0x29
WJLTFQTFFB 0
root@arm:~# echo 'KWAW''VZAUEE'
KWAWVZAUEE
root@arm:~# MARKER='BCOY''GVEOJK' run 'echo 1120000 1120000 > /sys/kernel/mva_tesst/regulators/buck1_set'
BCOYGVEOJKBCOYGVEOJK 0
root@arm:~# echo 'XLPS''TZVJJZ'
XLPSTZVJJZ
root@arm:~# MARKER='KQLN''FZJTTN' run 'i2cget -y -f 1 0x4b 0xd'
KQLNFZJTTN0x2a
KQLNFZJTTN 0
root@arm:~# echo 'PWZO''TBCQPV'
PWZOTBCQPV
root@arm:~# MARKER='HJPY''GXOKYA' run 'echo 1130000 1130000 > /sys/kernel/mva_tesst/regulators/buck1_set'
HJPYGXOKYAHJPYGXOKYA 0
root@arm:~# echo 'LMEY''UULYYU'
LMEYUULYYU
root@arm:~# MARKER='EYBV''PVWEWF' run 'i2cget -y -f 1 0x4b 0xd'
EYBVPVWEWF0x2b
EYBVPVWEWF 0
root@arm:~# echo 'HHYE''BLZLJH'
HHYEBLZLJH
root@arm:~# MARKER='UVGP''FXBTES' run 'echo 1140000 1140000 > /sys/kernel/mva_tesst/regulators/buck1_set'
UVGPFXBTESUVGPFXBTES 0
root@arm:~# echo 'YECV''OYBLVA'
YECVOYBLVA
root@arm:~# MARKER='NCFV''WWKWLQ' run 'i2cget -y -f 1 0x4b 0xd'
NCFVWWKWLQ0x2c
NCFVWWKWLQ 0
root@arm:~# echo 'ZBUA''EVKJMP'
ZBUAEVKJMP
root@arm:~# MARKER='XEMS''UWUQYB' run 'echo 1150000 1150000 > /sys/kernel/mva_tesst/regulators/buck1_set'
XEMSUWUQYBXEMSUWUQYB 0
root@arm:~# echo 'MYFL''NLGPBN'
MYFLNLGPBN
root@arm:~# MARKER='OSFG''THBFQF' run 'i2cget -y -f 1 0x4b 0xd'
OSFGTHBFQF0x2d
OSFGTHBFQF 0
root@arm:~# echo 'HWBK''GEJOOX'
HWBKGEJOOX
root@arm:~# MARKER='PXGE''EAQHOJ' run 'echo 1160000 1160000 > /sys/kernel/mva_tesst/regulators/buck1_set'
PXGEEAQHOJPXGEEAQHOJ 0
root@arm:~# echo 'SEAZ''LKWKLL'
SEAZLKWKLL
root@arm:~# MARKER='GJLB''PTPLTA' run 'i2cget -y -f 1 0x4b 0xd'
GJLBPTPLTA0x2e
GJLBPTPLTA 0
root@arm:~# echo 'SFCS''YWLGPK'
SFCSYWLGPK
root@arm:~# MARKER='KOEC''TSGNGQ' run 'echo 1170000 1170000 > /sys/kernel/mva_tesst/regulators/buck1_set'
KOECTSGNGQKOECTSGNGQ 0
root@arm:~# echo 'FTTF''YZMLLJ'
FTTFYZMLLJ
root@arm:~# MARKER='KYAP''OAVPKV' run 'i2cget -y -f 1 0x4b 0xd'
KYAPOAVPKV0x2f
KYAPOAVPKV 0
root@arm:~# echo 'SWQH''LSVLYG'
SWQHLSVLYG
root@arm:~# MARKER='FUPB''LBJEXK' run 'echo 1180000 1180000 > /sys/kernel/mva_tesst/regulators/buck1_set'
FUPBLBJEXKFUPBLBJEXK 0
root@arm:~# echo 'QLKS''ZMQGVL'
QLKSZMQGVL
root@arm:~# MARKER='VNMY''UZKXKW' run 'i2cget -y -f 1 0x4b 0xd'
VNMYUZKXKW0x30
VNMYUZKXKW 0
root@arm:~# echo 'LJCY''BLHEQW'
LJCYBLHEQW
root@arm:~# MARKER='BJMG''WTJOJS' run 'echo 1190000 1190000 > /sys/kernel/mva_tesst/regulators/buck1_set'
BJMGWTJOJSBJMGWTJOJS 0
root@arm:~# echo 'QTOX''JZZLAQ'
QTOXJZZLAQ
root@arm:~# MARKER='MYGO''CCNLZY' run 'i2cget -y -f 1 0x4b 0xd'
MYGOCCNLZY0x31
MYGOCCNLZY 0
root@arm:~# echo 'JJZB''NZPWWY'
JJZBNZPWWY
root@arm:~# MARKER='NKMZ''AETAUE' run 'echo 1200000 1200000 > /sys/kernel/mva_tesst/regulators/buck1_set'
NKMZAETAUENKMZAETAUE 0
root@arm:~# echo 'TPPH''WULBHO'
TPPHWULBHO
root@arm:~# MARKER='GYOM''AMTFFW' run 'i2cget -y -f 1 0x4b 0xd'
GYOMAMTFFW0x32
GYOMAMTFFW 0
root@arm:~# echo 'UNQY''TSZWEF'
UNQYTSZWEF
root@arm:~# MARKER='AYXU''VLMSCT' run 'echo 1210000 1210000 > /sys/kernel/mva_tesst/regulators/buck1_set'
AYXUVLMSCTAYXUVLMSCT 0
root@arm:~# echo 'MBFA''UCQLFH'
MBFAUCQLFH
root@arm:~# MARKER='BUKQ''TMBVPE' run 'i2cget -y -f 1 0x4b 0xd'
BUKQTMBVPE0x33
BUKQTMBVPE 0
root@arm:~# echo 'XNJU''MZWAHE'
XNJUMZWAHE
root@arm:~# MARKER='KMMN''GMLYGG' run 'echo 1220000 1220000 > /sys/kernel/mva_tesst/regulators/buck1_set'
KMMNGMLYGGKMMNGMLYGG 0
root@arm:~# echo 'SJQU''WHLMVQ'
SJQUWHLMVQ
root@arm:~# MARKER='TXHS''QXPMVB' run 'i2cget -y -f 1 0x4b 0xd'
TXHSQXPMVB0x34
TXHSQXPMVB 0
root@arm:~# echo 'YNHF''TMABXU'
YNHFTMABXU
root@arm:~# MARKER='APUJ''MEFNYJ' run 'echo 1230000 1230000 > /sys/kernel/mva_tesst/regulators/buck1_set'
APUJMEFNYJAPUJMEFNYJ 0
root@arm:~# echo 'VJMK''GASMWP'
VJMKGASMWP
root@arm:~# MARKER='LSAL''GETQEF' run 'i2cget -y -f 1 0x4b 0xd'
LSALGETQEF0x35
LSALGETQEF 0
root@arm:~# echo 'QPAV''VATGZB'
QPAVVATGZB
root@arm:~# MARKER='FABZ''MQYWBM' run 'echo 1240000 1240000 > /sys/kernel/mva_tesst/regulators/buck1_set'
FABZMQYWBMFABZMQYWBM 0
root@arm:~# echo 'SWZU''SKGESX'
SWZUSKGESX
root@arm:~# MARKER='QNFS''BFSMUL' run 'i2cget -y -f 1 0x4b 0xd'
QNFSBFSMUL0x36
QNFSBFSMUL 0
root@arm:~# echo 'JKEC''TEXPTT'
JKECTEXPTT
root@arm:~# MARKER='VMQW''WEPWBM' run 'echo 1250000 1250000 > /sys/kernel/mva_tesst/regulators/buck1_set'
VMQWWEPWBMVMQWWEPWBM 0
root@arm:~# echo 'AGKQ''XQYQCX'
AGKQXQYQCX
root@arm:~# MARKER='MLZV''HJAVFX' run 'i2cget -y -f 1 0x4b 0xd'
MLZVHJAVFX0x37
MLZVHJAVFX 0
root@arm:~# echo 'KJJM''JNCMGO'
KJJMJNCMGO
root@arm:~# MARKER='AECX''MAHQUA' run 'echo 1260000 1260000 > /sys/kernel/mva_tesst/regulators/buck1_set'
AECXMAHQUAAECXMAHQUA 0
root@arm:~# echo 'AFOP''XPJNBF'
AFOPXPJNBF
root@arm:~# MARKER='LXEV''ZSAKWK' run 'i2cget -y -f 1 0x4b 0xd'
LXEVZSAKWK0x38
LXEVZSAKWK 0
root@arm:~# echo 'SJNZ''WAOZEN'
SJNZWAOZEN
root@arm:~# MARKER='SVNW''COCSET' run 'echo 1270000 1270000 > /sys/kernel/mva_tesst/regulators/buck1_set'
SVNWCOCSETSVNWCOCSET 0
root@arm:~# echo 'LJMV''WLGTYV'
LJMVWLGTYV
root@arm:~# MARKER='PQOH''LYZTEY' run 'i2cget -y -f 1 0x4b 0xd'
PQOHLYZTEY0x39
PQOHLYZTEY 0
root@arm:~# echo 'VAKT''BMJAOX'
VAKTBMJAOX
root@arm:~# MARKER='MTKX''UQFPYK' run 'echo 1280000 1280000 > /sys/kernel/mva_tesst/regulators/buck1_set'
MTKXUQFPYKMTKXUQFPYK 0
root@arm:~# echo 'YZTV''QNUVHK'
YZTVQNUVHK
root@arm:~# MARKER='YYCK''GNWOLW' run 'i2cget -y -f 1 0x4b 0xd'
YYCKGNWOLW0x3a
YYCKGNWOLW 0
root@arm:~# echo 'UZUX''ZBAUCM'
UZUXZBAUCM
root@arm:~# MARKER='CGVV''GVLTJO' run 'echo 1290000 1290000 > /sys/kernel/mva_tesst/regulators/buck1_set'
CGVVGVLTJOCGVVGVLTJO 0
root@arm:~# echo 'AUGT''FKAKYS'
AUGTFKAKYS
root@arm:~# MARKER='YLXO''NHWEJY' run 'i2cget -y -f 1 0x4b 0xd'
YLXONHWEJY0x3b
YLXONHWEJY 0
root@arm:~# echo 'JZFN''GSBEPS'
JZFNGSBEPS
root@arm:~# MARKER='VSGX''QJOWEW' run 'echo 1300000 1300000 > /sys/kernel/mva_tesst/regulators/buck1_set'
VSGXQJOWEWVSGXQJOWEW 0
root@arm:~# echo 'NCOW''USUZLZ'
NCOWUSUZLZ
root@arm:~# MARKER='BZHO''UOBJUG' run 'i2cget -y -f 1 0x4b 0xd'
BZHOUOBJUG0x3c
BZHOUOBJUG 0
root@arm:~# echo 'NKLE''GAMNNY'
NKLEGAMNNY
root@arm:~# MARKER='MXLP''BVUFLC' run 'grep -r -l rohm,bd71847 /proc/device-tree  | sed '"'"'s![^/]*$!!'"'"''
MXLPBVUFLC/proc/device-tree/ocp/interconnect@48000000/segment@0/target-module@2a000/i2c@0/pmic@4b/
MXLPBVUFLC 0
root@arm:~# echo 'EHUX''YVNLYT'
EHUXYVNLYT
root@arm:~# MARKER='TNHC''MBZLOA' run 'test -f /proc/device-tree/ocp/interconnectt\@48000000/segment\@0/target-module\@2a000/i2c\@0/pmic\@4b/regulators/BUCK2/rohmm,no-regulator-enable-control ;echo $?'
TNHCMBZLOA1
TNHCMBZLOA 0
root@arm:~# echo 'CATK''PHECEY'
CATKPHECEY
root@arm:~# MARKER='NNMC''UBZVQH' run 'i2cget -y -f 1 0x4b 0x6'
NNMCUBZVQH0x43
NNMCUBZVQH 0
root@arm:~# echo 'GLOY''CUUMCG'
GLOYCUUMCG
root@arm:~# MARKER='MYFL''GUTFTV' run 'echo 700000 700000 > /sys/kernel/mva_test//regulators/buck2_set'
MYFLGUTFTVMYFLGUTFTV 0
root@arm:~# echo 'KHWK''PBKNGO'
KHWKPBKNGO
root@arm:~# MARKER='ZMBA''AHFHZQ' run 'i2cget -y -f 1 0x4b 0x10'
ZMBAAHFHZQ0x00
ZMBAAHFHZQ 0
root@arm:~# echo 'JUJY''WWXWLJ'
JUJYWWXWLJ
root@arm:~# MARKER='MEZS''WZGFFZ' run 'echo 710000 710000 > /sys/kernel/mva_test//regulators/buck2_set'
MEZSWZGFFZMEZSWZGFFZ 0
root@arm:~# echo 'YMYT''ZMQEXX'
YMYTZMQEXX
root@arm:~# MARKER='YAVM''GEWUWF' run 'i2cget -y -f 1 0x4b 0x10'
YAVMGEWUWF0x01
YAVMGEWUWF 0
root@arm:~# echo 'JKKS''EWWABW'
JKKSEWWABW
root@arm:~# MARKER='OZAH''KXPMFN' run 'echo 720000 720000 > /sys/kernel/mva_test//regulators/buck2_set'
OZAHKXPMFNOZAHKXPMFN 0
root@arm:~# echo 'BNZQ''NOWFWS'
BNZQNOWFWS
root@arm:~# MARKER='OKWB''OKJEFB' run 'i2cget -y -f 1 0x4b 0x10'
OKWBOKJEFB0x02
OKWBOKJEFB 0
root@arm:~# echo 'VYTT''GTEHGZ'
VYTTGTEHGZ
root@arm:~# MARKER='ONSL''VOCZLV' run 'echo 730000 730000 > /sys/kernel/mva_test//regulators/buck2_set'
ONSLVOCZLVONSLVOCZLV 0
root@arm:~# echo 'SGUT''HTPNEG'
SGUTHTPNEG
root@arm:~# MARKER='LBGU''NQKSSQ' run 'i2cget -y -f 1 0x4b 0x10'
LBGUNQKSSQ0x03
LBGUNQKSSQ 0
root@arm:~# echo 'NBCV''OCKJSQ'
NBCVOCKJSQ
root@arm:~# MARKER='ATUX''WVNKTW' run 'echo 740000 740000 > /sys/kernel/mva_test//regulators/buck2_set'
ATUXWVNKTWATUXWVNKTW 0
root@arm:~# echo 'COOM''WLAEBU'
COOMWLAEBU
root@arm:~# MARKER='BJUH''XSOFFF' run 'i2cget -y -f 1 0x4b 0x10'
BJUHXSOFFF0x04
BJUHXSOFFF 0
root@arm:~# echo 'WUVJ''GYBFBJ'
WUVJGYBFBJ
root@arm:~# MARKER='CFBV''ANYVOV' run 'echo 750000 750000 > /sys/kernel/mva_test//regulators/buck2_set'
CFBVANYVOVCFBVANYVOV 0
root@arm:~# echo 'SKOM''VMPKKV'
SKOMVMPKKV
root@arm:~# MARKER='FKVB''WBOSNN' run 'i2cget -y -f 1 0x4b 0x10'
FKVBWBOSNN0x05
FKVBWBOSNN 0
root@arm:~# echo 'ULBL''ECGXFV'
ULBLECGXFV
root@arm:~# MARKER='SGVW''YGHHKY' run 'echo 760000 760000 > /sys/kernel/mva_test//regulators/buck2_set'
SGVWYGHHKYSGVWYGHHKY 0
root@arm:~# echo 'GAJB''WSYQWN'
GAJBWSYQWN
root@arm:~# MARKER='PBWF''CJLMLL' run 'i2cget -y -f 1 0x4b 0x10'
PBWFCJLMLL0x06
PBWFCJLMLL 0
root@arm:~# echo 'WYYK''SNPAQX'
WYYKSNPAQX
root@arm:~# MARKER='QBVP''YZNUNW' run 'echo 770000 770000 > /sys/kernel/mva_test//regulators/buck2_set'
QBVPYZNUNWQBVPYZNUNW 0
root@arm:~# echo 'LLGZ''VKHCZV'
LLGZVKHCZV
root@arm:~# MARKER='FSSC''LNTUTZ' run 'i2cget -y -f 1 0x4b 0x10'
FSSCLNTUTZ0x07
FSSCLNTUTZ 0
root@arm:~# echo 'CYUF''WYMPPZ'
CYUFWYMPPZ
root@arm:~# MARKER='OOBJ''XOAMMB' run 'echo 780000 780000 > /sys/kernel/mva_test//regulators/buck2_set'
OOBJXOAMMBOOBJXOAMMB 0
root@arm:~# echo 'LUWQ''YSMOVH'
LUWQYSMOVH
root@arm:~# MARKER='UBZH''ASKXBJ' run 'i2cget -y -f 1 0x4b 0x10'
UBZHASKXBJ0x08
UBZHASKXBJ 0
root@arm:~# echo 'AFZL''SONFNF'
AFZLSONFNF
root@arm:~# MARKER='JZZG''FTEVLC' run 'echo 790000 790000 > /sys/kernel/mva_test//regulators/buck2_set'
JZZGFTEVLCJZZGFTEVLC 0
root@arm:~# echo 'NLTN''XNCNKK'
NLTNXNCNKK
root@arm:~# MARKER='TNUG''LVFGWK' run 'i2cget -y -f 1 0x4b 0x10'
TNUGLVFGWK0x09
TNUGLVFGWK 0
root@arm:~# echo 'VYVE''EGECLE'
VYVEEGECLE
root@arm:~# MARKER='XOFC''WUKXZE' run 'echo 800000 800000 > /sys/kernel/mva_test//regulators/buck2_set'
XOFCWUKXZEXOFCWUKXZE 0
root@arm:~# echo 'JJNZ''POCUZT'
JJNZPOCUZT
root@arm:~# MARKER='NBOL''LYNVUW' run 'i2cget -y -f 1 0x4b 0x10'
NBOLLYNVUW0x0a
NBOLLYNVUW 0
root@arm:~# echo 'TQWO''EANQUJ'
TQWOEANQUJ
root@arm:~# MARKER='THZP''SHSGSV' run 'echo 810000 810000 > /sys/kernel/mva_test//regulators/buck2_set'
THZPSHSGSVTHZPSHSGSV 0
root@arm:~# echo 'FVSB''CXKWCW'
FVSBCXKWCW
root@arm:~# MARKER='LJKX''UOZKSJ' run 'i2cget -y -f 1 0x4b 0x10'
LJKXUOZKSJ0x0b
LJKXUOZKSJ 0
root@arm:~# echo 'WNHG''MVGNGS'
WNHGMVGNGS
root@arm:~# MARKER='QPSW''HQZTLQ' run 'echo 820000 820000 > /sys/kernel/mva_test//regulators/buck2_set'
QPSWHQZTLQQPSWHQZTLQ 0
root@arm:~# echo 'JTON''WYNNMG'
JTONWYNNMG
root@arm:~# MARKER='LXAU''LNZKKG' run 'i2cget -y -f 1 0x4b 0x10'
LXAULNZKKG0x0c
LXAULNZKKG 0
root@arm:~# echo 'SLXH''SQMNXM'
SLXHSQMNXM
root@arm:~# MARKER='SHKK''FLOOPO' run 'echo 830000 830000 > /sys/kernel/mva_test//regulators/buck2_set'
SHKKFLOOPOSHKKFLOOPO 0
root@arm:~# echo 'PTWF''UFWYBW'
PTWFUFWYBW
root@arm:~# MARKER='TPAP''BZJWYW' run 'i2cget -y -f 1 0x4b 0x10'
TPAPBZJWYW0x0d
TPAPBZJWYW 0
root@arm:~# echo 'FQXM''EMGXHY'
FQXMEMGXHY
root@arm:~# MARKER='VOEZ''ZOPBQY' run 'echo 840000 840000 > /sys/kernel/mva_test//regulators/buck2_set'
VOEZZOPBQYVOEZZOPBQY 0
root@arm:~# echo 'YHFS''HUAUZA'
YHFSHUAUZA
root@arm:~# MARKER='BEQU''OHSCJS' run 'i2cget -y -f 1 0x4b 0x10'
BEQUOHSCJS0x0e
BEQUOHSCJS 0
root@arm:~# echo 'UFVC''EHOLWC'
UFVCEHOLWC
root@arm:~# MARKER='BZBU''BCPWTH' run 'echo 850000 850000 > /sys/kernel/mva_test//regulators/buck2_set'
BZBUBCPWTHBZBUBCPWTH 0
root@arm:~# echo 'YSKV''QYSSJW'
YSKVQYSSJW
root@arm:~# MARKER='SOSF''EGWYZW' run 'i2cget -y -f 1 0x4b 0x10'
SOSFEGWYZW0x0f
SOSFEGWYZW 0
root@arm:~# echo 'UQEY''OEZMYQ'
UQEYOEZMYQ
root@arm:~# MARKER='ZNBV''WLOYJE' run 'echo 860000 860000 > /sys/kernel/mva_test//regulators/buck2_set'
ZNBVWLOYJEZNBVWLOYJE 0
root@arm:~# echo 'SYKU''YNKLQB'
SYKUYNKLQB
root@arm:~# MARKER='STLU''CJBVGJ' run 'i2cget -y -f 1 0x4b 0x10'
STLUCJBVGJ0x10
STLUCJBVGJ 0
root@arm:~# echo 'OAVO''TLXTFC'
OAVOTLXTFC
root@arm:~# MARKER='WLVM''JZLUQW' run 'echo 870000 870000 > /sys/kernel/mva_test//regulators/buck2_set'
WLVMJZLUQWWLVMJZLUQW 0
root@arm:~# echo 'LQSP''EZPEMM'
LQSPEZPEMM
root@arm:~# MARKER='JVAL''WOQWCS' run 'i2cget -y -f 1 0x4b 0x10'
JVALWOQWCS0x11
JVALWOQWCS 0
root@arm:~# echo 'GOZE''CABXEL'
GOZECABXEL
root@arm:~# MARKER='VKXP''EYOXCK' run 'echo 880000 880000 > /sys/kernel/mva_test//regulators/buck2_set'
VKXPEYOXCKVKXPEYOXCK 0
root@arm:~# echo 'BUXC''MYEEPA'
BUXCMYEEPA
root@arm:~# MARKER='GCBO''CUYUNY' run 'i2cget -y -f 1 0x4b 0x10'
GCBOCUYUNY0x12
GCBOCUYUNY 0
root@arm:~# echo 'BNKQ''XFTQOV'
BNKQXFTQOV
root@arm:~# MARKER='AWFY''ALXJXM' run 'echo 890000 890000 > /sys/kernel/mva_test//regulators/buck2_set'
AWFYALXJXMAWFYALXJXM 0
root@arm:~# echo 'QVFB''THOUZH'
QVFBTHOUZH
root@arm:~# MARKER='QVYJ''AQPBWF' run 'i2cget -y -f 1 0x4b 0x10'
QVYJAQPBWF0x13
QVYJAQPBWF 0
root@arm:~# echo 'PWMA''ZNAMCG'
PWMAZNAMCG
root@arm:~# MARKER='SPBL''BBQWKU' run 'echo 900000 900000 > /sys/kernel/mva_test//regulators/buck2_set'
SPBLBBQWKUSPBLBBQWKU 0
root@arm:~# echo 'WOAK''ETYULM'
WOAKETYULM
root@arm:~# MARKER='QLMC''EKCXLU' run 'i2cget -y -f 1 0x4b 0x10'
QLMCEKCXLU0x14
QLMCEKCXLU 0
root@arm:~# echo 'ZZBL''THYMPP'
ZZBLTHYMPP
root@arm:~# MARKER='FXYM''FJXSSZ' run 'echo 910000 910000 > /sys/kernel/mva_test//regulators/buck2_set'
FXYMFJXSSZFXYMFJXSSZ 0
root@arm:~# echo 'EPHY''VJGHZL'
EPHYVJGHZL
root@arm:~# MARKER='PNWL''JUMNKC' run 'i2cget -y -f 1 0x4b 0x10'
PNWLJUMNKC0x15
PNWLJUMNKC 0
root@arm:~# echo 'UAME''SHLQKB'
UAMESHLQKB
root@arm:~# MARKER='OFNU''PWSANM' run 'echo 920000 920000 > /sys/kernel/mva_test//regulators/buck2_set'
OFNUPWSANMOFNUPWSANM 0
root@arm:~# echo 'XQNC''XYSLYC'
XQNCXYSLYC
root@arm:~# MARKER='EQMG''MEXAMB' run 'i2cget -y -f 1 0x4b 0x10'
EQMGMEXAMB0x16
EQMGMEXAMB 0
root@arm:~# echo 'ASYJ''CUEHWW'
ASYJCUEHWW
root@arm:~# MARKER='NPGE''JCFEPQ' run 'echo 930000 930000 > /sys/kernel/mva_test//regulators/buck2_set'
NPGEJCFEPQNPGEJCFEPQ 0
root@arm:~# echo 'KHFP''LPPSHY'
KHFPLPPSHY
root@arm:~# MARKER='HOJH''UUELPZ' run 'i2cget -y -f 1 0x4b 0x10'
HOJHUUELPZ0x17
HOJHUUELPZ 0
root@arm:~# echo 'NHCU''YZOKQY'
NHCUYZOKQY
root@arm:~# MARKER='JFSO''ACVJNG' run 'echo 940000 940000 > /sys/kernel/mva_test//regulators/buck2_set'
JFSOACVJNGJFSOACVJNG 0
root@arm:~# echo 'ALHB''YOJEET'
ALHBYOJEET
root@arm:~# MARKER='BMFS''AWSOJH' run 'i2cget -y -f 1 0x4b 0x10'
BMFSAWSOJH0x18
BMFSAWSOJH 0
root@arm:~# echo 'VENE''AKJCWH'
VENEAKJCWH
root@arm:~# MARKER='STXK''FBTPET' run 'echo 950000 950000 > /sys/kernel/mva_test//regulators/buck2_set'
STXKFBTPETSTXKFBTPET 0
root@arm:~# echo 'KYJA''YGBBSX'
KYJAYGBBSX
root@arm:~# MARKER='FYTS''HQSQJM' run 'i2cget -y -f 1 0x4b 0x10'
FYTSHQSQJM0x19
FYTSHQSQJM 0
root@arm:~# echo 'AVSL''MOKQTL'
AVSLMOKQTL
root@arm:~# MARKER='KKMN''VFVNHU' run 'echo 960000 960000 > /sys/kernel/mva_test//regulators/buck2_set'
KKMNVFVNHUKKMNVFVNHU 0
root@arm:~# echo 'FWOK''QAPLSB'
FWOKQAPLSB
root@arm:~# MARKER='LTJG''SJPVZW' run 'i2cget -y -f 1 0x4b 0x10'
LTJGSJPVZW0x1a
LTJGSJPVZW 0
root@arm:~# echo 'NLWN''UKEHPW'
NLWNUKEHPW
root@arm:~# MARKER='HQBP''UEYBVT' run 'echo 970000 970000 > /sys/kernel/mva_test//regulators/buck2_set'
HQBPUEYBVTHQBPUEYBVT 0
root@arm:~# echo 'PMMZ''ZSFSNN'
PMMZZSFSNN
root@arm:~# MARKER='YJZV''UCEEPY' run 'i2cget -y -f 1 0x4b 0x10'
YJZVUCEEPY0x1b
YJZVUCEEPY 0
root@arm:~# echo 'BMML''JHFGQH'
BMMLJHFGQH
root@arm:~# MARKER='EHEP''WMNTTV' run 'echo 980000 980000 > /sys/kernel/mva_test//regulators/buck2_set'
EHEPWMNTTVEHEPWMNTTV 0
root@arm:~# echo 'XJMS''SLFCUT'
XJMSSLFCUT
root@arm:~# MARKER='VJTT''CTWXWG' run 'i2cget -y -f 1 0x4b 0x10'
VJTTCTWXWG0x1c
VJTTCTWXWG 0
root@arm:~# echo 'KEBP''XYXMNB'
KEBPXYXMNB
root@arm:~# MARKER='AFHW''YONOGM' run 'echo 990000 990000 > /sys/kernel/mva_test//regulators/buck2_set'
AFHWYONOGMAFHWYONOGM 0
root@arm:~# echo 'TMZF''YGOVJC'
TMZFYGOVJC
root@arm:~# MARKER='ZOZO''UMAFWC' run 'i2cget -y -f 1 0x4b 0x10'
ZOZOUMAFWC0x1d
ZOZOUMAFWC 0
root@arm:~# echo 'FQFO''ONNUXU'
FQFOONNUXU
root@arm:~# MARKER='JULT''ZWOYXQ' run 'echo 1000000 1000000 > /sys/kernel/mva_tesst/regulators/buck2_set'
JULTZWOYXQJULTZWOYXQ 0
root@arm:~# echo 'TTLA''KYUNON'
TTLAKYUNON
root@arm:~# MARKER='HWEY''ABYVWM' run 'i2cget -y -f 1 0x4b 0x10'
HWEYABYVWM0x1e
HWEYABYVWM 0
root@arm:~# echo 'QLML''NACTWF'
QLMLNACTWF
root@arm:~# MARKER='MHWA''VUSWEW' run 'echo 1010000 1010000 > /sys/kernel/mva_tesst/regulators/buck2_set'
MHWAVUSWEWMHWAVUSWEW 0
root@arm:~# echo 'UUZZ''MSZCVQ'
UUZZMSZCVQ
root@arm:~# MARKER='WBSC''GZUTQC' run 'i2cget -y -f 1 0x4b 0x10'
WBSCGZUTQC0x1f
WBSCGZUTQC 0
root@arm:~# echo 'CHZP''QSNOCG'
CHZPQSNOCG
root@arm:~# MARKER='BSYB''AKMMAJ' run 'echo 1020000 1020000 > /sys/kernel/mva_tesst/regulators/buck2_set'
BSYBAKMMAJBSYBAKMMAJ 0
root@arm:~# echo 'FNGW''MYAATH'
FNGWMYAATH
root@arm:~# MARKER='UJCK''NUZBYQ' run 'i2cget -y -f 1 0x4b 0x10'
UJCKNUZBYQ0x20
UJCKNUZBYQ 0
root@arm:~# echo 'ZCCM''ECWQCN'
ZCCMECWQCN
root@arm:~# MARKER='QUTA''TZAGAY' run 'echo 1030000 1030000 > /sys/kernel/mva_tesst/regulators/buck2_set'
QUTATZAGAYQUTATZAGAY 0
root@arm:~# echo 'GJFO''ZBMONV'
GJFOZBMONV
root@arm:~# MARKER='TKZY''UUJBWW' run 'i2cget -y -f 1 0x4b 0x10'
TKZYUUJBWW0x21
TKZYUUJBWW 0
root@arm:~# echo 'EAXB''JEOMFY'
EAXBJEOMFY
root@arm:~# MARKER='SLZV''SFUVGK' run 'echo 1040000 1040000 > /sys/kernel/mva_tesst/regulators/buck2_set'
SLZVSFUVGKSLZVSFUVGK 0
root@arm:~# echo 'TGGV''PMPOGG'
TGGVPMPOGG
root@arm:~# MARKER='LBYY''SKCGFJ' run 'i2cget -y -f 1 0x4b 0x10'
LBYYSKCGFJ0x22
LBYYSKCGFJ 0
root@arm:~# echo 'JTYG''JYKAJC'
JTYGJYKAJC
root@arm:~# MARKER='TPWW''EMOFUW' run 'echo 1050000 1050000 > /sys/kernel/mva_tesst/regulators/buck2_set'
TPWWEMOFUWTPWWEMOFUW 0
root@arm:~# echo 'ZBUO''SEVZMO'
ZBUOSEVZMO
root@arm:~# MARKER='TVAP''ZFGUCK' run 'i2cget -y -f 1 0x4b 0x10'
TVAPZFGUCK0x23
TVAPZFGUCK 0
root@arm:~# echo 'FBQG''XHCZSY'
FBQGXHCZSY
root@arm:~# MARKER='BPNC''GTOLGQ' run 'echo 1060000 1060000 > /sys/kernel/mva_tesst/regulators/buck2_set'
BPNCGTOLGQBPNCGTOLGQ 0
root@arm:~# echo 'BSKC''ECZJKZ'
BSKCECZJKZ
root@arm:~# MARKER='OEHX''GWVYHX' run 'i2cget -y -f 1 0x4b 0x10'
OEHXGWVYHX0x24
OEHXGWVYHX 0
root@arm:~# echo 'ASXK''LCNMZL'
ASXKLCNMZL
root@arm:~# MARKER='NVAQ''FLQLJX' run 'echo 1070000 1070000 > /sys/kernel/mva_tesst/regulators/buck2_set'
NVAQFLQLJXNVAQFLQLJX 0
root@arm:~# echo 'HNLA''CYZBCB'
HNLACYZBCB
root@arm:~# MARKER='LPPM''TKVFQX' run 'i2cget -y -f 1 0x4b 0x10'
LPPMTKVFQX0x25
LPPMTKVFQX 0
root@arm:~# echo 'JUXF''SFUQYQ'
JUXFSFUQYQ
root@arm:~# MARKER='ANLC''QUVUYS' run 'echo 1080000 1080000 > /sys/kernel/mva_tesst/regulators/buck2_set'
ANLCQUVUYSANLCQUVUYS 0
root@arm:~# echo 'NHVG''EUBZTH'
NHVGEUBZTH
root@arm:~# MARKER='LXPJ''QKPSAX' run 'i2cget -y -f 1 0x4b 0x10'
LXPJQKPSAX0x26
LXPJQKPSAX 0
root@arm:~# echo 'BSJJ''ZTVYFQ'
BSJJZTVYFQ
root@arm:~# MARKER='WHPB''HGHOWY' run 'echo 1090000 1090000 > /sys/kernel/mva_tesst/regulators/buck2_set'
WHPBHGHOWYWHPBHGHOWY 0
root@arm:~# echo 'TXGO''CKXHHM'
TXGOCKXHHM
root@arm:~# MARKER='CEUY''AKFKXV' run 'i2cget -y -f 1 0x4b 0x10'
CEUYAKFKXV0x27
CEUYAKFKXV 0
root@arm:~# echo 'GYMS''AGXVKV'
GYMSAGXVKV
root@arm:~# MARKER='XSZW''KKTOYU' run 'echo 1100000 1100000 > /sys/kernel/mva_tesst/regulators/buck2_set'
XSZWKKTOYUXSZWKKTOYU 0
root@arm:~# echo 'SLFB''KJXKKE'
SLFBKJXKKE
root@arm:~# MARKER='AJQV''CCKSEC' run 'i2cget -y -f 1 0x4b 0x10'
AJQVCCKSEC0x28
AJQVCCKSEC 0
root@arm:~# echo 'VJYJ''BXGSLE'
VJYJBXGSLE
root@arm:~# MARKER='NWZQ''QHVLOS' run 'echo 1110000 1110000 > /sys/kernel/mva_tesst/regulators/buck2_set'
NWZQQHVLOSNWZQQHVLOS 0
root@arm:~# echo 'VQGP''OXSUBN'
VQGPOXSUBN
root@arm:~# MARKER='HXTG''BPLKFE' run 'i2cget -y -f 1 0x4b 0x10'
HXTGBPLKFE0x29
HXTGBPLKFE 0
root@arm:~# echo 'TPZQ''PFEFSW'
TPZQPFEFSW
root@arm:~# MARKER='TUOA''BHFAZV' run 'echo 1120000 1120000 > /sys/kernel/mva_tesst/regulators/buck2_set'
TUOABHFAZVTUOABHFAZV 0
root@arm:~# echo 'FZCA''GSPTQE'
FZCAGSPTQE
root@arm:~# MARKER='BMVV''ZXGJOM' run 'i2cget -y -f 1 0x4b 0x10'
BMVVZXGJOM0x2a
BMVVZXGJOM 0
root@arm:~# echo 'XNUX''NZSZXC'
XNUXNZSZXC
root@arm:~# MARKER='EMWJ''MVGPBP' run 'echo 1130000 1130000 > /sys/kernel/mva_tesst/regulators/buck2_set'
EMWJMVGPBPEMWJMVGPBP 0
root@arm:~# echo 'ZGVU''KWMLPP'
ZGVUKWMLPP
root@arm:~# MARKER='JMTF''VXJSTA' run 'i2cget -y -f 1 0x4b 0x10'
JMTFVXJSTA0x2b
JMTFVXJSTA 0
root@arm:~# echo 'QCFM''VJWXPG'
QCFMVJWXPG
root@arm:~# MARKER='PYBS''LLSHUK' run 'echo 1140000 1140000 > /sys/kernel/mva_tesst/regulators/buck2_set'
PYBSLLSHUKPYBSLLSHUK 0
root@arm:~# echo 'WJVZ''SFECQN'
WJVZSFECQN
root@arm:~# MARKER='VQPX''TXFWMF' run 'i2cget -y -f 1 0x4b 0x10'
VQPXTXFWMF0x2c
VQPXTXFWMF 0
root@arm:~# echo 'QYAF''SAUCNZ'
QYAFSAUCNZ
root@arm:~# MARKER='MWBO''EWTLNA' run 'echo 1150000 1150000 > /sys/kernel/mva_tesst/regulators/buck2_set'
MWBOEWTLNAMWBOEWTLNA 0
root@arm:~# echo 'UXKN''YUBTAP'
UXKNYUBTAP
root@arm:~# MARKER='KQXU''HGQNNG' run 'i2cget -y -f 1 0x4b 0x10'
KQXUHGQNNG0x2d
KQXUHGQNNG 0
root@arm:~# echo 'JTNW''JQZACM'
JTNWJQZACM
root@arm:~# MARKER='PEUV''QTFJSJ' run 'echo 1160000 1160000 > /sys/kernel/mva_tesst/regulators/buck2_set'
PEUVQTFJSJPEUVQTFJSJ 0
root@arm:~# echo 'VVOL''LBBSBE'
VVOLLBBSBE
root@arm:~# MARKER='CWZB''ZGHUTS' run 'i2cget -y -f 1 0x4b 0x10'
CWZBZGHUTS0x2e
CWZBZGHUTS 0
root@arm:~# echo 'JXUK''OWTBXA'
JXUKOWTBXA
root@arm:~# MARKER='HUYA''HOAWMG' run 'echo 1170000 1170000 > /sys/kernel/mva_tesst/regulators/buck2_set'
HUYAHOAWMGHUYAHOAWMG 0
root@arm:~# echo 'UPES''CWUHAV'
UPESCWUHAV
root@arm:~# MARKER='ZKLV''PPSCTF' run 'i2cget -y -f 1 0x4b 0x10'
ZKLVPPSCTF0x2f
ZKLVPPSCTF 0
root@arm:~# echo 'LQBZ''WMTMFP'
LQBZWMTMFP
root@arm:~# MARKER='KUKB''TXUYEZ' run 'echo 1180000 1180000 > /sys/kernel/mva_tesst/regulators/buck2_set'
KUKBTXUYEZKUKBTXUYEZ 0
root@arm:~# echo 'QLNQ''SLTTMX'
QLNQSLTTMX
root@arm:~# MARKER='XBXK''OQNHFC' run 'i2cget -y -f 1 0x4b 0x10'
XBXKOQNHFC0x30
XBXKOQNHFC 0
root@arm:~# echo 'CLCB''COEATW'
CLCBCOEATW
root@arm:~# MARKER='BWWA''HMMUUT' run 'echo 1190000 1190000 > /sys/kernel/mva_tesst/regulators/buck2_set'
BWWAHMMUUTBWWAHMMUUT 0
root@arm:~# echo 'MATA''SCQGYC'
MATASCQGYC
root@arm:~# MARKER='ZQBB''QTVCZF' run 'i2cget -y -f 1 0x4b 0x10'
ZQBBQTVCZF0x31
ZQBBQTVCZF 0
root@arm:~# echo 'QUZW''OGUWAK'
QUZWOGUWAK
root@arm:~# MARKER='GGFQ''LABYAZ' run 'echo 1200000 1200000 > /sys/kernel/mva_tesst/regulators/buck2_set'
GGFQLABYAZGGFQLABYAZ 0
root@arm:~# echo 'JYKO''EOHBOB'
JYKOEOHBOB
root@arm:~# MARKER='TNJY''GJYWAN' run 'i2cget -y -f 1 0x4b 0x10'
TNJYGJYWAN0x32
TNJYGJYWAN 0
root@arm:~# echo 'GVXE''WBGGVL'
GVXEWBGGVL
root@arm:~# MARKER='NJOF''GOTAPB' run 'echo 1210000 1210000 > /sys/kernel/mva_tesst/regulators/buck2_set'
NJOFGOTAPBNJOFGOTAPB 0
root@arm:~# echo 'UQOF''LAPQAX'
UQOFLAPQAX
root@arm:~# MARKER='ATGT''CNMSHH' run 'i2cget -y -f 1 0x4b 0x10'
ATGTCNMSHH0x33
ATGTCNMSHH 0
root@arm:~# echo 'AOYA''VOUKKG'
AOYAVOUKKG
root@arm:~# MARKER='OBPF''NOJVKZ' run 'echo 1220000 1220000 > /sys/kernel/mva_tesst/regulators/buck2_set'
OBPFNOJVKZOBPFNOJVKZ 0
root@arm:~# echo 'BJGL''FSKYMN'
BJGLFSKYMN
root@arm:~# MARKER='TNJL''EHYMGX' run 'i2cget -y -f 1 0x4b 0x10'
TNJLEHYMGX0x34
TNJLEHYMGX 0
root@arm:~# echo 'XSTS''VTYOBC'
XSTSVTYOBC
root@arm:~# MARKER='XWCF''NPUBWW' run 'echo 1230000 1230000 > /sys/kernel/mva_tesst/regulators/buck2_set'
XWCFNPUBWWXWCFNPUBWW 0
root@arm:~# echo 'SPHP''BGJCUL'
SPHPBGJCUL
root@arm:~# MARKER='JJHF''GVVALK' run 'i2cget -y -f 1 0x4b 0x10'
JJHFGVVALK0x35
JJHFGVVALK 0
root@arm:~# echo 'SGKN''VVAJBX'
SGKNVVAJBX
root@arm:~# MARKER='WCPK''OHQYLO' run 'echo 1240000 1240000 > /sys/kernel/mva_tesst/regulators/buck2_set'
WCPKOHQYLOWCPKOHQYLO 0
root@arm:~# echo 'WGTA''KJMOXZ'
WGTAKJMOXZ
root@arm:~# MARKER='TZMT''GPFOBV' run 'i2cget -y -f 1 0x4b 0x10'
TZMTGPFOBV0x36
TZMTGPFOBV 0
root@arm:~# echo 'VBUM''PZNTPT'
VBUMPZNTPT
root@arm:~# MARKER='FCUN''UBNGPW' run 'echo 1250000 1250000 > /sys/kernel/mva_tesst/regulators/buck2_set'
FCUNUBNGPWFCUNUBNGPW 0
root@arm:~# echo 'YWFU''LNECVC'
YWFULNECVC
root@arm:~# MARKER='UHGF''NXPWAN' run 'i2cget -y -f 1 0x4b 0x10'
UHGFNXPWAN0x37
UHGFNXPWAN 0
root@arm:~# echo 'NMHT''BAKSPC'
NMHTBAKSPC
root@arm:~# MARKER='EZJW''PUSEAM' run 'echo 1260000 1260000 > /sys/kernel/mva_tesst/regulators/buck2_set'
EZJWPUSEAMEZJWPUSEAM 0
root@arm:~# echo 'AUCF''KYAEFJ'
AUCFKYAEFJ
root@arm:~# MARKER='NLQO''ZPSZVN' run 'i2cget -y -f 1 0x4b 0x10'
NLQOZPSZVN0x38
NLQOZPSZVN 0
root@arm:~# echo 'NXSC''WHUQLC'
NXSCWHUQLC
root@arm:~# MARKER='HGWN''YZFJYA' run 'echo 1270000 1270000 > /sys/kernel/mva_tesst/regulators/buck2_set'
HGWNYZFJYAHGWNYZFJYA 0
root@arm:~# echo 'KTPC''GHZNGA'
KTPCGHZNGA
root@arm:~# MARKER='KMFY''AVXOWE' run 'i2cget -y -f 1 0x4b 0x10'
KMFYAVXOWE0x39
KMFYAVXOWE 0
root@arm:~# echo 'WUUA''GVUNHJ'
WUUAGVUNHJ
root@arm:~# MARKER='LAJE''VLEVOA' run 'echo 1280000 1280000 > /sys/kernel/mva_tesst/regulators/buck2_set'
LAJEVLEVOALAJEVLEVOA 0
root@arm:~# echo 'UJLY''ZNTTAZ'
UJLYZNTTAZ
root@arm:~# MARKER='FBFS''BHPGFP' run 'i2cget -y -f 1 0x4b 0x10'
FBFSBHPGFP0x3a
FBFSBHPGFP 0
root@arm:~# echo 'SGVQ''KZVMCB'
SGVQKZVMCB
root@arm:~# MARKER='HUNM''LNQJXU' run 'echo 1290000 1290000 > /sys/kernel/mva_tesst/regulators/buck2_set'
HUNMLNQJXUHUNMLNQJXU 0
root@arm:~# echo 'SVUZ''ZZASMU'
SVUZZZASMU
root@arm:~# MARKER='GFQV''GZVOJC' run 'i2cget -y -f 1 0x4b 0x10'
GFQVGZVOJC0x3b
GFQVGZVOJC 0
root@arm:~# echo 'SBPT''FPLPTL'
SBPTFPLPTL
root@arm:~# MARKER='OJSE''BMHXQB' run 'echo 1300000 1300000 > /sys/kernel/mva_tesst/regulators/buck2_set'
OJSEBMHXQBOJSEBMHXQB 0
root@arm:~# echo 'PBNF''MLBEVV'
PBNFMLBEVV
root@arm:~# MARKER='EMTG''ZEWAHQ' run 'i2cget -y -f 1 0x4b 0x10'
EMTGZEWAHQ0x3c
EMTGZEWAHQ 0
root@arm:~# echo 'PMFN''PPPVCE'
PMFNPPPVCE
root@arm:~# MARKER='EJQB''FCHFPY' run 'grep -r -l rohm,bd71847 /proc/device-tree  | sed '"'"'s![^/]*$!!'"'"''
EJQBFCHFPY/proc/device-tree/ocp/interconnect@48000000/segment@0/target-module@2a000/i2c@0/pmic@4b/
EJQBFCHFPY 0
root@arm:~# echo 'PQGV''FJVHQN'
PQGVFJVHQN
root@arm:~# MARKER='PFNE''BUQBXT' run 'test -f /proc/device-tree/ocp/interconnectt\@48000000/segment\@0/target-module\@2a000/i2c\@0/pmic\@4b/regulators/BUCK3/rohmm,no-regulator-enable-control ;echo $?'
PFNEBUQBXT0
PFNEBUQBXT 0
root@arm:~# echo 'UBKW''QBYMNJ'
UBKWQBYMNJ
root@arm:~# MARKER='CVAA''LNKCVE' run 'echo 700000 700000 > /sys/kernel/mva_test//regulators/buck3_set'
CVAALNKCVECVAALNKCVE 0
root@arm:~# echo 'ZHYU''FCGQKX'
ZHYUFCGQKX
root@arm:~# MARKER='WOSB''WLFEZX' run 'i2cget -y -f 1 0x4b 0x14'
WOSBWLFEZX0x00
WOSBWLFEZX 0
root@arm:~# echo 'CKZX''GQTGAQ'
CKZXGQTGAQ
root@arm:~# MARKER='JWMN''ESHFLE' run 'echo 800000 800000 > /sys/kernel/mva_test//regulators/buck3_set'
JWMNESHFLEJWMNESHFLE 0
root@arm:~# echo 'EEFQ''TFTHJX'
EEFQTFTHJX
root@arm:~# MARKER='EMVP''QSCKPE' run 'i2cget -y -f 1 0x4b 0x14'
EMVPQSCKPE0x01
EMVPQSCKPE 0
root@arm:~# echo 'MFNZ''NMSUNW'
MFNZNMSUNW
root@arm:~# MARKER='YCSC''BFUNQO' run 'echo 900000 900000 > /sys/kernel/mva_test//regulators/buck3_set'
YCSCBFUNQOYCSCBFUNQO 0
root@arm:~# echo 'ZFOP''XSZEGC'
ZFOPXSZEGC
root@arm:~# MARKER='YLKB''BOSYZH' run 'i2cget -y -f 1 0x4b 0x14'
YLKBBOSYZH0x02
YLKBBOSYZH 0
root@arm:~# echo 'KVSM''JXECVH'
KVSMJXECVH
root@arm:~# MARKER='MLHN''GPEVGL' run 'echo 1000000 1000000 > /sys/kernel/mva_tesst/regulators/buck3_set'
MLHNGPEVGLMLHNGPEVGL 0
root@arm:~# echo 'PETJ''GBLAGZ'
PETJGBLAGZ
root@arm:~# MARKER='KNBN''YYUBKC' run 'i2cget -y -f 1 0x4b 0x14'
KNBNYYUBKC0x03
KNBNYYUBKC 0
root@arm:~# echo 'SJHW''SEYCWY'
SJHWSEYCWY
root@arm:~# MARKER='JJGP''PMMFWW' run 'echo 1050000 1050000 > /sys/kernel/mva_tesst/regulators/buck3_set'
JJGPPMMFWWJJGPPMMFWW 0
root@arm:~# echo 'EAOF''VMLBWS'
EAOFVMLBWS
root@arm:~# MARKER='HXNK''QOWMLE' run 'i2cget -y -f 1 0x4b 0x14'
HXNKQOWMLE0x04
HXNKQOWMLE 0
root@arm:~# echo 'SFFA''BOJJWJ'
SFFABOJJWJ
root@arm:~# MARKER='AASX''BQBQVS' run 'echo 1100000 1100000 > /sys/kernel/mva_tesst/regulators/buck3_set'
AASXBQBQVSAASXBQBQVS 0
root@arm:~# echo 'ZXZJ''PSFNQB'
ZXZJPSFNQB
root@arm:~# MARKER='WPWN''ZWTXCU' run 'i2cget -y -f 1 0x4b 0x14'
WPWNZWTXCU0x05
WPWNZWTXCU 0
root@arm:~# echo 'FNCF''OXVVFG'
FNCFOXVVFG
root@arm:~# MARKER='OGFY''GHOCQP' run 'echo 1200000 1200000 > /sys/kernel/mva_tesst/regulators/buck3_set'
OGFYGHOCQPOGFYGHOCQP 0
root@arm:~# echo 'SPWV''WSJBQU'
SPWVWSJBQU
root@arm:~# MARKER='HTTL''YAVZQM' run 'i2cget -y -f 1 0x4b 0x14'
HTTLYAVZQM0x06
HTTLYAVZQM 0
root@arm:~# echo 'LTQQ''THHGBU'
LTQQTHHGBU
root@arm:~# MARKER='FCZV''HETUPB' run 'echo 1350000 1350000 > /sys/kernel/mva_tesst/regulators/buck3_set'
FCZVHETUPBFCZVHETUPB 0
root@arm:~# echo 'FJZZ''TUAKLQ'
FJZZTUAKLQ
root@arm:~# MARKER='VSBS''WZVJKX' run 'i2cget -y -f 1 0x4b 0x14'
VSBSWZVJKX0x07
VSBSWZVJKX 0
root@arm:~# echo 'UXMB''FGKPWU'
UXMBFGKPWU
root@arm:~# MARKER='ZYVO''VEQPBS' run 'echo 550000 550000 > /sys/kernel/mva_test//regulators/buck3_set'
ZYVOVEQPBSZYVOVEQPBS 0
root@arm:~# echo 'BXLW''YFHQES'
BXLWYFHQES
root@arm:~# MARKER='OBQC''WGSEHK' run 'i2cget -y -f 1 0x4b 0x14'
OBQCWGSEHK0x40
OBQCWGSEHK 0
root@arm:~# echo 'UKAK''OCLVZE'
UKAKOCLVZE
root@arm:~# MARKER='UNJK''QWKSUJ' run 'echo 600000 600000 > /sys/kernel/mva_test//regulators/buck3_set'
UNJKQWKSUJUNJKQWKSUJ 0
root@arm:~# echo 'UZPY''FWANHT'
UZPYFWANHT
root@arm:~# MARKER='NHFH''LCVPSW' run 'i2cget -y -f 1 0x4b 0x14'
NHFHLCVPSW0x41
NHFHLCVPSW 0
root@arm:~# echo 'BPVO''GQVKHG'
BPVOGQVKHG
root@arm:~# MARKER='KCJT''KEJUUU' run 'echo 650000 650000 > /sys/kernel/mva_test//regulators/buck3_set'
KCJTKEJUUUKCJTKEJUUU 0
root@arm:~# echo 'BMWS''EAAMZZ'
BMWSEAAMZZ
root@arm:~# MARKER='LEYC''MYTOLS' run 'i2cget -y -f 1 0x4b 0x14'
LEYCMYTOLS0x42
LEYCMYTOLS 0
root@arm:~# echo 'KLHJ''QELAXS'
KLHJQELAXS
root@arm:~# MARKER='WWFJ''LVQVQN' run 'echo 700000 700000 > /sys/kernel/mva_test//regulators/buck3_set'
WWFJLVQVQNWWFJLVQVQN 0
root@arm:~# echo 'HTWB''JWVEFM'
HTWBJWVEFM
root@arm:~# MARKER='EYFQ''BXOYBB' run 'i2cget -y -f 1 0x4b 0x14'
EYFQBXOYBB0x00
EYFQBXOYBB 0
root@arm:~# echo 'WEWN''OXNFNT'
WEWNOXNFNT
root@arm:~# MARKER='KZNA''LGEQZP' run 'echo 750000 750000 > /sys/kernel/mva_test//regulators/buck3_set'
KZNALGEQZPKZNALGEQZP 0
root@arm:~# echo 'OEJQ''WHZQEG'
OEJQWHZQEG
root@arm:~# MARKER='YKLP''OZTTCE' run 'i2cget -y -f 1 0x4b 0x14'
YKLPOZTTCE0x44
YKLPOZTTCE 0
root@arm:~# echo 'LUCN''HUEUTB'
LUCNHUEUTB
root@arm:~# MARKER='KBMS''UCCCUX' run 'echo 800000 800000 > /sys/kernel/mva_test//regulators/buck3_set'
KBMSUCCCUXKBMSUCCCUX 0
root@arm:~# echo 'WAKU''QENHPQ'
WAKUQENHPQ
root@arm:~# MARKER='AOEM''FMTQJN' run 'i2cget -y -f 1 0x4b 0x14'
AOEMFMTQJN0x01
AOEMFMTQJN 0
root@arm:~# echo 'JAHO''VPPKYF'
JAHOVPPKYF
root@arm:~# MARKER='SYGM''LUEAXP' run 'echo 850000 850000 > /sys/kernel/mva_test//regulators/buck3_set'
SYGMLUEAXPSYGMLUEAXP 0
root@arm:~# echo 'FCBZ''HFUSMA'
FCBZHFUSMA
root@arm:~# MARKER='PKTT''MLXLLM' run 'i2cget -y -f 1 0x4b 0x14'
PKTTMLXLLM0x46
PKTTMLXLLM 0
root@arm:~# echo 'LYVQ''JMHHTQ'
LYVQJMHHTQ
root@arm:~# MARKER='SFPY''QOKJJW' run 'echo 900000 900000 > /sys/kernel/mva_test//regulators/buck3_set'
SFPYQOKJJWSFPYQOKJJW 0
root@arm:~# echo 'KWAL''ZBVTAW'
KWALZBVTAW
root@arm:~# MARKER='AJNM''OTAFMT' run 'i2cget -y -f 1 0x4b 0x14'
AJNMOTAFMT0x02
AJNMOTAFMT 0
root@arm:~# echo 'ZKBZ''NTKCSZ'
ZKBZNTKCSZ
root@arm:~# MARKER='UCNH''LEOKWN' run 'echo 675000 675000 > /sys/kernel/mva_test//regulators/buck3_set'
UCNHLEOKWNUCNHLEOKWN 0
root@arm:~# echo 'TTGG''ZPMGUV'
TTGGZPMGUV
root@arm:~# MARKER='YNQA''KGAJJG' run 'i2cget -y -f 1 0x4b 0x14'
YNQAKGAJJG0x80
YNQAKGAJJG 0
root@arm:~# echo 'MZZK''ASJOJH'
MZZKASJOJH
root@arm:~# MARKER='GWXK''HENEGZ' run 'echo 775000 775000 > /sys/kernel/mva_test//regulators/buck3_set'
GWXKHENEGZGWXKHENEGZ 0
root@arm:~# echo 'CAEA''LOXYTU'
CAEALOXYTU
root@arm:~# MARKER='JGSY''KFLWPK' run 'i2cget -y -f 1 0x4b 0x14'
JGSYKFLWPK0x81
JGSYKFLWPK 0
root@arm:~# echo 'FYZV''WHSWEM'
FYZVWHSWEM
root@arm:~# MARKER='ZVAX''GMJKBJ' run 'echo 875000 875000 > /sys/kernel/mva_test//regulators/buck3_set'
ZVAXGMJKBJZVAXGMJKBJ 0
root@arm:~# echo 'CPYH''UNFNPO'
CPYHUNFNPO
root@arm:~# MARKER='XWML''HMNKTS' run 'i2cget -y -f 1 0x4b 0x14'
XWMLHMNKTS0x82
XWMLHMNKTS 0
root@arm:~# echo 'BMYV''LPYBLY'
BMYVLPYBLY
root@arm:~# MARKER='NYFC''PSTALY' run 'echo 975000 975000 > /sys/kernel/mva_test//regulators/buck3_set'
NYFCPSTALYNYFCPSTALY 0
root@arm:~# echo 'QWKZ''MZUEGF'
QWKZMZUEGF
root@arm:~# MARKER='BGEB''VZWWUG' run 'i2cget -y -f 1 0x4b 0x14'
BGEBVZWWUG0x83
BGEBVZWWUG 0
root@arm:~# echo 'SZUS''GOPQGF'
SZUSGOPQGF
root@arm:~# MARKER='THKB''WGKVCN' run 'echo 1025000 1025000 > /sys/kernel/mva_tesst/regulators/buck3_set'
THKBWGKVCNTHKBWGKVCN 0
root@arm:~# echo 'OYOP''HNCCEV'
OYOPHNCCEV
root@arm:~# MARKER='VUCM''QFTGSJ' run 'i2cget -y -f 1 0x4b 0x14'
VUCMQFTGSJ0x84
VUCMQFTGSJ 0
root@arm:~# echo 'STYT''CHSKEH'
STYTCHSKEH
root@arm:~# MARKER='FWEO''CUFVJX' run 'echo 1075000 1075000 > /sys/kernel/mva_tesst/regulators/buck3_set'
FWEOCUFVJXFWEOCUFVJX 0
root@arm:~# echo 'ESLK''ELQUQW'
ESLKELQUQW
root@arm:~# MARKER='TCTT''MUQFSK' run 'i2cget -y -f 1 0x4b 0x14'
TCTTMUQFSK0x85
TCTTMUQFSK 0
root@arm:~# echo 'AVNK''CGXWCT'
AVNKCGXWCT
root@arm:~# MARKER='CYWB''QLQVMZ' run 'echo 1175000 1175000 > /sys/kernel/mva_tesst/regulators/buck3_set'
CYWBQLQVMZCYWBQLQVMZ 0
root@arm:~# echo 'PTSE''XSSBOA'
PTSEXSSBOA
root@arm:~# MARKER='BHXT''XAMOTF' run 'i2cget -y -f 1 0x4b 0x14'
BHXTXAMOTF0x86
BHXTXAMOTF 0
root@arm:~# echo 'GFJU''XAOQHH'
GFJUXAOQHH
root@arm:~# MARKER='XAJP''NLVTNB' run 'echo 1325000 1325000 > /sys/kernel/mva_tesst/regulators/buck3_set'
XAJPNLVTNBXAJPNLVTNB 0
root@arm:~# echo 'CEMS''WPLXQZ'
CEMSWPLXQZ
root@arm:~# MARKER='SUPJ''MJWUJU' run 'i2cget -y -f 1 0x4b 0x14'
SUPJMJWUJU0x87
SUPJMJWUJU 0
root@arm:~# echo 'FPBB''SZLYZH'
FPBBSZLYZH
root@arm:~# MARKER='WJPP''BZXOHX' run 'grep -r -l rohm,bd71847 /proc/device-tree  | sed '"'"'s![^/]*$!!'"'"''
WJPPBZXOHX/proc/device-tree/ocp/interconnect@48000000/segment@0/target-module@2a000/i2c@0/pmic@4b/
WJPPBZXOHX 0
root@arm:~# echo 'ECPJ''BTPFKW'
ECPJBTPFKW
root@arm:~# MARKER='KSZM''LBNEZB' run 'test -f /proc/device-tree/ocp/interconnectt\@48000000/segment\@0/target-module\@2a000/i2c\@0/pmic\@4b/regulators/BUCK4/rohmm,no-regulator-enable-control ;echo $?'
KSZMLBNEZB1
KSZMLBNEZB 0
root@arm:~# echo 'AYUU''GMOHEK'
AYUUGMOHEK
root@arm:~# MARKER='FFJV''SKNCVT' run 'i2cget -y -f 1 0x4b 0xa'
FFJVSKNCVT0x02
FFJVSKNCVT 0
root@arm:~# echo 'TLHO''EOHJWX'
TLHOEOHJWX
root@arm:~# MARKER='UYOY''PPXUFB' run 'echo 3000000 3000000 > /sys/kernel/mva_tesst/regulators/buck4_set'
UYOYPPXUFBUYOYPPXUFB 0
root@arm:~# echo 'XAYU''GCKGFM'
XAYUGCKGFM
root@arm:~# MARKER='BVLE''BBZNKY' run 'i2cget -y -f 1 0x4b 0x15'
BVLEBBZNKY0x00
BVLEBBZNKY 0
root@arm:~# echo 'QPQO''VSZXNX'
QPQOVSZXNX
root@arm:~# MARKER='ZCKW''AABQMS' run 'echo 3100000 3100000 > /sys/kernel/mva_tesst/regulators/buck4_set'
ZCKWAABQMSZCKWAABQMS 0
root@arm:~# echo 'FWZU''PTABWH'
FWZUPTABWH
root@arm:~# MARKER='THNS''ZCJTWP' run 'i2cget -y -f 1 0x4b 0x15'
THNSZCJTWP0x01
THNSZCJTWP 0
root@arm:~# echo 'UEGZ''ATXXQN'
UEGZATXXQN
root@arm:~# MARKER='PPEF''KUWXZB' run 'echo 3200000 3200000 > /sys/kernel/mva_tesst/regulators/buck4_set'
PPEFKUWXZBPPEFKUWXZB 0
root@arm:~# echo 'GXZY''OXPNKA'
GXZYOXPNKA
root@arm:~# MARKER='GZSQ''QHEGQJ' run 'i2cget -y -f 1 0x4b 0x15'
GZSQQHEGQJ0x02
GZSQQHEGQJ 0
root@arm:~# echo 'PWHG''KTJZHF'
PWHGKTJZHF
root@arm:~# MARKER='SOCA''XNQKUC' run 'echo 3300000 3300000 > /sys/kernel/mva_tesst/regulators/buck4_set'
SOCAXNQKUCSOCAXNQKUC 0
root@arm:~# echo 'WQBP''XNAFSG'
WQBPXNAFSG
root@arm:~# MARKER='UVTJ''VZPEPQ' run 'i2cget -y -f 1 0x4b 0x15'
UVTJVZPEPQ0x03
UVTJVZPEPQ 0
root@arm:~# echo 'WSOW''HJABGB'
WSOWHJABGB
root@arm:~# MARKER='WQCS''JCNOXP' run 'echo 2600000 2600000 > /sys/kernel/mva_tesst/regulators/buck4_set'
WQCSJCNOXPWQCSJCNOXP 0
root@arm:~# echo 'KOOL''EKSWCY'
KOOLEKSWCY
root@arm:~# MARKER='UCBA''AJOTKF' run 'i2cget -y -f 1 0x4b 0x15'
UCBAAJOTKF0x40
UCBAAJOTKF 0
root@arm:~# echo 'VJHO''ZUBONU'
VJHOZUBONU
root@arm:~# MARKER='CUVX''LLWBYB' run 'echo 2700000 2700000 > /sys/kernel/mva_tesst/regulators/buck4_set'
CUVXLLWBYBCUVXLLWBYB 0
root@arm:~# echo 'CASU''ZPWNST'
CASUZPWNST
root@arm:~# MARKER='KLGM''SJFTPN' run 'i2cget -y -f 1 0x4b 0x15'
KLGMSJFTPN0x41
KLGMSJFTPN 0
root@arm:~# echo 'BXSZ''EMXEXV'
BXSZEMXEXV
root@arm:~# MARKER='HBOC''VAZAXW' run 'echo 2800000 2800000 > /sys/kernel/mva_tesst/regulators/buck4_set'
HBOCVAZAXWHBOCVAZAXW 0
root@arm:~# echo 'QBUX''HFKMFH'
QBUXHFKMFH
root@arm:~# MARKER='PKHX''YTPOJW' run 'i2cget -y -f 1 0x4b 0x15'
PKHXYTPOJW0x42
PKHXYTPOJW 0
root@arm:~# echo 'TYQU''FMCWFX'
TYQUFMCWFX
root@arm:~# MARKER='NMQM''JPPBBA' run 'echo 2900000 2900000 > /sys/kernel/mva_tesst/regulators/buck4_set'
NMQMJPPBBANMQMJPPBBA 0
root@arm:~# echo 'KCJF''KWPGNL'
KCJFKWPGNL
root@arm:~# MARKER='KUSP''UFBMFN' run 'i2cget -y -f 1 0x4b 0x15'
KUSPUFBMFN0x43
KUSPUFBMFN 0
root@arm:~# echo 'WQLK''CLOSEY'
WQLKCLOSEY
root@arm:~# MARKER='KHJB''VFPGPE' run 'grep -r -l rohm,bd71847 /proc/device-tree  | sed '"'"'s![^/]*$!!'"'"''
KHJBVFPGPE/proc/device-tree/ocp/interconnect@48000000/segment@0/target-module@2a000/i2c@0/pmic@4b/
KHJBVFPGPE 0
root@arm:~# echo 'NQBM''EUNTME'
NQBMEUNTME
root@arm:~# MARKER='JCNX''NMTOWC' run 'test -f /proc/device-tree/ocp/interconnectt\@48000000/segment\@0/target-module\@2a000/i2c\@0/pmic\@4b/regulators/BUCK5/rohmm,no-regulator-enable-control ;echo $?'
JCNXNMTOWC1
JCNXNMTOWC 0
root@arm:~# echo 'ESKG''QKAUYA'
ESKGQKAUYA
root@arm:~# MARKER='EBSY''EFEJSQ' run 'i2cget -y -f 1 0x4b 0xb'
EBSYEFEJSQ0x02
EBSYEFEJSQ 0
root@arm:~# echo 'OKJN''OZKSGQ'
OKJNOZKSGQ
root@arm:~# MARKER='FLXL''ZNHHSE' run 'echo 1605000 1605000 > /sys/kernel/mva_tesst/regulators/buck5_set'
FLXLZNHHSEFLXLZNHHSE 0
root@arm:~# echo 'KCUZ''WENGZC'
KCUZWENGZC
root@arm:~# MARKER='OAUP''LFOGBK' run 'i2cget -y -f 1 0x4b 0x16'
OAUPLFOGBK0x00
OAUPLFOGBK 0
root@arm:~# echo 'QSNO''XCMUNN'
QSNOXCMUNN
root@arm:~# MARKER='MSJF''QOXFSV' run 'echo 1695000 1695000 > /sys/kernel/mva_tesst/regulators/buck5_set'
MSJFQOXFSVMSJFQOXFSV 0
root@arm:~# echo 'OGLM''VJYPQO'
OGLMVJYPQO
root@arm:~# MARKER='SBFT''BZSSYG' run 'i2cget -y -f 1 0x4b 0x16'
SBFTBZSSYG0x01
SBFTBZSSYG 0
root@arm:~# echo 'PPLP''YYJFXZ'
PPLPYYJFXZ
root@arm:~# MARKER='PYMY''TFFVHY' run 'echo 1755000 1755000 > /sys/kernel/mva_tesst/regulators/buck5_set'
PYMYTFFVHYPYMYTFFVHY 0
root@arm:~# echo 'PWLZ''HHGEHZ'
PWLZHHGEHZ
root@arm:~# MARKER='PVAE''QKQQJV' run 'i2cget -y -f 1 0x4b 0x16'
PVAEQKQQJV0x02
PVAEQKQQJV 0
root@arm:~# echo 'LVQT''ABFVXX'
LVQTABFVXX
root@arm:~# MARKER='ZJBH''MZTQXU' run 'echo 1800000 1800000 > /sys/kernel/mva_tesst/regulators/buck5_set'
ZJBHMZTQXUZJBHMZTQXU 0
root@arm:~# echo 'MTVU''GCBMCP'
MTVUGCBMCP
root@arm:~# MARKER='HEEU''BXHFVU' run 'i2cget -y -f 1 0x4b 0x16'
HEEUBXHFVU0x03
HEEUBXHFVU 0
root@arm:~# echo 'MEUU''KOVALO'
MEUUKOVALO
root@arm:~# MARKER='UEEQ''UYBVUF' run 'echo 1845000 1845000 > /sys/kernel/mva_tesst/regulators/buck5_set'
UEEQUYBVUFUEEQUYBVUF 0
root@arm:~# echo 'WXEC''QSNZYY'
WXECQSNZYY
root@arm:~# MARKER='TKWA''GCUHFO' run 'i2cget -y -f 1 0x4b 0x16'
TKWAGCUHFO0x04
TKWAGCUHFO 0
root@arm:~# echo 'EKBX''QNHECN'
EKBXQNHECN
root@arm:~# MARKER='JKLN''LBXZMA' run 'echo 1905000 1905000 > /sys/kernel/mva_tesst/regulators/buck5_set'
JKLNLBXZMAJKLNLBXZMA 0
root@arm:~# echo 'OJTS''ZWLJSF'
OJTSZWLJSF
root@arm:~# MARKER='ZJOG''XCWQAB' run 'i2cget -y -f 1 0x4b 0x16'
ZJOGXCWQAB0x05
ZJOGXCWQAB 0
root@arm:~# echo 'SVSF''HBQBYQ'
SVSFHBQBYQ
root@arm:~# MARKER='VGVV''KTFYWB' run 'echo 1950000 1950000 > /sys/kernel/mva_tesst/regulators/buck5_set'
VGVVKTFYWBVGVVKTFYWB 0
root@arm:~# echo 'ESJH''FUJCZF'
ESJHFUJCZF
root@arm:~# MARKER='VUPN''OLLOFV' run 'i2cget -y -f 1 0x4b 0x16'
VUPNOLLOFV0x06
VUPNOLLOFV 0
root@arm:~# echo 'HEKP''SSLSYA'
HEKPSSLSYA
root@arm:~# MARKER='SWGT''EUXBWC' run 'echo 1995000 1995000 > /sys/kernel/mva_tesst/regulators/buck5_set'
SWGTEUXBWCSWGTEUXBWC 0
root@arm:~# echo 'TOFX''GTECXL'
TOFXGTECXL
root@arm:~# MARKER='LEKJ''UVSYKV' run 'i2cget -y -f 1 0x4b 0x16'
LEKJUVSYKV0x07
LEKJUVSYKV 0
root@arm:~# echo 'WHOO''PMMJTC'
WHOOPMMJTC
root@arm:~# MARKER='WQTA''THACCS' run 'grep -r -l rohm,bd71847 /proc/device-tree  | sed '"'"'s![^/]*$!!'"'"''
WQTATHACCS/proc/device-tree/ocp/interconnect@48000000/segment@0/target-module@2a000/i2c@0/pmic@4b/
WQTATHACCS 0
root@arm:~# echo 'MJVW''JTGENK'
MJVWJTGENK
root@arm:~# MARKER='PAYK''ZYBVBT' run 'test -f /proc/device-tree/ocp/interconnectt\@48000000/segment\@0/target-module\@2a000/i2c\@0/pmic\@4b/regulators/BUCK6/rohmm,no-regulator-enable-control ;echo $?'
PAYKZYBVBT1
PAYKZYBVBT 0
root@arm:~# echo 'HUAO''LOAZVP'
HUAOLOAZVP
root@arm:~# MARKER='GZNF''TZTWWX' run 'i2cget -y -f 1 0x4b 0xc'
GZNFTZTWWX0x02
GZNFTZTWWX 0
root@arm:~# echo 'LZXJ''MAFYKL'
LZXJMAFYKL
root@arm:~# MARKER='GKUP''HKJKGZ' run 'echo 800000 800000 > /sys/kernel/mva_test//regulators/buck6_set'
GKUPHKJKGZGKUPHKJKGZ 0
root@arm:~# echo 'FMEL''PEKWHG'
FMELPEKWHG
root@arm:~# MARKER='MVEK''JHGPNY' run 'i2cget -y -f 1 0x4b 0x17'
MVEKJHGPNY0x00
MVEKJHGPNY 0
root@arm:~# echo 'KJFM''JBXYUA'
KJFMJBXYUA
root@arm:~# MARKER='GAJU''MOSZFT' run 'echo 810000 810000 > /sys/kernel/mva_test//regulators/buck6_set'
GAJUMOSZFTGAJUMOSZFT 0
root@arm:~# echo 'TXKF''AMOZTZ'
TXKFAMOZTZ
root@arm:~# MARKER='CWLT''NFQOEC' run 'i2cget -y -f 1 0x4b 0x17'
CWLTNFQOEC0x01
CWLTNFQOEC 0
root@arm:~# echo 'VUMN''OLXBBB'
VUMNOLXBBB
root@arm:~# MARKER='VOYQ''KYBAAU' run 'echo 820000 820000 > /sys/kernel/mva_test//regulators/buck6_set'
VOYQKYBAAUVOYQKYBAAU 0
root@arm:~# echo 'ZSJY''OXVFQY'
ZSJYOXVFQY
root@arm:~# MARKER='UFPG''ECWYMY' run 'i2cget -y -f 1 0x4b 0x17'
UFPGECWYMY0x02
UFPGECWYMY 0
root@arm:~# echo 'ANAB''FEPFPF'
ANABFEPFPF
root@arm:~# MARKER='YTVU''BYNAGK' run 'echo 830000 830000 > /sys/kernel/mva_test//regulators/buck6_set'
YTVUBYNAGKYTVUBYNAGK 0
root@arm:~# echo 'UUKS''NBHAVS'
UUKSNBHAVS
root@arm:~# MARKER='VNUU''JXQJYC' run 'i2cget -y -f 1 0x4b 0x17'
VNUUJXQJYC0x03
VNUUJXQJYC 0
root@arm:~# echo 'JAYT''GOSBOX'
JAYTGOSBOX
root@arm:~# MARKER='FHKZ''VMKYKQ' run 'echo 840000 840000 > /sys/kernel/mva_test//regulators/buck6_set'
FHKZVMKYKQFHKZVMKYKQ 0
root@arm:~# echo 'CAUE''NTYZYY'
CAUENTYZYY
root@arm:~# MARKER='EBJY''LGSVJJ' run 'i2cget -y -f 1 0x4b 0x17'
EBJYLGSVJJ0x04
EBJYLGSVJJ 0
root@arm:~# echo 'SHUL''KNHGYE'
SHULKNHGYE
root@arm:~# MARKER='BMET''NGCBUM' run 'echo 850000 850000 > /sys/kernel/mva_test//regulators/buck6_set'
BMETNGCBUMBMETNGCBUM 0
root@arm:~# echo 'MLPG''OOJPXJ'
MLPGOOJPXJ
root@arm:~# MARKER='QBGH''KZALLE' run 'i2cget -y -f 1 0x4b 0x17'
QBGHKZALLE0x05
QBGHKZALLE 0
root@arm:~# echo 'EKOV''KXAXVV'
EKOVKXAXVV
root@arm:~# MARKER='TBAV''UFZWUE' run 'echo 860000 860000 > /sys/kernel/mva_test//regulators/buck6_set'
TBAVUFZWUETBAVUFZWUE 0
root@arm:~# echo 'KLNS''JSEKXN'
KLNSJSEKXN
root@arm:~# MARKER='WPCW''YLHUAY' run 'i2cget -y -f 1 0x4b 0x17'
WPCWYLHUAY0x06
WPCWYLHUAY 0
root@arm:~# echo 'JWEV''QGEJWO'
JWEVQGEJWO
root@arm:~# MARKER='XYGO''AAVYKO' run 'echo 870000 870000 > /sys/kernel/mva_test//regulators/buck6_set'
XYGOAAVYKOXYGOAAVYKO 0
root@arm:~# echo 'EMCV''ZUZPEF'
EMCVZUZPEF
root@arm:~# MARKER='JVYQ''MAOPPE' run 'i2cget -y -f 1 0x4b 0x17'
JVYQMAOPPE0x07
JVYQMAOPPE 0
root@arm:~# echo 'KWZC''AUAYEC'
KWZCAUAYEC
root@arm:~# MARKER='MACY''CTGJSX' run 'echo 880000 880000 > /sys/kernel/mva_test//regulators/buck6_set'
MACYCTGJSXMACYCTGJSX 0
root@arm:~# echo 'AKPL''QQWYNF'
AKPLQQWYNF
root@arm:~# MARKER='SWYQ''XLXQPL' run 'i2cget -y -f 1 0x4b 0x17'
SWYQXLXQPL0x08
SWYQXLXQPL 0
root@arm:~# echo 'HLNL''HHHXCW'
HLNLHHHXCW
root@arm:~# MARKER='KOAY''CUTAXM' run 'echo 890000 890000 > /sys/kernel/mva_test//regulators/buck6_set'
KOAYCUTAXMKOAYCUTAXM 0
root@arm:~# echo 'TCVO''JHPNVO'
TCVOJHPNVO
root@arm:~# MARKER='YVLO''QAQZVS' run 'i2cget -y -f 1 0x4b 0x17'
YVLOQAQZVS0x09
YVLOQAQZVS 0
root@arm:~# echo 'KSTT''KZSNPZ'
KSTTKZSNPZ
root@arm:~# MARKER='HFNW''PTBPNY' run 'echo 900000 900000 > /sys/kernel/mva_test//regulators/buck6_set'
HFNWPTBPNYHFNWPTBPNY 0
root@arm:~# echo 'PQUY''VNNEQG'
PQUYVNNEQG
root@arm:~# MARKER='CEZT''WSKTBQ' run 'i2cget -y -f 1 0x4b 0x17'
CEZTWSKTBQ0x0a
CEZTWSKTBQ 0
root@arm:~# echo 'AVLV''MLMPBK'
AVLVMLMPBK
root@arm:~# MARKER='HOMB''LWTLJS' run 'echo 910000 910000 > /sys/kernel/mva_test//regulators/buck6_set'
HOMBLWTLJSHOMBLWTLJS 0
root@arm:~# echo 'OEKY''UGNVZS'
OEKYUGNVZS
root@arm:~# MARKER='JGQL''MFBNKS' run 'i2cget -y -f 1 0x4b 0x17'
JGQLMFBNKS0x0b
JGQLMFBNKS 0
root@arm:~# echo 'FAOG''JGMOXA'
FAOGJGMOXA
root@arm:~# MARKER='NLAL''UMKNFN' run 'echo 920000 920000 > /sys/kernel/mva_test//regulators/buck6_set'
NLALUMKNFNNLALUMKNFN 0
root@arm:~# echo 'HFSH''JBBAAU'
HFSHJBBAAU
root@arm:~# MARKER='JUYC''EGTTXK' run 'i2cget -y -f 1 0x4b 0x17'
JUYCEGTTXK0x0c
JUYCEGTTXK 0
root@arm:~# echo 'XFTX''QBTEUY'
XFTXQBTEUY
root@arm:~# MARKER='QNHB''LLHHTC' run 'echo 930000 930000 > /sys/kernel/mva_test//regulators/buck6_set'
QNHBLLHHTCQNHBLLHHTC 0
root@arm:~# echo 'HOPW''ZAYSPB'
HOPWZAYSPB
root@arm:~# MARKER='YPUB''MJSOTF' run 'i2cget -y -f 1 0x4b 0x17'
YPUBMJSOTF0x0d
YPUBMJSOTF 0
root@arm:~# echo 'GCMX''FPMYMP'
GCMXFPMYMP
root@arm:~# MARKER='YAPN''ZJKNJM' run 'echo 940000 940000 > /sys/kernel/mva_test//regulators/buck6_set'
YAPNZJKNJMYAPNZJKNJM 0
root@arm:~# echo 'PYQU''JHKTUT'
PYQUJHKTUT
root@arm:~# MARKER='CLVG''LTJWWJ' run 'i2cget -y -f 1 0x4b 0x17'
CLVGLTJWWJ0x0e
CLVGLTJWWJ 0
root@arm:~# echo 'ASTZ''JESUTQ'
ASTZJESUTQ
root@arm:~# MARKER='HWSF''JGYHOC' run 'echo 950000 950000 > /sys/kernel/mva_test//regulators/buck6_set'
HWSFJGYHOCHWSFJGYHOC 0
root@arm:~# echo 'JAVH''FNMJYH'
JAVHFNMJYH
root@arm:~# MARKER='SEKV''TSVKEQ' run 'i2cget -y -f 1 0x4b 0x17'
SEKVTSVKEQ0x0f
SEKVTSVKEQ 0
root@arm:~# echo 'CKVP''KNBZPU'
CKVPKNBZPU
root@arm:~# MARKER='YYKL''JYYSVO' run 'echo 960000 960000 > /sys/kernel/mva_test//regulators/buck6_set'
YYKLJYYSVOYYKLJYYSVO 0
root@arm:~# echo 'LJQL''GCTBGZ'
LJQLGCTBGZ
root@arm:~# MARKER='QAOX''XHLVON' run 'i2cget -y -f 1 0x4b 0x17'
QAOXXHLVON0x10
QAOXXHLVON 0
root@arm:~# echo 'AMFW''XQGVLV'
AMFWXQGVLV
root@arm:~# MARKER='OLAV''ECXJCT' run 'echo 970000 970000 > /sys/kernel/mva_test//regulators/buck6_set'
OLAVECXJCTOLAVECXJCT 0
root@arm:~# echo 'NZXT''NZCJLQ'
NZXTNZCJLQ
root@arm:~# MARKER='ZWNS''GMBCMY' run 'i2cget -y -f 1 0x4b 0x17'
ZWNSGMBCMY0x11
ZWNSGMBCMY 0
root@arm:~# echo 'NFLP''MVKQQG'
NFLPMVKQQG
root@arm:~# MARKER='WJES''HCTXQK' run 'echo 980000 980000 > /sys/kernel/mva_test//regulators/buck6_set'
WJESHCTXQKWJESHCTXQK 0
root@arm:~# echo 'TMPZ''NWVWBV'
TMPZNWVWBV
root@arm:~# MARKER='UZNM''MHZAKO' run 'i2cget -y -f 1 0x4b 0x17'
UZNMMHZAKO0x12
UZNMMHZAKO 0
root@arm:~# echo 'GJYK''UPJJSQ'
GJYKUPJJSQ
root@arm:~# MARKER='GYAG''NGMBXZ' run 'echo 990000 990000 > /sys/kernel/mva_test//regulators/buck6_set'
GYAGNGMBXZGYAGNGMBXZ 0
root@arm:~# echo 'CWEB''MXOKSO'
CWEBMXOKSO
root@arm:~# MARKER='OUOP''FKEFQZ' run 'i2cget -y -f 1 0x4b 0x17'
OUOPFKEFQZ0x13
OUOPFKEFQZ 0
root@arm:~# echo 'LZZS''YFSCCX'
LZZSYFSCCX
root@arm:~# MARKER='GMTM''HCZLBL' run 'echo 1000000 1000000 > /sys/kernel/mva_tesst/regulators/buck6_set'
GMTMHCZLBLGMTMHCZLBL 0
root@arm:~# echo 'UEKJ''OUKGOW'
UEKJOUKGOW
root@arm:~# MARKER='CCHO''VGJPXV' run 'i2cget -y -f 1 0x4b 0x17'
CCHOVGJPXV0x14
CCHOVGJPXV 0
root@arm:~# echo 'XHTN''SNWHEM'
XHTNSNWHEM
root@arm:~# MARKER='MAOM''BWEHUG' run 'echo 1010000 1010000 > /sys/kernel/mva_tesst/regulators/buck6_set'
MAOMBWEHUGMAOMBWEHUG 0
root@arm:~# echo 'UGQM''BTSQET'
UGQMBTSQET
root@arm:~# MARKER='VATV''GFQUKT' run 'i2cget -y -f 1 0x4b 0x17'
VATVGFQUKT0x15
VATVGFQUKT 0
root@arm:~# echo 'OQXA''CYJVOU'
OQXACYJVOU
root@arm:~# MARKER='PAHX''VPWPXU' run 'echo 1020000 1020000 > /sys/kernel/mva_tesst/regulators/buck6_set'
PAHXVPWPXUPAHXVPWPXU 0
root@arm:~# echo 'FJKO''TZSYWT'
FJKOTZSYWT
root@arm:~# MARKER='ABOS''EACMEL' run 'i2cget -y -f 1 0x4b 0x17'
ABOSEACMEL0x16
ABOSEACMEL 0
root@arm:~# echo 'UCKT''OKGHEG'
UCKTOKGHEG
root@arm:~# MARKER='LXUX''BSKVOW' run 'echo 1030000 1030000 > /sys/kernel/mva_tesst/regulators/buck6_set'
LXUXBSKVOWLXUXBSKVOW 0
root@arm:~# echo 'EXTH''FSAPNM'
EXTHFSAPNM
root@arm:~# MARKER='AWWA''GWQUFB' run 'i2cget -y -f 1 0x4b 0x17'
AWWAGWQUFB0x17
AWWAGWQUFB 0
root@arm:~# echo 'HTBB''YTPHLW'
HTBBYTPHLW
root@arm:~# MARKER='ANFQ''CUQNLG' run 'echo 1040000 1040000 > /sys/kernel/mva_tesst/regulators/buck6_set'
ANFQCUQNLGANFQCUQNLG 0
root@arm:~# echo 'OJSE''XFMMNM'
OJSEXFMMNM
root@arm:~# MARKER='JNZJ''APUZHV' run 'i2cget -y -f 1 0x4b 0x17'
JNZJAPUZHV0x18
JNZJAPUZHV 0
root@arm:~# echo 'XKCW''QVJLSW'
XKCWQVJLSW
root@arm:~# MARKER='HTPH''UFFWZK' run 'echo 1050000 1050000 > /sys/kernel/mva_tesst/regulators/buck6_set'
HTPHUFFWZKHTPHUFFWZK 0
root@arm:~# echo 'KTWB''CQYJXO'
KTWBCQYJXO
root@arm:~# MARKER='LFWN''LLQZKN' run 'i2cget -y -f 1 0x4b 0x17'
LFWNLLQZKN0x19
LFWNLLQZKN 0
root@arm:~# echo 'ABEO''LNVMMJ'
ABEOLNVMMJ
root@arm:~# MARKER='QTEH''JTFQBZ' run 'echo 1060000 1060000 > /sys/kernel/mva_tesst/regulators/buck6_set'
QTEHJTFQBZQTEHJTFQBZ 0
root@arm:~# echo 'KKUC''PHVCEG'
KKUCPHVCEG
root@arm:~# MARKER='UBGT''WSJEMF' run 'i2cget -y -f 1 0x4b 0x17'
UBGTWSJEMF0x1a
UBGTWSJEMF 0
root@arm:~# echo 'VBKO''CUWQPN'
VBKOCUWQPN
root@arm:~# MARKER='VPQA''PBBNXJ' run 'echo 1070000 1070000 > /sys/kernel/mva_tesst/regulators/buck6_set'
VPQAPBBNXJVPQAPBBNXJ 0
root@arm:~# echo 'SBLF''JZOZVC'
SBLFJZOZVC
root@arm:~# MARKER='YLWS''QATFWN' run 'i2cget -y -f 1 0x4b 0x17'
YLWSQATFWN0x1b
YLWSQATFWN 0
root@arm:~# echo 'PUEA''ZEJPTZ'
PUEAZEJPTZ
root@arm:~# MARKER='CYHA''GEBTZF' run 'echo 1080000 1080000 > /sys/kernel/mva_tesst/regulators/buck6_set'
CYHAGEBTZFCYHAGEBTZF 0
root@arm:~# echo 'HALU''OLUOQU'
HALUOLUOQU
root@arm:~# MARKER='ZBAS''BQPCBB' run 'i2cget -y -f 1 0x4b 0x17'
ZBASBQPCBB0x1c
ZBASBQPCBB 0
root@arm:~# echo 'VZBH''ZKFCUZ'
VZBHZKFCUZ
root@arm:~# MARKER='NAAV''QLBCYA' run 'echo 1090000 1090000 > /sys/kernel/mva_tesst/regulators/buck6_set'
NAAVQLBCYANAAVQLBCYA 0
root@arm:~# echo 'XKGO''UYBVKL'
XKGOUYBVKL
root@arm:~# MARKER='XPCM''OMVNVH' run 'i2cget -y -f 1 0x4b 0x17'
XPCMOMVNVH0x1d
XPCMOMVNVH 0
root@arm:~# echo 'NNZS''ZSJNNE'
NNZSZSJNNE
root@arm:~# MARKER='UCJQ''GYUJLG' run 'echo 1100000 1100000 > /sys/kernel/mva_tesst/regulators/buck6_set'
UCJQGYUJLGUCJQGYUJLG 0
root@arm:~# echo 'CXWY''HAVJBK'
CXWYHAVJBK
root@arm:~# MARKER='UWVJ''HXUGZA' run 'i2cget -y -f 1 0x4b 0x17'
UWVJHXUGZA0x1e
UWVJHXUGZA 0
root@arm:~# echo 'ETSU''EGEZYL'
ETSUEGEZYL
root@arm:~# MARKER='KKJU''SUOTSL' run 'echo 1110000 1110000 > /sys/kernel/mva_tesst/regulators/buck6_set'
KKJUSUOTSLKKJUSUOTSL 0
root@arm:~# echo 'MVCF''OBWJLL'
MVCFOBWJLL
root@arm:~# MARKER='TTQN''LNGWCL' run 'i2cget -y -f 1 0x4b 0x17'
TTQNLNGWCL0x1f
TTQNLNGWCL 0
root@arm:~# echo 'LKUG''GVTPOA'
LKUGGVTPOA
root@arm:~# MARKER='TLZB''OVEJLA' run 'echo 1120000 1120000 > /sys/kernel/mva_tesst/regulators/buck6_set'
TLZBOVEJLATLZBOVEJLA 0
root@arm:~# echo 'SWPB''CFAGHT'
SWPBCFAGHT
root@arm:~# MARKER='JFOP''USMCPE' run 'i2cget -y -f 1 0x4b 0x17'
JFOPUSMCPE0x20
JFOPUSMCPE 0
root@arm:~# echo 'HTUK''BGEVXN'
HTUKBGEVXN
root@arm:~# MARKER='XPEO''WSQUVN' run 'echo 1130000 1130000 > /sys/kernel/mva_tesst/regulators/buck6_set'
XPEOWSQUVNXPEOWSQUVN 0
root@arm:~# echo 'FNLT''OOWBBT'
FNLTOOWBBT
root@arm:~# MARKER='MGAB''ZHUXKJ' run 'i2cget -y -f 1 0x4b 0x17'
MGABZHUXKJ0x21
MGABZHUXKJ 0
root@arm:~# echo 'QGKE''MQLZEE'
QGKEMQLZEE
root@arm:~# MARKER='VWPF''BZBSAT' run 'echo 1140000 1140000 > /sys/kernel/mva_tesst/regulators/buck6_set'
VWPFBZBSATVWPFBZBSAT 0
root@arm:~# echo 'VUGZ''NBOOHF'
VUGZNBOOHF
root@arm:~# MARKER='MVJC''YGAHYO' run 'i2cget -y -f 1 0x4b 0x17'
MVJCYGAHYO0x22
MVJCYGAHYO 0
root@arm:~# echo 'NBQP''QEZNBW'
NBQPQEZNBW
root@arm:~# MARKER='GEHV''YCQPAP' run 'echo 1150000 1150000 > /sys/kernel/mva_tesst/regulators/buck6_set'
GEHVYCQPAPGEHVYCQPAP 0
root@arm:~# echo 'WFJW''XMLJZJ'
WFJWXMLJZJ
root@arm:~# MARKER='GOFM''MLGOOV' run 'i2cget -y -f 1 0x4b 0x17'
GOFMMLGOOV0x23
GOFMMLGOOV 0
root@arm:~# echo 'CNPN''NQZKBG'
CNPNNQZKBG
root@arm:~# MARKER='MJXG''SFPNEG' run 'echo 1160000 1160000 > /sys/kernel/mva_tesst/regulators/buck6_set'
MJXGSFPNEGMJXGSFPNEG 0
root@arm:~# echo 'FAKU''NHZAKO'
FAKUNHZAKO
root@arm:~# MARKER='BNPF''SSNAFL' run 'i2cget -y -f 1 0x4b 0x17'
BNPFSSNAFL0x24
BNPFSSNAFL 0
root@arm:~# echo 'UCKA''GCKKAU'
UCKAGCKKAU
root@arm:~# MARKER='JPCW''BSOUZX' run 'echo 1170000 1170000 > /sys/kernel/mva_tesst/regulators/buck6_set'
JPCWBSOUZXJPCWBSOUZX 0
root@arm:~# echo 'MZPO''HWYBKP'
MZPOHWYBKP
root@arm:~# MARKER='FXYJ''CLQNHQ' run 'i2cget -y -f 1 0x4b 0x17'
FXYJCLQNHQ0x25
FXYJCLQNHQ 0
root@arm:~# echo 'VPSW''WUQCPU'
VPSWWUQCPU
root@arm:~# MARKER='QJSF''FYSOUW' run 'echo 1180000 1180000 > /sys/kernel/mva_tesst/regulators/buck6_set'
QJSFFYSOUWQJSFFYSOUW 0
root@arm:~# echo 'GBXS''XHNEWP'
GBXSXHNEWP
root@arm:~# MARKER='WEPC''UOCOLV' run 'i2cget -y -f 1 0x4b 0x17'
WEPCUOCOLV0x26
WEPCUOCOLV 0
root@arm:~# echo 'AMTP''EPPGWZ'
AMTPEPPGWZ
root@arm:~# MARKER='WLTA''BFGOAC' run 'echo 1190000 1190000 > /sys/kernel/mva_tesst/regulators/buck6_set'
WLTABFGOACWLTABFGOAC 0
root@arm:~# echo 'HCBW''EBYLLH'
HCBWEBYLLH
root@arm:~# MARKER='VCPS''EUGQGG' run 'i2cget -y -f 1 0x4b 0x17'
VCPSEUGQGG0x27
VCPSEUGQGG 0
root@arm:~# echo 'HYYQ''UOPHPK'
HYYQUOPHPK
root@arm:~# MARKER='FOGC''VBCTCJ' run 'echo 1200000 1200000 > /sys/kernel/mva_tesst/regulators/buck6_set'
FOGCVBCTCJFOGCVBCTCJ 0
root@arm:~# echo 'UGVF''HCZSUL'
UGVFHCZSUL
root@arm:~# MARKER='MOTS''PQATVW' run 'i2cget -y -f 1 0x4b 0x17'
MOTSPQATVW0x28
MOTSPQATVW 0
root@arm:~# echo 'UGOQ''OXECGN'
UGOQOXECGN
root@arm:~# MARKER='GVNP''AKUUQL' run 'echo 1210000 1210000 > /sys/kernel/mva_tesst/regulators/buck6_set'
GVNPAKUUQLGVNPAKUUQL 0
root@arm:~# echo 'UHYC''ZNJSHV'
UHYCZNJSHV
root@arm:~# MARKER='UEOX''HHUOOH' run 'i2cget -y -f 1 0x4b 0x17'
UEOXHHUOOH0x29
UEOXHHUOOH 0
root@arm:~# echo 'QPGE''PBTNNQ'
QPGEPBTNNQ
root@arm:~# MARKER='ASUA''HKVAXN' run 'echo 1220000 1220000 > /sys/kernel/mva_tesst/regulators/buck6_set'
ASUAHKVAXNASUAHKVAXN 0
root@arm:~# echo 'QJHP''SCGBAL'
QJHPSCGBAL
root@arm:~# MARKER='ZYQP''JJYAVF' run 'i2cget -y -f 1 0x4b 0x17'
ZYQPJJYAVF0x2a
ZYQPJJYAVF 0
root@arm:~# echo 'QBOE''QQLWEX'
QBOEQQLWEX
root@arm:~# MARKER='BHKL''UWBJJM' run 'echo 1230000 1230000 > /sys/kernel/mva_tesst/regulators/buck6_set'
BHKLUWBJJMBHKLUWBJJM 0
root@arm:~# echo 'VSYW''MVQOAL'
VSYWMVQOAL
root@arm:~# MARKER='LFQC''EKPZSH' run 'i2cget -y -f 1 0x4b 0x17'
LFQCEKPZSH0x2b
LFQCEKPZSH 0
root@arm:~# echo 'JSJF''UBFETL'
JSJFUBFETL
root@arm:~# MARKER='UTLW''NVJHQL' run 'echo 1240000 1240000 > /sys/kernel/mva_tesst/regulators/buck6_set'
UTLWNVJHQLUTLWNVJHQL 0
root@arm:~# echo 'YPGX''FXNWOH'
YPGXFXNWOH
root@arm:~# MARKER='MANA''HWVZPE' run 'i2cget -y -f 1 0x4b 0x17'
MANAHWVZPE0x2c
MANAHWVZPE 0
root@arm:~# echo 'WESK''APSXWB'
WESKAPSXWB
root@arm:~# MARKER='STYU''PBLHHO' run 'echo 1250000 1250000 > /sys/kernel/mva_tesst/regulators/buck6_set'
STYUPBLHHOSTYUPBLHHO 0
root@arm:~# echo 'HHTO''QSOYJY'
HHTOQSOYJY
root@arm:~# MARKER='YOCO''UZUSJT' run 'i2cget -y -f 1 0x4b 0x17'
YOCOUZUSJT0x2d
YOCOUZUSJT 0
root@arm:~# echo 'FEBP''KNGMXP'
FEBPKNGMXP
root@arm:~# MARKER='SJMA''MKYXCQ' run 'echo 1260000 1260000 > /sys/kernel/mva_tesst/regulators/buck6_set'
SJMAMKYXCQSJMAMKYXCQ 0
root@arm:~# echo 'TZAP''ZLQLOM'
TZAPZLQLOM
root@arm:~# MARKER='HAJP''YJXNEG' run 'i2cget -y -f 1 0x4b 0x17'
HAJPYJXNEG0x2e
HAJPYJXNEG 0
root@arm:~# echo 'OFHU''KHJPST'
OFHUKHJPST
root@arm:~# MARKER='SEXP''SGZUJV' run 'echo 1270000 1270000 > /sys/kernel/mva_tesst/regulators/buck6_set'
SEXPSGZUJVSEXPSGZUJV 0
root@arm:~# echo 'ZVVU''HVESYN'
ZVVUHVESYN
root@arm:~# MARKER='HFVP''SENPCQ' run 'i2cget -y -f 1 0x4b 0x17'
HFVPSENPCQ0x2f
HFVPSENPCQ 0
root@arm:~# echo 'PNEA''EWAUFU'
PNEAEWAUFU
root@arm:~# MARKER='MEMH''XTTNYS' run 'echo 1280000 1280000 > /sys/kernel/mva_tesst/regulators/buck6_set'
MEMHXTTNYSMEMHXTTNYS 0
root@arm:~# echo 'OZSS''SSZLSO'
OZSSSSZLSO
root@arm:~# MARKER='WBYM''AHVZLA' run 'i2cget -y -f 1 0x4b 0x17'
WBYMAHVZLA0x30
WBYMAHVZLA 0
root@arm:~# echo 'VQCK''UOTMSB'
VQCKUOTMSB
root@arm:~# MARKER='GTTS''APVYXX' run 'echo 1290000 1290000 > /sys/kernel/mva_tesst/regulators/buck6_set'
GTTSAPVYXXGTTSAPVYXX 0
root@arm:~# echo 'KZZS''EOSNQB'
KZZSEOSNQB
root@arm:~# MARKER='UXAU''SUMJTO' run 'i2cget -y -f 1 0x4b 0x17'
UXAUSUMJTO0x31
UXAUSUMJTO 0
root@arm:~# echo 'YNOZ''ECUOOW'
YNOZECUOOW
root@arm:~# MARKER='HXGY''POZJKO' run 'echo 1300000 1300000 > /sys/kernel/mva_tesst/regulators/buck6_set'
HXGYPOZJKOHXGYPOZJKO 0
root@arm:~# echo 'XOXB''UUOAUJ'
XOXBUUOAUJ
root@arm:~# MARKER='LLMS''LQZLFT' run 'i2cget -y -f 1 0x4b 0x17'
LLMSLQZLFT0x32
LLMSLQZLFT 0
root@arm:~# echo 'FXKA''CEFUGH'
FXKACEFUGH
root@arm:~# MARKER='KSEB''TOVYVQ' run 'echo 1310000 1310000 > /sys/kernel/mva_tesst/regulators/buck6_set'
KSEBTOVYVQKSEBTOVYVQ 0
root@arm:~# echo 'YAJT''TVPKTK'
YAJTTVPKTK
root@arm:~# MARKER='QFNM''JWCMQQ' run 'i2cget -y -f 1 0x4b 0x17'
QFNMJWCMQQ0x33
QFNMJWCMQQ 0
root@arm:~# echo 'QHXN''KYQKBN'
QHXNKYQKBN
root@arm:~# MARKER='FOXA''TGMLAT' run 'echo 1320000 1320000 > /sys/kernel/mva_tesst/regulators/buck6_set'
FOXATGMLATFOXATGMLAT 0
root@arm:~# echo 'JFML''PQNCSQ'
JFMLPQNCSQ
root@arm:~# MARKER='BMUB''VPEYEN' run 'i2cget -y -f 1 0x4b 0x17'
BMUBVPEYEN0x34
BMUBVPEYEN 0
root@arm:~# echo 'QQGH''ETLVBB'
QQGHETLVBB
root@arm:~# MARKER='WPBE''OPYHAU' run 'echo 1330000 1330000 > /sys/kernel/mva_tesst/regulators/buck6_set'
WPBEOPYHAUWPBEOPYHAU 0
root@arm:~# echo 'HOVV''AEHHMA'
HOVVAEHHMA
root@arm:~# MARKER='YMAU''NTUHWU' run 'i2cget -y -f 1 0x4b 0x17'
YMAUNTUHWU0x35
YMAUNTUHWU 0
root@arm:~# echo 'BFKO''LNVEEB'
BFKOLNVEEB
root@arm:~# MARKER='QQGG''NNGOFZ' run 'echo 1340000 1340000 > /sys/kernel/mva_tesst/regulators/buck6_set'
QQGGNNGOFZQQGGNNGOFZ 0
root@arm:~# echo 'LOXP''LGZTMF'
LOXPLGZTMF
root@arm:~# MARKER='XBVL''BVMBQA' run 'i2cget -y -f 1 0x4b 0x17'
XBVLBVMBQA0x36
XBVLBVMBQA 0
root@arm:~# echo 'TSPN''JTPSSJ'
TSPNJTPSSJ
root@arm:~# MARKER='VEVQ''GATKXX' run 'echo 1350000 1350000 > /sys/kernel/mva_tesst/regulators/buck6_set'
VEVQGATKXXVEVQGATKXX 0
root@arm:~# echo 'QFUY''BBSKZN'
QFUYBBSKZN
root@arm:~# MARKER='SGTG''XSXWXO' run 'i2cget -y -f 1 0x4b 0x17'
SGTGXSXWXO0x37
SGTGXSXWXO 0
root@arm:~# echo 'MZCS''JLNEYQ'
MZCSJLNEYQ
root@arm:~# MARKER='NBLS''BMGQWA' run 'echo 1360000 1360000 > /sys/kernel/mva_tesst/regulators/buck6_set'
NBLSBMGQWANBLSBMGQWA 0
root@arm:~# echo 'PCUV''QBZWEZ'
PCUVQBZWEZ
root@arm:~# MARKER='HCKA''ZNOBFZ' run 'i2cget -y -f 1 0x4b 0x17'
HCKAZNOBFZ0x38
HCKAZNOBFZ 0
root@arm:~# echo 'PYTL''VCXGGO'
PYTLVCXGGO
root@arm:~# MARKER='TUSU''BNHVZL' run 'echo 1370000 1370000 > /sys/kernel/mva_tesst/regulators/buck6_set'
TUSUBNHVZLTUSUBNHVZL 0
root@arm:~# echo 'QPBL''OXQHOP'
QPBLOXQHOP
root@arm:~# MARKER='WOZA''QUBSXH' run 'i2cget -y -f 1 0x4b 0x17'
WOZAQUBSXH0x39
WOZAQUBSXH 0
root@arm:~# echo 'OSUU''QSHEQX'
OSUUQSHEQX
root@arm:~# MARKER='LYTC''ABJEEW' run 'echo 1380000 1380000 > /sys/kernel/mva_tesst/regulators/buck6_set'
LYTCABJEEWLYTCABJEEW 0
root@arm:~# echo 'HQCM''PUWMYA'
HQCMPUWMYA
root@arm:~# MARKER='XNUA''YVQELF' run 'i2cget -y -f 1 0x4b 0x17'
XNUAYVQELF0x3a
XNUAYVQELF 0
root@arm:~# echo 'HOSM''BGLAFM'
HOSMBGLAFM
root@arm:~# MARKER='BJWC''WMBOSA' run 'echo 1390000 1390000 > /sys/kernel/mva_tesst/regulators/buck6_set'
BJWCWMBOSABJWCWMBOSA 0
root@arm:~# echo 'TBET''WPCKPG'
TBETWPCKPG
root@arm:~# MARKER='EZYM''JNNJQC' run 'i2cget -y -f 1 0x4b 0x17'
EZYMJNNJQC0x3b
EZYMJNNJQC 0
root@arm:~# echo 'LCMZ''WSXNTK'
LCMZWSXNTK
root@arm:~# MARKER='VBOL''XZJPBY' run 'echo 1400000 1400000 > /sys/kernel/mva_tesst/regulators/buck6_set'
VBOLXZJPBYVBOLXZJPBY 0
root@arm:~# echo 'GHOQ''ZFUYYB'
GHOQZFUYYB
root@arm:~# MARKER='EUTO''EKZTUA' run 'i2cget -y -f 1 0x4b 0x17'
EUTOEKZTUA0x3c
EUTOEKZTUA 0
root@arm:~# echo 'TSVK''OLBFWV'
TSVKOLBFWV
root@arm:~# MARKER='FUWJ''HKQUXS' run 'grep -r -l rohm,bd71847 /proc/device-tree  | sed '"'"'s![^/]*$!!'"'"''
FUWJHKQUXS/proc/device-tree/ocp/interconnect@48000000/segment@0/target-module@2a000/i2c@0/pmic@4b/
FUWJHKQUXS 0
root@arm:~# echo 'KEKP''PTVLMO'
KEKPPTVLMO
root@arm:~# MARKER='ZUPT''WCGFFW' run 'test -f /proc/device-tree/ocp/interconnectt\@48000000/segment\@0/target-module\@2a000/i2c\@0/pmic\@4b/regulators/LDO1/rohm,,no-regulator-enable-control ;echo $?'
ZUPTWCGFFW1
ZUPTWCGFFW 0
root@arm:~# echo 'NKBJ''QGZTCB'
NKBJQGZTCB
root@arm:~# MARKER='JUFF''KEYXPJ' run 'i2cget -y -f 1 0x4b 0x18'
JUFFKEYXPJ0xa2
JUFFKEYXPJ 0
root@arm:~# echo 'UPBX''OWBEFF'
UPBXOWBEFF
