Labgrid Console Logfile for main
Logfile started at 2026-08-14 19:57:08.633083
=== Log starts here ===

root@arm:~# run() { echo -n "$MARKER"; sh -c "$@"; echo "$MARKER $?"; }
root@arm:~# echo 'FHYQ''UBEEMT'
FHYQUBEEMT
root@arm:~# MARKER='AJOS''TXYSZN' run 'grep -r -l rohm,bd71847 /proc/device-tree  | sed '"'"'s![^/]*$!!'"'"''
AJOSTXYSZN/proc/device-tree/ocp/interconnect@48000000/segment@0/target-module@2a000/i2c@0/pmic@4b/
AJOSTXYSZN 0
root@arm:~# echo 'ZVPN''PZEYEY'
ZVPNPZEYEY
root@arm:~# MARKER='YQSB''SJZUZJ' run 'test -f /proc/device-tree/ocp/interconnectt\@48000000/segment\@0/target-module\@2a000/i2c\@0/pmic\@4b/regulators/BUCK1/rohmm,no-regulator-enable-control ;echo $?'
YQSBSJZUZJ1
YQSBSJZUZJ 0
root@arm:~# echo 'PABW''LGUAUN'
PABWLGUAUN
root@arm:~# MARKER='JUHQ''YJPQVX' run 'echo 1 > /sys/kernel/mva_test/regulators/bbuck1_en'
JUHQYJPQVXJUHQYJPQVX 0
root@arm:~# echo 'BNBL''PNYPZX'
BNBLPNYPZX
root@arm:~# MARKER='STZV''YLZHAZ' run 'i2cget -y -f 1 0x4b 0x5'
STZVYLZHAZ0x03
STZVYLZHAZ 0
root@arm:~# echo 'MUGV''MOMUOW'
MUGVMOMUOW
root@arm:~# MARKER='GNYG''YOJXKU' run 'grep -r -l rohm,bd71847 /proc/device-tree  | sed '"'"'s![^/]*$!!'"'"''
GNYGYOJXKU/proc/device-tree/ocp/interconnect@48000000/segment@0/target-module@2a000/i2c@0/pmic@4b/
GNYGYOJXKU 0
root@arm:~# echo 'WJTE''GFWOSW'
WJTEGFWOSW
root@arm:~# MARKER='SOLL''UPTFFG' run 'test -f /proc/device-tree/ocp/interconnectt\@48000000/segment\@0/target-module\@2a000/i2c\@0/pmic\@4b/regulators/BUCK1/rohmm,no-regulator-enable-control ;echo $?'
SOLLUPTFFG1
SOLLUPTFFG 0
root@arm:~# echo 'LXGQ''VUJXEP'
LXGQVUJXEP
root@arm:~# MARKER='HCXM''XTQZAZ' run 'grep -r -l rohm,bd71847 /proc/device-tree  | sed '"'"'s![^/]*$!!'"'"''
HCXMXTQZAZ/proc/device-tree/ocp/interconnect@48000000/segment@0/target-module@2a000/i2c@0/pmic@4b/
HCXMXTQZAZ 0
root@arm:~# echo 'UUFY''KAKOKX'
UUFYKAKOKX
root@arm:~# MARKER='EALV''NGUOCF' run 'test -f /proc/device-tree/ocp/interconnectt\@48000000/segment\@0/target-module\@2a000/i2c\@0/pmic\@4b/regulators/BUCK1/reguulator-always-on ;echo $?'
EALVNGUOCF1
EALVNGUOCF 0
root@arm:~# echo 'YXZB''KWUBQB'
YXZBKWUBQB
root@arm:~# MARKER='EFXX''ZMPCKE' run 'echo 0 > /sys/kernel/mva_test/regulators/bbuck1_en'
EFXXZMPCKEEFXXZMPCKE 0
root@arm:~# echo 'LUXG''UQNFOW'
LUXGUQNFOW
root@arm:~# MARKER='KOBC''EPEAHW' run 'i2cget -y -f 1 0x4b 0x5'
KOBCEPEAHW0x02
KOBCEPEAHW 0
root@arm:~# echo 'USXC''KQABUF'
USXCKQABUF
root@arm:~# MARKER='FQZV''CHCJPG' run 'grep -r -l rohm,bd71847 /proc/device-tree  | sed '"'"'s![^/]*$!!'"'"''
FQZVCHCJPG/proc/device-tree/ocp/interconnect@48000000/segment@0/target-module@2a000/i2c@0/pmic@4b/
FQZVCHCJPG 0
root@arm:~# echo 'YQNP''ESCJCB'
YQNPESCJCB
root@arm:~# MARKER='CGQZ''GYZGPA' run 'test -f /proc/device-tree/ocp/interconnectt\@48000000/segment\@0/target-module\@2a000/i2c\@0/pmic\@4b/regulators/BUCK2/rohmm,no-regulator-enable-control ;echo $?'
CGQZGYZGPA1
CGQZGYZGPA 0
root@arm:~# echo 'SZJU''JCXJZL'
SZJUJCXJZL
root@arm:~# MARKER='KUOH''UNCXWH' run 'echo 1 > /sys/kernel/mva_test/regulators/bbuck2_en'
KUOHUNCXWHKUOHUNCXWH 0
root@arm:~# echo 'QOEM''KHCHGX'
QOEMKHCHGX
root@arm:~# MARKER='BSPL''FNLKMP' run 'i2cget -y -f 1 0x4b 0x6'
BSPLFNLKMP0x43
BSPLFNLKMP 0
root@arm:~# echo 'YWTL''KMEJQC'
YWTLKMEJQC
root@arm:~# MARKER='CKGQ''KQGTMY' run 'grep -r -l rohm,bd71847 /proc/device-tree  | sed '"'"'s![^/]*$!!'"'"''
CKGQKQGTMY/proc/device-tree/ocp/interconnect@48000000/segment@0/target-module@2a000/i2c@0/pmic@4b/
CKGQKQGTMY 0
root@arm:~# echo 'UUKZ''OOHPOQ'
UUKZOOHPOQ
root@arm:~# MARKER='QHLQ''LBYCZL' run 'test -f /proc/device-tree/ocp/interconnectt\@48000000/segment\@0/target-module\@2a000/i2c\@0/pmic\@4b/regulators/BUCK2/rohmm,no-regulator-enable-control ;echo $?'
QHLQLBYCZL1
QHLQLBYCZL 0
root@arm:~# echo 'GPVU''JHYBEX'
GPVUJHYBEX
root@arm:~# MARKER='YTXC''CWXYOJ' run 'grep -r -l rohm,bd71847 /proc/device-tree  | sed '"'"'s![^/]*$!!'"'"''
YTXCCWXYOJ/proc/device-tree/ocp/interconnect@48000000/segment@0/target-module@2a000/i2c@0/pmic@4b/
YTXCCWXYOJ 0
root@arm:~# echo 'XWWM''MMBPNP'
XWWMMMBPNP
root@arm:~# MARKER='PLTC''AMSCHA' run 'test -f /proc/device-tree/ocp/interconnectt\@48000000/segment\@0/target-module\@2a000/i2c\@0/pmic\@4b/regulators/BUCK2/reguulator-always-on ;echo $?'
PLTCAMSCHA0
PLTCAMSCHA 0
root@arm:~# echo 'JQLF''YHNJEC'
JQLFYHNJEC
root@arm:~# MARKER='JTTH''BOVHGE' run 'grep -r -l rohm,bd71847 /proc/device-tree  | sed '"'"'s![^/]*$!!'"'"''
JTTHBOVHGE/proc/device-tree/ocp/interconnect@48000000/segment@0/target-module@2a000/i2c@0/pmic@4b/
JTTHBOVHGE 0
root@arm:~# echo 'FHFS''TATGUQ'
FHFSTATGUQ
root@arm:~# MARKER='TBHU''OGNGKS' run 'test -f /proc/device-tree/ocp/interconnectt\@48000000/segment\@0/target-module\@2a000/i2c\@0/pmic\@4b/regulators/BUCK3/rohmm,no-regulator-enable-control ;echo $?'
TBHUOGNGKS0
TBHUOGNGKS 0
root@arm:~# echo 'GULT''HUSYHH'
GULTHUSYHH
root@arm:~# MARKER='KKVB''GGVNUB' run 'grep -r -l rohm,bd71847 /proc/device-tree  | sed '"'"'s![^/]*$!!'"'"''
KKVBGGVNUB/proc/device-tree/ocp/interconnect@48000000/segment@0/target-module@2a000/i2c@0/pmic@4b/
KKVBGGVNUB 0
root@arm:~# echo 'ASGU''PLEFMJ'
ASGUPLEFMJ
root@arm:~# MARKER='KQXO''PHENYM' run 'test -f /proc/device-tree/ocp/interconnectt\@48000000/segment\@0/target-module\@2a000/i2c\@0/pmic\@4b/regulators/BUCK3/rohmm,no-regulator-enable-control ;echo $?'
KQXOPHENYM0
KQXOPHENYM 0
root@arm:~# echo 'VZFP''HOTGZG'
VZFPHOTGZG
root@arm:~# MARKER='PSUL''MHQOFE' run 'grep -r -l rohm,bd71847 /proc/device-tree  | sed '"'"'s![^/]*$!!'"'"''
PSULMHQOFE/proc/device-tree/ocp/interconnect@48000000/segment@0/target-module@2a000/i2c@0/pmic@4b/
PSULMHQOFE 0
root@arm:~# echo 'AYNX''UZTBWS'
AYNXUZTBWS
root@arm:~# MARKER='OUTX''OHUYWQ' run 'test -f /proc/device-tree/ocp/interconnectt\@48000000/segment\@0/target-module\@2a000/i2c\@0/pmic\@4b/regulators/BUCK4/rohmm,no-regulator-enable-control ;echo $?'
OUTXOHUYWQ1
OUTXOHUYWQ 0
root@arm:~# echo 'ACUG''EQVFGO'
ACUGEQVFGO
root@arm:~# MARKER='YMYV''PEBUNL' run 'echo 1 > /sys/kernel/mva_test/regulators/bbuck4_en'
YMYVPEBUNLYMYVPEBUNL 0
root@arm:~# echo 'QCMQ''HQMJJJ'
QCMQHQMJJJ
root@arm:~# MARKER='EEZV''AAKNUB' run 'i2cget -y -f 1 0x4b 0xa'
EEZVAAKNUB0x03
EEZVAAKNUB 0
root@arm:~# echo 'XYZP''LLFKLV'
XYZPLLFKLV
root@arm:~# MARKER='PLJJ''FKHBAS' run 'grep -r -l rohm,bd71847 /proc/device-tree  | sed '"'"'s![^/]*$!!'"'"''
PLJJFKHBAS/proc/device-tree/ocp/interconnect@48000000/segment@0/target-module@2a000/i2c@0/pmic@4b/
PLJJFKHBAS 0
root@arm:~# echo 'UCSU''CBCLTJ'
UCSUCBCLTJ
root@arm:~# MARKER='OWSM''TEYBMW' run 'test -f /proc/device-tree/ocp/interconnectt\@48000000/segment\@0/target-module\@2a000/i2c\@0/pmic\@4b/regulators/BUCK4/rohmm,no-regulator-enable-control ;echo $?'
OWSMTEYBMW1
OWSMTEYBMW 0
root@arm:~# echo 'YMOB''NTJBKL'
YMOBNTJBKL
root@arm:~# MARKER='JEEE''CYSQEJ' run 'grep -r -l rohm,bd71847 /proc/device-tree  | sed '"'"'s![^/]*$!!'"'"''
JEEECYSQEJ/proc/device-tree/ocp/interconnect@48000000/segment@0/target-module@2a000/i2c@0/pmic@4b/
JEEECYSQEJ 0
root@arm:~# echo 'XSMX''KEXHBH'
XSMXKEXHBH
root@arm:~# MARKER='FYCJ''VBTAKM' run 'test -f /proc/device-tree/ocp/interconnectt\@48000000/segment\@0/target-module\@2a000/i2c\@0/pmic\@4b/regulators/BUCK4/reguulator-always-on ;echo $?'
FYCJVBTAKM1
FYCJVBTAKM 0
root@arm:~# echo 'QJFP''WQPJTM'
QJFPWQPJTM
root@arm:~# MARKER='QUOQ''YSPFJX' run 'echo 0 > /sys/kernel/mva_test/regulators/bbuck4_en'
QUOQYSPFJXQUOQYSPFJX 0
root@arm:~# echo 'JHLU''EKTYYW'
JHLUEKTYYW
root@arm:~# MARKER='VNHN''TCBWYO' run 'i2cget -y -f 1 0x4b 0xa'
VNHNTCBWYO0x02
VNHNTCBWYO 0
root@arm:~# echo 'BNJE''EQOBZC'
BNJEEQOBZC
root@arm:~# MARKER='CPFO''OWCUXK' run 'grep -r -l rohm,bd71847 /proc/device-tree  | sed '"'"'s![^/]*$!!'"'"''
CPFOOWCUXK/proc/device-tree/ocp/interconnect@48000000/segment@0/target-module@2a000/i2c@0/pmic@4b/
CPFOOWCUXK 0
root@arm:~# echo 'CMGM''NGCWWH'
CMGMNGCWWH
root@arm:~# MARKER='GXKN''YCYXUF' run 'test -f /proc/device-tree/ocp/interconnectt\@48000000/segment\@0/target-module\@2a000/i2c\@0/pmic\@4b/regulators/BUCK5/rohmm,no-regulator-enable-control ;echo $?'
GXKNYCYXUF1
GXKNYCYXUF 0
root@arm:~# echo 'JQFO''PKZCHF'
JQFOPKZCHF
root@arm:~# MARKER='OXMS''TNGCLW' run 'echo 1 > /sys/kernel/mva_test/regulators/bbuck5_en'
OXMSTNGCLWOXMSTNGCLW 0
root@arm:~# echo 'SLTE''NNUTOG'
SLTENNUTOG
root@arm:~# MARKER='ACCL''ZTQKTM' run 'i2cget -y -f 1 0x4b 0xb'
ACCLZTQKTM0x03
ACCLZTQKTM 0
root@arm:~# echo 'OTMF''LSOHUB'
OTMFLSOHUB
root@arm:~# MARKER='QULX''OJLKWA' run 'grep -r -l rohm,bd71847 /proc/device-tree  | sed '"'"'s![^/]*$!!'"'"''
QULXOJLKWA/proc/device-tree/ocp/interconnect@48000000/segment@0/target-module@2a000/i2c@0/pmic@4b/
QULXOJLKWA 0
root@arm:~# echo 'UQMB''LCOKST'
UQMBLCOKST
root@arm:~# MARKER='HHPF''YLEWXX' run 'test -f /proc/device-tree/ocp/interconnectt\@48000000/segment\@0/target-module\@2a000/i2c\@0/pmic\@4b/regulators/BUCK5/rohmm,no-regulator-enable-control ;echo $?'
HHPFYLEWXX1
HHPFYLEWXX 0
root@arm:~# echo 'MQEK''GFNNLP'
MQEKGFNNLP
root@arm:~# MARKER='XHYX''HMFVJO' run 'grep -r -l rohm,bd71847 /proc/device-tree  | sed '"'"'s![^/]*$!!'"'"''
XHYXHMFVJO/proc/device-tree/ocp/interconnect@48000000/segment@0/target-module@2a000/i2c@0/pmic@4b/
XHYXHMFVJO 0
root@arm:~# echo 'WSTO''JNAFOX'
WSTOJNAFOX
root@arm:~# MARKER='CSGZ''AJKPAB' run 'test -f /proc/device-tree/ocp/interconnectt\@48000000/segment\@0/target-module\@2a000/i2c\@0/pmic\@4b/regulators/BUCK5/reguulator-always-on ;echo $?'
CSGZAJKPAB1
CSGZAJKPAB 0
root@arm:~# echo 'VOTU''FCGCTV'
VOTUFCGCTV
root@arm:~# MARKER='VCWF''MTOOMS' run 'echo 0 > /sys/kernel/mva_test/regulators/bbuck5_en'
VCWFMTOOMSVCWFMTOOMS 0
root@arm:~# echo 'BZHZ''XQXJUO'
BZHZXQXJUO
root@arm:~# MARKER='PEUO''MNFQOP' run 'i2cget -y -f 1 0x4b 0xb'
PEUOMNFQOP0x02
PEUOMNFQOP 0
root@arm:~# echo 'XONC''GZVECE'
XONCGZVECE
root@arm:~# MARKER='LLYO''LKJHBU' run 'grep -r -l rohm,bd71847 /proc/device-tree  | sed '"'"'s![^/]*$!!'"'"''
LLYOLKJHBU/proc/device-tree/ocp/interconnect@48000000/segment@0/target-module@2a000/i2c@0/pmic@4b/
LLYOLKJHBU 0
root@arm:~# echo 'CVKK''LJJOKJ'
CVKKLJJOKJ
root@arm:~# MARKER='QLYT''HPWCWZ' run 'test -f /proc/device-tree/ocp/interconnectt\@48000000/segment\@0/target-module\@2a000/i2c\@0/pmic\@4b/regulators/BUCK6/rohmm,no-regulator-enable-control ;echo $?'
QLYTHPWCWZ1
QLYTHPWCWZ 0
root@arm:~# echo 'WETO''GVAAKC'
WETOGVAAKC
root@arm:~# MARKER='PQUE''OAQEZB' run 'echo 1 > /sys/kernel/mva_test/regulators/bbuck6_en'
PQUEOAQEZBPQUEOAQEZB 0
root@arm:~# echo 'TPTN''QPSNQS'
TPTNQPSNQS
root@arm:~# MARKER='HVTM''SZLFEA' run 'i2cget -y -f 1 0x4b 0xc'
HVTMSZLFEA0x03
HVTMSZLFEA 0
root@arm:~# echo 'FMOM''HLXQBO'
FMOMHLXQBO
root@arm:~# MARKER='ZEEG''TLBGTJ' run 'grep -r -l rohm,bd71847 /proc/device-tree  | sed '"'"'s![^/]*$!!'"'"''
ZEEGTLBGTJ/proc/device-tree/ocp/interconnect@48000000/segment@0/target-module@2a000/i2c@0/pmic@4b/
ZEEGTLBGTJ 0
root@arm:~# echo 'YZBL''QCBKCU'
YZBLQCBKCU
root@arm:~# MARKER='WVGU''PLPAAZ' run 'test -f /proc/device-tree/ocp/interconnectt\@48000000/segment\@0/target-module\@2a000/i2c\@0/pmic\@4b/regulators/BUCK6/rohmm,no-regulator-enable-control ;echo $?'
WVGUPLPAAZ1
WVGUPLPAAZ 0
root@arm:~# echo 'KGGM''MGTNCW'
KGGMMGTNCW
root@arm:~# MARKER='QOWU''JYFVGW' run 'grep -r -l rohm,bd71847 /proc/device-tree  | sed '"'"'s![^/]*$!!'"'"''
QOWUJYFVGW/proc/device-tree/ocp/interconnect@48000000/segment@0/target-module@2a000/i2c@0/pmic@4b/
QOWUJYFVGW 0
root@arm:~# echo 'PYEZ''KEUHOZ'
PYEZKEUHOZ
root@arm:~# MARKER='YKAN''LKVUQL' run 'test -f /proc/device-tree/ocp/interconnectt\@48000000/segment\@0/target-module\@2a000/i2c\@0/pmic\@4b/regulators/BUCK6/reguulator-always-on ;echo $?'
YKANLKVUQL1
YKANLKVUQL 0
root@arm:~# echo 'PYQK''ATFNCX'
PYQKATFNCX
root@arm:~# MARKER='FJYT''LQJAMF' run 'echo 0 > /sys/kernel/mva_test/regulators/bbuck6_en'
FJYTLQJAMFFJYTLQJAMF 0
root@arm:~# echo 'MXNE''ZNCYOW'
MXNEZNCYOW
root@arm:~# MARKER='QYJT''TZHULG' run 'i2cget -y -f 1 0x4b 0xc'
QYJTTZHULG0x02
QYJTTZHULG 0
root@arm:~# echo 'GYAQ''EWLESH'
GYAQEWLESH
root@arm:~# MARKER='CAHS''ZKWHSP' run 'grep -r -l rohm,bd71847 /proc/device-tree  | sed '"'"'s![^/]*$!!'"'"''
CAHSZKWHSP/proc/device-tree/ocp/interconnect@48000000/segment@0/target-module@2a000/i2c@0/pmic@4b/
CAHSZKWHSP 0
root@arm:~# echo 'KZVB''MOEBNS'
KZVBMOEBNS
root@arm:~# MARKER='VMSN''QLTNKH' run 'test -f /proc/device-tree/ocp/interconnectt\@48000000/segment\@0/target-module\@2a000/i2c\@0/pmic\@4b/regulators/LDO1/rohm,,no-regulator-enable-control ;echo $?'
VMSNQLTNKH1
VMSNQLTNKH 0
root@arm:~# echo 'COLN''UHHCHM'
COLNUHHCHM
root@arm:~# MARKER='TSNO''FLHMWG' run 'echo 1 > /sys/kernel/mva_test/regulators/bbuck7_en'
TSNOFLHMWGTSNOFLHMWG 0
root@arm:~# echo 'UHPX''JOSZOQ'
UHPXJOSZOQ
root@arm:~# MARKER='GTBQ''PGEKBY' run 'i2cget -y -f 1 0x4b 0x18'
GTBQPGEKBY0xe2
GTBQPGEKBY 0
root@arm:~# echo 'ZZUM''VVXKYY'
ZZUMVVXKYY
root@arm:~# MARKER='VBEV''LTHNQP' run 'grep -r -l rohm,bd71847 /proc/device-tree  | sed '"'"'s![^/]*$!!'"'"''
VBEVLTHNQP/proc/device-tree/ocp/interconnect@48000000/segment@0/target-module@2a000/i2c@0/pmic@4b/
VBEVLTHNQP 0
root@arm:~# echo 'UXWU''UGVENT'
UXWUUGVENT
root@arm:~# MARKER='MYFW''EWGJJB' run 'test -f /proc/device-tree/ocp/interconnectt\@48000000/segment\@0/target-module\@2a000/i2c\@0/pmic\@4b/regulators/LDO1/rohm,,no-regulator-enable-control ;echo $?'
MYFWEWGJJB1
MYFWEWGJJB 0
root@arm:~# echo 'SUGY''FJTVVV'
SUGYFJTVVV
root@arm:~# MARKER='OPLM''YVMJUP' run 'grep -r -l rohm,bd71847 /proc/device-tree  | sed '"'"'s![^/]*$!!'"'"''
OPLMYVMJUP/proc/device-tree/ocp/interconnect@48000000/segment@0/target-module@2a000/i2c@0/pmic@4b/
OPLMYVMJUP 0
root@arm:~# echo 'OWYU''NKCSSQ'
OWYUNKCSSQ
root@arm:~# MARKER='MKSM''OACZHM' run 'test -f /proc/device-tree/ocp/interconnectt\@48000000/segment\@0/target-module\@2a000/i2c\@0/pmic\@4b/regulators/LDO1/regullator-always-on ;echo $?'
MKSMOACZHM1
MKSMOACZHM 0
root@arm:~# echo 'QQMJ''MMGNJB'
QQMJMMGNJB
root@arm:~# MARKER='XALN''JAZXNT' run 'echo 0 > /sys/kernel/mva_test/regulators/bbuck7_en'
XALNJAZXNTXALNJAZXNT 0
root@arm:~# echo 'JNHJ''QFXBWV'
JNHJQFXBWV
root@arm:~# MARKER='OSLQ''FAEOOA' run 'i2cget -y -f 1 0x4b 0x18'
OSLQFAEOOA0xa2
OSLQFAEOOA 0
root@arm:~# echo 'LMNT''NNPPZO'
LMNTNNPPZO
root@arm:~# MARKER='ECWK''QKSJEO' run 'grep -r -l rohm,bd71847 /proc/device-tree  | sed '"'"'s![^/]*$!!'"'"''
ECWKQKSJEO/proc/device-tree/ocp/interconnect@48000000/segment@0/target-module@2a000/i2c@0/pmic@4b/
ECWKQKSJEO 0
root@arm:~# echo 'NPQO''SMXEKH'
NPQOSMXEKH
root@arm:~# MARKER='YLAK''GUSCSH' run 'test -f /proc/device-tree/ocp/interconnectt\@48000000/segment\@0/target-module\@2a000/i2c\@0/pmic\@4b/regulators/LDO2/rohm,,no-regulator-enable-control ;echo $?'
YLAKGUSCSH1
YLAKGUSCSH 0
root@arm:~# echo 'VYKC''HUNSEL'
VYKCHUNSEL
root@arm:~# MARKER='TCJE''LGLFUP' run 'echo 1 > /sys/kernel/mva_test/regulators/bbuck8_en'
TCJELGLFUPTCJELGLFUP 0
root@arm:~# echo 'YUTW''PNWEGC'
YUTWPNWEGC
root@arm:~# MARKER='SXBS''BXZLLM' run 'i2cget -y -f 1 0x4b 0x19'
SXBSBXZLLM0xe0
SXBSBXZLLM 0
root@arm:~# echo 'HOOS''ZKEPCF'
HOOSZKEPCF
root@arm:~# MARKER='WEEO''VKNFCC' run 'grep -r -l rohm,bd71847 /proc/device-tree  | sed '"'"'s![^/]*$!!'"'"''
WEEOVKNFCC/proc/device-tree/ocp/interconnect@48000000/segment@0/target-module@2a000/i2c@0/pmic@4b/
WEEOVKNFCC 0
root@arm:~# echo 'QOHY''SKZYOA'
QOHYSKZYOA
root@arm:~# MARKER='VAFM''MCLMQX' run 'test -f /proc/device-tree/ocp/interconnectt\@48000000/segment\@0/target-module\@2a000/i2c\@0/pmic\@4b/regulators/LDO2/rohm,,no-regulator-enable-control ;echo $?'
VAFMMCLMQX1
VAFMMCLMQX 0
root@arm:~# echo 'WXPB''EUOSXA'
WXPBEUOSXA
root@arm:~# MARKER='BFUB''JKJAKC' run 'grep -r -l rohm,bd71847 /proc/device-tree  | sed '"'"'s![^/]*$!!'"'"''
BFUBJKJAKC/proc/device-tree/ocp/interconnect@48000000/segment@0/target-module@2a000/i2c@0/pmic@4b/
BFUBJKJAKC 0
root@arm:~# echo 'AQGT''VCCGTY'
AQGTVCCGTY
root@arm:~# MARKER='AMGP''WTGOPT' run 'test -f /proc/device-tree/ocp/interconnectt\@48000000/segment\@0/target-module\@2a000/i2c\@0/pmic\@4b/regulators/LDO2/regullator-always-on ;echo $?'
AMGPWTGOPT1
AMGPWTGOPT 0
root@arm:~# echo 'CWCP''VJGOHG'
CWCPVJGOHG
root@arm:~# MARKER='QSEL''QFCYPB' run 'echo 0 > /sys/kernel/mva_test/regulators/bbuck8_en'
QSELQFCYPBQSELQFCYPB 0
root@arm:~# echo 'JAJJ''OLCQHU'
JAJJOLCQHU
root@arm:~# MARKER='YUBA''VCCEEF' run 'i2cget -y -f 1 0x4b 0x19'
YUBAVCCEEF0xa0
YUBAVCCEEF 0
root@arm:~# echo 'HLKJ''YKSQAO'
HLKJYKSQAO
root@arm:~# MARKER='BOYH''VYSOXN' run 'grep -r -l rohm,bd71847 /proc/device-tree  | sed '"'"'s![^/]*$!!'"'"''
BOYHVYSOXN/proc/device-tree/ocp/interconnect@48000000/segment@0/target-module@2a000/i2c@0/pmic@4b/
BOYHVYSOXN 0
root@arm:~# echo 'KEPZ''UMONTZ'
KEPZUMONTZ
root@arm:~# MARKER='EFMU''QOXZQW' run 'test -f /proc/device-tree/ocp/interconnectt\@48000000/segment\@0/target-module\@2a000/i2c\@0/pmic\@4b/regulators/LDO3/rohm,,no-regulator-enable-control ;echo $?'
EFMUQOXZQW1
EFMUQOXZQW 0
root@arm:~# echo 'TTWJ''VYYZZT'
TTWJVYYZZT
root@arm:~# MARKER='BXZX''GEASWJ' run 'echo 1 > /sys/kernel/mva_test/regulators/bbuck9_en'
BXZXGEASWJBXZXGEASWJ 0
root@arm:~# echo 'ZSZB''FNYCLO'
ZSZBFNYCLO
root@arm:~# MARKER='ACPM''XKPFEE' run 'i2cget -y -f 1 0x4b 0x1a'
ACPMXKPFEE0xc0
ACPMXKPFEE 0
root@arm:~# echo 'LYEU''TPCJHX'
LYEUTPCJHX
root@arm:~# MARKER='KFSJ''JWMQHP' run 'grep -r -l rohm,bd71847 /proc/device-tree  | sed '"'"'s![^/]*$!!'"'"''
KFSJJWMQHP/proc/device-tree/ocp/interconnect@48000000/segment@0/target-module@2a000/i2c@0/pmic@4b/
KFSJJWMQHP 0
root@arm:~# echo 'PUNV''GLNKUT'
PUNVGLNKUT
root@arm:~# MARKER='FHEB''XVOELB' run 'test -f /proc/device-tree/ocp/interconnectt\@48000000/segment\@0/target-module\@2a000/i2c\@0/pmic\@4b/regulators/LDO3/rohm,,no-regulator-enable-control ;echo $?'
FHEBXVOELB1
FHEBXVOELB 0
root@arm:~# echo 'UCOS''JUSYSM'
UCOSJUSYSM
root@arm:~# MARKER='SUQH''QEOWFM' run 'grep -r -l rohm,bd71847 /proc/device-tree  | sed '"'"'s![^/]*$!!'"'"''
SUQHQEOWFM/proc/device-tree/ocp/interconnect@48000000/segment@0/target-module@2a000/i2c@0/pmic@4b/
SUQHQEOWFM 0
root@arm:~# echo 'PJKC''LCHNKH'
PJKCLCHNKH
root@arm:~# MARKER='OHEK''EHVQCF' run 'test -f /proc/device-tree/ocp/interconnectt\@48000000/segment\@0/target-module\@2a000/i2c\@0/pmic\@4b/regulators/LDO3/regullator-always-on ;echo $?'
OHEKEHVQCF1
OHEKEHVQCF 0
root@arm:~# echo 'WCQX''FKAUTO'
WCQXFKAUTO
root@arm:~# MARKER='CYYH''AYAHTL' run 'echo 0 > /sys/kernel/mva_test/regulators/bbuck9_en'
CYYHAYAHTLCYYHAYAHTL 0
root@arm:~# echo 'EGZE''ABWWNH'
EGZEABWWNH
root@arm:~# MARKER='HKSK''AGYAGS' run 'i2cget -y -f 1 0x4b 0x1a'
HKSKAGYAGS0x80
HKSKAGYAGS 0
root@arm:~# echo 'KQPE''VVANGB'
KQPEVVANGB
root@arm:~# MARKER='MGTF''LPUSMX' run 'grep -r -l rohm,bd71847 /proc/device-tree  | sed '"'"'s![^/]*$!!'"'"''
MGTFLPUSMX/proc/device-tree/ocp/interconnect@48000000/segment@0/target-module@2a000/i2c@0/pmic@4b/
MGTFLPUSMX 0
root@arm:~# echo 'WJFF''ETFTSC'
WJFFETFTSC
root@arm:~# MARKER='OTNN''VYVXMQ' run 'test -f /proc/device-tree/ocp/interconnectt\@48000000/segment\@0/target-module\@2a000/i2c\@0/pmic\@4b/regulators/LDO4/rohm,,no-regulator-enable-control ;echo $?'
OTNNVYVXMQ1
OTNNVYVXMQ 0
root@arm:~# echo 'ZPMA''FQVGQN'
ZPMAFQVGQN
root@arm:~# MARKER='YLNO''MHFKZG' run 'echo 1 > /sys/kernel/mva_test/regulators/bbuck10_en'
YLNOMHFKZGYLNOMHFKZG 0
root@arm:~# echo 'FEMO''VZHSNZ'
FEMOVZHSNZ
root@arm:~# MARKER='HQVP''FYXKQS' run 'i2cget -y -f 1 0x4b 0x1b'
HQVPFYXKQS0xc0
HQVPFYXKQS 0
root@arm:~# echo 'UKHK''ANPLYF'
UKHKANPLYF
root@arm:~# MARKER='QQAY''PFTTWS' run 'grep -r -l rohm,bd71847 /proc/device-tree  | sed '"'"'s![^/]*$!!'"'"''
QQAYPFTTWS/proc/device-tree/ocp/interconnect@48000000/segment@0/target-module@2a000/i2c@0/pmic@4b/
QQAYPFTTWS 0
root@arm:~# echo 'TTLT''QVBAOA'
TTLTQVBAOA
root@arm:~# MARKER='MSQE''WGECLG' run 'test -f /proc/device-tree/ocp/interconnectt\@48000000/segment\@0/target-module\@2a000/i2c\@0/pmic\@4b/regulators/LDO4/rohm,,no-regulator-enable-control ;echo $?'
MSQEWGECLG1
MSQEWGECLG 0
root@arm:~# echo 'CHCN''KHLUYZ'
CHCNKHLUYZ
root@arm:~# MARKER='CPZS''NWYOOA' run 'grep -r -l rohm,bd71847 /proc/device-tree  | sed '"'"'s![^/]*$!!'"'"''
CPZSNWYOOA/proc/device-tree/ocp/interconnect@48000000/segment@0/target-module@2a000/i2c@0/pmic@4b/
CPZSNWYOOA 0
root@arm:~# echo 'YGMN''ONXLLX'
YGMNONXLLX
root@arm:~# MARKER='EQSP''HCFTGO' run 'test -f /proc/device-tree/ocp/interconnectt\@48000000/segment\@0/target-module\@2a000/i2c\@0/pmic\@4b/regulators/LDO4/regullator-always-on ;echo $?'
EQSPHCFTGO1
EQSPHCFTGO 0
root@arm:~# echo 'NCQT''PEAJPC'
NCQTPEAJPC
root@arm:~# MARKER='EXFC''FABJLM' run 'echo 0 > /sys/kernel/mva_test/regulators/bbuck10_en'
EXFCFABJLMEXFCFABJLM 0
root@arm:~# echo 'NZSA''ZETGLV'
NZSAZETGLV
root@arm:~# MARKER='XOKV''MXOUKS' run 'i2cget -y -f 1 0x4b 0x1b'
XOKVMXOUKS0x80
XOKVMXOUKS 0
root@arm:~# echo 'UFKK''UEMHPK'
UFKKUEMHPK
root@arm:~# MARKER='LWYK''OJUWPF' run 'grep -r -l rohm,bd71847 /proc/device-tree  | sed '"'"'s![^/]*$!!'"'"''
LWYKOJUWPF/proc/device-tree/ocp/interconnect@48000000/segment@0/target-module@2a000/i2c@0/pmic@4b/
LWYKOJUWPF 0
root@arm:~# echo 'EECE''BMOSTP'
EECEBMOSTP
root@arm:~# MARKER='QOHL''ATCXUT' run 'test -f /proc/device-tree/ocp/interconnectt\@48000000/segment\@0/target-module\@2a000/i2c\@0/pmic\@4b/regulators/LDO5/rohm,,no-regulator-enable-control ;echo $?'
QOHLATCXUT0
QOHLATCXUT 0
root@arm:~# echo 'UPZW''KSHUXL'
UPZWKSHUXL
root@arm:~# MARKER='FNHJ''ZMJXWF' run 'grep -r -l rohm,bd71847 /proc/device-tree  | sed '"'"'s![^/]*$!!'"'"''
FNHJZMJXWF/proc/device-tree/ocp/interconnect@48000000/segment@0/target-module@2a000/i2c@0/pmic@4b/
FNHJZMJXWF 0
root@arm:~# echo 'QSQA''TSEAJX'
QSQATSEAJX
root@arm:~# MARKER='QEEO''NMYPLF' run 'test -f /proc/device-tree/ocp/interconnectt\@48000000/segment\@0/target-module\@2a000/i2c\@0/pmic\@4b/regulators/LDO5/rohm,,no-regulator-enable-control ;echo $?'
QEEONMYPLF0
QEEONMYPLF 0
root@arm:~# echo 'VUGA''HMGLSF'
VUGAHMGLSF
root@arm:~# MARKER='OTWP''HLLUBB' run 'grep -r -l rohm,bd71847 /proc/device-tree  | sed '"'"'s![^/]*$!!'"'"''
OTWPHLLUBB/proc/device-tree/ocp/interconnect@48000000/segment@0/target-module@2a000/i2c@0/pmic@4b/
OTWPHLLUBB 0
root@arm:~# echo 'JZXT''GZWHEK'
JZXTGZWHEK
root@arm:~# MARKER='UGOY''QXEVMJ' run 'test -f /proc/device-tree/ocp/interconnectt\@48000000/segment\@0/target-module\@2a000/i2c\@0/pmic\@4b/regulators/LDO6/rohm,,no-regulator-enable-control ;echo $?'
UGOYQXEVMJ1
UGOYQXEVMJ 0
root@arm:~# echo 'PTHU''SJNOKZ'
PTHUSJNOKZ
root@arm:~# MARKER='XYGK''FVXCPT' run 'echo 1 > /sys/kernel/mva_test/regulators/bbuck12_en'
XYGKFVXCPTXYGKFVXCPT 0
root@arm:~# echo 'SGXS''JONBSE'
SGXSJONBSE
root@arm:~# MARKER='WWCW''TLXTJB' run 'i2cget -y -f 1 0x4b 0x1d'
WWCWTLXTJB0xc3
WWCWTLXTJB 0
root@arm:~# echo 'MUCK''LUUJSN'
MUCKLUUJSN
root@arm:~# MARKER='ZWCF''SCFXTV' run 'grep -r -l rohm,bd71847 /proc/device-tree  | sed '"'"'s![^/]*$!!'"'"''
ZWCFSCFXTV/proc/device-tree/ocp/interconnect@48000000/segment@0/target-module@2a000/i2c@0/pmic@4b/
ZWCFSCFXTV 0
root@arm:~# echo 'TQVF''SKPLAA'
TQVFSKPLAA
root@arm:~# MARKER='JKWV''YUHQOE' run 'test -f /proc/device-tree/ocp/interconnectt\@48000000/segment\@0/target-module\@2a000/i2c\@0/pmic\@4b/regulators/LDO6/rohm,,no-regulator-enable-control ;echo $?'
JKWVYUHQOE1
JKWVYUHQOE 0
root@arm:~# echo 'YEXA''UXCBTG'
YEXAUXCBTG
root@arm:~# MARKER='KEWF''FGALMS' run 'grep -r -l rohm,bd71847 /proc/device-tree  | sed '"'"'s![^/]*$!!'"'"''
KEWFFGALMS/proc/device-tree/ocp/interconnect@48000000/segment@0/target-module@2a000/i2c@0/pmic@4b/
KEWFFGALMS 0
root@arm:~# echo 'VVCF''CTFMPA'
VVCFCTFMPA
root@arm:~# MARKER='GNMM''YMSULT' run 'test -f /proc/device-tree/ocp/interconnectt\@48000000/segment\@0/target-module\@2a000/i2c\@0/pmic\@4b/regulators/LDO6/regullator-always-on ;echo $?'
GNMMYMSULT1
GNMMYMSULT 0
root@arm:~# echo 'ZTXK''TXLNVK'
ZTXKTXLNVK
root@arm:~# MARKER='KALJ''XGVGBF' run 'echo 0 > /sys/kernel/mva_test/regulators/bbuck12_en'
KALJXGVGBFKALJXGVGBF 0
root@arm:~# echo 'ZCTV''WWEPHH'
ZCTVWWEPHH
root@arm:~# MARKER='PUVH''FTAFBN' run 'i2cget -y -f 1 0x4b 0x1d'
PUVHFTAFBN0x83
PUVHFTAFBN 0
root@arm:~# Labgrid Console Logfile for main
Logfile started at 2026-08-14 19:57:36.894082
=== Log starts here ===

root@arm:~# run() { echo -n "$MARKER"; sh -c "$@"; echo "$MARKER $?"; }
root@arm:~# echo 'OSMP''NMXOHS'
OSMPNMXOHS
root@arm:~# MARKER='TOJM''FLHUTT' run 'grep -r -l rohm,bd71847 /proc/device-tree  | sed '"'"'s![^/]*$!!'"'"''
TOJMFLHUTT/proc/device-tree/ocp/interconnect@48000000/segment@0/target-module@2a000/i2c@0/pmic@4b/
TOJMFLHUTT 0
root@arm:~# echo 'KGZX''ANJZOQ'
KGZXANJZOQ
root@arm:~# MARKER='GVKU''NLYCXC' run 'test -f /proc/device-tree/ocp/interconnectt\@48000000/segment\@0/target-module\@2a000/i2c\@0/pmic\@4b/regulators/BUCK1/rohmm,no-regulator-enable-control ;echo $?'
GVKUNLYCXC1
GVKUNLYCXC 0
root@arm:~# echo 'KWQE''QNXEZL'
KWQEQNXEZL
root@arm:~# MARKER='VUJE''XNQZUA' run 'i2cget -y -f 1 0x4b 0x5'
VUJEXNQZUA0x02
VUJEXNQZUA 0
root@arm:~# echo 'HMSW''BZLPKG'
HMSWBZLPKG
root@arm:~# MARKER='CMAX''KJZTGA' run 'echo 700000 700000 > /sys/kernel/mva_test//regulators/buck1_set'
CMAXKJZTGACMAXKJZTGA 0
root@arm:~# echo 'SOAE''OAVNGK'
SOAEOAVNGK
root@arm:~# MARKER='OFPT''JPJVQB' run 'i2cget -y -f 1 0x4b 0xd'
OFPTJPJVQB0x00
OFPTJPJVQB 0
root@arm:~# echo 'GCUT''CXXPPW'
GCUTCXXPPW
root@arm:~# MARKER='SXXW''KMFPBC' run 'echo 710000 710000 > /sys/kernel/mva_test//regulators/buck1_set'
SXXWKMFPBCSXXWKMFPBC 0
root@arm:~# echo 'CYEW''SMJQZK'
CYEWSMJQZK
root@arm:~# MARKER='TJLY''BQZPFP' run 'i2cget -y -f 1 0x4b 0xd'
TJLYBQZPFP0x01
TJLYBQZPFP 0
root@arm:~# echo 'FZNG''OQUOSZ'
FZNGOQUOSZ
root@arm:~# MARKER='OVAX''LZQXMC' run 'echo 720000 720000 > /sys/kernel/mva_test//regulators/buck1_set'
OVAXLZQXMCOVAXLZQXMC 0
root@arm:~# echo 'MWCV''HCCJNC'
MWCVHCCJNC
root@arm:~# MARKER='YBGH''UPUZYM' run 'i2cget -y -f 1 0x4b 0xd'
YBGHUPUZYM0x02
YBGHUPUZYM 0
root@arm:~# echo 'VZBA''JVULVF'
VZBAJVULVF
root@arm:~# MARKER='VZWK''PWYJTB' run 'echo 730000 730000 > /sys/kernel/mva_test//regulators/buck1_set'
VZWKPWYJTBVZWKPWYJTB 0
root@arm:~# echo 'HMBH''BSTSFA'
HMBHBSTSFA
root@arm:~# MARKER='NGTP''BOOLPH' run 'i2cget -y -f 1 0x4b 0xd'
NGTPBOOLPH0x03
NGTPBOOLPH 0
root@arm:~# echo 'HMTY''GUSYQN'
HMTYGUSYQN
root@arm:~# MARKER='YEOY''JNHSQF' run 'echo 740000 740000 > /sys/kernel/mva_test//regulators/buck1_set'
YEOYJNHSQFYEOYJNHSQF 0
root@arm:~# echo 'ZPWE''LOOBNN'
ZPWELOOBNN
root@arm:~# MARKER='ZFYU''PTJOYX' run 'i2cget -y -f 1 0x4b 0xd'
ZFYUPTJOYX0x04
ZFYUPTJOYX 0
root@arm:~# echo 'FZCC''BFEEEA'
FZCCBFEEEA
root@arm:~# MARKER='LJLC''BMCWNM' run 'echo 750000 750000 > /sys/kernel/mva_test//regulators/buck1_set'
LJLCBMCWNMLJLCBMCWNM 0
root@arm:~# echo 'KZPG''FFMBQZ'
KZPGFFMBQZ
root@arm:~# MARKER='KGMQ''CWHTBQ' run 'i2cget -y -f 1 0x4b 0xd'
KGMQCWHTBQ0x05
KGMQCWHTBQ 0
root@arm:~# echo 'WNNB''JVGUES'
WNNBJVGUES
root@arm:~# MARKER='CQLV''LUUNBF' run 'echo 760000 760000 > /sys/kernel/mva_test//regulators/buck1_set'
CQLVLUUNBFCQLVLUUNBF 0
root@arm:~# echo 'VJHO''UVVTKO'
VJHOUVVTKO
root@arm:~# MARKER='BTYL''LKGFWF' run 'i2cget -y -f 1 0x4b 0xd'
BTYLLKGFWF0x06
BTYLLKGFWF 0
root@arm:~# echo 'UGCL''OXUEPV'
UGCLOXUEPV
root@arm:~# MARKER='MQMJ''NYHWEK' run 'echo 770000 770000 > /sys/kernel/mva_test//regulators/buck1_set'
MQMJNYHWEKMQMJNYHWEK 0
root@arm:~# echo 'VUGX''TCLLYA'
VUGXTCLLYA
root@arm:~# MARKER='BQOU''MTUAZO' run 'i2cget -y -f 1 0x4b 0xd'
BQOUMTUAZO0x07
BQOUMTUAZO 0
root@arm:~# echo 'MXVM''UKLJSQ'
MXVMUKLJSQ
root@arm:~# MARKER='KOME''BZFJYB' run 'echo 780000 780000 > /sys/kernel/mva_test//regulators/buck1_set'
KOMEBZFJYBKOMEBZFJYB 0
root@arm:~# echo 'AKUU''VOSPFK'
AKUUVOSPFK
root@arm:~# MARKER='OXZS''GPOGPO' run 'i2cget -y -f 1 0x4b 0xd'
OXZSGPOGPO0x08
OXZSGPOGPO 0
root@arm:~# echo 'TOAT''SFJQTW'
TOATSFJQTW
root@arm:~# MARKER='YGEH''MFYEKG' run 'echo 790000 790000 > /sys/kernel/mva_test//regulators/buck1_set'
YGEHMFYEKGYGEHMFYEKG 0
root@arm:~# echo 'EHHP''VCYPBW'
EHHPVCYPBW
root@arm:~# MARKER='APPZ''JSJQWM' run 'i2cget -y -f 1 0x4b 0xd'
APPZJSJQWM0x09
APPZJSJQWM 0
root@arm:~# echo 'ZXBC''KQLZLJ'
ZXBCKQLZLJ
root@arm:~# MARKER='JLXH''YFVFSW' run 'echo 800000 800000 > /sys/kernel/mva_test//regulators/buck1_set'
JLXHYFVFSWJLXHYFVFSW 0
root@arm:~# echo 'HPCU''JUWKJE'
HPCUJUWKJE
root@arm:~# MARKER='SEZJ''FCQNBV' run 'i2cget -y -f 1 0x4b 0xd'
SEZJFCQNBV0x0a
SEZJFCQNBV 0
root@arm:~# echo 'JTOU''GMPSBW'
JTOUGMPSBW
root@arm:~# MARKER='XKAY''PCBHXB' run 'echo 810000 810000 > /sys/kernel/mva_test//regulators/buck1_set'
XKAYPCBHXBXKAYPCBHXB 0
root@arm:~# echo 'MYZU''MAUHQQ'
MYZUMAUHQQ
root@arm:~# MARKER='TGJQ''OUMTWB' run 'i2cget -y -f 1 0x4b 0xd'
TGJQOUMTWB0x0b
TGJQOUMTWB 0
root@arm:~# echo 'NEBB''MSWOVS'
NEBBMSWOVS
root@arm:~# MARKER='ZPXY''GFUMZO' run 'echo 820000 820000 > /sys/kernel/mva_test//regulators/buck1_set'
ZPXYGFUMZOZPXYGFUMZO 0
root@arm:~# echo 'GKNF''XAQFCG'
GKNFXAQFCG
root@arm:~# MARKER='YLPL''GXWOMV' run 'i2cget -y -f 1 0x4b 0xd'
YLPLGXWOMV0x0c
YLPLGXWOMV 0
root@arm:~# echo 'LVPL''LBQWGA'
LVPLLBQWGA
root@arm:~# MARKER='CCTF''PGSBYX' run 'echo 830000 830000 > /sys/kernel/mva_test//regulators/buck1_set'
CCTFPGSBYXCCTFPGSBYX 0
root@arm:~# echo 'WAUF''XYUUAV'
WAUFXYUUAV
root@arm:~# MARKER='SGMM''GATBBL' run 'i2cget -y -f 1 0x4b 0xd'
SGMMGATBBL0x0d
SGMMGATBBL 0
root@arm:~# echo 'YATG''MXPPQJ'
YATGMXPPQJ
root@arm:~# MARKER='CCAX''WGZUTN' run 'echo 840000 840000 > /sys/kernel/mva_test//regulators/buck1_set'
CCAXWGZUTNCCAXWGZUTN 0
root@arm:~# echo 'EGFY''YJXOSY'
EGFYYJXOSY
root@arm:~# MARKER='GWGJ''PKFUUA' run 'i2cget -y -f 1 0x4b 0xd'
GWGJPKFUUA0x0e
GWGJPKFUUA 0
root@arm:~# echo 'UOWB''LQQGJS'
UOWBLQQGJS
root@arm:~# MARKER='TBEH''JCNTKX' run 'echo 850000 850000 > /sys/kernel/mva_test//regulators/buck1_set'
TBEHJCNTKXTBEHJCNTKX 0
root@arm:~# echo 'EWPY''GTBCOG'
EWPYGTBCOG
root@arm:~# MARKER='OOKH''LKFQFM' run 'i2cget -y -f 1 0x4b 0xd'
OOKHLKFQFM0x0f
OOKHLKFQFM 0
root@arm:~# echo 'CCCU''QCTYHL'
CCCUQCTYHL
root@arm:~# MARKER='GMGM''QQEZZL' run 'echo 860000 860000 > /sys/kernel/mva_test//regulators/buck1_set'
GMGMQQEZZLGMGMQQEZZL 0
root@arm:~# echo 'QSCT''UKPWHV'
QSCTUKPWHV
root@arm:~# MARKER='ENQX''NUVYXU' run 'i2cget -y -f 1 0x4b 0xd'
ENQXNUVYXU0x10
ENQXNUVYXU 0
root@arm:~# echo 'QWMN''ENTFQB'
QWMNENTFQB
root@arm:~# MARKER='OEOP''VZGSTU' run 'echo 870000 870000 > /sys/kernel/mva_test//regulators/buck1_set'
OEOPVZGSTUOEOPVZGSTU 0
root@arm:~# echo 'UVAK''VJAMBX'
UVAKVJAMBX
root@arm:~# MARKER='BYHT''ASEZYT' run 'i2cget -y -f 1 0x4b 0xd'
BYHTASEZYT0x11
BYHTASEZYT 0
root@arm:~# echo 'LKZC''KEAAZK'
LKZCKEAAZK
root@arm:~# MARKER='PLHW''EXCPFJ' run 'echo 880000 880000 > /sys/kernel/mva_test//regulators/buck1_set'
PLHWEXCPFJPLHWEXCPFJ 0
root@arm:~# echo 'VSZN''FWKGVH'
VSZNFWKGVH
root@arm:~# MARKER='KSHT''JUFZOV' run 'i2cget -y -f 1 0x4b 0xd'
KSHTJUFZOV0x12
KSHTJUFZOV 0
root@arm:~# echo 'FPNT''YHJAHX'
FPNTYHJAHX
root@arm:~# MARKER='KOZV''FPVCYZ' run 'echo 890000 890000 > /sys/kernel/mva_test//regulators/buck1_set'
KOZVFPVCYZKOZVFPVCYZ 0
root@arm:~# echo 'TOBB''KTNFJG'
TOBBKTNFJG
root@arm:~# MARKER='JJOH''LXCGBV' run 'i2cget -y -f 1 0x4b 0xd'
JJOHLXCGBV0x13
JJOHLXCGBV 0
root@arm:~# echo 'MYTP''GEPUJF'
MYTPGEPUJF
root@arm:~# MARKER='PCPE''PHOYMT' run 'echo 900000 900000 > /sys/kernel/mva_test//regulators/buck1_set'
PCPEPHOYMTPCPEPHOYMT 0
root@arm:~# echo 'CPAS''UKVLUJ'
CPASUKVLUJ
root@arm:~# MARKER='SAEJ''HWLUWC' run 'i2cget -y -f 1 0x4b 0xd'
SAEJHWLUWC0x14
SAEJHWLUWC 0
root@arm:~# echo 'PEVW''CPMQNT'
PEVWCPMQNT
root@arm:~# MARKER='ZNYQ''TQHQTN' run 'echo 910000 910000 > /sys/kernel/mva_test//regulators/buck1_set'
ZNYQTQHQTNZNYQTQHQTN 0
root@arm:~# echo 'OMZC''OBQHNA'
OMZCOBQHNA
root@arm:~# MARKER='MJAE''XSBVNU' run 'i2cget -y -f 1 0x4b 0xd'
MJAEXSBVNU0x15
MJAEXSBVNU 0
root@arm:~# echo 'SBKG''YZPMVJ'
SBKGYZPMVJ
root@arm:~# MARKER='VLUQ''MKEZNK' run 'echo 920000 920000 > /sys/kernel/mva_test//regulators/buck1_set'
VLUQMKEZNKVLUQMKEZNK 0
root@arm:~# echo 'TZSK''ZMHLXQ'
TZSKZMHLXQ
root@arm:~# MARKER='ENCW''ELWOEN' run 'i2cget -y -f 1 0x4b 0xd'
ENCWELWOEN0x16
ENCWELWOEN 0
root@arm:~# echo 'EMHC''GHONHG'
EMHCGHONHG
root@arm:~# MARKER='NQCB''BHSGCQ' run 'echo 930000 930000 > /sys/kernel/mva_test//regulators/buck1_set'
NQCBBHSGCQNQCBBHSGCQ 0
root@arm:~# echo 'YXEV''TMHBVQ'
YXEVTMHBVQ
root@arm:~# MARKER='SXWV''PWMMYQ' run 'i2cget -y -f 1 0x4b 0xd'
SXWVPWMMYQ0x17
SXWVPWMMYQ 0
root@arm:~# echo 'FTWJ''BHGPAE'
FTWJBHGPAE
root@arm:~# MARKER='NBZL''BBVZUP' run 'echo 940000 940000 > /sys/kernel/mva_test//regulators/buck1_set'
NBZLBBVZUPNBZLBBVZUP 0
root@arm:~# echo 'BGEG''HCVJFZ'
BGEGHCVJFZ
root@arm:~# MARKER='QUYU''PFAJLJ' run 'i2cget -y -f 1 0x4b 0xd'
QUYUPFAJLJ0x18
QUYUPFAJLJ 0
root@arm:~# echo 'WJKC''BJNGGM'
WJKCBJNGGM
root@arm:~# MARKER='WVPA''XOJEJW' run 'echo 950000 950000 > /sys/kernel/mva_test//regulators/buck1_set'
WVPAXOJEJWWVPAXOJEJW 0
root@arm:~# echo 'WCEG''MNONXV'
WCEGMNONXV
root@arm:~# MARKER='CXFB''AOGQHC' run 'i2cget -y -f 1 0x4b 0xd'
CXFBAOGQHC0x19
CXFBAOGQHC 0
root@arm:~# echo 'LAET''NQWYQX'
LAETNQWYQX
root@arm:~# MARKER='XQXU''OVAMJS' run 'echo 960000 960000 > /sys/kernel/mva_test//regulators/buck1_set'
XQXUOVAMJSXQXUOVAMJS 0
root@arm:~# echo 'JPQN''XBNGBP'
JPQNXBNGBP
root@arm:~# MARKER='OOJH''TJSAHH' run 'i2cget -y -f 1 0x4b 0xd'
OOJHTJSAHH0x1a
OOJHTJSAHH 0
root@arm:~# echo 'EEXJ''PZABVJ'
EEXJPZABVJ
root@arm:~# MARKER='LWTE''BMTMFF' run 'echo 970000 970000 > /sys/kernel/mva_test//regulators/buck1_set'
LWTEBMTMFFLWTEBMTMFF 0
root@arm:~# echo 'OSUU''JEXWLF'
OSUUJEXWLF
root@arm:~# MARKER='HXKO''ULJPCV' run 'i2cget -y -f 1 0x4b 0xd'
HXKOULJPCV0x1b
HXKOULJPCV 0
root@arm:~# echo 'JXHC''LSQSGS'
JXHCLSQSGS
root@arm:~# MARKER='ZLTS''MNNBOL' run 'echo 980000 980000 > /sys/kernel/mva_test//regulators/buck1_set'
ZLTSMNNBOLZLTSMNNBOL 0
root@arm:~# echo 'PFFG''LJTFTS'
PFFGLJTFTS
root@arm:~# MARKER='XLNX''BNLYBF' run 'i2cget -y -f 1 0x4b 0xd'
XLNXBNLYBF0x1c
XLNXBNLYBF 0
root@arm:~# echo 'NHCC''CVJBSK'
NHCCCVJBSK
root@arm:~# MARKER='ZXTW''KCSJKX' run 'echo 990000 990000 > /sys/kernel/mva_test//regulators/buck1_set'
ZXTWKCSJKXZXTWKCSJKX 0
root@arm:~# echo 'NXMK''VLWAAW'
NXMKVLWAAW
root@arm:~# MARKER='WSJC''SZALBF' run 'i2cget -y -f 1 0x4b 0xd'
WSJCSZALBF0x1d
WSJCSZALBF 0
root@arm:~# echo 'OLUH''VAJTFY'
OLUHVAJTFY
root@arm:~# MARKER='GOLH''CJKJJK' run 'echo 1000000 1000000 > /sys/kernel/mva_tesst/regulators/buck1_set'
GOLHCJKJJKGOLHCJKJJK 0
root@arm:~# echo 'HZBU''FHPTMN'
HZBUFHPTMN
root@arm:~# MARKER='PXFL''FSXXTJ' run 'i2cget -y -f 1 0x4b 0xd'
PXFLFSXXTJ0x1e
PXFLFSXXTJ 0
root@arm:~# echo 'SJJQ''MSBEMB'
SJJQMSBEMB
root@arm:~# MARKER='LHBK''MYCOFH' run 'echo 1010000 1010000 > /sys/kernel/mva_tesst/regulators/buck1_set'
LHBKMYCOFHLHBKMYCOFH 0
root@arm:~# echo 'EYJS''HQAHJH'
EYJSHQAHJH
root@arm:~# MARKER='EKTM''CZGZMV' run 'i2cget -y -f 1 0x4b 0xd'
EKTMCZGZMV0x1f
EKTMCZGZMV 0
root@arm:~# echo 'OQKF''GAKUXK'
OQKFGAKUXK
root@arm:~# MARKER='MWHH''YYOGOG' run 'echo 1020000 1020000 > /sys/kernel/mva_tesst/regulators/buck1_set'
MWHHYYOGOGMWHHYYOGOG 0
root@arm:~# echo 'SGHH''SFZELX'
SGHHSFZELX
root@arm:~# MARKER='YYJC''VFLSGA' run 'i2cget -y -f 1 0x4b 0xd'
YYJCVFLSGA0x20
YYJCVFLSGA 0
root@arm:~# echo 'PHXA''UMGQUY'
PHXAUMGQUY
root@arm:~# MARKER='MNZP''UYSZMS' run 'echo 1030000 1030000 > /sys/kernel/mva_tesst/regulators/buck1_set'
MNZPUYSZMSMNZPUYSZMS 0
root@arm:~# echo 'MSNJ''SZBXLS'
MSNJSZBXLS
root@arm:~# MARKER='MWEY''CQHJMN' run 'i2cget -y -f 1 0x4b 0xd'
MWEYCQHJMN0x21
MWEYCQHJMN 0
root@arm:~# echo 'CZZE''PQCJJG'
CZZEPQCJJG
root@arm:~# MARKER='KHBV''SHKKOH' run 'echo 1040000 1040000 > /sys/kernel/mva_tesst/regulators/buck1_set'
KHBVSHKKOHKHBVSHKKOH 0
root@arm:~# echo 'ZZVG''XWLGSN'
ZZVGXWLGSN
root@arm:~# MARKER='GHNC''ZBGJHM' run 'i2cget -y -f 1 0x4b 0xd'
GHNCZBGJHM0x22
GHNCZBGJHM 0
root@arm:~# echo 'MBYU''MMFJBZ'
MBYUMMFJBZ
root@arm:~# MARKER='FHLY''QSKWLG' run 'echo 1050000 1050000 > /sys/kernel/mva_tesst/regulators/buck1_set'
FHLYQSKWLGFHLYQSKWLG 0
root@arm:~# echo 'OXOS''MVLYQH'
OXOSMVLYQH
root@arm:~# MARKER='EOBG''ZBEPNG' run 'i2cget -y -f 1 0x4b 0xd'
EOBGZBEPNG0x23
EOBGZBEPNG 0
root@arm:~# echo 'NFEX''KBXTVB'
NFEXKBXTVB
root@arm:~# MARKER='TLVA''YTABGJ' run 'echo 1060000 1060000 > /sys/kernel/mva_tesst/regulators/buck1_set'
TLVAYTABGJTLVAYTABGJ 0
root@arm:~# echo 'LLNG''PBWHBQ'
LLNGPBWHBQ
root@arm:~# MARKER='LAVV''EZCXWF' run 'i2cget -y -f 1 0x4b 0xd'
LAVVEZCXWF0x24
LAVVEZCXWF 0
root@arm:~# echo 'TPWO''VHSVLK'
TPWOVHSVLK
root@arm:~# MARKER='AUPU''USVAQL' run 'echo 1070000 1070000 > /sys/kernel/mva_tesst/regulators/buck1_set'
AUPUUSVAQLAUPUUSVAQL 0
root@arm:~# echo 'JXNA''PCEAGV'
JXNAPCEAGV
root@arm:~# MARKER='OKOU''ZVACWH' run 'i2cget -y -f 1 0x4b 0xd'
OKOUZVACWH0x25
OKOUZVACWH 0
root@arm:~# echo 'PBQO''XLVWAL'
PBQOXLVWAL
root@arm:~# MARKER='OFBC''UGEBEL' run 'echo 1080000 1080000 > /sys/kernel/mva_tesst/regulators/buck1_set'
OFBCUGEBELOFBCUGEBEL 0
root@arm:~# echo 'FXYZ''XXFMAN'
FXYZXXFMAN
root@arm:~# MARKER='KZUO''BXPBOL' run 'i2cget -y -f 1 0x4b 0xd'
KZUOBXPBOL0x26
KZUOBXPBOL 0
root@arm:~# echo 'MWEY''XOPXXG'
MWEYXOPXXG
root@arm:~# MARKER='HOQN''UYLHNL' run 'echo 1090000 1090000 > /sys/kernel/mva_tesst/regulators/buck1_set'
HOQNUYLHNLHOQNUYLHNL 0
root@arm:~# echo 'QSBW''YBTOAY'
QSBWYBTOAY
root@arm:~# MARKER='PSVN''KTHQGF' run 'i2cget -y -f 1 0x4b 0xd'
PSVNKTHQGF0x27
PSVNKTHQGF 0
root@arm:~# echo 'OGQT''TSPZGC'
OGQTTSPZGC
root@arm:~# MARKER='CQTT''VMFWCP' run 'echo 1100000 1100000 > /sys/kernel/mva_tesst/regulators/buck1_set'
CQTTVMFWCPCQTTVMFWCP 0
root@arm:~# echo 'CCFC''TLFQTG'
CCFCTLFQTG
root@arm:~# MARKER='MCEX''SUJXTQ' run 'i2cget -y -f 1 0x4b 0xd'
MCEXSUJXTQ0x28
MCEXSUJXTQ 0
root@arm:~# echo 'KXJJ''ZNVNSS'
KXJJZNVNSS
root@arm:~# MARKER='KKBF''HQLXXA' run 'echo 1110000 1110000 > /sys/kernel/mva_tesst/regulators/buck1_set'
KKBFHQLXXAKKBFHQLXXA 0
root@arm:~# echo 'HPGM''TFPCVZ'
HPGMTFPCVZ
root@arm:~# MARKER='OYGB''NAAABC' run 'i2cget -y -f 1 0x4b 0xd'
OYGBNAAABC0x29
OYGBNAAABC 0
root@arm:~# echo 'CHZL''PJGSWT'
CHZLPJGSWT
root@arm:~# MARKER='PNFS''SNJMJK' run 'echo 1120000 1120000 > /sys/kernel/mva_tesst/regulators/buck1_set'
PNFSSNJMJKPNFSSNJMJK 0
root@arm:~# echo 'XCFQ''PJWUAX'
XCFQPJWUAX
root@arm:~# MARKER='KZEN''XZFUWF' run 'i2cget -y -f 1 0x4b 0xd'
KZENXZFUWF0x2a
KZENXZFUWF 0
root@arm:~# echo 'OKKJ''ZOOGXK'
OKKJZOOGXK
root@arm:~# MARKER='PUQS''CJUHCV' run 'echo 1130000 1130000 > /sys/kernel/mva_tesst/regulators/buck1_set'
PUQSCJUHCVPUQSCJUHCV 0
root@arm:~# echo 'KBYH''JQJQGA'
KBYHJQJQGA
root@arm:~# MARKER='CLHY''XEOVCZ' run 'i2cget -y -f 1 0x4b 0xd'
CLHYXEOVCZ0x2b
CLHYXEOVCZ 0
root@arm:~# echo 'BAFM''QVTKTF'
BAFMQVTKTF
root@arm:~# MARKER='YZUK''CQFSVP' run 'echo 1140000 1140000 > /sys/kernel/mva_tesst/regulators/buck1_set'
YZUKCQFSVPYZUKCQFSVP 0
root@arm:~# echo 'KHAH''OETSPF'
KHAHOETSPF
root@arm:~# MARKER='SFNW''WOFGCX' run 'i2cget -y -f 1 0x4b 0xd'
SFNWWOFGCX0x2c
SFNWWOFGCX 0
root@arm:~# echo 'NJMC''ESKJJM'
NJMCESKJJM
root@arm:~# MARKER='UBFW''QCHZAA' run 'echo 1150000 1150000 > /sys/kernel/mva_tesst/regulators/buck1_set'
UBFWQCHZAAUBFWQCHZAA 0
root@arm:~# echo 'XPSS''FHWMUH'
XPSSFHWMUH
root@arm:~# MARKER='MBFA''LNZJJX' run 'i2cget -y -f 1 0x4b 0xd'
MBFALNZJJX0x2d
MBFALNZJJX 0
root@arm:~# echo 'THLW''XHVAYM'
THLWXHVAYM
root@arm:~# MARKER='BWUZ''ZPEUUT' run 'echo 1160000 1160000 > /sys/kernel/mva_tesst/regulators/buck1_set'
BWUZZPEUUTBWUZZPEUUT 0
root@arm:~# echo 'HLZW''BTWPHS'
HLZWBTWPHS
root@arm:~# MARKER='SKOF''KXGGJP' run 'i2cget -y -f 1 0x4b 0xd'
SKOFKXGGJP0x2e
SKOFKXGGJP 0
root@arm:~# echo 'EBTA''LQWJQA'
EBTALQWJQA
root@arm:~# MARKER='CWEE''LAXWPQ' run 'echo 1170000 1170000 > /sys/kernel/mva_tesst/regulators/buck1_set'
CWEELAXWPQCWEELAXWPQ 0
root@arm:~# echo 'HTJW''NQPZMX'
HTJWNQPZMX
root@arm:~# MARKER='YKZC''UZPEHV' run 'i2cget -y -f 1 0x4b 0xd'
YKZCUZPEHV0x2f
YKZCUZPEHV 0
root@arm:~# echo 'KYHL''ASVHMX'
KYHLASVHMX
root@arm:~# MARKER='XSWF''OMYVKF' run 'echo 1180000 1180000 > /sys/kernel/mva_tesst/regulators/buck1_set'
XSWFOMYVKFXSWFOMYVKF 0
root@arm:~# echo 'BNQP''APVTHF'
BNQPAPVTHF
root@arm:~# MARKER='LZAX''ANTKNZ' run 'i2cget -y -f 1 0x4b 0xd'
LZAXANTKNZ0x30
LZAXANTKNZ 0
root@arm:~# echo 'LBHX''LSJAHE'
LBHXLSJAHE
root@arm:~# MARKER='YWMC''HOAMEP' run 'echo 1190000 1190000 > /sys/kernel/mva_tesst/regulators/buck1_set'
YWMCHOAMEPYWMCHOAMEP 0
root@arm:~# echo 'TZOL''FBCTVT'
TZOLFBCTVT
root@arm:~# MARKER='CQHP''ULJGXY' run 'i2cget -y -f 1 0x4b 0xd'
CQHPULJGXY0x31
CQHPULJGXY 0
root@arm:~# echo 'FNMP''AZJCLT'
FNMPAZJCLT
root@arm:~# MARKER='YPZN''TTZNZN' run 'echo 1200000 1200000 > /sys/kernel/mva_tesst/regulators/buck1_set'
YPZNTTZNZNYPZNTTZNZN 0
root@arm:~# echo 'TGCM''XSQNLM'
TGCMXSQNLM
root@arm:~# MARKER='HQCH''TSUNGH' run 'i2cget -y -f 1 0x4b 0xd'
HQCHTSUNGH0x32
HQCHTSUNGH 0
root@arm:~# echo 'GBUO''CZZGZJ'
GBUOCZZGZJ
root@arm:~# MARKER='YYPZ''PXXXGE' run 'echo 1210000 1210000 > /sys/kernel/mva_tesst/regulators/buck1_set'
YYPZPXXXGEYYPZPXXXGE 0
root@arm:~# echo 'SOXW''CGWVGZ'
SOXWCGWVGZ
root@arm:~# MARKER='VKUB''TBNMLP' run 'i2cget -y -f 1 0x4b 0xd'
VKUBTBNMLP0x33
VKUBTBNMLP 0
root@arm:~# echo 'HWBY''BTSWMF'
HWBYBTSWMF
root@arm:~# MARKER='STKN''SNXFOL' run 'echo 1220000 1220000 > /sys/kernel/mva_tesst/regulators/buck1_set'
STKNSNXFOLSTKNSNXFOL 0
root@arm:~# echo 'XCZF''UZTONC'
XCZFUZTONC
root@arm:~# MARKER='AQBU''SJOWPS' run 'i2cget -y -f 1 0x4b 0xd'
AQBUSJOWPS0x34
AQBUSJOWPS 0
root@arm:~# echo 'YBTJ''VMXSTN'
YBTJVMXSTN
root@arm:~# MARKER='OMHB''CFNFSE' run 'echo 1230000 1230000 > /sys/kernel/mva_tesst/regulators/buck1_set'
OMHBCFNFSEOMHBCFNFSE 0
root@arm:~# echo 'FQUZ''MEPTXP'
FQUZMEPTXP
root@arm:~# MARKER='ESNJ''MGEQQU' run 'i2cget -y -f 1 0x4b 0xd'
ESNJMGEQQU0x35
ESNJMGEQQU 0
root@arm:~# echo 'FOBH''BQNWHG'
FOBHBQNWHG
root@arm:~# MARKER='ASGN''MSZWTK' run 'echo 1240000 1240000 > /sys/kernel/mva_tesst/regulators/buck1_set'
ASGNMSZWTKASGNMSZWTK 0
root@arm:~# echo 'TTXN''OSGUPL'
TTXNOSGUPL
root@arm:~# MARKER='HPZS''UNKYST' run 'i2cget -y -f 1 0x4b 0xd'
HPZSUNKYST0x36
HPZSUNKYST 0
root@arm:~# echo 'EAFC''QOPEOJ'
EAFCQOPEOJ
root@arm:~# MARKER='ECZK''QNKFEF' run 'echo 1250000 1250000 > /sys/kernel/mva_tesst/regulators/buck1_set'
ECZKQNKFEFECZKQNKFEF 0
root@arm:~# echo 'TEBO''NUOAHE'
TEBONUOAHE
root@arm:~# MARKER='YYUS''UHTSLA' run 'i2cget -y -f 1 0x4b 0xd'
YYUSUHTSLA0x37
YYUSUHTSLA 0
root@arm:~# echo 'VUFB''YXUMMZ'
VUFBYXUMMZ
root@arm:~# MARKER='NCPP''GPPGUM' run 'echo 1260000 1260000 > /sys/kernel/mva_tesst/regulators/buck1_set'
NCPPGPPGUMNCPPGPPGUM 0
root@arm:~# echo 'QMZN''KNAFFH'
QMZNKNAFFH
root@arm:~# MARKER='FWJB''KVMMVV' run 'i2cget -y -f 1 0x4b 0xd'
FWJBKVMMVV0x38
FWJBKVMMVV 0
root@arm:~# echo 'TQLK''HFJBKQ'
TQLKHFJBKQ
root@arm:~# MARKER='GJHB''VHBWPU' run 'echo 1270000 1270000 > /sys/kernel/mva_tesst/regulators/buck1_set'
GJHBVHBWPUGJHBVHBWPU 0
root@arm:~# echo 'OJWE''QWUUJO'
OJWEQWUUJO
root@arm:~# MARKER='LZYW''VBPZVB' run 'i2cget -y -f 1 0x4b 0xd'
LZYWVBPZVB0x39
LZYWVBPZVB 0
root@arm:~# echo 'VZTV''CBVLTK'
VZTVCBVLTK
root@arm:~# MARKER='SKMB''COCGUX' run 'echo 1280000 1280000 > /sys/kernel/mva_tesst/regulators/buck1_set'
SKMBCOCGUXSKMBCOCGUX 0
root@arm:~# echo 'PCJH''EOFWWW'
PCJHEOFWWW
root@arm:~# MARKER='GEBW''OHCEVW' run 'i2cget -y -f 1 0x4b 0xd'
GEBWOHCEVW0x3a
GEBWOHCEVW 0
root@arm:~# echo 'VOYU''XYYEGF'
VOYUXYYEGF
root@arm:~# MARKER='VKUU''MTNPHL' run 'echo 1290000 1290000 > /sys/kernel/mva_tesst/regulators/buck1_set'
VKUUMTNPHLVKUUMTNPHL 0
root@arm:~# echo 'GYNY''GPFOWK'
GYNYGPFOWK
root@arm:~# MARKER='OXQP''BCWJQX' run 'i2cget -y -f 1 0x4b 0xd'
OXQPBCWJQX0x3b
OXQPBCWJQX 0
root@arm:~# echo 'TVPQ''QGLZSK'
TVPQQGLZSK
root@arm:~# MARKER='AMNM''KMQYOL' run 'echo 1300000 1300000 > /sys/kernel/mva_tesst/regulators/buck1_set'
AMNMKMQYOLAMNMKMQYOL 0
root@arm:~# echo 'OFBL''WNXNFU'
OFBLWNXNFU
root@arm:~# MARKER='YQKB''AGAMYO' run 'i2cget -y -f 1 0x4b 0xd'
YQKBAGAMYO0x3c
YQKBAGAMYO 0
root@arm:~# echo 'OZXM''FBHCET'
OZXMFBHCET
root@arm:~# MARKER='ZTST''CQTHEW' run 'grep -r -l rohm,bd71847 /proc/device-tree  | sed '"'"'s![^/]*$!!'"'"''
ZTSTCQTHEW/proc/device-tree/ocp/interconnect@48000000/segment@0/target-module@2a000/i2c@0/pmic@4b/
ZTSTCQTHEW 0
root@arm:~# echo 'LJYS''ALHNMH'
LJYSALHNMH
root@arm:~# MARKER='TFVS''CXXSOU' run 'test -f /proc/device-tree/ocp/interconnectt\@48000000/segment\@0/target-module\@2a000/i2c\@0/pmic\@4b/regulators/BUCK2/rohmm,no-regulator-enable-control ;echo $?'
TFVSCXXSOU1
TFVSCXXSOU 0
root@arm:~# echo 'AVMU''OQUMMM'
AVMUOQUMMM
root@arm:~# MARKER='AOKV''OKSQQU' run 'i2cget -y -f 1 0x4b 0x6'
AOKVOKSQQU0x43
AOKVOKSQQU 0
root@arm:~# echo 'EFWE''JGZPYU'
EFWEJGZPYU
root@arm:~# MARKER='NHKC''CVWPES' run 'echo 700000 700000 > /sys/kernel/mva_test//regulators/buck2_set'
NHKCCVWPESNHKCCVWPES 0
root@arm:~# echo 'HFHG''BQBUTW'
HFHGBQBUTW
root@arm:~# MARKER='TEXN''WFCXJT' run 'i2cget -y -f 1 0x4b 0x10'
TEXNWFCXJT0x00
TEXNWFCXJT 0
root@arm:~# echo 'TKXJ''MTKFXM'
TKXJMTKFXM
root@arm:~# MARKER='HGYQ''KSEHGY' run 'echo 710000 710000 > /sys/kernel/mva_test//regulators/buck2_set'
HGYQKSEHGYHGYQKSEHGY 0
root@arm:~# echo 'ACXY''BFHFXM'
ACXYBFHFXM
root@arm:~# MARKER='XAKV''XXNHFC' run 'i2cget -y -f 1 0x4b 0x10'
XAKVXXNHFC0x01
XAKVXXNHFC 0
root@arm:~# echo 'ONKE''TVQBGZ'
ONKETVQBGZ
root@arm:~# MARKER='ZNNN''ALSHWJ' run 'echo 720000 720000 > /sys/kernel/mva_test//regulators/buck2_set'
ZNNNALSHWJZNNNALSHWJ 0
root@arm:~# echo 'WSPK''XVOLHL'
WSPKXVOLHL
root@arm:~# MARKER='JLKA''MSGETT' run 'i2cget -y -f 1 0x4b 0x10'
JLKAMSGETT0x02
JLKAMSGETT 0
root@arm:~# echo 'LVLK''ZNKCGC'
LVLKZNKCGC
root@arm:~# MARKER='ZXUJ''AJBKYE' run 'echo 730000 730000 > /sys/kernel/mva_test//regulators/buck2_set'
ZXUJAJBKYEZXUJAJBKYE 0
root@arm:~# echo 'VPHV''FKSPZM'
VPHVFKSPZM
root@arm:~# MARKER='KNYY''KJOUGJ' run 'i2cget -y -f 1 0x4b 0x10'
KNYYKJOUGJ0x03
KNYYKJOUGJ 0
root@arm:~# echo 'OUCF''PXCFLY'
OUCFPXCFLY
root@arm:~# MARKER='KXYK''HFASCN' run 'echo 740000 740000 > /sys/kernel/mva_test//regulators/buck2_set'
KXYKHFASCNKXYKHFASCN 0
root@arm:~# echo 'CELY''FWFYJC'
CELYFWFYJC
root@arm:~# MARKER='HLWQ''BKANTO' run 'i2cget -y -f 1 0x4b 0x10'
HLWQBKANTO0x04
HLWQBKANTO 0
root@arm:~# echo 'TULG''MFJNTN'
TULGMFJNTN
root@arm:~# MARKER='FUBZ''CYEQHJ' run 'echo 750000 750000 > /sys/kernel/mva_test//regulators/buck2_set'
FUBZCYEQHJFUBZCYEQHJ 0
root@arm:~# echo 'BKSJ''TZKMAM'
BKSJTZKMAM
root@arm:~# MARKER='KUQW''JZKUQC' run 'i2cget -y -f 1 0x4b 0x10'
KUQWJZKUQC0x05
KUQWJZKUQC 0
root@arm:~# echo 'OTUZ''TFNWYK'
OTUZTFNWYK
root@arm:~# MARKER='QOCU''UNLPUQ' run 'echo 760000 760000 > /sys/kernel/mva_test//regulators/buck2_set'
QOCUUNLPUQQOCUUNLPUQ 0
root@arm:~# echo 'KZON''AUSCYZ'
KZONAUSCYZ
root@arm:~# MARKER='PXMG''XUYZSN' run 'i2cget -y -f 1 0x4b 0x10'
PXMGXUYZSN0x06
PXMGXUYZSN 0
root@arm:~# echo 'FEKT''HFLGVM'
FEKTHFLGVM
root@arm:~# MARKER='GOSE''KTMBEP' run 'echo 770000 770000 > /sys/kernel/mva_test//regulators/buck2_set'
GOSEKTMBEPGOSEKTMBEP 0
root@arm:~# echo 'COVP''BLCETO'
COVPBLCETO
root@arm:~# MARKER='FWFF''BKTJKF' run 'i2cget -y -f 1 0x4b 0x10'
FWFFBKTJKF0x07
FWFFBKTJKF 0
root@arm:~# echo 'EEES''QVTXXL'
EEESQVTXXL
root@arm:~# MARKER='CAUE''FSSGFT' run 'echo 780000 780000 > /sys/kernel/mva_test//regulators/buck2_set'
CAUEFSSGFTCAUEFSSGFT 0
root@arm:~# echo 'ZYHJ''EEWEPL'
ZYHJEEWEPL
root@arm:~# MARKER='MVSX''YESSUN' run 'i2cget -y -f 1 0x4b 0x10'
MVSXYESSUN0x08
MVSXYESSUN 0
root@arm:~# echo 'JEKV''KSGMCA'
JEKVKSGMCA
root@arm:~# MARKER='SHKA''NATTFH' run 'echo 790000 790000 > /sys/kernel/mva_test//regulators/buck2_set'
SHKANATTFHSHKANATTFH 0
root@arm:~# echo 'AFEM''OMAMZF'
AFEMOMAMZF
root@arm:~# MARKER='JLCN''XGTXJL' run 'i2cget -y -f 1 0x4b 0x10'
JLCNXGTXJL0x09
JLCNXGTXJL 0
root@arm:~# echo 'FJPT''BTTCBZ'
FJPTBTTCBZ
root@arm:~# MARKER='QXMX''QMELNS' run 'echo 800000 800000 > /sys/kernel/mva_test//regulators/buck2_set'
QXMXQMELNSQXMXQMELNS 0
root@arm:~# echo 'KJLA''UVNAAN'
KJLAUVNAAN
root@arm:~# MARKER='ZESK''AATYOG' run 'i2cget -y -f 1 0x4b 0x10'
ZESKAATYOG0x0a
ZESKAATYOG 0
root@arm:~# echo 'EJSV''KUGTWP'
EJSVKUGTWP
root@arm:~# MARKER='NQHJ''SJHCZU' run 'echo 810000 810000 > /sys/kernel/mva_test//regulators/buck2_set'
NQHJSJHCZUNQHJSJHCZU 0
root@arm:~# echo 'EAPC''JESQPK'
EAPCJESQPK
root@arm:~# MARKER='UETN''OGZSUB' run 'i2cget -y -f 1 0x4b 0x10'
UETNOGZSUB0x0b
UETNOGZSUB 0
root@arm:~# echo 'YHUK''GTZFMG'
YHUKGTZFMG
root@arm:~# MARKER='LFZK''ZJLZYH' run 'echo 820000 820000 > /sys/kernel/mva_test//regulators/buck2_set'
LFZKZJLZYHLFZKZJLZYH 0
root@arm:~# echo 'AKCF''EAEFVS'
AKCFEAEFVS
root@arm:~# MARKER='GWTV''JOKUML' run 'i2cget -y -f 1 0x4b 0x10'
GWTVJOKUML0x0c
GWTVJOKUML 0
root@arm:~# echo 'UCMT''WKWGKF'
UCMTWKWGKF
root@arm:~# MARKER='CLWS''NGNZPW' run 'echo 830000 830000 > /sys/kernel/mva_test//regulators/buck2_set'
CLWSNGNZPWCLWSNGNZPW 0
root@arm:~# echo 'LOLT''VMFMUF'
LOLTVMFMUF
root@arm:~# MARKER='TFEQ''HTKWUT' run 'i2cget -y -f 1 0x4b 0x10'
TFEQHTKWUT0x0d
TFEQHTKWUT 0
root@arm:~# echo 'MFEL''FEKCZL'
MFELFEKCZL
root@arm:~# MARKER='WOOM''QEEUUH' run 'echo 840000 840000 > /sys/kernel/mva_test//regulators/buck2_set'
WOOMQEEUUHWOOMQEEUUH 0
root@arm:~# echo 'UNEW''FMAZNP'
UNEWFMAZNP
root@arm:~# MARKER='TAUL''OKGEXZ' run 'i2cget -y -f 1 0x4b 0x10'
TAULOKGEXZ0x0e
TAULOKGEXZ 0
root@arm:~# echo 'PSXA''EKQAOB'
PSXAEKQAOB
root@arm:~# MARKER='PBPB''OBQHTY' run 'echo 850000 850000 > /sys/kernel/mva_test//regulators/buck2_set'
PBPBOBQHTYPBPBOBQHTY 0
root@arm:~# echo 'HWVK''WAQYHM'
HWVKWAQYHM
root@arm:~# MARKER='AQFM''NCKBGO' run 'i2cget -y -f 1 0x4b 0x10'
AQFMNCKBGO0x0f
AQFMNCKBGO 0
root@arm:~# echo 'BNZH''PMNVAW'
BNZHPMNVAW
root@arm:~# MARKER='PAVQ''STSXQX' run 'echo 860000 860000 > /sys/kernel/mva_test//regulators/buck2_set'
PAVQSTSXQXPAVQSTSXQX 0
root@arm:~# echo 'ZZCF''NOYPBP'
ZZCFNOYPBP
root@arm:~# MARKER='XGGH''YCKSZY' run 'i2cget -y -f 1 0x4b 0x10'
XGGHYCKSZY0x10
XGGHYCKSZY 0
root@arm:~# echo 'WTNF''QHMLUQ'
WTNFQHMLUQ
root@arm:~# MARKER='ENGT''ZQHYYB' run 'echo 870000 870000 > /sys/kernel/mva_test//regulators/buck2_set'
ENGTZQHYYBENGTZQHYYB 0
root@arm:~# echo 'FAUH''ZEKZWG'
FAUHZEKZWG
root@arm:~# MARKER='TCJJ''BAKUPF' run 'i2cget -y -f 1 0x4b 0x10'
TCJJBAKUPF0x11
TCJJBAKUPF 0
root@arm:~# echo 'QANG''STNSKG'
QANGSTNSKG
root@arm:~# MARKER='WZOS''KMFUFH' run 'echo 880000 880000 > /sys/kernel/mva_test//regulators/buck2_set'
WZOSKMFUFHWZOSKMFUFH 0
root@arm:~# echo 'ZTOE''FLCGLB'
ZTOEFLCGLB
root@arm:~# MARKER='QOUG''ZBBQEK' run 'i2cget -y -f 1 0x4b 0x10'
QOUGZBBQEK0x12
QOUGZBBQEK 0
root@arm:~# echo 'BEGE''WVOWZX'
BEGEWVOWZX
root@arm:~# MARKER='KCLV''CTUHQZ' run 'echo 890000 890000 > /sys/kernel/mva_test//regulators/buck2_set'
KCLVCTUHQZKCLVCTUHQZ 0
root@arm:~# echo 'BQAN''CABUAF'
BQANCABUAF
root@arm:~# MARKER='GBPO''YKFOAQ' run 'i2cget -y -f 1 0x4b 0x10'
GBPOYKFOAQ0x13
GBPOYKFOAQ 0
root@arm:~# echo 'PATG''PZLCBE'
PATGPZLCBE
root@arm:~# MARKER='VJHB''VHJZQM' run 'echo 900000 900000 > /sys/kernel/mva_test//regulators/buck2_set'
VJHBVHJZQMVJHBVHJZQM 0
root@arm:~# echo 'NYXO''QHTGHA'
NYXOQHTGHA
root@arm:~# MARKER='WHCQ''TYJAGK' run 'i2cget -y -f 1 0x4b 0x10'
WHCQTYJAGK0x14
WHCQTYJAGK 0
root@arm:~# echo 'NLOO''QZZEGS'
NLOOQZZEGS
root@arm:~# MARKER='HNMO''VBMVZQ' run 'echo 910000 910000 > /sys/kernel/mva_test//regulators/buck2_set'
HNMOVBMVZQHNMOVBMVZQ 0
root@arm:~# echo 'UGAH''KFVGXP'
UGAHKFVGXP
root@arm:~# MARKER='YNTZ''KEFHLZ' run 'i2cget -y -f 1 0x4b 0x10'
YNTZKEFHLZ0x15
YNTZKEFHLZ 0
root@arm:~# echo 'TELB''XVBHZA'
TELBXVBHZA
root@arm:~# MARKER='NBUN''VGGKFV' run 'echo 920000 920000 > /sys/kernel/mva_test//regulators/buck2_set'
NBUNVGGKFVNBUNVGGKFV 0
root@arm:~# echo 'OKMP''YTYLHP'
OKMPYTYLHP
root@arm:~# MARKER='HABQ''VQXGPO' run 'i2cget -y -f 1 0x4b 0x10'
HABQVQXGPO0x16
HABQVQXGPO 0
root@arm:~# echo 'VTZJ''APNXSH'
VTZJAPNXSH
root@arm:~# MARKER='VJFM''LMYSYY' run 'echo 930000 930000 > /sys/kernel/mva_test//regulators/buck2_set'
VJFMLMYSYYVJFMLMYSYY 0
root@arm:~# echo 'WKUN''WOXVBV'
WKUNWOXVBV
root@arm:~# MARKER='UCHZ''NNQGPU' run 'i2cget -y -f 1 0x4b 0x10'
UCHZNNQGPU0x17
UCHZNNQGPU 0
root@arm:~# echo 'JFQO''AMVKOL'
JFQOAMVKOL
root@arm:~# MARKER='SBEL''XOMXSP' run 'echo 940000 940000 > /sys/kernel/mva_test//regulators/buck2_set'
SBELXOMXSPSBELXOMXSP 0
root@arm:~# echo 'AHVQ''TZMQUY'
AHVQTZMQUY
root@arm:~# MARKER='CJZX''SLPSYC' run 'i2cget -y -f 1 0x4b 0x10'
CJZXSLPSYC0x18
CJZXSLPSYC 0
root@arm:~# echo 'AJFJ''WCWGHV'
AJFJWCWGHV
root@arm:~# MARKER='OUHY''FMUPBW' run 'echo 950000 950000 > /sys/kernel/mva_test//regulators/buck2_set'
OUHYFMUPBWOUHYFMUPBW 0
root@arm:~# echo 'XSCT''LPTQBX'
XSCTLPTQBX
root@arm:~# MARKER='WHSB''HJSEHM' run 'i2cget -y -f 1 0x4b 0x10'
WHSBHJSEHM0x19
WHSBHJSEHM 0
root@arm:~# echo 'LOXH''WWSEQW'
LOXHWWSEQW
root@arm:~# MARKER='UPEG''HPFFTP' run 'echo 960000 960000 > /sys/kernel/mva_test//regulators/buck2_set'
UPEGHPFFTPUPEGHPFFTP 0
root@arm:~# echo 'SZTK''CSBEVX'
SZTKCSBEVX
root@arm:~# MARKER='ZENW''HCJMBV' run 'i2cget -y -f 1 0x4b 0x10'
ZENWHCJMBV0x1a
ZENWHCJMBV 0
root@arm:~# echo 'GENU''TQGSJU'
GENUTQGSJU
root@arm:~# MARKER='ULWU''GUVEHP' run 'echo 970000 970000 > /sys/kernel/mva_test//regulators/buck2_set'
ULWUGUVEHPULWUGUVEHP 0
root@arm:~# echo 'FXGA''NXKLQT'
FXGANXKLQT
root@arm:~# MARKER='BNTQ''YTVAYG' run 'i2cget -y -f 1 0x4b 0x10'
BNTQYTVAYG0x1b
BNTQYTVAYG 0
root@arm:~# echo 'PUVP''UTNCWF'
PUVPUTNCWF
root@arm:~# MARKER='HMPC''QTGQGM' run 'echo 980000 980000 > /sys/kernel/mva_test//regulators/buck2_set'
HMPCQTGQGMHMPCQTGQGM 0
root@arm:~# echo 'ZLCQ''OKZPFO'
ZLCQOKZPFO
root@arm:~# MARKER='AKFQ''MBJLAX' run 'i2cget -y -f 1 0x4b 0x10'
AKFQMBJLAX0x1c
AKFQMBJLAX 0
root@arm:~# echo 'GSFW''AJGLXP'
GSFWAJGLXP
root@arm:~# MARKER='BNTZ''OYKQGX' run 'echo 990000 990000 > /sys/kernel/mva_test//regulators/buck2_set'
BNTZOYKQGXBNTZOYKQGX 0
root@arm:~# echo 'LZAB''UENEGY'
LZABUENEGY
root@arm:~# MARKER='CQJL''XMVNTP' run 'i2cget -y -f 1 0x4b 0x10'
CQJLXMVNTP0x1d
CQJLXMVNTP 0
root@arm:~# echo 'NHUL''LMLCSS'
NHULLMLCSS
root@arm:~# MARKER='CFAK''OBNKLE' run 'echo 1000000 1000000 > /sys/kernel/mva_tesst/regulators/buck2_set'
CFAKOBNKLECFAKOBNKLE 0
root@arm:~# echo 'ENLG''JTKVCJ'
ENLGJTKVCJ
root@arm:~# MARKER='ZXAV''VANTBS' run 'i2cget -y -f 1 0x4b 0x10'
ZXAVVANTBS0x1e
ZXAVVANTBS 0
root@arm:~# echo 'TYJN''UEYNGF'
TYJNUEYNGF
root@arm:~# MARKER='SSVM''GTSJTG' run 'echo 1010000 1010000 > /sys/kernel/mva_tesst/regulators/buck2_set'
SSVMGTSJTGSSVMGTSJTG 0
root@arm:~# echo 'PXHP''BTXTUF'
PXHPBTXTUF
root@arm:~# MARKER='CXBH''JZUNZW' run 'i2cget -y -f 1 0x4b 0x10'
CXBHJZUNZW0x1f
CXBHJZUNZW 0
root@arm:~# echo 'OFPV''NZXBLQ'
OFPVNZXBLQ
root@arm:~# MARKER='JUWJ''VQJZQM' run 'echo 1020000 1020000 > /sys/kernel/mva_tesst/regulators/buck2_set'
JUWJVQJZQMJUWJVQJZQM 0
root@arm:~# echo 'QEKF''YUMCWK'
QEKFYUMCWK
root@arm:~# MARKER='XEVU''ZWSXYX' run 'i2cget -y -f 1 0x4b 0x10'
XEVUZWSXYX0x20
XEVUZWSXYX 0
root@arm:~# echo 'ZPYA''YKOJHY'
ZPYAYKOJHY
root@arm:~# MARKER='AQVQ''KQOYYB' run 'echo 1030000 1030000 > /sys/kernel/mva_tesst/regulators/buck2_set'
AQVQKQOYYBAQVQKQOYYB 0
root@arm:~# echo 'LEXJ''TJTESV'
LEXJTJTESV
root@arm:~# MARKER='AQOU''QLFFKV' run 'i2cget -y -f 1 0x4b 0x10'
AQOUQLFFKV0x21
AQOUQLFFKV 0
root@arm:~# echo 'CWJK''KHJHWZ'
CWJKKHJHWZ
root@arm:~# MARKER='NVLQ''APCONS' run 'echo 1040000 1040000 > /sys/kernel/mva_tesst/regulators/buck2_set'
NVLQAPCONSNVLQAPCONS 0
root@arm:~# echo 'KSKZ''BEGHYA'
KSKZBEGHYA
root@arm:~# MARKER='PWOQ''KXLWUH' run 'i2cget -y -f 1 0x4b 0x10'
PWOQKXLWUH0x22
PWOQKXLWUH 0
root@arm:~# echo 'YWMG''TUASVA'
YWMGTUASVA
root@arm:~# MARKER='THNW''NVYJSN' run 'echo 1050000 1050000 > /sys/kernel/mva_tesst/regulators/buck2_set'
THNWNVYJSNTHNWNVYJSN 0
root@arm:~# echo 'ESUJ''BLYVNJ'
ESUJBLYVNJ
root@arm:~# MARKER='NXXB''YFPLUZ' run 'i2cget -y -f 1 0x4b 0x10'
NXXBYFPLUZ0x23
NXXBYFPLUZ 0
root@arm:~# echo 'BYAZ''JOFWYO'
BYAZJOFWYO
root@arm:~# MARKER='TEGV''TTFTHK' run 'echo 1060000 1060000 > /sys/kernel/mva_tesst/regulators/buck2_set'
TEGVTTFTHKTEGVTTFTHK 0
root@arm:~# echo 'AYKL''QONVUB'
AYKLQONVUB
root@arm:~# MARKER='UBZY''GSYHXC' run 'i2cget -y -f 1 0x4b 0x10'
UBZYGSYHXC0x24
UBZYGSYHXC 0
root@arm:~# echo 'KUGX''QMVXQA'
KUGXQMVXQA
root@arm:~# MARKER='JQKB''WVKVUW' run 'echo 1070000 1070000 > /sys/kernel/mva_tesst/regulators/buck2_set'
JQKBWVKVUWJQKBWVKVUW 0
root@arm:~# echo 'VGES''MBSNMS'
VGESMBSNMS
root@arm:~# MARKER='CBLW''NTYHUA' run 'i2cget -y -f 1 0x4b 0x10'
CBLWNTYHUA0x25
CBLWNTYHUA 0
root@arm:~# echo 'BLZN''PGHVJS'
BLZNPGHVJS
root@arm:~# MARKER='SOLC''PXMEJY' run 'echo 1080000 1080000 > /sys/kernel/mva_tesst/regulators/buck2_set'
SOLCPXMEJYSOLCPXMEJY 0
root@arm:~# echo 'XWWQ''TGPVCN'
XWWQTGPVCN
root@arm:~# MARKER='ABUL''CCVJPM' run 'i2cget -y -f 1 0x4b 0x10'
ABULCCVJPM0x26
ABULCCVJPM 0
root@arm:~# echo 'YLAF''YFGBPE'
YLAFYFGBPE
root@arm:~# MARKER='SWMM''JUEUYF' run 'echo 1090000 1090000 > /sys/kernel/mva_tesst/regulators/buck2_set'
SWMMJUEUYFSWMMJUEUYF 0
root@arm:~# echo 'CUJF''PBYUTW'
CUJFPBYUTW
root@arm:~# MARKER='ZCWK''ENAENE' run 'i2cget -y -f 1 0x4b 0x10'
ZCWKENAENE0x27
ZCWKENAENE 0
root@arm:~# echo 'BWJZ''QQTTFF'
BWJZQQTTFF
root@arm:~# MARKER='VYPG''PVQBHV' run 'echo 1100000 1100000 > /sys/kernel/mva_tesst/regulators/buck2_set'
VYPGPVQBHVVYPGPVQBHV 0
root@arm:~# echo 'XQSJ''UBMENJ'
XQSJUBMENJ
root@arm:~# MARKER='VPKO''AATATB' run 'i2cget -y -f 1 0x4b 0x10'
VPKOAATATB0x28
VPKOAATATB 0
root@arm:~# echo 'MSHB''UVBWSP'
MSHBUVBWSP
root@arm:~# MARKER='NUEK''FKGLQY' run 'echo 1110000 1110000 > /sys/kernel/mva_tesst/regulators/buck2_set'
NUEKFKGLQYNUEKFKGLQY 0
root@arm:~# echo 'FGUS''CZNMZW'
FGUSCZNMZW
root@arm:~# MARKER='NEWK''ZSJAZL' run 'i2cget -y -f 1 0x4b 0x10'
NEWKZSJAZL0x29
NEWKZSJAZL 0
root@arm:~# echo 'YYPG''ZJXGSH'
YYPGZJXGSH
root@arm:~# MARKER='MNJQ''BWFMES' run 'echo 1120000 1120000 > /sys/kernel/mva_tesst/regulators/buck2_set'
MNJQBWFMESMNJQBWFMES 0
root@arm:~# echo 'HZXY''SXEHWC'
HZXYSXEHWC
root@arm:~# MARKER='SNYF''MPFBUU' run 'i2cget -y -f 1 0x4b 0x10'
SNYFMPFBUU0x2a
SNYFMPFBUU 0
root@arm:~# echo 'UMSQ''TKPCFM'
UMSQTKPCFM
root@arm:~# MARKER='GNWC''YZTQEE' run 'echo 1130000 1130000 > /sys/kernel/mva_tesst/regulators/buck2_set'
GNWCYZTQEEGNWCYZTQEE 0
root@arm:~# echo 'QYAC''MEVMVC'
QYACMEVMVC
root@arm:~# MARKER='EFMQ''LQGNJL' run 'i2cget -y -f 1 0x4b 0x10'
EFMQLQGNJL0x2b
EFMQLQGNJL 0
root@arm:~# echo 'GOLT''EXCLFH'
GOLTEXCLFH
root@arm:~# MARKER='ENQY''KSVNXF' run 'echo 1140000 1140000 > /sys/kernel/mva_tesst/regulators/buck2_set'
ENQYKSVNXFENQYKSVNXF 0
root@arm:~# echo 'EOYJ''HVEENW'
EOYJHVEENW
root@arm:~# MARKER='HGBY''NHTCWV' run 'i2cget -y -f 1 0x4b 0x10'
HGBYNHTCWV0x2c
HGBYNHTCWV 0
root@arm:~# echo 'BSMT''SUWOPJ'
BSMTSUWOPJ
root@arm:~# MARKER='XSBL''QMLLYV' run 'echo 1150000 1150000 > /sys/kernel/mva_tesst/regulators/buck2_set'
XSBLQMLLYVXSBLQMLLYV 0
root@arm:~# echo 'ZYJK''HWSPSV'
ZYJKHWSPSV
root@arm:~# MARKER='JMPX''PSAKVS' run 'i2cget -y -f 1 0x4b 0x10'
JMPXPSAKVS0x2d
JMPXPSAKVS 0
root@arm:~# echo 'FUXN''HFGKUO'
FUXNHFGKUO
root@arm:~# MARKER='YNNN''UJSOJQ' run 'echo 1160000 1160000 > /sys/kernel/mva_tesst/regulators/buck2_set'
YNNNUJSOJQYNNNUJSOJQ 0
root@arm:~# echo 'LFFN''VYJOPG'
LFFNVYJOPG
root@arm:~# MARKER='SUFH''TUTBLV' run 'i2cget -y -f 1 0x4b 0x10'
SUFHTUTBLV0x2e
SUFHTUTBLV 0
root@arm:~# echo 'QVMH''BXLESH'
QVMHBXLESH
root@arm:~# MARKER='BNAO''OJEMHW' run 'echo 1170000 1170000 > /sys/kernel/mva_tesst/regulators/buck2_set'
BNAOOJEMHWBNAOOJEMHW 0
root@arm:~# echo 'TYGY''MWAWFM'
TYGYMWAWFM
root@arm:~# MARKER='EJJS''QGKJHF' run 'i2cget -y -f 1 0x4b 0x10'
EJJSQGKJHF0x2f
EJJSQGKJHF 0
root@arm:~# echo 'ZPZB''UEEJOJ'
ZPZBUEEJOJ
root@arm:~# MARKER='BKWK''NAQTGB' run 'echo 1180000 1180000 > /sys/kernel/mva_tesst/regulators/buck2_set'
BKWKNAQTGBBKWKNAQTGB 0
root@arm:~# echo 'UFSQ''WZJLJQ'
UFSQWZJLJQ
root@arm:~# MARKER='FPVF''MGFTEM' run 'i2cget -y -f 1 0x4b 0x10'
FPVFMGFTEM0x30
FPVFMGFTEM 0
root@arm:~# echo 'WVFB''FAMWSO'
WVFBFAMWSO
root@arm:~# MARKER='PBZQ''BBOQVY' run 'echo 1190000 1190000 > /sys/kernel/mva_tesst/regulators/buck2_set'
PBZQBBOQVYPBZQBBOQVY 0
root@arm:~# echo 'MSWB''BOCMYY'
MSWBBOCMYY
root@arm:~# MARKER='NPBO''YYBWGG' run 'i2cget -y -f 1 0x4b 0x10'
NPBOYYBWGG0x31
NPBOYYBWGG 0
root@arm:~# echo 'THXS''UHMSOT'
THXSUHMSOT
root@arm:~# MARKER='BPWS''NEGYMK' run 'echo 1200000 1200000 > /sys/kernel/mva_tesst/regulators/buck2_set'
BPWSNEGYMKBPWSNEGYMK 0
root@arm:~# echo 'ECWK''XNYKXB'
ECWKXNYKXB
root@arm:~# MARKER='QWNL''ZUGZVK' run 'i2cget -y -f 1 0x4b 0x10'
QWNLZUGZVK0x32
QWNLZUGZVK 0
root@arm:~# echo 'QEAM''QTCGPT'
QEAMQTCGPT
root@arm:~# MARKER='LHSO''ZCJAHQ' run 'echo 1210000 1210000 > /sys/kernel/mva_tesst/regulators/buck2_set'
LHSOZCJAHQLHSOZCJAHQ 0
root@arm:~# echo 'AMYG''GZTKBV'
AMYGGZTKBV
root@arm:~# MARKER='WQTE''ZXLEOE' run 'i2cget -y -f 1 0x4b 0x10'
WQTEZXLEOE0x33
WQTEZXLEOE 0
root@arm:~# echo 'HACS''UVHNZP'
HACSUVHNZP
root@arm:~# MARKER='PSLG''TWPTEX' run 'echo 1220000 1220000 > /sys/kernel/mva_tesst/regulators/buck2_set'
PSLGTWPTEXPSLGTWPTEX 0
root@arm:~# echo 'XUVL''OCBNPK'
XUVLOCBNPK
root@arm:~# MARKER='AUBS''XPATMW' run 'i2cget -y -f 1 0x4b 0x10'
AUBSXPATMW0x34
AUBSXPATMW 0
root@arm:~# echo 'VYUF''LTEQVW'
VYUFLTEQVW
root@arm:~# MARKER='PVNG''YHGGLL' run 'echo 1230000 1230000 > /sys/kernel/mva_tesst/regulators/buck2_set'
PVNGYHGGLLPVNGYHGGLL 0
root@arm:~# echo 'WCWQ''OMAKMG'
WCWQOMAKMG
root@arm:~# MARKER='APQB''KEEKKJ' run 'i2cget -y -f 1 0x4b 0x10'
APQBKEEKKJ0x35
APQBKEEKKJ 0
root@arm:~# echo 'YTGH''YUSWJS'
YTGHYUSWJS
root@arm:~# MARKER='WBXE''BMAAUU' run 'echo 1240000 1240000 > /sys/kernel/mva_tesst/regulators/buck2_set'
WBXEBMAAUUWBXEBMAAUU 0
root@arm:~# echo 'PKYX''OBOBCW'
PKYXOBOBCW
root@arm:~# MARKER='SGEE''ZOXJMZ' run 'i2cget -y -f 1 0x4b 0x10'
SGEEZOXJMZ0x36
SGEEZOXJMZ 0
root@arm:~# echo 'PTGC''ZNQOLO'
PTGCZNQOLO
root@arm:~# MARKER='STCM''BQFYUV' run 'echo 1250000 1250000 > /sys/kernel/mva_tesst/regulators/buck2_set'
STCMBQFYUVSTCMBQFYUV 0
root@arm:~# echo 'NOMV''GLAHQF'
NOMVGLAHQF
root@arm:~# MARKER='WZSQ''EWJGGJ' run 'i2cget -y -f 1 0x4b 0x10'
WZSQEWJGGJ0x37
WZSQEWJGGJ 0
root@arm:~# echo 'BNKX''XVPEFF'
BNKXXVPEFF
root@arm:~# MARKER='KGZO''SVWVMK' run 'echo 1260000 1260000 > /sys/kernel/mva_tesst/regulators/buck2_set'
KGZOSVWVMKKGZOSVWVMK 0
root@arm:~# echo 'MMCC''JUTZBH'
MMCCJUTZBH
root@arm:~# MARKER='JWHW''MOPEOQ' run 'i2cget -y -f 1 0x4b 0x10'
JWHWMOPEOQ0x38
JWHWMOPEOQ 0
root@arm:~# echo 'MTLG''LGOGWJ'
MTLGLGOGWJ
root@arm:~# MARKER='ABJH''UMUQEC' run 'echo 1270000 1270000 > /sys/kernel/mva_tesst/regulators/buck2_set'
ABJHUMUQECABJHUMUQEC 0
root@arm:~# echo 'SZTE''JTPSOE'
SZTEJTPSOE
root@arm:~# MARKER='LXMZ''ZQEYHL' run 'i2cget -y -f 1 0x4b 0x10'
LXMZZQEYHL0x39
LXMZZQEYHL 0
root@arm:~# echo 'LJFU''XLNOOS'
LJFUXLNOOS
root@arm:~# MARKER='WFLM''XSXYHL' run 'echo 1280000 1280000 > /sys/kernel/mva_tesst/regulators/buck2_set'
WFLMXSXYHLWFLMXSXYHL 0
root@arm:~# echo 'BEXG''XFJEWX'
BEXGXFJEWX
root@arm:~# MARKER='TYON''AXLUYO' run 'i2cget -y -f 1 0x4b 0x10'
TYONAXLUYO0x3a
TYONAXLUYO 0
root@arm:~# echo 'NGCU''AOSMFX'
NGCUAOSMFX
root@arm:~# MARKER='TCEF''XSUGXA' run 'echo 1290000 1290000 > /sys/kernel/mva_tesst/regulators/buck2_set'
TCEFXSUGXATCEFXSUGXA 0
root@arm:~# echo 'JLUP''FJQZFW'
JLUPFJQZFW
root@arm:~# MARKER='NFGX''HYFGCF' run 'i2cget -y -f 1 0x4b 0x10'
NFGXHYFGCF0x3b
NFGXHYFGCF 0
root@arm:~# echo 'EHEE''KQLQME'
EHEEKQLQME
root@arm:~# MARKER='GYAW''MBFJGM' run 'echo 1300000 1300000 > /sys/kernel/mva_tesst/regulators/buck2_set'
GYAWMBFJGMGYAWMBFJGM 0
root@arm:~# echo 'QHAL''ELWJLX'
QHALELWJLX
root@arm:~# MARKER='ALVM''UAJSKO' run 'i2cget -y -f 1 0x4b 0x10'
ALVMUAJSKO0x3c
ALVMUAJSKO 0
root@arm:~# echo 'AMFZ''MKMXUJ'
AMFZMKMXUJ
root@arm:~# MARKER='SVKK''VFKFEA' run 'grep -r -l rohm,bd71847 /proc/device-tree  | sed '"'"'s![^/]*$!!'"'"''
SVKKVFKFEA/proc/device-tree/ocp/interconnect@48000000/segment@0/target-module@2a000/i2c@0/pmic@4b/
SVKKVFKFEA 0
root@arm:~# echo 'LQCF''MCFCLC'
LQCFMCFCLC
root@arm:~# MARKER='UKCP''LKJAHG' run 'test -f /proc/device-tree/ocp/interconnectt\@48000000/segment\@0/target-module\@2a000/i2c\@0/pmic\@4b/regulators/BUCK3/rohmm,no-regulator-enable-control ;echo $?'
UKCPLKJAHG0
UKCPLKJAHG 0
root@arm:~# echo 'JMZK''ZPEYVQ'
JMZKZPEYVQ
root@arm:~# MARKER='YOQM''NSALYZ' run 'echo 700000 700000 > /sys/kernel/mva_test//regulators/buck3_set'
YOQMNSALYZYOQMNSALYZ 0
root@arm:~# echo 'YCAV''TMYMHP'
YCAVTMYMHP
root@arm:~# MARKER='FAOM''OPBSJC' run 'i2cget -y -f 1 0x4b 0x14'
FAOMOPBSJC0x00
FAOMOPBSJC 0
root@arm:~# echo 'WEGS''LANBZM'
WEGSLANBZM
root@arm:~# MARKER='MHOC''YUECHO' run 'echo 800000 800000 > /sys/kernel/mva_test//regulators/buck3_set'
MHOCYUECHOMHOCYUECHO 0
root@arm:~# echo 'WCMZ''TEBVTW'
WCMZTEBVTW
root@arm:~# MARKER='WZAK''ANPVLL' run 'i2cget -y -f 1 0x4b 0x14'
WZAKANPVLL0x01
WZAKANPVLL 0
root@arm:~# echo 'SAJT''KLKHYO'
SAJTKLKHYO
root@arm:~# MARKER='KAEW''BWLEYJ' run 'echo 900000 900000 > /sys/kernel/mva_test//regulators/buck3_set'
KAEWBWLEYJKAEWBWLEYJ 0
root@arm:~# echo 'VKHX''UCWTQN'
VKHXUCWTQN
root@arm:~# MARKER='CGNM''ZCASXV' run 'i2cget -y -f 1 0x4b 0x14'
CGNMZCASXV0x02
CGNMZCASXV 0
root@arm:~# echo 'ZCOE''CQHZGZ'
ZCOECQHZGZ
root@arm:~# MARKER='UYPJ''MQFQFO' run 'echo 1000000 1000000 > /sys/kernel/mva_tesst/regulators/buck3_set'
UYPJMQFQFOUYPJMQFQFO 0
root@arm:~# echo 'XZHV''BXLJKF'
XZHVBXLJKF
root@arm:~# MARKER='SEFQ''ZEFYWO' run 'i2cget -y -f 1 0x4b 0x14'
SEFQZEFYWO0x03
SEFQZEFYWO 0
root@arm:~# echo 'YABS''KXOCOY'
YABSKXOCOY
root@arm:~# MARKER='XAVA''TGKFOJ' run 'echo 1050000 1050000 > /sys/kernel/mva_tesst/regulators/buck3_set'
XAVATGKFOJXAVATGKFOJ 0
root@arm:~# echo 'VPLS''NMAGKZ'
VPLSNMAGKZ
root@arm:~# MARKER='WNCA''BXNEWF' run 'i2cget -y -f 1 0x4b 0x14'
WNCABXNEWF0x04
WNCABXNEWF 0
root@arm:~# echo 'FQBG''VJSQUQ'
FQBGVJSQUQ
root@arm:~# MARKER='AHJC''TYOVUJ' run 'echo 1100000 1100000 > /sys/kernel/mva_tesst/regulators/buck3_set'
AHJCTYOVUJAHJCTYOVUJ 0
root@arm:~# echo 'KATW''JHUCNJ'
KATWJHUCNJ
root@arm:~# MARKER='QCNN''SZPANS' run 'i2cget -y -f 1 0x4b 0x14'
QCNNSZPANS0x05
QCNNSZPANS 0
root@arm:~# echo 'OWCN''NMSVEF'
OWCNNMSVEF
root@arm:~# MARKER='QWAZ''EETAPU' run 'echo 1200000 1200000 > /sys/kernel/mva_tesst/regulators/buck3_set'
QWAZEETAPUQWAZEETAPU 0
root@arm:~# echo 'BBGT''JJQTXH'
BBGTJJQTXH
root@arm:~# MARKER='SYGY''BMQMVZ' run 'i2cget -y -f 1 0x4b 0x14'
SYGYBMQMVZ0x06
SYGYBMQMVZ 0
root@arm:~# echo 'JWXM''WQBAAL'
JWXMWQBAAL
root@arm:~# MARKER='PWWC''OBVQBO' run 'echo 1350000 1350000 > /sys/kernel/mva_tesst/regulators/buck3_set'
PWWCOBVQBOPWWCOBVQBO 0
root@arm:~# echo 'EVYF''NEVEHT'
EVYFNEVEHT
root@arm:~# MARKER='NOWX''GVLVVH' run 'i2cget -y -f 1 0x4b 0x14'
NOWXGVLVVH0x07
NOWXGVLVVH 0
root@arm:~# echo 'VCKB''VGFMYJ'
VCKBVGFMYJ
root@arm:~# MARKER='WHNO''MTJZSA' run 'echo 550000 550000 > /sys/kernel/mva_test//regulators/buck3_set'
WHNOMTJZSAWHNOMTJZSA 0
root@arm:~# echo 'KJTX''KQZYKZ'
KJTXKQZYKZ
root@arm:~# MARKER='UAFE''YWVBGF' run 'i2cget -y -f 1 0x4b 0x14'
UAFEYWVBGF0x40
UAFEYWVBGF 0
root@arm:~# echo 'TMXS''JVSWHQ'
TMXSJVSWHQ
root@arm:~# MARKER='ZWWY''HEAWSQ' run 'echo 600000 600000 > /sys/kernel/mva_test//regulators/buck3_set'
ZWWYHEAWSQZWWYHEAWSQ 0
root@arm:~# echo 'GLPA''COUSVO'
GLPACOUSVO
root@arm:~# MARKER='XWOX''JKJCGG' run 'i2cget -y -f 1 0x4b 0x14'
XWOXJKJCGG0x41
XWOXJKJCGG 0
root@arm:~# echo 'WWMM''YQAZCJ'
WWMMYQAZCJ
root@arm:~# MARKER='AAFA''SEYZVS' run 'echo 650000 650000 > /sys/kernel/mva_test//regulators/buck3_set'
AAFASEYZVSAAFASEYZVS 0
root@arm:~# echo 'KELG''MYGGSM'
KELGMYGGSM
root@arm:~# MARKER='WCKF''CCKTFO' run 'i2cget -y -f 1 0x4b 0x14'
WCKFCCKTFO0x42
WCKFCCKTFO 0
root@arm:~# echo 'EGPB''NFJVPZ'
EGPBNFJVPZ
root@arm:~# MARKER='POEZ''PEGYSL' run 'echo 700000 700000 > /sys/kernel/mva_test//regulators/buck3_set'
POEZPEGYSLPOEZPEGYSL 0
root@arm:~# echo 'NUUB''LUSHKM'
NUUBLUSHKM
root@arm:~# MARKER='HCPU''XOUUZW' run 'i2cget -y -f 1 0x4b 0x14'
HCPUXOUUZW0x00
HCPUXOUUZW 0
root@arm:~# echo 'VXUY''CPOOUG'
VXUYCPOOUG
root@arm:~# MARKER='EVLJ''WWCVYK' run 'echo 750000 750000 > /sys/kernel/mva_test//regulators/buck3_set'
EVLJWWCVYKEVLJWWCVYK 0
root@arm:~# echo 'YKXP''UTXHOA'
YKXPUTXHOA
root@arm:~# MARKER='PLAN''SPMXHA' run 'i2cget -y -f 1 0x4b 0x14'
PLANSPMXHA0x44
PLANSPMXHA 0
root@arm:~# echo 'JZEG''ZQWQHZ'
JZEGZQWQHZ
root@arm:~# MARKER='FSOE''FKMELL' run 'echo 800000 800000 > /sys/kernel/mva_test//regulators/buck3_set'
FSOEFKMELLFSOEFKMELL 0
root@arm:~# echo 'YMNT''NZNUPW'
YMNTNZNUPW
root@arm:~# MARKER='NSKU''OMSUWO' run 'i2cget -y -f 1 0x4b 0x14'
NSKUOMSUWO0x01
NSKUOMSUWO 0
root@arm:~# echo 'VFSF''OUQWEY'
VFSFOUQWEY
root@arm:~# MARKER='JXHH''HYEONK' run 'echo 850000 850000 > /sys/kernel/mva_test//regulators/buck3_set'
JXHHHYEONKJXHHHYEONK 0
root@arm:~# echo 'MKFE''KBVPGP'
MKFEKBVPGP
root@arm:~# MARKER='YKNO''KHJKAO' run 'i2cget -y -f 1 0x4b 0x14'
YKNOKHJKAO0x46
YKNOKHJKAO 0
root@arm:~# echo 'SHMK''XLFTHP'
SHMKXLFTHP
root@arm:~# MARKER='ZAVA''SUBLHG' run 'echo 900000 900000 > /sys/kernel/mva_test//regulators/buck3_set'
ZAVASUBLHGZAVASUBLHG 0
root@arm:~# echo 'CSUH''VACSMZ'
CSUHVACSMZ
root@arm:~# MARKER='YLZQ''AXJHAS' run 'i2cget -y -f 1 0x4b 0x14'
YLZQAXJHAS0x02
YLZQAXJHAS 0
root@arm:~# echo 'XYTT''NANXAS'
XYTTNANXAS
root@arm:~# MARKER='ETEQ''VOBGEY' run 'echo 675000 675000 > /sys/kernel/mva_test//regulators/buck3_set'
ETEQVOBGEYETEQVOBGEY 0
root@arm:~# echo 'WPGS''BHCAEH'
WPGSBHCAEH
root@arm:~# MARKER='CZPG''KJWCOQ' run 'i2cget -y -f 1 0x4b 0x14'
CZPGKJWCOQ0x80
CZPGKJWCOQ 0
root@arm:~# echo 'HHYK''PGHTFG'
HHYKPGHTFG
root@arm:~# MARKER='FUQG''FFQNJC' run 'echo 775000 775000 > /sys/kernel/mva_test//regulators/buck3_set'
FUQGFFQNJCFUQGFFQNJC 0
root@arm:~# echo 'FSTL''AYPPJX'
FSTLAYPPJX
root@arm:~# MARKER='UXSE''HOVFEB' run 'i2cget -y -f 1 0x4b 0x14'
UXSEHOVFEB0x81
UXSEHOVFEB 0
root@arm:~# echo 'LJEG''EGVBTA'
LJEGEGVBTA
root@arm:~# MARKER='FMFS''PEAENU' run 'echo 875000 875000 > /sys/kernel/mva_test//regulators/buck3_set'
FMFSPEAENUFMFSPEAENU 0
root@arm:~# echo 'BQES''SEMLEU'
BQESSEMLEU
root@arm:~# MARKER='GJNT''FQCSXQ' run 'i2cget -y -f 1 0x4b 0x14'
GJNTFQCSXQ0x82
GJNTFQCSXQ 0
root@arm:~# echo 'KYJY''BHNUXT'
KYJYBHNUXT
root@arm:~# MARKER='AHVQ''XHVPQF' run 'echo 975000 975000 > /sys/kernel/mva_test//regulators/buck3_set'
AHVQXHVPQFAHVQXHVPQF 0
root@arm:~# echo 'MBLZ''BVGHPP'
MBLZBVGHPP
root@arm:~# MARKER='AZOO''WYFSHQ' run 'i2cget -y -f 1 0x4b 0x14'
AZOOWYFSHQ0x83
AZOOWYFSHQ 0
root@arm:~# echo 'QFCB''ONGFVO'
QFCBONGFVO
root@arm:~# MARKER='EBHM''JXHHZQ' run 'echo 1025000 1025000 > /sys/kernel/mva_tesst/regulators/buck3_set'
EBHMJXHHZQEBHMJXHHZQ 0
root@arm:~# echo 'QZLZ''HJZBOX'
QZLZHJZBOX
root@arm:~# MARKER='WYUF''WFFVAH' run 'i2cget -y -f 1 0x4b 0x14'
WYUFWFFVAH0x84
WYUFWFFVAH 0
root@arm:~# echo 'PKNS''XYUBJP'
PKNSXYUBJP
root@arm:~# MARKER='FCEZ''MOUJEH' run 'echo 1075000 1075000 > /sys/kernel/mva_tesst/regulators/buck3_set'
FCEZMOUJEHFCEZMOUJEH 0
root@arm:~# echo 'UKUO''WOYBPV'
UKUOWOYBPV
root@arm:~# MARKER='EFFQ''OGWBQB' run 'i2cget -y -f 1 0x4b 0x14'
EFFQOGWBQB0x85
EFFQOGWBQB 0
root@arm:~# echo 'MWST''LSWYSB'
MWSTLSWYSB
root@arm:~# MARKER='NCAS''VEFAQJ' run 'echo 1175000 1175000 > /sys/kernel/mva_tesst/regulators/buck3_set'
NCASVEFAQJNCASVEFAQJ 0
root@arm:~# echo 'JEBU''NJHEYB'
JEBUNJHEYB
root@arm:~# MARKER='SHYZ''CQUZWH' run 'i2cget -y -f 1 0x4b 0x14'
SHYZCQUZWH0x86
SHYZCQUZWH 0
root@arm:~# echo 'EOGU''PQHOON'
EOGUPQHOON
root@arm:~# MARKER='OPAW''PZHQEC' run 'echo 1325000 1325000 > /sys/kernel/mva_tesst/regulators/buck3_set'
OPAWPZHQECOPAWPZHQEC 0
root@arm:~# echo 'MYLZ''GKHPOU'
MYLZGKHPOU
root@arm:~# MARKER='BJGC''KLMNSV' run 'i2cget -y -f 1 0x4b 0x14'
BJGCKLMNSV0x87
BJGCKLMNSV 0
root@arm:~# echo 'OCXE''QSFWHM'
OCXEQSFWHM
root@arm:~# MARKER='EUYS''WJLLKJ' run 'grep -r -l rohm,bd71847 /proc/device-tree  | sed '"'"'s![^/]*$!!'"'"''
EUYSWJLLKJ/proc/device-tree/ocp/interconnect@48000000/segment@0/target-module@2a000/i2c@0/pmic@4b/
EUYSWJLLKJ 0
root@arm:~# echo 'GBPM''AZLAWN'
GBPMAZLAWN
root@arm:~# MARKER='UXAK''EQKQKO' run 'test -f /proc/device-tree/ocp/interconnectt\@48000000/segment\@0/target-module\@2a000/i2c\@0/pmic\@4b/regulators/BUCK4/rohmm,no-regulator-enable-control ;echo $?'
UXAKEQKQKO1
UXAKEQKQKO 0
root@arm:~# echo 'EZCP''UWFEFZ'
EZCPUWFEFZ
root@arm:~# MARKER='WQOO''QQLGLJ' run 'i2cget -y -f 1 0x4b 0xa'
WQOOQQLGLJ0x02
WQOOQQLGLJ 0
root@arm:~# echo 'NVCE''EQXTFW'
NVCEEQXTFW
root@arm:~# MARKER='TTGY''LAKCLJ' run 'echo 3000000 3000000 > /sys/kernel/mva_tesst/regulators/buck4_set'
TTGYLAKCLJTTGYLAKCLJ 0
root@arm:~# echo 'OQET''JYGXPX'
OQETJYGXPX
root@arm:~# MARKER='JZNL''EHUMNM' run 'i2cget -y -f 1 0x4b 0x15'
JZNLEHUMNM0x00
JZNLEHUMNM 0
root@arm:~# echo 'EHLT''FUWXBT'
EHLTFUWXBT
root@arm:~# MARKER='NZAG''WEEVQQ' run 'echo 3100000 3100000 > /sys/kernel/mva_tesst/regulators/buck4_set'
NZAGWEEVQQNZAGWEEVQQ 0
root@arm:~# echo 'QMMS''OJMUAB'
QMMSOJMUAB
root@arm:~# MARKER='FFMJ''JOPKXV' run 'i2cget -y -f 1 0x4b 0x15'
FFMJJOPKXV0x01
FFMJJOPKXV 0
root@arm:~# echo 'OPQW''CNYYEA'
OPQWCNYYEA
root@arm:~# MARKER='SSJF''UJWFXC' run 'echo 3200000 3200000 > /sys/kernel/mva_tesst/regulators/buck4_set'
SSJFUJWFXCSSJFUJWFXC 0
root@arm:~# echo 'QPEC''OPEPYL'
QPECOPEPYL
root@arm:~# MARKER='MQQX''VUUWWK' run 'i2cget -y -f 1 0x4b 0x15'
MQQXVUUWWK0x02
MQQXVUUWWK 0
root@arm:~# echo 'UCHH''ECPCHN'
UCHHECPCHN
root@arm:~# MARKER='MOQM''YEKYVM' run 'echo 3300000 3300000 > /sys/kernel/mva_tesst/regulators/buck4_set'
MOQMYEKYVMMOQMYEKYVM 0
root@arm:~# echo 'OQPY''BKFQNA'
OQPYBKFQNA
root@arm:~# MARKER='NGWC''ASEKSE' run 'i2cget -y -f 1 0x4b 0x15'
NGWCASEKSE0x03
NGWCASEKSE 0
root@arm:~# echo 'LGLF''PNHYVK'
LGLFPNHYVK
root@arm:~# MARKER='WCTT''YZGKPM' run 'echo 2600000 2600000 > /sys/kernel/mva_tesst/regulators/buck4_set'
WCTTYZGKPMWCTTYZGKPM 0
root@arm:~# echo 'LNHK''OHMXCH'
LNHKOHMXCH
root@arm:~# MARKER='YFPP''FWWEXQ' run 'i2cget -y -f 1 0x4b 0x15'
YFPPFWWEXQ0x40
YFPPFWWEXQ 0
root@arm:~# echo 'JMKA''WLTQAU'
JMKAWLTQAU
root@arm:~# MARKER='VWOM''CETUEW' run 'echo 2700000 2700000 > /sys/kernel/mva_tesst/regulators/buck4_set'
VWOMCETUEWVWOMCETUEW 0
root@arm:~# echo 'KTWM''FMAJJU'
KTWMFMAJJU
root@arm:~# MARKER='QHQB''WZZFNE' run 'i2cget -y -f 1 0x4b 0x15'
QHQBWZZFNE0x41
QHQBWZZFNE 0
root@arm:~# echo 'VPYN''HZMBQE'
VPYNHZMBQE
root@arm:~# MARKER='YNGL''WFEVZF' run 'echo 2800000 2800000 > /sys/kernel/mva_tesst/regulators/buck4_set'
YNGLWFEVZFYNGLWFEVZF 0
root@arm:~# echo 'SBAA''VZTOKJ'
SBAAVZTOKJ
root@arm:~# MARKER='THCF''XFKCXG' run 'i2cget -y -f 1 0x4b 0x15'
THCFXFKCXG0x42
THCFXFKCXG 0
root@arm:~# echo 'PMFJ''HHLPGN'
PMFJHHLPGN
root@arm:~# MARKER='VBGB''GUUNSG' run 'echo 2900000 2900000 > /sys/kernel/mva_tesst/regulators/buck4_set'
VBGBGUUNSGVBGBGUUNSG 0
root@arm:~# echo 'OZXC''OKSTTN'
OZXCOKSTTN
root@arm:~# MARKER='UUZA''QYYXLS' run 'i2cget -y -f 1 0x4b 0x15'
UUZAQYYXLS0x43
UUZAQYYXLS 0
root@arm:~# echo 'GCPQ''HTZLSY'
GCPQHTZLSY
root@arm:~# MARKER='CUVX''QAFZLQ' run 'grep -r -l rohm,bd71847 /proc/device-tree  | sed '"'"'s![^/]*$!!'"'"''
CUVXQAFZLQ/proc/device-tree/ocp/interconnect@48000000/segment@0/target-module@2a000/i2c@0/pmic@4b/
CUVXQAFZLQ 0
root@arm:~# echo 'KOKK''KHSKAP'
KOKKKHSKAP
root@arm:~# MARKER='YVGL''GFSYGK' run 'test -f /proc/device-tree/ocp/interconnectt\@48000000/segment\@0/target-module\@2a000/i2c\@0/pmic\@4b/regulators/BUCK5/rohmm,no-regulator-enable-control ;echo $?'
YVGLGFSYGK1
YVGLGFSYGK 0
root@arm:~# echo 'LZAH''HBVNVT'
LZAHHBVNVT
root@arm:~# MARKER='ZXBA''KATLYW' run 'i2cget -y -f 1 0x4b 0xb'
ZXBAKATLYW0x02
ZXBAKATLYW 0
root@arm:~# echo 'AAHO''UOCEPB'
AAHOUOCEPB
root@arm:~# MARKER='BEUW''LZXXVL' run 'echo 1605000 1605000 > /sys/kernel/mva_tesst/regulators/buck5_set'
BEUWLZXXVLBEUWLZXXVL 0
root@arm:~# echo 'GLQG''FHJBPQ'
GLQGFHJBPQ
root@arm:~# MARKER='HXVP''CQGYNF' run 'i2cget -y -f 1 0x4b 0x16'
HXVPCQGYNF0x00
HXVPCQGYNF 0
root@arm:~# echo 'BFKU''OLHGYJ'
BFKUOLHGYJ
root@arm:~# MARKER='KNXO''WXBPXN' run 'echo 1695000 1695000 > /sys/kernel/mva_tesst/regulators/buck5_set'
KNXOWXBPXNKNXOWXBPXN 0
root@arm:~# echo 'KCFP''XQWEVG'
KCFPXQWEVG
root@arm:~# MARKER='UMWS''BFWNSS' run 'i2cget -y -f 1 0x4b 0x16'
UMWSBFWNSS0x01
UMWSBFWNSS 0
root@arm:~# echo 'BNYH''MZTBPW'
BNYHMZTBPW
root@arm:~# MARKER='CXFQ''LGBKKQ' run 'echo 1755000 1755000 > /sys/kernel/mva_tesst/regulators/buck5_set'
CXFQLGBKKQCXFQLGBKKQ 0
root@arm:~# echo 'VUVV''EGPUKK'
VUVVEGPUKK
root@arm:~# MARKER='TPXS''FJGXYZ' run 'i2cget -y -f 1 0x4b 0x16'
TPXSFJGXYZ0x02
TPXSFJGXYZ 0
root@arm:~# echo 'CEAU''LQPMLM'
CEAULQPMLM
root@arm:~# MARKER='PMZM''FFPWNM' run 'echo 1800000 1800000 > /sys/kernel/mva_tesst/regulators/buck5_set'
PMZMFFPWNMPMZMFFPWNM 0
root@arm:~# echo 'KLLL''ELCEMB'
KLLLELCEMB
root@arm:~# MARKER='XKOA''MWXWML' run 'i2cget -y -f 1 0x4b 0x16'
XKOAMWXWML0x03
XKOAMWXWML 0
root@arm:~# echo 'VKGU''YEMWWJ'
VKGUYEMWWJ
root@arm:~# MARKER='PGHC''LAJGYE' run 'echo 1845000 1845000 > /sys/kernel/mva_tesst/regulators/buck5_set'
PGHCLAJGYEPGHCLAJGYE 0
root@arm:~# echo 'SNCJ''PUUTON'
SNCJPUUTON
root@arm:~# MARKER='OFWQ''CBVBBO' run 'i2cget -y -f 1 0x4b 0x16'
OFWQCBVBBO0x04
OFWQCBVBBO 0
root@arm:~# echo 'OWBB''PTSYQA'
OWBBPTSYQA
root@arm:~# MARKER='NUAT''BJEPBG' run 'echo 1905000 1905000 > /sys/kernel/mva_tesst/regulators/buck5_set'
NUATBJEPBGNUATBJEPBG 0
root@arm:~# echo 'SWWU''SFJCHW'
SWWUSFJCHW
root@arm:~# MARKER='TCAJ''TWPTTO' run 'i2cget -y -f 1 0x4b 0x16'
TCAJTWPTTO0x05
TCAJTWPTTO 0
root@arm:~# echo 'YETU''ZVZWXW'
YETUZVZWXW
root@arm:~# MARKER='BXEG''AFNMMV' run 'echo 1950000 1950000 > /sys/kernel/mva_tesst/regulators/buck5_set'
BXEGAFNMMVBXEGAFNMMV 0
root@arm:~# echo 'JSKS''NOFWMT'
JSKSNOFWMT
root@arm:~# MARKER='AJXP''GOZJOG' run 'i2cget -y -f 1 0x4b 0x16'
AJXPGOZJOG0x06
AJXPGOZJOG 0
root@arm:~# echo 'MPAH''FWZXGY'
MPAHFWZXGY
root@arm:~# MARKER='BGQM''QNKTPG' run 'echo 1995000 1995000 > /sys/kernel/mva_tesst/regulators/buck5_set'
BGQMQNKTPGBGQMQNKTPG 0
root@arm:~# echo 'YSPJ''TAQUVY'
YSPJTAQUVY
root@arm:~# MARKER='CEOU''VLOWSA' run 'i2cget -y -f 1 0x4b 0x16'
CEOUVLOWSA0x07
CEOUVLOWSA 0
root@arm:~# echo 'LJPQ''YJAYEV'
LJPQYJAYEV
root@arm:~# MARKER='WGGC''BVVGEE' run 'grep -r -l rohm,bd71847 /proc/device-tree  | sed '"'"'s![^/]*$!!'"'"''
WGGCBVVGEE/proc/device-tree/ocp/interconnect@48000000/segment@0/target-module@2a000/i2c@0/pmic@4b/
WGGCBVVGEE 0
root@arm:~# echo 'XOEX''NKGMXW'
XOEXNKGMXW
root@arm:~# MARKER='VBXE''ZVWNXC' run 'test -f /proc/device-tree/ocp/interconnectt\@48000000/segment\@0/target-module\@2a000/i2c\@0/pmic\@4b/regulators/BUCK6/rohmm,no-regulator-enable-control ;echo $?'
VBXEZVWNXC1
VBXEZVWNXC 0
root@arm:~# echo 'BBZH''VGZNYZ'
BBZHVGZNYZ
root@arm:~# MARKER='MBCC''YGEGHY' run 'i2cget -y -f 1 0x4b 0xc'
MBCCYGEGHY0x02
MBCCYGEGHY 0
root@arm:~# echo 'KVZK''ULUENQ'
KVZKULUENQ
root@arm:~# MARKER='TSFM''SHMFWS' run 'echo 800000 800000 > /sys/kernel/mva_test//regulators/buck6_set'
TSFMSHMFWSTSFMSHMFWS 0
root@arm:~# echo 'ACSO''SBXEOZ'
ACSOSBXEOZ
root@arm:~# MARKER='PHVM''HTJVOL' run 'i2cget -y -f 1 0x4b 0x17'
PHVMHTJVOL0x00
PHVMHTJVOL 0
root@arm:~# echo 'NSBT''PMLUJQ'
NSBTPMLUJQ
root@arm:~# MARKER='JLXO''OPXQJX' run 'echo 810000 810000 > /sys/kernel/mva_test//regulators/buck6_set'
JLXOOPXQJXJLXOOPXQJX 0
root@arm:~# echo 'KYUE''BHHLXX'
KYUEBHHLXX
root@arm:~# MARKER='MOGQ''EWNTBX' run 'i2cget -y -f 1 0x4b 0x17'
MOGQEWNTBX0x01
MOGQEWNTBX 0
root@arm:~# echo 'XUEP''EXEHBC'
XUEPEXEHBC
root@arm:~# MARKER='LGFB''XBMUVB' run 'echo 820000 820000 > /sys/kernel/mva_test//regulators/buck6_set'
LGFBXBMUVBLGFBXBMUVB 0
root@arm:~# echo 'ATTZ''CVWGME'
ATTZCVWGME
root@arm:~# MARKER='LZVX''CBVFSP' run 'i2cget -y -f 1 0x4b 0x17'
LZVXCBVFSP0x02
LZVXCBVFSP 0
root@arm:~# echo 'KUGU''PSVHGZ'
KUGUPSVHGZ
root@arm:~# MARKER='WGQJ''GJCPGA' run 'echo 830000 830000 > /sys/kernel/mva_test//regulators/buck6_set'
WGQJGJCPGAWGQJGJCPGA 0
root@arm:~# echo 'UAJN''OMKOXC'
UAJNOMKOXC
root@arm:~# MARKER='TOAZ''BVZBEJ' run 'i2cget -y -f 1 0x4b 0x17'
TOAZBVZBEJ0x03
TOAZBVZBEJ 0
root@arm:~# echo 'BLVJ''FTGKCA'
BLVJFTGKCA
root@arm:~# MARKER='OGSH''GHTFXQ' run 'echo 840000 840000 > /sys/kernel/mva_test//regulators/buck6_set'
OGSHGHTFXQOGSHGHTFXQ 0
root@arm:~# echo 'NAFU''CYGYCG'
NAFUCYGYCG
root@arm:~# MARKER='LZPG''YEQUWA' run 'i2cget -y -f 1 0x4b 0x17'
LZPGYEQUWA0x04
LZPGYEQUWA 0
root@arm:~# echo 'OTKN''NQZPNK'
OTKNNQZPNK
root@arm:~# MARKER='LHPC''OCKJHG' run 'echo 850000 850000 > /sys/kernel/mva_test//regulators/buck6_set'
LHPCOCKJHGLHPCOCKJHG 0
root@arm:~# echo 'SZPW''BSPASS'
SZPWBSPASS
root@arm:~# MARKER='PFTK''XUTAWY' run 'i2cget -y -f 1 0x4b 0x17'
PFTKXUTAWY0x05
PFTKXUTAWY 0
root@arm:~# echo 'WTZS''HJCKTH'
WTZSHJCKTH
root@arm:~# MARKER='HYBB''AVKXTJ' run 'echo 860000 860000 > /sys/kernel/mva_test//regulators/buck6_set'
HYBBAVKXTJHYBBAVKXTJ 0
root@arm:~# echo 'ZEGN''AEZABN'
ZEGNAEZABN
root@arm:~# MARKER='GLBU''QQYXTN' run 'i2cget -y -f 1 0x4b 0x17'
GLBUQQYXTN0x06
GLBUQQYXTN 0
root@arm:~# echo 'YWYT''QYGSEF'
YWYTQYGSEF
root@arm:~# MARKER='TXEV''OJSHKG' run 'echo 870000 870000 > /sys/kernel/mva_test//regulators/buck6_set'
TXEVOJSHKGTXEVOJSHKG 0
root@arm:~# echo 'ZMAA''BUZUSW'
ZMAABUZUSW
root@arm:~# MARKER='KCJA''KGTXAA' run 'i2cget -y -f 1 0x4b 0x17'
KCJAKGTXAA0x07
KCJAKGTXAA 0
root@arm:~# echo 'TCXU''EGEKVL'
TCXUEGEKVL
root@arm:~# MARKER='QVXU''BSSJZU' run 'echo 880000 880000 > /sys/kernel/mva_test//regulators/buck6_set'
QVXUBSSJZUQVXUBSSJZU 0
root@arm:~# echo 'NXGH''JPXSAU'
NXGHJPXSAU
root@arm:~# MARKER='MQCY''PGUGNV' run 'i2cget -y -f 1 0x4b 0x17'
MQCYPGUGNV0x08
MQCYPGUGNV 0
root@arm:~# echo 'MEHA''XBAVGM'
MEHAXBAVGM
root@arm:~# MARKER='UQHE''AOOTHH' run 'echo 890000 890000 > /sys/kernel/mva_test//regulators/buck6_set'
UQHEAOOTHHUQHEAOOTHH 0
root@arm:~# echo 'KWHC''CZSEST'
KWHCCZSEST
root@arm:~# MARKER='LXXL''EHQFVG' run 'i2cget -y -f 1 0x4b 0x17'
LXXLEHQFVG0x09
LXXLEHQFVG 0
root@arm:~# echo 'ZPAK''FBMMQJ'
ZPAKFBMMQJ
root@arm:~# MARKER='XVFQ''BXEZZA' run 'echo 900000 900000 > /sys/kernel/mva_test//regulators/buck6_set'
XVFQBXEZZAXVFQBXEZZA 0
root@arm:~# echo 'HBAA''LWJKSN'
HBAALWJKSN
root@arm:~# MARKER='QHKU''EWKKQH' run 'i2cget -y -f 1 0x4b 0x17'
QHKUEWKKQH0x0a
QHKUEWKKQH 0
root@arm:~# echo 'MFEH''LOKGXM'
MFEHLOKGXM
root@arm:~# MARKER='QXAJ''MMATUY' run 'echo 910000 910000 > /sys/kernel/mva_test//regulators/buck6_set'
QXAJMMATUYQXAJMMATUY 0
root@arm:~# echo 'MWAZ''HBVHOO'
MWAZHBVHOO
root@arm:~# MARKER='KAES''ZBNZFJ' run 'i2cget -y -f 1 0x4b 0x17'
KAESZBNZFJ0x0b
KAESZBNZFJ 0
root@arm:~# echo 'BETG''QXOTWM'
BETGQXOTWM
root@arm:~# MARKER='FVXT''OTFFHN' run 'echo 920000 920000 > /sys/kernel/mva_test//regulators/buck6_set'
FVXTOTFFHNFVXTOTFFHN 0
root@arm:~# echo 'FYBF''YBHJFU'
FYBFYBHJFU
root@arm:~# MARKER='PXJT''JVLMPK' run 'i2cget -y -f 1 0x4b 0x17'
PXJTJVLMPK0x0c
PXJTJVLMPK 0
root@arm:~# echo 'THBX''TLFEAP'
THBXTLFEAP
root@arm:~# MARKER='KWHE''AQXMEE' run 'echo 930000 930000 > /sys/kernel/mva_test//regulators/buck6_set'
KWHEAQXMEEKWHEAQXMEE 0
root@arm:~# echo 'NQMN''PXSNEA'
NQMNPXSNEA
root@arm:~# MARKER='SYHS''ANFNSW' run 'i2cget -y -f 1 0x4b 0x17'
SYHSANFNSW0x0d
SYHSANFNSW 0
root@arm:~# echo 'CKPW''AQHJGE'
CKPWAQHJGE
root@arm:~# MARKER='VPXN''XSGYTW' run 'echo 940000 940000 > /sys/kernel/mva_test//regulators/buck6_set'
VPXNXSGYTWVPXNXSGYTW 0
root@arm:~# echo 'YZHG''SVCSPX'
YZHGSVCSPX
root@arm:~# MARKER='YAHC''UFVKFN' run 'i2cget -y -f 1 0x4b 0x17'
YAHCUFVKFN0x0e
YAHCUFVKFN 0
root@arm:~# echo 'BGUO''YEZENP'
BGUOYEZENP
root@arm:~# MARKER='OLOB''HLNFTO' run 'echo 950000 950000 > /sys/kernel/mva_test//regulators/buck6_set'
OLOBHLNFTOOLOBHLNFTO 0
root@arm:~# echo 'EUME''BQKCLV'
EUMEBQKCLV
root@arm:~# MARKER='EQUW''VXNJSH' run 'i2cget -y -f 1 0x4b 0x17'
EQUWVXNJSH0x0f
EQUWVXNJSH 0
root@arm:~# echo 'QZLV''HVWASC'
QZLVHVWASC
root@arm:~# MARKER='JWBS''OAUAFL' run 'echo 960000 960000 > /sys/kernel/mva_test//regulators/buck6_set'
JWBSOAUAFLJWBSOAUAFL 0
root@arm:~# echo 'ESEE''LBCOKH'
ESEELBCOKH
root@arm:~# MARKER='XSEF''BUUOKQ' run 'i2cget -y -f 1 0x4b 0x17'
XSEFBUUOKQ0x10
XSEFBUUOKQ 0
root@arm:~# echo 'SXBL''FCNGEM'
SXBLFCNGEM
root@arm:~# MARKER='GNZO''ULEHYL' run 'echo 970000 970000 > /sys/kernel/mva_test//regulators/buck6_set'
GNZOULEHYLGNZOULEHYL 0
root@arm:~# echo 'SQTT''YCVAVT'
SQTTYCVAVT
root@arm:~# MARKER='GKXE''XQSNXQ' run 'i2cget -y -f 1 0x4b 0x17'
GKXEXQSNXQ0x11
GKXEXQSNXQ 0
root@arm:~# echo 'ZSNB''XTOSLY'
ZSNBXTOSLY
root@arm:~# MARKER='ZNVP''ZYJATU' run 'echo 980000 980000 > /sys/kernel/mva_test//regulators/buck6_set'
ZNVPZYJATUZNVPZYJATU 0
root@arm:~# echo 'TSGZ''KANEVF'
TSGZKANEVF
root@arm:~# MARKER='TNPU''SSOEVB' run 'i2cget -y -f 1 0x4b 0x17'
TNPUSSOEVB0x12
TNPUSSOEVB 0
root@arm:~# echo 'JQQA''HWMYOL'
JQQAHWMYOL
root@arm:~# MARKER='MQNC''UZMAFM' run 'echo 990000 990000 > /sys/kernel/mva_test//regulators/buck6_set'
MQNCUZMAFMMQNCUZMAFM 0
root@arm:~# echo 'OGFA''GCCSSX'
OGFAGCCSSX
root@arm:~# MARKER='WHNZ''SJJGAQ' run 'i2cget -y -f 1 0x4b 0x17'
WHNZSJJGAQ0x13
WHNZSJJGAQ 0
root@arm:~# echo 'KBXY''OVGVUB'
KBXYOVGVUB
root@arm:~# MARKER='BJVE''NVXSZA' run 'echo 1000000 1000000 > /sys/kernel/mva_tesst/regulators/buck6_set'
BJVENVXSZABJVENVXSZA 0
root@arm:~# echo 'SUSM''ALEYVP'
SUSMALEYVP
root@arm:~# MARKER='OULE''VELXFN' run 'i2cget -y -f 1 0x4b 0x17'
OULEVELXFN0x14
OULEVELXFN 0
root@arm:~# echo 'TSNG''OYZXYQ'
TSNGOYZXYQ
root@arm:~# MARKER='JWFT''YLKTSF' run 'echo 1010000 1010000 > /sys/kernel/mva_tesst/regulators/buck6_set'
JWFTYLKTSFJWFTYLKTSF 0
root@arm:~# echo 'NXFV''MKBXSW'
NXFVMKBXSW
root@arm:~# MARKER='ZVLZ''SOCWFC' run 'i2cget -y -f 1 0x4b 0x17'
ZVLZSOCWFC0x15
ZVLZSOCWFC 0
root@arm:~# echo 'LLMQ''JAGMQE'
LLMQJAGMQE
root@arm:~# MARKER='JWOK''YBWSCY' run 'echo 1020000 1020000 > /sys/kernel/mva_tesst/regulators/buck6_set'
JWOKYBWSCYJWOKYBWSCY 0
root@arm:~# echo 'JWBY''UPKHMQ'
JWBYUPKHMQ
root@arm:~# MARKER='ZYPF''EFUCWE' run 'i2cget -y -f 1 0x4b 0x17'
ZYPFEFUCWE0x16
ZYPFEFUCWE 0
root@arm:~# echo 'BXKT''LSTAVE'
BXKTLSTAVE
root@arm:~# MARKER='AXLQ''UAKMBW' run 'echo 1030000 1030000 > /sys/kernel/mva_tesst/regulators/buck6_set'
AXLQUAKMBWAXLQUAKMBW 0
root@arm:~# echo 'JXWC''VPTYXN'
JXWCVPTYXN
root@arm:~# MARKER='VQOE''JMKVWF' run 'i2cget -y -f 1 0x4b 0x17'
VQOEJMKVWF0x17
VQOEJMKVWF 0
root@arm:~# echo 'VPBY''LVLQSQ'
VPBYLVLQSQ
root@arm:~# MARKER='VUHW''QAUKTS' run 'echo 1040000 1040000 > /sys/kernel/mva_tesst/regulators/buck6_set'
VUHWQAUKTSVUHWQAUKTS 0
root@arm:~# echo 'LYQL''NOLYZY'
LYQLNOLYZY
root@arm:~# MARKER='JFAH''HFTBUM' run 'i2cget -y -f 1 0x4b 0x17'
JFAHHFTBUM0x18
JFAHHFTBUM 0
root@arm:~# echo 'LWJZ''WLFTXL'
LWJZWLFTXL
root@arm:~# MARKER='XZMZ''UCFBVO' run 'echo 1050000 1050000 > /sys/kernel/mva_tesst/regulators/buck6_set'
XZMZUCFBVOXZMZUCFBVO 0
root@arm:~# echo 'AECX''JZCNQU'
AECXJZCNQU
root@arm:~# MARKER='HBFH''ESEXNL' run 'i2cget -y -f 1 0x4b 0x17'
HBFHESEXNL0x19
HBFHESEXNL 0
root@arm:~# echo 'KYTN''AYBXPX'
KYTNAYBXPX
root@arm:~# MARKER='SUNT''JLMOKN' run 'echo 1060000 1060000 > /sys/kernel/mva_tesst/regulators/buck6_set'
SUNTJLMOKNSUNTJLMOKN 0
root@arm:~# echo 'UOZJ''FQKOYL'
UOZJFQKOYL
root@arm:~# MARKER='HPGC''NFLOZU' run 'i2cget -y -f 1 0x4b 0x17'
HPGCNFLOZU0x1a
HPGCNFLOZU 0
root@arm:~# echo 'NMOF''AYBMCV'
NMOFAYBMCV
root@arm:~# MARKER='SUXB''PJGSBM' run 'echo 1070000 1070000 > /sys/kernel/mva_tesst/regulators/buck6_set'
SUXBPJGSBMSUXBPJGSBM 0
root@arm:~# echo 'CFFG''ZQAVKO'
CFFGZQAVKO
root@arm:~# MARKER='ANQB''YQZNBE' run 'i2cget -y -f 1 0x4b 0x17'
ANQBYQZNBE0x1b
ANQBYQZNBE 0
root@arm:~# echo 'EEPH''YTTLYH'
EEPHYTTLYH
root@arm:~# MARKER='SPLH''BFFHNM' run 'echo 1080000 1080000 > /sys/kernel/mva_tesst/regulators/buck6_set'
SPLHBFFHNMSPLHBFFHNM 0
root@arm:~# echo 'KLUQ''ZAQVYB'
KLUQZAQVYB
root@arm:~# MARKER='GWKM''SAOKTF' run 'i2cget -y -f 1 0x4b 0x17'
GWKMSAOKTF0x1c
GWKMSAOKTF 0
root@arm:~# echo 'YZYH''OWCTLK'
YZYHOWCTLK
root@arm:~# MARKER='YGBL''CHAJCF' run 'echo 1090000 1090000 > /sys/kernel/mva_tesst/regulators/buck6_set'
YGBLCHAJCFYGBLCHAJCF 0
root@arm:~# echo 'JYTY''USEQJE'
JYTYUSEQJE
root@arm:~# MARKER='MPEM''NKTWKP' run 'i2cget -y -f 1 0x4b 0x17'
MPEMNKTWKP0x1d
MPEMNKTWKP 0
root@arm:~# echo 'QVAZ''QLBCAB'
QVAZQLBCAB
root@arm:~# MARKER='YVTZ''VMSSGS' run 'echo 1100000 1100000 > /sys/kernel/mva_tesst/regulators/buck6_set'
YVTZVMSSGSYVTZVMSSGS 0
root@arm:~# echo 'TJSF''GTWBHC'
TJSFGTWBHC
root@arm:~# MARKER='SKBB''BVYQZP' run 'i2cget -y -f 1 0x4b 0x17'
SKBBBVYQZP0x1e
SKBBBVYQZP 0
root@arm:~# echo 'FTSN''MSWPMS'
FTSNMSWPMS
root@arm:~# MARKER='AOGT''CAQKXF' run 'echo 1110000 1110000 > /sys/kernel/mva_tesst/regulators/buck6_set'
AOGTCAQKXFAOGTCAQKXF 0
root@arm:~# echo 'JGAQ''JLWPQV'
JGAQJLWPQV
root@arm:~# MARKER='TLCH''ZJPBFP' run 'i2cget -y -f 1 0x4b 0x17'
TLCHZJPBFP0x1f
TLCHZJPBFP 0
root@arm:~# echo 'PUAL''JMYJSQ'
PUALJMYJSQ
root@arm:~# MARKER='HLAK''OQYHXT' run 'echo 1120000 1120000 > /sys/kernel/mva_tesst/regulators/buck6_set'
HLAKOQYHXTHLAKOQYHXT 0
root@arm:~# echo 'GBES''CESXKC'
GBESCESXKC
root@arm:~# MARKER='NAVP''YPZYMT' run 'i2cget -y -f 1 0x4b 0x17'
NAVPYPZYMT0x20
NAVPYPZYMT 0
root@arm:~# echo 'OZSU''EWQBWK'
OZSUEWQBWK
root@arm:~# MARKER='LGTF''LPXAWT' run 'echo 1130000 1130000 > /sys/kernel/mva_tesst/regulators/buck6_set'
LGTFLPXAWTLGTFLPXAWT 0
root@arm:~# echo 'EKHH''LZJBBU'
EKHHLZJBBU
root@arm:~# MARKER='KTXM''NMHAXM' run 'i2cget -y -f 1 0x4b 0x17'
KTXMNMHAXM0x21
KTXMNMHAXM 0
root@arm:~# echo 'ZSUN''ZZYZWS'
ZSUNZZYZWS
root@arm:~# MARKER='LOWU''VHLAFV' run 'echo 1140000 1140000 > /sys/kernel/mva_tesst/regulators/buck6_set'
LOWUVHLAFVLOWUVHLAFV 0
root@arm:~# echo 'CGWG''EJNVUE'
CGWGEJNVUE
root@arm:~# MARKER='HSNY''SVKYVN' run 'i2cget -y -f 1 0x4b 0x17'
HSNYSVKYVN0x22
HSNYSVKYVN 0
root@arm:~# echo 'QNEC''KAVKHL'
QNECKAVKHL
root@arm:~# MARKER='SOCN''CVZYTY' run 'echo 1150000 1150000 > /sys/kernel/mva_tesst/regulators/buck6_set'
SOCNCVZYTYSOCNCVZYTY 0
root@arm:~# echo 'GOWO''FSHQCK'
GOWOFSHQCK
root@arm:~# MARKER='MKXK''BFMOVX' run 'i2cget -y -f 1 0x4b 0x17'
MKXKBFMOVX0x23
MKXKBFMOVX 0
root@arm:~# echo 'AJQP''JFKGAS'
AJQPJFKGAS
root@arm:~# MARKER='UJGS''YBYMBQ' run 'echo 1160000 1160000 > /sys/kernel/mva_tesst/regulators/buck6_set'
UJGSYBYMBQUJGSYBYMBQ 0
root@arm:~# echo 'ZYLO''ZAPUZO'
ZYLOZAPUZO
root@arm:~# MARKER='FVOF''VHTPYT' run 'i2cget -y -f 1 0x4b 0x17'
FVOFVHTPYT0x24
FVOFVHTPYT 0
root@arm:~# echo 'LWTA''PWGYJE'
LWTAPWGYJE
root@arm:~# MARKER='KLYE''WYTZPW' run 'echo 1170000 1170000 > /sys/kernel/mva_tesst/regulators/buck6_set'
KLYEWYTZPWKLYEWYTZPW 0
root@arm:~# echo 'QYBT''CBGZHX'
QYBTCBGZHX
root@arm:~# MARKER='KSCV''HHTCFX' run 'i2cget -y -f 1 0x4b 0x17'
KSCVHHTCFX0x25
KSCVHHTCFX 0
root@arm:~# echo 'PQPH''CLLCGL'
PQPHCLLCGL
root@arm:~# MARKER='LOJU''MVMGJO' run 'echo 1180000 1180000 > /sys/kernel/mva_tesst/regulators/buck6_set'
LOJUMVMGJOLOJUMVMGJO 0
root@arm:~# echo 'BUTV''FTHOLB'
BUTVFTHOLB
root@arm:~# MARKER='AYCN''XQOHET' run 'i2cget -y -f 1 0x4b 0x17'
AYCNXQOHET0x26
AYCNXQOHET 0
root@arm:~# echo 'ABTF''GGNXJB'
ABTFGGNXJB
root@arm:~# MARKER='MJMY''KFYLFE' run 'echo 1190000 1190000 > /sys/kernel/mva_tesst/regulators/buck6_set'
MJMYKFYLFEMJMYKFYLFE 0
root@arm:~# echo 'JGHY''PUVKUZ'
JGHYPUVKUZ
root@arm:~# MARKER='AHAY''XYSKVS' run 'i2cget -y -f 1 0x4b 0x17'
AHAYXYSKVS0x27
AHAYXYSKVS 0
root@arm:~# echo 'XBNX''NUYVUX'
XBNXNUYVUX
root@arm:~# MARKER='MCHB''XJWZAT' run 'echo 1200000 1200000 > /sys/kernel/mva_tesst/regulators/buck6_set'
MCHBXJWZATMCHBXJWZAT 0
root@arm:~# echo 'OQMC''UYUUUN'
OQMCUYUUUN
root@arm:~# MARKER='HTYG''MLWCZZ' run 'i2cget -y -f 1 0x4b 0x17'
HTYGMLWCZZ0x28
HTYGMLWCZZ 0
root@arm:~# echo 'TNBO''QMUPXQ'
TNBOQMUPXQ
root@arm:~# MARKER='QCOM''AAEFXC' run 'echo 1210000 1210000 > /sys/kernel/mva_tesst/regulators/buck6_set'
QCOMAAEFXCQCOMAAEFXC 0
root@arm:~# echo 'BUBX''SOUKZX'
BUBXSOUKZX
root@arm:~# MARKER='JYHN''GFYWBM' run 'i2cget -y -f 1 0x4b 0x17'
JYHNGFYWBM0x29
JYHNGFYWBM 0
root@arm:~# echo 'YXHW''BTCOGB'
YXHWBTCOGB
root@arm:~# MARKER='GTPS''OHQQCT' run 'echo 1220000 1220000 > /sys/kernel/mva_tesst/regulators/buck6_set'
GTPSOHQQCTGTPSOHQQCT 0
root@arm:~# echo 'ZSBW''YYWVZW'
ZSBWYYWVZW
root@arm:~# MARKER='ZQTC''AOUJAN' run 'i2cget -y -f 1 0x4b 0x17'
ZQTCAOUJAN0x2a
ZQTCAOUJAN 0
root@arm:~# echo 'UXGM''VJZQMM'
UXGMVJZQMM
root@arm:~# MARKER='GXSE''LLJUEP' run 'echo 1230000 1230000 > /sys/kernel/mva_tesst/regulators/buck6_set'
GXSELLJUEPGXSELLJUEP 0
root@arm:~# echo 'OGGM''UNJNUC'
OGGMUNJNUC
root@arm:~# MARKER='EEMB''NEZMPT' run 'i2cget -y -f 1 0x4b 0x17'
EEMBNEZMPT0x2b
EEMBNEZMPT 0
root@arm:~# echo 'MPFE''ESQOAL'
MPFEESQOAL
root@arm:~# MARKER='LAHN''KLVMCA' run 'echo 1240000 1240000 > /sys/kernel/mva_tesst/regulators/buck6_set'
LAHNKLVMCALAHNKLVMCA 0
root@arm:~# echo 'CTAQ''EXUWNO'
CTAQEXUWNO
root@arm:~# MARKER='VALA''PKNZBX' run 'i2cget -y -f 1 0x4b 0x17'
VALAPKNZBX0x2c
VALAPKNZBX 0
root@arm:~# echo 'JGOF''GMXCLM'
JGOFGMXCLM
root@arm:~# MARKER='XHGX''FMOLHM' run 'echo 1250000 1250000 > /sys/kernel/mva_tesst/regulators/buck6_set'
XHGXFMOLHMXHGXFMOLHM 0
root@arm:~# echo 'VOBL''BKFAJL'
VOBLBKFAJL
root@arm:~# MARKER='KKVL''GJMWOJ' run 'i2cget -y -f 1 0x4b 0x17'
KKVLGJMWOJ0x2d
KKVLGJMWOJ 0
root@arm:~# echo 'GTFN''TCUSVL'
GTFNTCUSVL
root@arm:~# MARKER='OOBZ''EWQGXU' run 'echo 1260000 1260000 > /sys/kernel/mva_tesst/regulators/buck6_set'
OOBZEWQGXUOOBZEWQGXU 0
root@arm:~# echo 'MCWZ''WSETKL'
MCWZWSETKL
root@arm:~# MARKER='ASMX''BMHCWL' run 'i2cget -y -f 1 0x4b 0x17'
ASMXBMHCWL0x2e
ASMXBMHCWL 0
root@arm:~# echo 'BLCJ''OHNPVT'
BLCJOHNPVT
root@arm:~# MARKER='ABYN''SZFYHC' run 'echo 1270000 1270000 > /sys/kernel/mva_tesst/regulators/buck6_set'
ABYNSZFYHCABYNSZFYHC 0
root@arm:~# echo 'LPLB''PKEEBJ'
LPLBPKEEBJ
root@arm:~# MARKER='NJJZ''TAUQUW' run 'i2cget -y -f 1 0x4b 0x17'
NJJZTAUQUW0x2f
NJJZTAUQUW 0
root@arm:~# echo 'XFBX''KWJHGZ'
XFBXKWJHGZ
root@arm:~# MARKER='GUMJ''FKKUTK' run 'echo 1280000 1280000 > /sys/kernel/mva_tesst/regulators/buck6_set'
GUMJFKKUTKGUMJFKKUTK 0
root@arm:~# echo 'ULTK''FJPJNM'
ULTKFJPJNM
root@arm:~# MARKER='AWEL''NFFXLW' run 'i2cget -y -f 1 0x4b 0x17'
AWELNFFXLW0x30
AWELNFFXLW 0
root@arm:~# echo 'OXBL''MZPSXF'
OXBLMZPSXF
root@arm:~# MARKER='ZLTV''FEFEFG' run 'echo 1290000 1290000 > /sys/kernel/mva_tesst/regulators/buck6_set'
ZLTVFEFEFGZLTVFEFEFG 0
root@arm:~# echo 'MMYN''ZBMKCP'
MMYNZBMKCP
root@arm:~# MARKER='XPHT''JXXLYH' run 'i2cget -y -f 1 0x4b 0x17'
XPHTJXXLYH0x31
XPHTJXXLYH 0
root@arm:~# echo 'STAB''LGTNWS'
STABLGTNWS
root@arm:~# MARKER='GYTY''KZYAYM' run 'echo 1300000 1300000 > /sys/kernel/mva_tesst/regulators/buck6_set'
GYTYKZYAYMGYTYKZYAYM 0
root@arm:~# echo 'KAKN''AWYFSX'
KAKNAWYFSX
root@arm:~# MARKER='AWUH''FGMNWF' run 'i2cget -y -f 1 0x4b 0x17'
AWUHFGMNWF0x32
AWUHFGMNWF 0
root@arm:~# echo 'QVBY''PYULVN'
QVBYPYULVN
root@arm:~# MARKER='JWVO''JTTPTV' run 'echo 1310000 1310000 > /sys/kernel/mva_tesst/regulators/buck6_set'
JWVOJTTPTVJWVOJTTPTV 0
root@arm:~# echo 'PTNG''FTKSME'
PTNGFTKSME
root@arm:~# MARKER='GVJH''PHEGSN' run 'i2cget -y -f 1 0x4b 0x17'
GVJHPHEGSN0x33
GVJHPHEGSN 0
root@arm:~# echo 'JEHH''MJWFAN'
JEHHMJWFAN
root@arm:~# MARKER='CHCC''XQZPZC' run 'echo 1320000 1320000 > /sys/kernel/mva_tesst/regulators/buck6_set'
CHCCXQZPZCCHCCXQZPZC 0
root@arm:~# echo 'OPQH''JZJWSB'
OPQHJZJWSB
root@arm:~# MARKER='FPJH''FOEVTG' run 'i2cget -y -f 1 0x4b 0x17'
FPJHFOEVTG0x34
FPJHFOEVTG 0
root@arm:~# echo 'WFYV''XWFTJK'
WFYVXWFTJK
root@arm:~# MARKER='AXZB''BOCWJH' run 'echo 1330000 1330000 > /sys/kernel/mva_tesst/regulators/buck6_set'
AXZBBOCWJHAXZBBOCWJH 0
root@arm:~# echo 'VWXU''YZMAXK'
VWXUYZMAXK
root@arm:~# MARKER='TBNQ''LGGQSZ' run 'i2cget -y -f 1 0x4b 0x17'
TBNQLGGQSZ0x35
TBNQLGGQSZ 0
root@arm:~# echo 'YFHX''BNOKFF'
YFHXBNOKFF
root@arm:~# MARKER='NQJK''GFJSHP' run 'echo 1340000 1340000 > /sys/kernel/mva_tesst/regulators/buck6_set'
NQJKGFJSHPNQJKGFJSHP 0
root@arm:~# echo 'ZQFT''YKAYLX'
ZQFTYKAYLX
root@arm:~# MARKER='TTBE''KJPJYS' run 'i2cget -y -f 1 0x4b 0x17'
TTBEKJPJYS0x36
TTBEKJPJYS 0
root@arm:~# echo 'EKXQ''BOKLBJ'
EKXQBOKLBJ
root@arm:~# MARKER='ABSJ''FPGWQV' run 'echo 1350000 1350000 > /sys/kernel/mva_tesst/regulators/buck6_set'
ABSJFPGWQVABSJFPGWQV 0
root@arm:~# echo 'GZEB''WXAKJP'
GZEBWXAKJP
root@arm:~# MARKER='ULTV''YLAKXX' run 'i2cget -y -f 1 0x4b 0x17'
ULTVYLAKXX0x37
ULTVYLAKXX 0
root@arm:~# echo 'CTKX''WVQSAE'
CTKXWVQSAE
root@arm:~# MARKER='HUCW''MCQSOG' run 'echo 1360000 1360000 > /sys/kernel/mva_tesst/regulators/buck6_set'
HUCWMCQSOGHUCWMCQSOG 0
root@arm:~# echo 'ZMKN''HQYBNM'
ZMKNHQYBNM
root@arm:~# MARKER='LFVT''UWESGK' run 'i2cget -y -f 1 0x4b 0x17'
LFVTUWESGK0x38
LFVTUWESGK 0
root@arm:~# echo 'OTVZ''PBOPAC'
OTVZPBOPAC
root@arm:~# MARKER='JYSQ''FYMTMY' run 'echo 1370000 1370000 > /sys/kernel/mva_tesst/regulators/buck6_set'
JYSQFYMTMYJYSQFYMTMY 0
root@arm:~# echo 'LOPP''OSMMZY'
LOPPOSMMZY
root@arm:~# MARKER='SXJT''NYQHAA' run 'i2cget -y -f 1 0x4b 0x17'
SXJTNYQHAA0x39
SXJTNYQHAA 0
root@arm:~# echo 'PQOS''WCYHKS'
PQOSWCYHKS
root@arm:~# MARKER='UVUT''NQYGHO' run 'echo 1380000 1380000 > /sys/kernel/mva_tesst/regulators/buck6_set'
UVUTNQYGHOUVUTNQYGHO 0
root@arm:~# echo 'OHFQ''FUVXKT'
OHFQFUVXKT
root@arm:~# MARKER='GNHY''JSLKCV' run 'i2cget -y -f 1 0x4b 0x17'
GNHYJSLKCV0x3a
GNHYJSLKCV 0
root@arm:~# echo 'APNU''TVYGHA'
APNUTVYGHA
root@arm:~# MARKER='GGLZ''BZEHBV' run 'echo 1390000 1390000 > /sys/kernel/mva_tesst/regulators/buck6_set'
GGLZBZEHBVGGLZBZEHBV 0
root@arm:~# echo 'BVKY''QAYJWV'
BVKYQAYJWV
root@arm:~# MARKER='MAMJ''MKBAQT' run 'i2cget -y -f 1 0x4b 0x17'
MAMJMKBAQT0x3b
MAMJMKBAQT 0
root@arm:~# echo 'ZWCG''PQYXKH'
ZWCGPQYXKH
root@arm:~# MARKER='TOHB''OHUNEY' run 'echo 1400000 1400000 > /sys/kernel/mva_tesst/regulators/buck6_set'
TOHBOHUNEYTOHBOHUNEY 0
root@arm:~# echo 'YMAO''HKBKVX'
YMAOHKBKVX
root@arm:~# MARKER='XMFF''VHVGCU' run 'i2cget -y -f 1 0x4b 0x17'
XMFFVHVGCU0x3c
XMFFVHVGCU 0
root@arm:~# echo 'XYWS''YBMCVU'
XYWSYBMCVU
root@arm:~# MARKER='HAEB''OVMNGJ' run 'grep -r -l rohm,bd71847 /proc/device-tree  | sed '"'"'s![^/]*$!!'"'"''
HAEBOVMNGJ/proc/device-tree/ocp/interconnect@48000000/segment@0/target-module@2a000/i2c@0/pmic@4b/
HAEBOVMNGJ 0
root@arm:~# echo 'MULV''QPTQBC'
MULVQPTQBC
root@arm:~# MARKER='HYWX''NEWBOP' run 'test -f /proc/device-tree/ocp/interconnectt\@48000000/segment\@0/target-module\@2a000/i2c\@0/pmic\@4b/regulators/LDO1/rohm,,no-regulator-enable-control ;echo $?'
HYWXNEWBOP1
HYWXNEWBOP 0
root@arm:~# echo 'XJCB''ZXKCXT'
XJCBZXKCXT
root@arm:~# MARKER='XTYH''ATXMCU' run 'i2cget -y -f 1 0x4b 0x18'
XTYHATXMCU0xa2
XTYHATXMCU 0
root@arm:~# echo 'BCEU''LOETSX'
BCEULOETSX
