Labgrid Console Logfile for main
Logfile started at 2025-02-21 09:01:23.198036
=== Log starts here ===

root@arm:~# run() { echo -n "$MARKER"; sh -c "$@"; echo "$MARKER $?"; }
root@arm:~# echo 'HXAO''GSGHAE'
HXAOGSGHAE
root@arm:~# MARKER='WAPV''UEXTOU' run 'grep -r -l rohm,bd71847 /proc/device-tree  | sed '"'"'s![^/]*$!!'"'"''
WAPVUEXTOU/proc/device-tree/ocp/interconnect@48000000/segment@0/target-module@2a000/i2c@0/pmic@4b/
WAPVUEXTOU 0
root@arm:~# echo 'ETQX''QETHMH'
ETQXQETHMH
root@arm:~# MARKER='VALO''ZEJUYO' run 'test -f /proc/device-tree/ocp/interconnectt\@48000000/segment\@0/target-module\@2a000/i2c\@0/pmic\@4b/regulators/BUCK1/rohmm,no-regulator-enable-control ;echo $?'
VALOZEJUYO1
VALOZEJUYO 0
root@arm:~# echo 'YYJF''SPJEKJ'
YYJFSPJEKJ
root@arm:~# MARKER='XYEU''OJZZWO' run 'echo 1 > /sys/kernel/mva_test/regulators/bbuck1_en'
XYEUOJZZWOXYEUOJZZWO 0
root@arm:~# echo 'WZKQ''AOBKZS'
WZKQAOBKZS
root@arm:~# MARKER='TJCX''EEOLGQ' run 'i2cget -y -f 1 0x4b 0x5'
TJCXEEOLGQ0x03
TJCXEEOLGQ 0
root@arm:~# echo 'GSJE''GTXMXJ'
GSJEGTXMXJ
root@arm:~# MARKER='YEKS''PPASLQ' run 'grep -r -l rohm,bd71847 /proc/device-tree  | sed '"'"'s![^/]*$!!'"'"''
YEKSPPASLQ/proc/device-tree/ocp/interconnect@48000000/segment@0/target-module@2a000/i2c@0/pmic@4b/
YEKSPPASLQ 0
root@arm:~# echo 'HJBS''HUKKOV'
HJBSHUKKOV
root@arm:~# MARKER='MPLP''CLSCKA' run 'test -f /proc/device-tree/ocp/interconnectt\@48000000/segment\@0/target-module\@2a000/i2c\@0/pmic\@4b/regulators/BUCK1/rohmm,no-regulator-enable-control ;echo $?'
MPLPCLSCKA1
MPLPCLSCKA 0
root@arm:~# echo 'TOZV''ZHLKKF'
TOZVZHLKKF
root@arm:~# MARKER='XYYG''BGMTNO' run 'grep -r -l rohm,bd71847 /proc/device-tree  | sed '"'"'s![^/]*$!!'"'"''
XYYGBGMTNO/proc/device-tree/ocp/interconnect@48000000/segment@0/target-module@2a000/i2c@0/pmic@4b/
XYYGBGMTNO 0
root@arm:~# echo 'JYVC''BOSQYY'
JYVCBOSQYY
root@arm:~# MARKER='BLUO''OLYXKV' run 'test -f /proc/device-tree/ocp/interconnectt\@48000000/segment\@0/target-module\@2a000/i2c\@0/pmic\@4b/regulators/BUCK1/reg ulator-always-on ;echo $?'
BLUOOLYXKV1
BLUOOLYXKV 0
root@arm:~# echo 'GFUQ''THNUKN'
GFUQTHNUKN
root@arm:~# MARKER='YBQC''FCFXJB' run 'echo 0 > /sys/kernel/mva_test/regulators/bbuck1_en'
YBQCFCFXJBYBQCFCFXJB 0
root@arm:~# echo 'MFPB''QAJYHY'
MFPBQAJYHY
root@arm:~# MARKER='FYVL''PJLGJQ' run 'i2cget -y -f 1 0x4b 0x5'
FYVLPJLGJQ0x02
FYVLPJLGJQ 0
root@arm:~# echo 'PKPX''HTENYY'
PKPXHTENYY
root@arm:~# MARKER='SNVS''WVNGAL' run 'grep -r -l rohm,bd71847 /proc/device-tree  | sed '"'"'s![^/]*$!!'"'"''
SNVSWVNGAL/proc/device-tree/ocp/interconnect@48000000/segment@0/target-module@2a000/i2c@0/pmic@4b/
SNVSWVNGAL 0
root@arm:~# echo 'NAUO''SCMQZH'
NAUOSCMQZH
root@arm:~# MARKER='NCVC''TTPMXK' run 'test -f /proc/device-tree/ocp/interconnectt\@48000000/segment\@0/target-module\@2a000/i2c\@0/pmic\@4b/regulators/BUCK2/roh m,no-regulator-enable-control ;echo $?'
NCVCTTPMXK1
NCVCTTPMXK 0
root@arm:~# echo 'QNWJ''KZZABH'
QNWJKZZABH
root@arm:~# MARKER='KLHE''TUEQXV' run 'echo 1 > /sys/kernel/mva_test/regulators/bbuck2_en'
KLHETUEQXVKLHETUEQXV 0
root@arm:~# echo 'SAKK''EEVNAP'
SAKKEEVNAP
root@arm:~# MARKER='YMVU''XMNLZS' run 'i2cget -y -f 1 0x4b 0x6'
YMVUXMNLZS0x43
YMVUXMNLZS 0
root@arm:~# echo 'HSPF''TWCXYE'
HSPFTWCXYE
root@arm:~# MARKER='NWJW''UYOMUJ' run 'grep -r -l rohm,bd71847 /proc/device-tree  | sed '"'"'s![^/]*$!!'"'"''
NWJWUYOMUJ/proc/device-tree/ocp/interconnect@48000000/segment@0/target-module@2a000/i2c@0/pmic@4b/
NWJWUYOMUJ 0
root@arm:~# echo 'QNKN''YUEGPX'
QNKNYUEGPX
root@arm:~# MARKER='FOPP''TTUBGY' run 'test -f /proc/device-tree/ocp/interconnectt\@48000000/segment\@0/target-module\@2a000/i2c\@0/pmic\@4b/regulators/BUCK2/rohmm,no-regulator-enable-control ;echo $?'
FOPPTTUBGY1
FOPPTTUBGY 0
root@arm:~# echo 'BOPS''LNFZNN'
BOPSLNFZNN
root@arm:~# MARKER='ZLKQ''HQNNML' run 'grep -r -l rohm,bd71847 /proc/device-tree  | sed '"'"'s![^/]*$!!'"'"''
ZLKQHQNNML/proc/device-tree/ocp/interconnect@48000000/segment@0/target-module@2a000/i2c@0/pmic@4b/
ZLKQHQNNML 0
root@arm:~# echo 'AFPJ''JSJBPL'
AFPJJSJBPL
root@arm:~# MARKER='SKVA''SBXWWQ' run 'test -f /proc/device-tree/ocp/interconnectt\@48000000/segment\@0/target-module\@2a000/i2c\@0/pmic\@4b/regulators/BUCK2/reguulator-always-on ;echo $?'
SKVASBXWWQ0
SKVASBXWWQ 0
root@arm:~# echo 'NLLS''MOFWAQ'
NLLSMOFWAQ
root@arm:~# MARKER='JJNP''HMHUSV' run 'grep -r -l rohm,bd71847 /proc/device-tree  | sed '"'"'s![^/]*$!!'"'"''
JJNPHMHUSV/proc/device-tree/ocp/interconnect@48000000/segment@0/target-module@2a000/i2c@0/pmic@4b/
JJNPHMHUSV 0
root@arm:~# echo 'MKCS''VQWQKP'
MKCSVQWQKP
root@arm:~# MARKER='WBFQ''KOULTW' run 'test -f /proc/device-tree/ocp/interconnectt\@48000000/segment\@0/target-module\@2a000/i2c\@0/pmic\@4b/regulators/BUCK3/roh m,no-regulator-enable-control ;echo $?'
WBFQKOULTW0
WBFQKOULTW 0
root@arm:~# echo 'ASSL''YKAMGQ'
ASSLYKAMGQ
root@arm:~# MARKER='LXVO''WHWHAH' run 'grep -r -l rohm,bd71847 /proc/device-tree  | sed '"'"'s![^/]*$!!'"'"''
LXVOWHWHAH/proc/device-tree/ocp/interconnect@48000000/segment@0/target-module@2a000/i2c@0/pmic@4b/
LXVOWHWHAH 0
root@arm:~# echo 'JVTJ''WHSKJP'
JVTJWHSKJP
root@arm:~# MARKER='OPFQ''NFSKSE' run 'test -f /proc/device-tree/ocp/interconnectt\@48000000/segment\@0/target-module\@2a000/i2c\@0/pmic\@4b/regulators/BUCK3/roh m,no-regulator-enable-control ;echo $?'
OPFQNFSKSE0
OPFQNFSKSE 0
root@arm:~# echo 'UVUB''VEFZEY'
UVUBVEFZEY
root@arm:~# MARKER='OGHH''EXWUSC' run 'grep -r -l rohm,bd71847 /proc/device-tree  | sed '"'"'s![^/]*$!!'"'"''
OGHHEXWUSC/proc/device-tree/ocp/interconnect@48000000/segment@0/target-module@2a000/i2c@0/pmic@4b/
OGHHEXWUSC 0
root@arm:~# echo 'ZFFK''ZKJVZH'
ZFFKZKJVZH
root@arm:~# MARKER='ZOPG''COOYFO' run 'test -f /proc/device-tree/ocp/interconnectt\@48000000/segment\@0/target-module\@2a000/i2c\@0/pmic\@4b/regulators/BUCK4/rohmm,no-regulator-enable-control ;echo $?'
ZOPGCOOYFO1
ZOPGCOOYFO 0
root@arm:~# echo 'KXGO''OFLNZV'
KXGOOFLNZV
root@arm:~# MARKER='FABL''KGTKPE' run 'echo 1 > /sys/kernel/mva_test/regulators/bbuck4_en'
FABLKGTKPEFABLKGTKPE 0
root@arm:~# echo 'LUPN''YVUETL'
LUPNYVUETL
root@arm:~# MARKER='OCJE''GVGNHW' run 'i2cget -y -f 1 0x4b 0xa'
OCJEGVGNHW0x03
OCJEGVGNHW 0
root@arm:~# echo 'JFCA''WQWGFT'
JFCAWQWGFT
root@arm:~# MARKER='YJKA''NACMXV' run 'grep -r -l rohm,bd71847 /proc/device-tree  | sed '"'"'s![^/]*$!!'"'"''
YJKANACMXV/proc/device-tree/ocp/interconnect@48000000/segment@0/target-module@2a000/i2c@0/pmic@4b/
YJKANACMXV 0
root@arm:~# echo 'ZTHL''JPFOTL'
ZTHLJPFOTL
root@arm:~# MARKER='BYJV''YHWJLC' run 'test -f /proc/device-tree/ocp/interconnectt\@48000000/segment\@0/target-module\@2a000/i2c\@0/pmic\@4b/regulators/BUCK4/roh m,no-regulator-enable-control ;echo $?'
BYJVYHWJLC1
BYJVYHWJLC 0
root@arm:~# echo 'JAHK''AXMPOL'
JAHKAXMPOL
root@arm:~# MARKER='BPUX''QXHVYE' run 'grep -r -l rohm,bd71847 /proc/device-tree  | sed '"'"'s![^/]*$!!'"'"''
BPUXQXHVYE/proc/device-tree/ocp/interconnect@48000000/segment@0/target-module@2a000/i2c@0/pmic@4b/
BPUXQXHVYE 0
root@arm:~# echo 'PZJN''WXXFOH'
PZJNWXXFOH
root@arm:~# MARKER='XXVJ''CGPCPQ' run 'test -f /proc/device-tree/ocp/interconnectt\@48000000/segment\@0/target-module\@2a000/i2c\@0/pmic\@4b/regulators/BUCK4/reguulator-always-on ;echo $?'
XXVJCGPCPQ1
XXVJCGPCPQ 0
root@arm:~# echo 'OVMF''NJOHOQ'
OVMFNJOHOQ
root@arm:~# MARKER='HPBJ''AZYWXK' run 'echo 0 > /sys/kernel/mva_test/regulators/bbuck4_en'
HPBJAZYWXKHPBJAZYWXK 0
root@arm:~# echo 'QUMM''SLLMWZ'
QUMMSLLMWZ
root@arm:~# MARKER='UGCE''FAPXKP' run 'i2cget -y -f 1 0x4b 0xa'
UGCEFAPXKP0x02
UGCEFAPXKP 0
root@arm:~# echo 'YYBQ''OZPFTL'
YYBQOZPFTL
root@arm:~# MARKER='KEGQ''SPFPXO' run 'grep -r -l rohm,bd71847 /proc/device-tree  | sed '"'"'s![^/]*$!!'"'"''
KEGQSPFPXO/proc/device-tree/ocp/interconnect@48000000/segment@0/target-module@2a000/i2c@0/pmic@4b/
KEGQSPFPXO 0
root@arm:~# echo 'OLNT''TFPQPO'
OLNTTFPQPO
root@arm:~# MARKER='PMJS''FZZBKT' run 'test -f /proc/device-tree/ocp/interconnectt\@48000000/segment\@0/target-module\@2a000/i2c\@0/pmic\@4b/regulators/BUCK5/roh m,no-regulator-enable-control ;echo $?'
PMJSFZZBKT1
PMJSFZZBKT 0
root@arm:~# echo 'KZXJ''TSJLSF'
KZXJTSJLSF
root@arm:~# MARKER='OCHP''AWYNBU' run 'echo 1 > /sys/kernel/mva_test/regulators/bbuck5_en'
OCHPAWYNBUOCHPAWYNBU 0
root@arm:~# echo 'OELZ''PVUMYW'
OELZPVUMYW
root@arm:~# MARKER='BFMP''AZJHAG' run 'i2cget -y -f 1 0x4b 0xb'
BFMPAZJHAG0x03
BFMPAZJHAG 0
root@arm:~# echo 'YUBW''PEUALZ'
YUBWPEUALZ
root@arm:~# MARKER='MATE''JGFWJC' run 'grep -r -l rohm,bd71847 /proc/device-tree  | sed '"'"'s![^/]*$!!'"'"''
MATEJGFWJC/proc/device-tree/ocp/interconnect@48000000/segment@0/target-module@2a000/i2c@0/pmic@4b/
MATEJGFWJC 0
root@arm:~# echo 'LCXF''LVQVUY'
LCXFLVQVUY
root@arm:~# MARKER='FMJC''QKAJOG' run 'test -f /proc/device-tree/ocp/interconnectt\@48000000/segment\@0/target-module\@2a000/i2c\@0/pmic\@4b/regulators/BUCK5/rohmm,no-regulator-enable-control ;echo $?'
FMJCQKAJOG1
FMJCQKAJOG 0
root@arm:~# echo 'OYNJ''XLOKXL'
OYNJXLOKXL
root@arm:~# MARKER='XUTO''PVBMCL' run 'grep -r -l rohm,bd71847 /proc/device-tree  | sed '"'"'s![^/]*$!!'"'"''
XUTOPVBMCL/proc/device-tree/ocp/interconnect@48000000/segment@0/target-module@2a000/i2c@0/pmic@4b/
XUTOPVBMCL 0
root@arm:~# echo 'FKCT''SOAPCX'
FKCTSOAPCX
root@arm:~# MARKER='YVOY''YEWLYJ' run 'test -f /proc/device-tree/ocp/interconnectt\@48000000/segment\@0/target-module\@2a000/i2c\@0/pmic\@4b/regulators/BUCK5/reguulator-always-on ;echo $?'
YVOYYEWLYJ1
YVOYYEWLYJ 0
root@arm:~# echo 'HOPY''ASBQJO'
HOPYASBQJO
root@arm:~# MARKER='MQSA''PPHHAQ' run 'echo 0 > /sys/kernel/mva_test/regulators/bbuck5_en'
MQSAPPHHAQMQSAPPHHAQ 0
root@arm:~# echo 'UJME''TLKHHM'
UJMETLKHHM
root@arm:~# MARKER='QJKL''ULJKZT' run 'i2cget -y -f 1 0x4b 0xb'
QJKLULJKZT0x02
QJKLULJKZT 0
root@arm:~# echo 'CMYE''HEUZFP'
CMYEHEUZFP
root@arm:~# MARKER='MYYJ''JYTWHP' run 'grep -r -l rohm,bd71847 /proc/device-tree  | sed '"'"'s![^/]*$!!'"'"''
MYYJJYTWHP/proc/device-tree/ocp/interconnect@48000000/segment@0/target-module@2a000/i2c@0/pmic@4b/
MYYJJYTWHP 0
root@arm:~# echo 'CCPG''QSMNPJ'
CCPGQSMNPJ
root@arm:~# MARKER='UPEP''JUZEZU' run 'test -f /proc/device-tree/ocp/interconnectt\@48000000/segment\@0/target-module\@2a000/i2c\@0/pmic\@4b/regulators/BUCK6/rohmm,no-regulator-enable-control ;echo $?'
UPEPJUZEZU1
UPEPJUZEZU 0
root@arm:~# echo 'XNUN''QQLKTM'
XNUNQQLKTM
root@arm:~# MARKER='PJZM''LJWLHO' run 'echo 1 > /sys/kernel/mva_test/regulators/bbuck6_en'
PJZMLJWLHOPJZMLJWLHO 0
root@arm:~# echo 'TPJY''XHVQAG'
TPJYXHVQAG
root@arm:~# MARKER='CQSA''OTSUKL' run 'i2cget -y -f 1 0x4b 0xc'
CQSAOTSUKL0x03
CQSAOTSUKL 0
root@arm:~# echo 'BFOC''BXHYVX'
BFOCBXHYVX
root@arm:~# MARKER='BXGV''ZXGCQH' run 'grep -r -l rohm,bd71847 /proc/device-tree  | sed '"'"'s![^/]*$!!'"'"''
BXGVZXGCQH/proc/device-tree/ocp/interconnect@48000000/segment@0/target-module@2a000/i2c@0/pmic@4b/
BXGVZXGCQH 0
root@arm:~# echo 'NOQZ''OTJGAC'
NOQZOTJGAC
root@arm:~# MARKER='QOEA''KQXYMC' run 'test -f /proc/device-tree/ocp/interconnectt\@48000000/segment\@0/target-module\@2a000/i2c\@0/pmic\@4b/regulators/BUCK6/rohmm,no-regulator-enable-control ;echo $?'
QOEAKQXYMC1
QOEAKQXYMC 0
root@arm:~# echo 'VLNQ''TJVBTF'
VLNQTJVBTF
root@arm:~# MARKER='FZVO''XUELBG' run 'grep -r -l rohm,bd71847 /proc/device-tree  | sed '"'"'s![^/]*$!!'"'"''
FZVOXUELBG/proc/device-tree/ocp/interconnect@48000000/segment@0/target-module@2a000/i2c@0/pmic@4b/
FZVOXUELBG 0
root@arm:~# echo 'QWEK''JHHOYZ'
QWEKJHHOYZ
root@arm:~# MARKER='MXHM''VLSSFB' run 'test -f /proc/device-tree/ocp/interconnectt\@48000000/segment\@0/target-module\@2a000/i2c\@0/pmic\@4b/regulators/BUCK6/reguulator-always-on ;echo $?'
MXHMVLSSFB1
MXHMVLSSFB 0
root@arm:~# echo 'SOPY''MXKLBU'
SOPYMXKLBU
root@arm:~# MARKER='JGSM''KJXFHP' run 'echo 0 > /sys/kernel/mva_test/regulators/bbuck6_en'
JGSMKJXFHPJGSMKJXFHP 0
root@arm:~# echo 'VZXQ''XSPFJW'
VZXQXSPFJW
root@arm:~# MARKER='PJCW''MUZSMM' run 'i2cget -y -f 1 0x4b 0xc'
PJCWMUZSMM0x02
PJCWMUZSMM 0
root@arm:~# echo 'VFAM''OMLUHH'
VFAMOMLUHH
root@arm:~# MARKER='FYSQ''WHSJOT' run 'grep -r -l rohm,bd71847 /proc/device-tree  | sed '"'"'s![^/]*$!!'"'"''
FYSQWHSJOT/proc/device-tree/ocp/interconnect@48000000/segment@0/target-module@2a000/i2c@0/pmic@4b/
FYSQWHSJOT 0
root@arm:~# echo 'JWKQ''XGJMOP'
JWKQXGJMOP
root@arm:~# MARKER='JMPW''MKNQVM' run 'test -f /proc/device-tree/ocp/interconnectt\@48000000/segment\@0/target-module\@2a000/i2c\@0/pmic\@4b/regulators/LDO1/rohm,,no-regulator-enable-control ;echo $?'
JMPWMKNQVM1
JMPWMKNQVM 0
root@arm:~# echo 'FNEZ''SFOVMB'
FNEZSFOVMB
root@arm:~# MARKER='WQMO''MGEWSB' run 'echo 1 > /sys/kernel/mva_test/regulators/bbuck7_en'
WQMOMGEWSBWQMOMGEWSB 0
root@arm:~# echo 'XZLS''ETWWYL'
XZLSETWWYL
root@arm:~# MARKER='FQUX''ECZVJJ' run 'i2cget -y -f 1 0x4b 0x18'
FQUXECZVJJ0xe2
FQUXECZVJJ 0
root@arm:~# echo 'ASBS''HUCMCT'
ASBSHUCMCT
root@arm:~# MARKER='HOCC''AMWQNZ' run 'grep -r -l rohm,bd71847 /proc/device-tree  | sed '"'"'s![^/]*$!!'"'"''
HOCCAMWQNZ/proc/device-tree/ocp/interconnect@48000000/segment@0/target-module@2a000/i2c@0/pmic@4b/
HOCCAMWQNZ 0
root@arm:~# echo 'AAMX''OGEBBU'
AAMXOGEBBU
root@arm:~# MARKER='FVGM''BVYFJE' run 'test -f /proc/device-tree/ocp/interconnectt\@48000000/segment\@0/target-module\@2a000/i2c\@0/pmic\@4b/regulators/LDO1/rohm,,no-regulator-enable-control ;echo $?'
FVGMBVYFJE1
FVGMBVYFJE 0
root@arm:~# echo 'ZEGK''APZEAB'
ZEGKAPZEAB
root@arm:~# MARKER='YQMA''EHKTWW' run 'grep -r -l rohm,bd71847 /proc/device-tree  | sed '"'"'s![^/]*$!!'"'"''
YQMAEHKTWW/proc/device-tree/ocp/interconnect@48000000/segment@0/target-module@2a000/i2c@0/pmic@4b/
YQMAEHKTWW 0
root@arm:~# echo 'YZLH''ANWLGM'
YZLHANWLGM
root@arm:~# MARKER='MBEZ''CMFGWH' run 'test -f /proc/device-tree/ocp/interconnectt\@48000000/segment\@0/target-module\@2a000/i2c\@0/pmic\@4b/regulators/LDO1/regullator-always-on ;echo $?'
MBEZCMFGWH1
MBEZCMFGWH 0
root@arm:~# echo 'NSYB''FVQCHS'
NSYBFVQCHS
root@arm:~# MARKER='YTBU''KXTTWB' run 'echo 0 > /sys/kernel/mva_test/regulators/bbuck7_en'
YTBUKXTTWBYTBUKXTTWB 0
root@arm:~# echo 'CLLC''MEOXJE'
CLLCMEOXJE
root@arm:~# MARKER='XOWZ''BHXWTT' run 'i2cget -y -f 1 0x4b 0x18'
XOWZBHXWTT0xa2
XOWZBHXWTT 0
root@arm:~# echo 'BNPF''YZKCZT'
BNPFYZKCZT
root@arm:~# MARKER='CQTF''WMLMBB' run 'grep -r -l rohm,bd71847 /proc/device-tree  | sed '"'"'s![^/]*$!!'"'"''
CQTFWMLMBB/proc/device-tree/ocp/interconnect@48000000/segment@0/target-module@2a000/i2c@0/pmic@4b/
CQTFWMLMBB 0
root@arm:~# echo 'EMKE''TJLQEB'
EMKETJLQEB
root@arm:~# MARKER='ZYQH''JNXYNS' run 'test -f /proc/device-tree/ocp/interconnectt\@48000000/segment\@0/target-module\@2a000/i2c\@0/pmic\@4b/regulators/LDO2/rohm,,no-regulator-enable-control ;echo $?'
ZYQHJNXYNS1
ZYQHJNXYNS 0
root@arm:~# echo 'CTEM''AZXWGN'
CTEMAZXWGN
root@arm:~# MARKER='PUVC''OBEUYE' run 'echo 1 > /sys/kernel/mva_test/regulators/bbuck8_en'
PUVCOBEUYEPUVCOBEUYE 0
root@arm:~# echo 'KUNU''HWQTMS'
KUNUHWQTMS
root@arm:~# MARKER='HAMH''EAVWHA' run 'i2cget -y -f 1 0x4b 0x19'
HAMHEAVWHA0xe0
HAMHEAVWHA 0
root@arm:~# echo 'LOGV''ZHJSOL'
LOGVZHJSOL
root@arm:~# MARKER='GQSL''MJWKJS' run 'grep -r -l rohm,bd71847 /proc/device-tree  | sed '"'"'s![^/]*$!!'"'"''
GQSLMJWKJS/proc/device-tree/ocp/interconnect@48000000/segment@0/target-module@2a000/i2c@0/pmic@4b/
GQSLMJWKJS 0
root@arm:~# echo 'VHCW''EGMXZH'
VHCWEGMXZH
root@arm:~# MARKER='LXTG''WHUXXP' run 'test -f /proc/device-tree/ocp/interconnectt\@48000000/segment\@0/target-module\@2a000/i2c\@0/pmic\@4b/regulators/LDO2/rohm,,no-regulator-enable-control ;echo $?'
LXTGWHUXXP1
LXTGWHUXXP 0
root@arm:~# echo 'SLTX''QSVKSG'
SLTXQSVKSG
root@arm:~# MARKER='WWSQ''KELFAW' run 'grep -r -l rohm,bd71847 /proc/device-tree  | sed '"'"'s![^/]*$!!'"'"''
WWSQKELFAW/proc/device-tree/ocp/interconnect@48000000/segment@0/target-module@2a000/i2c@0/pmic@4b/
WWSQKELFAW 0
root@arm:~# echo 'VWJA''BHSBAY'
VWJABHSBAY
root@arm:~# MARKER='HCCU''AXKVQL' run 'test -f /proc/device-tree/ocp/interconnectt\@48000000/segment\@0/target-module\@2a000/i2c\@0/pmic\@4b/regulators/LDO2/regullator-always-on ;echo $?'
HCCUAXKVQL1
HCCUAXKVQL 0
root@arm:~# echo 'OJFJ''ZWCAVN'
OJFJZWCAVN
root@arm:~# MARKER='CMZG''MUYXTM' run 'echo 0 > /sys/kernel/mva_test/regulators/bbuck8_en'
CMZGMUYXTMCMZGMUYXTM 0
root@arm:~# echo 'ZPFO''FSTUNV'
ZPFOFSTUNV
root@arm:~# MARKER='VEUN''AACMBU' run 'i2cget -y -f 1 0x4b 0x19'
VEUNAACMBU0xa0
VEUNAACMBU 0
root@arm:~# echo 'TBBA''PUNYOY'
TBBAPUNYOY
root@arm:~# MARKER='SSZH''JMMTFH' run 'grep -r -l rohm,bd71847 /proc/device-tree  | sed '"'"'s![^/]*$!!'"'"''
SSZHJMMTFH/proc/device-tree/ocp/interconnect@48000000/segment@0/target-module@2a000/i2c@0/pmic@4b/
SSZHJMMTFH 0
root@arm:~# echo 'ZPWY''AQJPTO'
ZPWYAQJPTO
root@arm:~# MARKER='ZLAF''PZKEEP' run 'test -f /proc/device-tree/ocp/interconnectt\@48000000/segment\@0/target-module\@2a000/i2c\@0/pmic\@4b/regulators/LDO3/rohm,,no-regulator-enable-control ;echo $?'
ZLAFPZKEEP1
ZLAFPZKEEP 0
root@arm:~# echo 'TQMC''EHPLZG'
TQMCEHPLZG
root@arm:~# MARKER='VCWY''NNNVPL' run 'echo 1 > /sys/kernel/mva_test/regulators/bbuck9_en'
VCWYNNNVPLVCWYNNNVPL 0
root@arm:~# echo 'LJGT''HTLPNB'
LJGTHTLPNB
root@arm:~# MARKER='YVHA''QCOWXZ' run 'i2cget -y -f 1 0x4b 0x1a'
YVHAQCOWXZ0xc0
YVHAQCOWXZ 0
root@arm:~# echo 'XCMJ''QJAWLZ'
XCMJQJAWLZ
root@arm:~# MARKER='BLQH''XHMGPA' run 'grep -r -l rohm,bd71847 /proc/device-tree  | sed '"'"'s![^/]*$!!'"'"''
BLQHXHMGPA/proc/device-tree/ocp/interconnect@48000000/segment@0/target-module@2a000/i2c@0/pmic@4b/
BLQHXHMGPA 0
root@arm:~# echo 'ZPAV''CHQYVA'
ZPAVCHQYVA
root@arm:~# MARKER='NNVO''KLPJBG' run 'test -f /proc/device-tree/ocp/interconnectt\@48000000/segment\@0/target-module\@2a000/i2c\@0/pmic\@4b/regulators/LDO3/rohm,,no-regulator-enable-control ;echo $?'
NNVOKLPJBG1
NNVOKLPJBG 0
root@arm:~# echo 'METJ''JYLCYB'
METJJYLCYB
root@arm:~# MARKER='NHKC''XGVAKM' run 'grep -r -l rohm,bd71847 /proc/device-tree  | sed '"'"'s![^/]*$!!'"'"''
NHKCXGVAKM/proc/device-tree/ocp/interconnect@48000000/segment@0/target-module@2a000/i2c@0/pmic@4b/
NHKCXGVAKM 0
root@arm:~# echo 'VCCS''UTSVXY'
VCCSUTSVXY
root@arm:~# MARKER='EOLM''KZVGVZ' run 'test -f /proc/device-tree/ocp/interconnectt\@48000000/segment\@0/target-module\@2a000/i2c\@0/pmic\@4b/regulators/LDO3/regullator-always-on ;echo $?'
EOLMKZVGVZ1
EOLMKZVGVZ 0
root@arm:~# echo 'ZNNH''CMZXZF'
ZNNHCMZXZF
root@arm:~# MARKER='WVHU''EHUKTC' run 'echo 0 > /sys/kernel/mva_test/regulators/bbuck9_en'
WVHUEHUKTCWVHUEHUKTC 0
root@arm:~# echo 'ETTS''SNJPZN'
ETTSSNJPZN
root@arm:~# MARKER='QZES''NVYEBE' run 'i2cget -y -f 1 0x4b 0x1a'
QZESNVYEBE0x80
QZESNVYEBE 0
root@arm:~# echo 'WLAG''JBCZAQ'
WLAGJBCZAQ
root@arm:~# MARKER='YAWS''HLPHVQ' run 'grep -r -l rohm,bd71847 /proc/device-tree  | sed '"'"'s![^/]*$!!'"'"''
YAWSHLPHVQ/proc/device-tree/ocp/interconnect@48000000/segment@0/target-module@2a000/i2c@0/pmic@4b/
YAWSHLPHVQ 0
root@arm:~# echo 'TYUJ''NXQKNF'
TYUJNXQKNF
root@arm:~# MARKER='KBJB''AGAHNG' run 'test -f /proc/device-tree/ocp/interconnectt\@48000000/segment\@0/target-module\@2a000/i2c\@0/pmic\@4b/regulators/LDO4/rohm,,no-regulator-enable-control ;echo $?'
KBJBAGAHNG1
KBJBAGAHNG 0
root@arm:~# echo 'AWBW''YMZZPO'
AWBWYMZZPO
root@arm:~# MARKER='YJLJ''ASTNKN' run 'echo 1 > /sys/kernel/mva_test/regulators/bbuck10_en'
YJLJASTNKNYJLJASTNKN 0
root@arm:~# echo 'LVTV''KOQVBK'
LVTVKOQVBK
root@arm:~# MARKER='QQLC''UQKJLZ' run 'i2cget -y -f 1 0x4b 0x1b'
QQLCUQKJLZ0xc0
QQLCUQKJLZ 0
root@arm:~# echo 'VBVX''FOBWOP'
VBVXFOBWOP
root@arm:~# MARKER='EZVS''ZPUWTE' run 'grep -r -l rohm,bd71847 /proc/device-tree  | sed '"'"'s![^/]*$!!'"'"''
EZVSZPUWTE/proc/device-tree/ocp/interconnect@48000000/segment@0/target-module@2a000/i2c@0/pmic@4b/
EZVSZPUWTE 0
root@arm:~# echo 'MSJQ''FGWNYX'
MSJQFGWNYX
root@arm:~# MARKER='CSFU''CGJPTB' run 'test -f /proc/device-tree/ocp/interconnectt\@48000000/segment\@0/target-module\@2a000/i2c\@0/pmic\@4b/regulators/LDO4/rohm,,no-regulator-enable-control ;echo $?'
CSFUCGJPTB1
CSFUCGJPTB 0
root@arm:~# echo 'ZNWY''GMSVYZ'
ZNWYGMSVYZ
root@arm:~# MARKER='TAHZ''BFMVPQ' run 'grep -r -l rohm,bd71847 /proc/device-tree  | sed '"'"'s![^/]*$!!'"'"''
TAHZBFMVPQ/proc/device-tree/ocp/interconnect@48000000/segment@0/target-module@2a000/i2c@0/pmic@4b/
TAHZBFMVPQ 0
root@arm:~# echo 'GSKK''TJNBEG'
GSKKTJNBEG
root@arm:~# MARKER='CQWC''HFATHX' run 'test -f /proc/device-tree/ocp/interconnectt\@48000000/segment\@0/target-module\@2a000/i2c\@0/pmic\@4b/regulators/LDO4/regullator-always-on ;echo $?'
CQWCHFATHX1
CQWCHFATHX 0
root@arm:~# echo 'SHOM''SBNCCZ'
SHOMSBNCCZ
root@arm:~# MARKER='UBEW''BNCUZA' run 'echo 0 > /sys/kernel/mva_test/regulators/bbuck10_en'
UBEWBNCUZAUBEWBNCUZA 0
root@arm:~# echo 'UBCT''ZXLEXX'
UBCTZXLEXX
root@arm:~# MARKER='HHYA''APSHPJ' run 'i2cget -y -f 1 0x4b 0x1b'
HHYAAPSHPJ0x80
HHYAAPSHPJ 0
root@arm:~# echo 'BQBJ''KTVKBU'
BQBJKTVKBU
root@arm:~# MARKER='MNZY''VKAFHB' run 'grep -r -l rohm,bd71847 /proc/device-tree  | sed '"'"'s![^/]*$!!'"'"''
MNZYVKAFHB/proc/device-tree/ocp/interconnect@48000000/segment@0/target-module@2a000/i2c@0/pmic@4b/
MNZYVKAFHB 0
root@arm:~# echo 'MXZZ''JBVWSA'
MXZZJBVWSA
root@arm:~# MARKER='MMAK''FTOVXM' run 'test -f /proc/device-tree/ocp/interconnectt\@48000000/segment\@0/target-module\@2a000/i2c\@0/pmic\@4b/regulators/LDO5/rohm,,no-regulator-enable-control ;echo $?'
MMAKFTOVXM0
MMAKFTOVXM 0
root@arm:~# echo 'BOAZ''FKMFBJ'
BOAZFKMFBJ
root@arm:~# MARKER='UTOE''BFBKLS' run 'grep -r -l rohm,bd71847 /proc/device-tree  | sed '"'"'s![^/]*$!!'"'"''
UTOEBFBKLS/proc/device-tree/ocp/interconnect@48000000/segment@0/target-module@2a000/i2c@0/pmic@4b/
UTOEBFBKLS 0
root@arm:~# echo 'KZGO''BWUAGC'
KZGOBWUAGC
root@arm:~# MARKER='WWVU''TBUKXW' run 'test -f /proc/device-tree/ocp/interconnectt\@48000000/segment\@0/target-module\@2a000/i2c\@0/pmic\@4b/regulators/LDO5/rohm,,no-regulator-enable-control ;echo $?'
WWVUTBUKXW0
WWVUTBUKXW 0
root@arm:~# echo 'LCTY''KWKHYP'
LCTYKWKHYP
root@arm:~# MARKER='QKVB''WGPZKY' run 'grep -r -l rohm,bd71847 /proc/device-tree  | sed '"'"'s![^/]*$!!'"'"''
QKVBWGPZKY/proc/device-tree/ocp/interconnect@48000000/segment@0/target-module@2a000/i2c@0/pmic@4b/
QKVBWGPZKY 0
root@arm:~# echo 'UONG''OWVZMB'
UONGOWVZMB
root@arm:~# MARKER='AVOO''QHTKPN' run 'test -f /proc/device-tree/ocp/interconnectt\@48000000/segment\@0/target-module\@2a000/i2c\@0/pmic\@4b/regulators/LDO6/rohm,,no-regulator-enable-control ;echo $?'
AVOOQHTKPN1
AVOOQHTKPN 0
root@arm:~# echo 'PCFH''UQNFYT'
PCFHUQNFYT
root@arm:~# MARKER='PNYA''XOSMYN' run 'echo 1 > /sys/kernel/mva_test/regulators/bbuck12_en'
PNYAXOSMYNPNYAXOSMYN 0
root@arm:~# echo 'WAXZ''GPVWEW'
WAXZGPVWEW
root@arm:~# MARKER='VGVN''QBWNNT' run 'i2cget -y -f 1 0x4b 0x1d'
VGVNQBWNNT0xc3
VGVNQBWNNT 0
root@arm:~# echo 'WZYL''QLSUGK'
WZYLQLSUGK
root@arm:~# MARKER='QATS''UXEWAQ' run 'grep -r -l rohm,bd71847 /proc/device-tree  | sed '"'"'s![^/]*$!!'"'"''
QATSUXEWAQ/proc/device-tree/ocp/interconnect@48000000/segment@0/target-module@2a000/i2c@0/pmic@4b/
QATSUXEWAQ 0
root@arm:~# echo 'XEJM''WTGZNK'
XEJMWTGZNK
root@arm:~# MARKER='PLGK''TSOKHN' run 'test -f /proc/device-tree/ocp/interconnectt\@48000000/segment\@0/target-module\@2a000/i2c\@0/pmic\@4b/regulators/LDO6/rohm,,no-regulator-enable-control ;echo $?'
PLGKTSOKHN1
PLGKTSOKHN 0
root@arm:~# echo 'FNNZ''UPPVTQ'
FNNZUPPVTQ
root@arm:~# MARKER='LBFJ''EOMKSU' run 'grep -r -l rohm,bd71847 /proc/device-tree  | sed '"'"'s![^/]*$!!'"'"''
LBFJEOMKSU/proc/device-tree/ocp/interconnect@48000000/segment@0/target-module@2a000/i2c@0/pmic@4b/
LBFJEOMKSU 0
root@arm:~# echo 'FMES''YUTQBL'
FMESYUTQBL
root@arm:~# MARKER='TVPP''AXKZWP' run 'test -f /proc/device-tree/ocp/interconnectt\@48000000/segment\@0/target-module\@2a000/i2c\@0/pmic\@4b/regulators/LDO6/regullator-always-on ;echo $?'
TVPPAXKZWP1
TVPPAXKZWP 0
root@arm:~# echo 'KUWQ''SPYJFG'
KUWQSPYJFG
root@arm:~# MARKER='FGPB''HQLGMB' run 'echo 0 > /sys/kernel/mva_test/regulators/bbuck12_en'
FGPBHQLGMBFGPBHQLGMB 0
root@arm:~# echo 'BUFY''VQMSBE'
BUFYVQMSBE
root@arm:~# MARKER='UOGH''FPBPUO' run 'i2cget -y -f 1 0x4b 0x1d'
UOGHFPBPUO0x83
UOGHFPBPUO 0
root@arm:~# Labgrid Console Logfile for main
Logfile started at 2025-02-21 09:01:50.798162
=== Log starts here ===

root@arm:~# run() { echo -n "$MARKER"; sh -c "$@"; echo "$MARKER $?"; }
root@arm:~# echo 'FTMC''TPHONX'
FTMCTPHONX
root@arm:~# MARKER='MGBX''NSOBHC' run 'grep -r -l rohm,bd71847 /proc/device-tree  | sed '"'"'s![^/]*$!!'"'"''
MGBXNSOBHC/proc/device-tree/ocp/interconnect@48000000/segment@0/target-module@2a000/i2c@0/pmic@4b/
MGBXNSOBHC 0
root@arm:~# echo 'CPLG''XBEBHJ'
CPLGXBEBHJ
root@arm:~# MARKER='GHFJ''BYAHLJ' run 'test -f /proc/device-tree/ocp/interconnectt\@48000000/segment\@0/target-module\@2a000/i2c\@0/pmic\@4b/regulators/BUCK1/rohmm,no-regulator-enable-control ;echo $?'
GHFJBYAHLJ1
GHFJBYAHLJ 0
root@arm:~# echo 'TYLH''SZZOKL'
TYLHSZZOKL
root@arm:~# MARKER='JKUO''JGGJNA' run 'i2cget -y -f 1 0x4b 0x5'
JKUOJGGJNA0x02
JKUOJGGJNA 0
root@arm:~# echo 'TCEP''PCFPYM'
TCEPPCFPYM
root@arm:~# MARKER='VCMY''WNXVHY' run 'echo 700000 700000 > /sys/kernel/mva_test//regulators/buck1_set'
VCMYWNXVHYVCMYWNXVHY 0
root@arm:~# echo 'HKGP''MLEGXL'
HKGPMLEGXL
root@arm:~# MARKER='TXVT''GBEJSW' run 'i2cget -y -f 1 0x4b 0xd'
TXVTGBEJSW0x00
TXVTGBEJSW 0
root@arm:~# echo 'WVZO''XBHHUP'
WVZOXBHHUP
root@arm:~# MARKER='LWQY''JLHZXW' run 'echo 710000 710000 > /sys/kernel/mva_test//regulators/buck1_set'
LWQYJLHZXWLWQYJLHZXW 0
root@arm:~# echo 'OVQX''MNUQBS'
OVQXMNUQBS
root@arm:~# MARKER='UYMU''AWFEYH' run 'i2cget -y -f 1 0x4b 0xd'
UYMUAWFEYH0x01
UYMUAWFEYH 0
root@arm:~# echo 'YANW''QZBTWJ'
YANWQZBTWJ
root@arm:~# MARKER='PGBS''TVYAZJ' run 'echo 720000 720000 > /sys/kernel/mva_test//regulators/buck1_set'
PGBSTVYAZJPGBSTVYAZJ 0
root@arm:~# echo 'JHFL''JYZESF'
JHFLJYZESF
root@arm:~# MARKER='WGYW''XVUQMQ' run 'i2cget -y -f 1 0x4b 0xd'
WGYWXVUQMQ0x02
WGYWXVUQMQ 0
root@arm:~# echo 'VMEX''HVYGSJ'
VMEXHVYGSJ
root@arm:~# MARKER='QSGH''CZPUAC' run 'echo 730000 730000 > /sys/kernel/mva_test//regulators/buck1_set'
QSGHCZPUACQSGHCZPUAC 0
root@arm:~# echo 'VNLU''NLUGLW'
VNLUNLUGLW
root@arm:~# MARKER='EATU''BCEVZB' run 'i2cget -y -f 1 0x4b 0xd'
EATUBCEVZB0x03
EATUBCEVZB 0
root@arm:~# echo 'LCAM''FLBOSK'
LCAMFLBOSK
root@arm:~# MARKER='GLMK''AVUFPU' run 'echo 740000 740000 > /sys/kernel/mva_test//regulators/buck1_set'
GLMKAVUFPUGLMKAVUFPU 0
root@arm:~# echo 'OQHZ''WGFTKB'
OQHZWGFTKB
root@arm:~# MARKER='QMSW''KXPQFL' run 'i2cget -y -f 1 0x4b 0xd'
QMSWKXPQFL0x04
QMSWKXPQFL 0
root@arm:~# echo 'YZLG''JCWSHS'
YZLGJCWSHS
root@arm:~# MARKER='FNUK''FTXHYM' run 'echo 750000 750000 > /sys/kernel/mva_test//regulators/buck1_set'
FNUKFTXHYMFNUKFTXHYM 0
root@arm:~# echo 'FOLG''XMQSAA'
FOLGXMQSAA
root@arm:~# MARKER='JWFT''VZGOWQ' run 'i2cget -y -f 1 0x4b 0xd'
JWFTVZGOWQ0x05
JWFTVZGOWQ 0
root@arm:~# echo 'TQQQ''KQHALL'
TQQQKQHALL
root@arm:~# MARKER='PTYW''SLUXNZ' run 'echo 760000 760000 > /sys/kernel/mva_test//regulators/buck1_set'
PTYWSLUXNZPTYWSLUXNZ 0
root@arm:~# echo 'CWJN''WGSZVL'
CWJNWGSZVL
root@arm:~# MARKER='MLXV''YUKSYF' run 'i2cget -y -f 1 0x4b 0xd'
MLXVYUKSYF0x06
MLXVYUKSYF 0
root@arm:~# echo 'EKZN''LUCNHY'
EKZNLUCNHY
root@arm:~# MARKER='SHEE''KXLENM' run 'echo 770000 770000 > /sys/kernel/mva_test//regulators/buck1_set'
SHEEKXLENMSHEEKXLENM 0
root@arm:~# echo 'ETGN''AZXMTS'
ETGNAZXMTS
root@arm:~# MARKER='BWAL''HZZKFO' run 'i2cget -y -f 1 0x4b 0xd'
BWALHZZKFO0x07
BWALHZZKFO 0
root@arm:~# echo 'MLTG''YSSPFL'
MLTGYSSPFL
root@arm:~# MARKER='QKEV''GLOLQT' run 'echo 780000 780000 > /sys/kernel/mva_test//regulators/buck1_set'
QKEVGLOLQTQKEVGLOLQT 0
root@arm:~# echo 'ENSB''OYJVOW'
ENSBOYJVOW
root@arm:~# MARKER='QGZJ''ECXFJC' run 'i2cget -y -f 1 0x4b 0xd'
QGZJECXFJC0x08
QGZJECXFJC 0
root@arm:~# echo 'FWQC''PVBMBG'
FWQCPVBMBG
root@arm:~# MARKER='UEFH''PJQCNX' run 'echo 790000 790000 > /sys/kernel/mva_test//regulators/buck1_set'
UEFHPJQCNXUEFHPJQCNX 0
root@arm:~# echo 'LCSU''JUUOYU'
LCSUJUUOYU
root@arm:~# MARKER='UUBF''MBTWVM' run 'i2cget -y -f 1 0x4b 0xd'
UUBFMBTWVM0x09
UUBFMBTWVM 0
root@arm:~# echo 'QYXY''QVJCOT'
QYXYQVJCOT
root@arm:~# MARKER='PYLP''PEPOJW' run 'echo 800000 800000 > /sys/kernel/mva_test//regulators/buck1_set'
PYLPPEPOJWPYLPPEPOJW 0
root@arm:~# echo 'MUJL''WPXULG'
MUJLWPXULG
root@arm:~# MARKER='CQBX''KPKPCO' run 'i2cget -y -f 1 0x4b 0xd'
CQBXKPKPCO0x0a
CQBXKPKPCO 0
root@arm:~# echo 'NCVS''NYFGXV'
NCVSNYFGXV
root@arm:~# MARKER='VLMX''SOEEZQ' run 'echo 810000 810000 > /sys/kernel/mva_test//regulators/buck1_set'
VLMXSOEEZQVLMXSOEEZQ 0
root@arm:~# echo 'OBXP''OTZTTY'
OBXPOTZTTY
root@arm:~# MARKER='ZQFN''EJEOXG' run 'i2cget -y -f 1 0x4b 0xd'
ZQFNEJEOXG0x0b
ZQFNEJEOXG 0
root@arm:~# echo 'FLOU''COGGUX'
FLOUCOGGUX
root@arm:~# MARKER='OZOA''WVGNEJ' run 'echo 820000 820000 > /sys/kernel/mva_test//regulators/buck1_set'
OZOAWVGNEJOZOAWVGNEJ 0
root@arm:~# echo 'JMTX''AKWPXE'
JMTXAKWPXE
root@arm:~# MARKER='TYZF''ZJEHJU' run 'i2cget -y -f 1 0x4b 0xd'
TYZFZJEHJU0x0c
TYZFZJEHJU 0
root@arm:~# echo 'FJWC''ZGYAQJ'
FJWCZGYAQJ
root@arm:~# MARKER='GOPU''YMMBWN' run 'echo 830000 830000 > /sys/kernel/mva_test//regulators/buck1_set'
GOPUYMMBWNGOPUYMMBWN 0
root@arm:~# echo 'KXZN''CYJNBB'
KXZNCYJNBB
root@arm:~# MARKER='QJCV''JJZYAG' run 'i2cget -y -f 1 0x4b 0xd'
QJCVJJZYAG0x0d
QJCVJJZYAG 0
root@arm:~# echo 'OSSO''BAUOWF'
OSSOBAUOWF
root@arm:~# MARKER='KFPA''UZSPFS' run 'echo 840000 840000 > /sys/kernel/mva_test//regulators/buck1_set'
KFPAUZSPFSKFPAUZSPFS 0
root@arm:~# echo 'FQJF''JBZEAH'
FQJFJBZEAH
root@arm:~# MARKER='MXAF''NHKWYC' run 'i2cget -y -f 1 0x4b 0xd'
MXAFNHKWYC0x0e
MXAFNHKWYC 0
root@arm:~# echo 'CUYE''LQYKBZ'
CUYELQYKBZ
root@arm:~# MARKER='GGPH''FKNWUK' run 'echo 850000 850000 > /sys/kernel/mva_test//regulators/buck1_set'
GGPHFKNWUKGGPHFKNWUK 0
root@arm:~# echo 'LYYS''VEHVSM'
LYYSVEHVSM
root@arm:~# MARKER='EXNK''YOZVXK' run 'i2cget -y -f 1 0x4b 0xd'
EXNKYOZVXK0x0f
EXNKYOZVXK 0
root@arm:~# echo 'QHMV''VUGLOV'
QHMVVUGLOV
root@arm:~# MARKER='WLMB''XAWOTF' run 'echo 860000 860000 > /sys/kernel/mva_test//regulators/buck1_set'
WLMBXAWOTFWLMBXAWOTF 0
root@arm:~# echo 'KLHO''SGNQTS'
KLHOSGNQTS
root@arm:~# MARKER='PXTX''TSNCON' run 'i2cget -y -f 1 0x4b 0xd'
PXTXTSNCON0x10
PXTXTSNCON 0
root@arm:~# echo 'NUCQ''WNOCCL'
NUCQWNOCCL
root@arm:~# MARKER='HZWL''KPSTWQ' run 'echo 870000 870000 > /sys/kernel/mva_test//regulators/buck1_set'
HZWLKPSTWQHZWLKPSTWQ 0
root@arm:~# echo 'QJCK''GVWLEY'
QJCKGVWLEY
root@arm:~# MARKER='YOWY''WKVUNH' run 'i2cget -y -f 1 0x4b 0xd'
YOWYWKVUNH0x11
YOWYWKVUNH 0
root@arm:~# echo 'MUEW''GPNXUZ'
MUEWGPNXUZ
root@arm:~# MARKER='UWQQ''HOKMEN' run 'echo 880000 880000 > /sys/kernel/mva_test//regulators/buck1_set'
UWQQHOKMENUWQQHOKMEN 0
root@arm:~# echo 'HFUH''VMSKGQ'
HFUHVMSKGQ
root@arm:~# MARKER='JCCN''NBXAHU' run 'i2cget -y -f 1 0x4b 0xd'
JCCNNBXAHU0x12
JCCNNBXAHU 0
root@arm:~# echo 'XZEY''HWTFXC'
XZEYHWTFXC
root@arm:~# MARKER='WYKO''HLLWWE' run 'echo 890000 890000 > /sys/kernel/mva_test//regulators/buck1_set'
WYKOHLLWWEWYKOHLLWWE 0
root@arm:~# echo 'HVAJ''NQKLVN'
HVAJNQKLVN
root@arm:~# MARKER='XTQW''VXKQLC' run 'i2cget -y -f 1 0x4b 0xd'
XTQWVXKQLC0x13
XTQWVXKQLC 0
root@arm:~# echo 'PXCZ''ZXMAMW'
PXCZZXMAMW
root@arm:~# MARKER='FZSL''ZGTYJA' run 'echo 900000 900000 > /sys/kernel/mva_test//regulators/buck1_set'
FZSLZGTYJAFZSLZGTYJA 0
root@arm:~# echo 'VWGB''JZKJKZ'
VWGBJZKJKZ
root@arm:~# MARKER='TUEJ''TPJMEE' run 'i2cget -y -f 1 0x4b 0xd'
TUEJTPJMEE0x14
TUEJTPJMEE 0
root@arm:~# echo 'GVZA''OVQFXG'
GVZAOVQFXG
root@arm:~# MARKER='ONXW''HVEYVU' run 'echo 910000 910000 > /sys/kernel/mva_test//regulators/buck1_set'
ONXWHVEYVUONXWHVEYVU 0
root@arm:~# echo 'UAKG''ZULANS'
UAKGZULANS
root@arm:~# MARKER='YOWE''NPTNCZ' run 'i2cget -y -f 1 0x4b 0xd'
YOWENPTNCZ0x15
YOWENPTNCZ 0
root@arm:~# echo 'KSWH''VWBZSX'
KSWHVWBZSX
root@arm:~# MARKER='AUYW''TXUAWL' run 'echo 920000 920000 > /sys/kernel/mva_test//regulators/buck1_set'
AUYWTXUAWLAUYWTXUAWL 0
root@arm:~# echo 'LNHV''JLOTGB'
LNHVJLOTGB
root@arm:~# MARKER='TOBE''UZVMLQ' run 'i2cget -y -f 1 0x4b 0xd'
TOBEUZVMLQ0x16
TOBEUZVMLQ 0
root@arm:~# echo 'MFHX''EJAUHB'
MFHXEJAUHB
root@arm:~# MARKER='BHFV''VCSPVH' run 'echo 930000 930000 > /sys/kernel/mva_test//regulators/buck1_set'
BHFVVCSPVHBHFVVCSPVH 0
root@arm:~# echo 'GOBH''OAXOFN'
GOBHOAXOFN
root@arm:~# MARKER='PMBY''JYBTKQ' run 'i2cget -y -f 1 0x4b 0xd'
PMBYJYBTKQ0x17
PMBYJYBTKQ 0
root@arm:~# echo 'WMFL''WUPZNY'
WMFLWUPZNY
root@arm:~# MARKER='ZMXA''SNQMGA' run 'echo 940000 940000 > /sys/kernel/mva_test//regulators/buck1_set'
ZMXASNQMGAZMXASNQMGA 0
root@arm:~# echo 'BZQO''CKFXOH'
BZQOCKFXOH
root@arm:~# MARKER='BXEJ''TLLCAL' run 'i2cget -y -f 1 0x4b 0xd'
BXEJTLLCAL0x18
BXEJTLLCAL 0
root@arm:~# echo 'AXMU''UZBJUT'
AXMUUZBJUT
root@arm:~# MARKER='MZMB''QKUMWA' run 'echo 950000 950000 > /sys/kernel/mva_test//regulators/buck1_set'
MZMBQKUMWAMZMBQKUMWA 0
root@arm:~# echo 'BGBH''LAMMVV'
BGBHLAMMVV
root@arm:~# MARKER='PQWV''NEOMMA' run 'i2cget -y -f 1 0x4b 0xd'
PQWVNEOMMA0x19
PQWVNEOMMA 0
root@arm:~# echo 'VVPB''WBOJQC'
VVPBWBOJQC
root@arm:~# MARKER='FSKJ''XGVQUB' run 'echo 960000 960000 > /sys/kernel/mva_test//regulators/buck1_set'
FSKJXGVQUBFSKJXGVQUB 0
root@arm:~# echo 'CPAW''JGLPGQ'
CPAWJGLPGQ
root@arm:~# MARKER='EBAH''HWLBKO' run 'i2cget -y -f 1 0x4b 0xd'
EBAHHWLBKO0x1a
EBAHHWLBKO 0
root@arm:~# echo 'POTC''APKXEU'
POTCAPKXEU
root@arm:~# MARKER='CPJC''YQLVZL' run 'echo 970000 970000 > /sys/kernel/mva_test//regulators/buck1_set'
CPJCYQLVZLCPJCYQLVZL 0
root@arm:~# echo 'KPGX''XUSBYV'
KPGXXUSBYV
root@arm:~# MARKER='SOHW''MONUJK' run 'i2cget -y -f 1 0x4b 0xd'
SOHWMONUJK0x1b
SOHWMONUJK 0
root@arm:~# echo 'GTFL''LHSEJS'
GTFLLHSEJS
root@arm:~# MARKER='EUTE''WBBPNH' run 'echo 980000 980000 > /sys/kernel/mva_test//regulators/buck1_set'
EUTEWBBPNHEUTEWBBPNH 0
root@arm:~# echo 'MFCC''VWOLWV'
MFCCVWOLWV
root@arm:~# MARKER='HBTY''EMTGMF' run 'i2cget -y -f 1 0x4b 0xd'
HBTYEMTGMF0x1c
HBTYEMTGMF 0
root@arm:~# echo 'TOZU''UKQBXA'
TOZUUKQBXA
root@arm:~# MARKER='SSYZ''YFGOTX' run 'echo 990000 990000 > /sys/kernel/mva_test//regulators/buck1_set'
SSYZYFGOTXSSYZYFGOTX 0
root@arm:~# echo 'MSLV''EGLHZJ'
MSLVEGLHZJ
root@arm:~# MARKER='MBAJ''AOUWVV' run 'i2cget -y -f 1 0x4b 0xd'
MBAJAOUWVV0x1d
MBAJAOUWVV 0
root@arm:~# echo 'TMMQ''KYTMXE'
TMMQKYTMXE
root@arm:~# MARKER='STYL''JLPVPY' run 'echo 1000000 1000000 > /sys/kernel/mva_tesst/regulators/buck1_set'
STYLJLPVPYSTYLJLPVPY 0
root@arm:~# echo 'FSSW''JTJHKN'
FSSWJTJHKN
root@arm:~# MARKER='QYAU''PBPHUY' run 'i2cget -y -f 1 0x4b 0xd'
QYAUPBPHUY0x1e
QYAUPBPHUY 0
root@arm:~# echo 'PLBH''JQFUTK'
PLBHJQFUTK
root@arm:~# MARKER='YVNG''BVNBQE' run 'echo 1010000 1010000 > /sys/kernel/mva_tesst/regulators/buck1_set'
YVNGBVNBQEYVNGBVNBQE 0
root@arm:~# echo 'ZGMS''ZOSOXF'
ZGMSZOSOXF
root@arm:~# MARKER='PLNZ''BLKMMU' run 'i2cget -y -f 1 0x4b 0xd'
PLNZBLKMMU0x1f
PLNZBLKMMU 0
root@arm:~# echo 'OVZY''ZVZGCJ'
OVZYZVZGCJ
root@arm:~# MARKER='QJGW''CGXLAY' run 'echo 1020000 1020000 > /sys/kernel/mva_tesst/regulators/buck1_set'
QJGWCGXLAYQJGWCGXLAY 0
root@arm:~# echo 'UMKK''QBSFQX'
UMKKQBSFQX
root@arm:~# MARKER='NKFX''VPYGJL' run 'i2cget -y -f 1 0x4b 0xd'
NKFXVPYGJL0x20
NKFXVPYGJL 0
root@arm:~# echo 'QAES''XWAEUG'
QAESXWAEUG
root@arm:~# MARKER='GOBG''BMAATO' run 'echo 1030000 1030000 > /sys/kernel/mva_tesst/regulators/buck1_set'
GOBGBMAATOGOBGBMAATO 0
root@arm:~# echo 'SZZU''GSACNQ'
SZZUGSACNQ
root@arm:~# MARKER='EVJU''VABTLZ' run 'i2cget -y -f 1 0x4b 0xd'
EVJUVABTLZ0x21
EVJUVABTLZ 0
root@arm:~# echo 'FUWN''CFVMCJ'
FUWNCFVMCJ
root@arm:~# MARKER='FUCL''OPAAWL' run 'echo 1040000 1040000 > /sys/kernel/mva_tesst/regulators/buck1_set'
FUCLOPAAWLFUCLOPAAWL 0
root@arm:~# echo 'GFCA''GFFVQH'
GFCAGFFVQH
root@arm:~# MARKER='ELOB''YTZYHM' run 'i2cget -y -f 1 0x4b 0xd'
ELOBYTZYHM0x22
ELOBYTZYHM 0
root@arm:~# echo 'LFYY''SPAQVJ'
LFYYSPAQVJ
root@arm:~# MARKER='QBSZ''HMZBFT' run 'echo 1050000 1050000 > /sys/kernel/mva_tesst/regulators/buck1_set'
QBSZHMZBFTQBSZHMZBFT 0
root@arm:~# echo 'GVOJ''TTPNVE'
GVOJTTPNVE
root@arm:~# MARKER='FXCP''PJPAWK' run 'i2cget -y -f 1 0x4b 0xd'
FXCPPJPAWK0x23
FXCPPJPAWK 0
root@arm:~# echo 'AFGY''GTVKHO'
AFGYGTVKHO
root@arm:~# MARKER='VSGS''GJSLPE' run 'echo 1060000 1060000 > /sys/kernel/mva_tesst/regulators/buck1_set'
VSGSGJSLPEVSGSGJSLPE 0
root@arm:~# echo 'GUXO''AVTVGE'
GUXOAVTVGE
root@arm:~# MARKER='ZQAC''YEEWAA' run 'i2cget -y -f 1 0x4b 0xd'
ZQACYEEWAA0x24
ZQACYEEWAA 0
root@arm:~# echo 'JCBZ''SBNHKL'
JCBZSBNHKL
root@arm:~# MARKER='LXZC''OJHPOS' run 'echo 1070000 1070000 > /sys/kernel/mva_tesst/regulators/buck1_set'
LXZCOJHPOSLXZCOJHPOS 0
root@arm:~# echo 'JESG''LUUTSL'
JESGLUUTSL
root@arm:~# MARKER='TWBU''GCNNPS' run 'i2cget -y -f 1 0x4b 0xd'
TWBUGCNNPS0x25
TWBUGCNNPS 0
root@arm:~# echo 'EHVQ''ZLBEHY'
EHVQZLBEHY
root@arm:~# MARKER='BGBH''XLHHLH' run 'echo 1080000 1080000 > /sys/kernel/mva_tesst/regulators/buck1_set'
BGBHXLHHLHBGBHXLHHLH 0
root@arm:~# echo 'MCLN''HYYNMY'
MCLNHYYNMY
root@arm:~# MARKER='NWLQ''TZHVJT' run 'i2cget -y -f 1 0x4b 0xd'
NWLQTZHVJT0x26
NWLQTZHVJT 0
root@arm:~# echo 'WOGM''YVAUXC'
WOGMYVAUXC
root@arm:~# MARKER='GKEJ''TEGLTO' run 'echo 1090000 1090000 > /sys/kernel/mva_tesst/regulators/buck1_set'
GKEJTEGLTOGKEJTEGLTO 0
root@arm:~# echo 'TYFY''BWSMOB'
TYFYBWSMOB
root@arm:~# MARKER='WHOX''SGZELH' run 'i2cget -y -f 1 0x4b 0xd'
WHOXSGZELH0x27
WHOXSGZELH 0
root@arm:~# echo 'OXGN''QWVCUZ'
OXGNQWVCUZ
root@arm:~# MARKER='PEWZ''TZUQUV' run 'echo 1100000 1100000 > /sys/kernel/mva_tesst/regulators/buck1_set'
PEWZTZUQUVPEWZTZUQUV 0
root@arm:~# echo 'OQYE''XUMEYO'
OQYEXUMEYO
root@arm:~# MARKER='OPVH''VNFLBF' run 'i2cget -y -f 1 0x4b 0xd'
OPVHVNFLBF0x28
OPVHVNFLBF 0
root@arm:~# echo 'WNSA''MYEASY'
WNSAMYEASY
root@arm:~# MARKER='NVMO''VNTSAE' run 'echo 1110000 1110000 > /sys/kernel/mva_tesst/regulators/buck1_set'
NVMOVNTSAENVMOVNTSAE 0
root@arm:~# echo 'SYGA''GBCFEW'
SYGAGBCFEW
root@arm:~# MARKER='CAEX''WLUCGS' run 'i2cget -y -f 1 0x4b 0xd'
CAEXWLUCGS0x29
CAEXWLUCGS 0
root@arm:~# echo 'HGHU''VTQXZH'
HGHUVTQXZH
root@arm:~# MARKER='PXOV''BPCEBY' run 'echo 1120000 1120000 > /sys/kernel/mva_tesst/regulators/buck1_set'
PXOVBPCEBYPXOVBPCEBY 0
root@arm:~# echo 'MYOH''JTWJXA'
MYOHJTWJXA
root@arm:~# MARKER='VZHE''JUALEC' run 'i2cget -y -f 1 0x4b 0xd'
VZHEJUALEC0x2a
VZHEJUALEC 0
root@arm:~# echo 'BJBB''UEOQGN'
BJBBUEOQGN
root@arm:~# MARKER='KWUW''JSBUUC' run 'echo 1130000 1130000 > /sys/kernel/mva_tesst/regulators/buck1_set'
KWUWJSBUUCKWUWJSBUUC 0
root@arm:~# echo 'HGBN''JNOKEX'
HGBNJNOKEX
root@arm:~# MARKER='AKUO''WVPUNW' run 'i2cget -y -f 1 0x4b 0xd'
AKUOWVPUNW0x2b
AKUOWVPUNW 0
root@arm:~# echo 'EJJB''EXUZLZ'
EJJBEXUZLZ
root@arm:~# MARKER='EZNT''AZZEAN' run 'echo 1140000 1140000 > /sys/kernel/mva_tesst/regulators/buck1_set'
EZNTAZZEANEZNTAZZEAN 0
root@arm:~# echo 'FAXK''MCJGHQ'
FAXKMCJGHQ
root@arm:~# MARKER='AOSG''WYQFEU' run 'i2cget -y -f 1 0x4b 0xd'
AOSGWYQFEU0x2c
AOSGWYQFEU 0
root@arm:~# echo 'YPUJ''XKCSTM'
YPUJXKCSTM
root@arm:~# MARKER='NUSU''LOVYYM' run 'echo 1150000 1150000 > /sys/kernel/mva_tesst/regulators/buck1_set'
NUSULOVYYMNUSULOVYYM 0
root@arm:~# echo 'SAYK''CFQTVM'
SAYKCFQTVM
root@arm:~# MARKER='FVSP''KVNBKZ' run 'i2cget -y -f 1 0x4b 0xd'
FVSPKVNBKZ0x2d
FVSPKVNBKZ 0
root@arm:~# echo 'OVCN''EBMFBJ'
OVCNEBMFBJ
root@arm:~# MARKER='GYXE''KVULKE' run 'echo 1160000 1160000 > /sys/kernel/mva_tesst/regulators/buck1_set'
GYXEKVULKEGYXEKVULKE 0
root@arm:~# echo 'CJXP''SWFUVH'
CJXPSWFUVH
root@arm:~# MARKER='SSMP''AQFUCN' run 'i2cget -y -f 1 0x4b 0xd'
SSMPAQFUCN0x2e
SSMPAQFUCN 0
root@arm:~# echo 'ENBK''ABPSMX'
ENBKABPSMX
root@arm:~# MARKER='JAZS''KXBAHN' run 'echo 1170000 1170000 > /sys/kernel/mva_tesst/regulators/buck1_set'
JAZSKXBAHNJAZSKXBAHN 0
root@arm:~# echo 'SXVT''XVSEBK'
SXVTXVSEBK
root@arm:~# MARKER='NBEP''OJEPJG' run 'i2cget -y -f 1 0x4b 0xd'
NBEPOJEPJG0x2f
NBEPOJEPJG 0
root@arm:~# echo 'LNFA''QLVPNC'
LNFAQLVPNC
root@arm:~# MARKER='JOWC''OMXHLF' run 'echo 1180000 1180000 > /sys/kernel/mva_tesst/regulators/buck1_set'
JOWCOMXHLFJOWCOMXHLF 0
root@arm:~# echo 'FAGZ''FWFZZG'
FAGZFWFZZG
root@arm:~# MARKER='TKLX''KECEJS' run 'i2cget -y -f 1 0x4b 0xd'
TKLXKECEJS0x30
TKLXKECEJS 0
root@arm:~# echo 'SXKW''JTEXOE'
SXKWJTEXOE
root@arm:~# MARKER='FLSW''GQXLSY' run 'echo 1190000 1190000 > /sys/kernel/mva_tesst/regulators/buck1_set'
FLSWGQXLSYFLSWGQXLSY 0
root@arm:~# echo 'ZOJO''WUYEJS'
ZOJOWUYEJS
root@arm:~# MARKER='CWUC''XYAKYK' run 'i2cget -y -f 1 0x4b 0xd'
CWUCXYAKYK0x31
CWUCXYAKYK 0
root@arm:~# echo 'SZAK''PLASKA'
SZAKPLASKA
root@arm:~# MARKER='BWJJ''LPQMKO' run 'echo 1200000 1200000 > /sys/kernel/mva_tesst/regulators/buck1_set'
BWJJLPQMKOBWJJLPQMKO 0
root@arm:~# echo 'AHAT''LTGHUP'
AHATLTGHUP
root@arm:~# MARKER='PWSZ''QKLKLV' run 'i2cget -y -f 1 0x4b 0xd'
PWSZQKLKLV0x32
PWSZQKLKLV 0
root@arm:~# echo 'VSJB''VWWVTK'
VSJBVWWVTK
root@arm:~# MARKER='WJQO''UNHBCB' run 'echo 1210000 1210000 > /sys/kernel/mva_tesst/regulators/buck1_set'
WJQOUNHBCBWJQOUNHBCB 0
root@arm:~# echo 'QCCU''CCVTOL'
QCCUCCVTOL
root@arm:~# MARKER='LXKH''JPPOYY' run 'i2cget -y -f 1 0x4b 0xd'
LXKHJPPOYY0x33
LXKHJPPOYY 0
root@arm:~# echo 'LSEE''XTQAVN'
LSEEXTQAVN
root@arm:~# MARKER='HBHA''YVWJME' run 'echo 1220000 1220000 > /sys/kernel/mva_tesst/regulators/buck1_set'
HBHAYVWJMEHBHAYVWJME 0
root@arm:~# echo 'GNZL''LXGLJW'
GNZLLXGLJW
root@arm:~# MARKER='WBYO''OLBJGL' run 'i2cget -y -f 1 0x4b 0xd'
WBYOOLBJGL0x34
WBYOOLBJGL 0
root@arm:~# echo 'XVYX''UOFPVW'
XVYXUOFPVW
root@arm:~# MARKER='BAZY''GPVJFS' run 'echo 1230000 1230000 > /sys/kernel/mva_tesst/regulators/buck1_set'
BAZYGPVJFSBAZYGPVJFS 0
root@arm:~# echo 'QLYH''ATXYWJ'
QLYHATXYWJ
root@arm:~# MARKER='BKYH''ZQFSFW' run 'i2cget -y -f 1 0x4b 0xd'
BKYHZQFSFW0x35
BKYHZQFSFW 0
root@arm:~# echo 'AEUO''ZHMSJS'
AEUOZHMSJS
root@arm:~# MARKER='VHFX''XQQAHS' run 'echo 1240000 1240000 > /sys/kernel/mva_tesst/regulators/buck1_set'
VHFXXQQAHSVHFXXQQAHS 0
root@arm:~# echo 'NXWN''ENMUAT'
NXWNENMUAT
root@arm:~# MARKER='EPOY''GAVAZS' run 'i2cget -y -f 1 0x4b 0xd'
EPOYGAVAZS0x36
EPOYGAVAZS 0
root@arm:~# echo 'YCYO''TCSUQA'
YCYOTCSUQA
root@arm:~# MARKER='LMFK''LTBPPM' run 'echo 1250000 1250000 > /sys/kernel/mva_tesst/regulators/buck1_set'
LMFKLTBPPMLMFKLTBPPM 0
root@arm:~# echo 'JHBM''GSHBOS'
JHBMGSHBOS
root@arm:~# MARKER='AYMS''GZLYCE' run 'i2cget -y -f 1 0x4b 0xd'
AYMSGZLYCE0x37
AYMSGZLYCE 0
root@arm:~# echo 'XXKG''MEGACW'
XXKGMEGACW
root@arm:~# MARKER='JOLZ''FLFKXF' run 'echo 1260000 1260000 > /sys/kernel/mva_tesst/regulators/buck1_set'
JOLZFLFKXFJOLZFLFKXF 0
root@arm:~# echo 'UEQV''ZWPNWZ'
UEQVZWPNWZ
root@arm:~# MARKER='WQKM''EVTVLW' run 'i2cget -y -f 1 0x4b 0xd'
WQKMEVTVLW0x38
WQKMEVTVLW 0
root@arm:~# echo 'VTHK''KBEETG'
VTHKKBEETG
root@arm:~# MARKER='VMXG''BBQYBO' run 'echo 1270000 1270000 > /sys/kernel/mva_tesst/regulators/buck1_set'
VMXGBBQYBOVMXGBBQYBO 0
root@arm:~# echo 'SMNO''BYSQKY'
SMNOBYSQKY
root@arm:~# MARKER='BSGV''KMEKOG' run 'i2cget -y -f 1 0x4b 0xd'
BSGVKMEKOG0x39
BSGVKMEKOG 0
root@arm:~# echo 'CPEO''VTSGXY'
CPEOVTSGXY
root@arm:~# MARKER='GJTF''SUWUVF' run 'echo 1280000 1280000 > /sys/kernel/mva_tesst/regulators/buck1_set'
GJTFSUWUVFGJTFSUWUVF 0
root@arm:~# echo 'VHPN''USMBNB'
VHPNUSMBNB
root@arm:~# MARKER='XTKH''TOPAFB' run 'i2cget -y -f 1 0x4b 0xd'
XTKHTOPAFB0x3a
XTKHTOPAFB 0
root@arm:~# echo 'KNPC''ESLSKE'
KNPCESLSKE
root@arm:~# MARKER='BSNW''WBKWSP' run 'echo 1290000 1290000 > /sys/kernel/mva_tesst/regulators/buck1_set'
BSNWWBKWSPBSNWWBKWSP 0
root@arm:~# echo 'FQKO''BJJXQW'
FQKOBJJXQW
root@arm:~# MARKER='KMNB''MBBNHB' run 'i2cget -y -f 1 0x4b 0xd'
KMNBMBBNHB0x3b
KMNBMBBNHB 0
root@arm:~# echo 'VJLM''VYOXVM'
VJLMVYOXVM
root@arm:~# MARKER='JKLO''NTTWHV' run 'echo 1300000 1300000 > /sys/kernel/mva_tesst/regulators/buck1_set'
JKLONTTWHVJKLONTTWHV 0
root@arm:~# echo 'FMLO''ZQZXWS'
FMLOZQZXWS
root@arm:~# MARKER='PTBY''OXXKAW' run 'i2cget -y -f 1 0x4b 0xd'
PTBYOXXKAW0x3c
PTBYOXXKAW 0
root@arm:~# echo 'UTQX''SMGPSM'
UTQXSMGPSM
root@arm:~# MARKER='UQVV''BCEHQA' run 'grep -r -l rohm,bd71847 /proc/device-tree  | sed '"'"'s![^/]*$!!'"'"''
UQVVBCEHQA/proc/device-tree/ocp/interconnect@48000000/segment@0/target-module@2a000/i2c@0/pmic@4b/
UQVVBCEHQA 0
root@arm:~# echo 'OTBE''WCMXKT'
OTBEWCMXKT
root@arm:~# MARKER='FSSC''SAXFJJ' run 'test -f /proc/device-tree/ocp/interconnectt\@48000000/segment\@0/target-module\@2a000/i2c\@0/pmic\@4b/regulators/BUCK2/roh m,no-regulator-enable-control ;echo $?'
FSSCSAXFJJ1
FSSCSAXFJJ 0
root@arm:~# echo 'PHMF''SEFYBP'
PHMFSEFYBP
root@arm:~# MARKER='ZUHE''CQKBGS' run 'i2cget -y -f 1 0x4b 0x6'
ZUHECQKBGS0x43
ZUHECQKBGS 0
root@arm:~# echo 'CQLH''KLSNNX'
CQLHKLSNNX
root@arm:~# MARKER='EYQC''LSETNQ' run 'echo 700000 700000 > /sys/kernel/mva_test//regulators/buck2_set'
EYQCLSETNQEYQCLSETNQ 0
root@arm:~# echo 'GSYZ''NVAHMN'
GSYZNVAHMN
root@arm:~# MARKER='WSAN''PLXFEZ' run 'i2cget -y -f 1 0x4b 0x10'
WSANPLXFEZ0x00
WSANPLXFEZ 0
root@arm:~# echo 'KNAU''PSMGSB'
KNAUPSMGSB
root@arm:~# MARKER='GXGK''QBKSUY' run 'echo 710000 710000 > /sys/kernel/mva_test//regulators/buck2_set'
GXGKQBKSUYGXGKQBKSUY 0
root@arm:~# echo 'ZLKS''KUFQPG'
ZLKSKUFQPG
root@arm:~# MARKER='CCMQ''LGEHXX' run 'i2cget -y -f 1 0x4b 0x10'
CCMQLGEHXX0x01
CCMQLGEHXX 0
root@arm:~# echo 'XCYJ''YQLWOZ'
XCYJYQLWOZ
root@arm:~# MARKER='SBOE''OZAAEG' run 'echo 720000 720000 > /sys/kernel/mva_test//regulators/buck2_set'
SBOEOZAAEGSBOEOZAAEG 0
root@arm:~# echo 'KZAB''SHTVXG'
KZABSHTVXG
root@arm:~# MARKER='BUGT''QMPFAG' run 'i2cget -y -f 1 0x4b 0x10'
BUGTQMPFAG0x02
BUGTQMPFAG 0
root@arm:~# echo 'FNAL''BEOMQU'
FNALBEOMQU
root@arm:~# MARKER='XYNF''AFXFZS' run 'echo 730000 730000 > /sys/kernel/mva_test//regulators/buck2_set'
XYNFAFXFZSXYNFAFXFZS 0
root@arm:~# echo 'SCBP''QJPBET'
SCBPQJPBET
root@arm:~# MARKER='NLKP''QAHHVP' run 'i2cget -y -f 1 0x4b 0x10'
NLKPQAHHVP0x03
NLKPQAHHVP 0
root@arm:~# echo 'AKPB''POXJGN'
AKPBPOXJGN
root@arm:~# MARKER='SJYA''VQSWTO' run 'echo 740000 740000 > /sys/kernel/mva_test//regulators/buck2_set'
SJYAVQSWTOSJYAVQSWTO 0
root@arm:~# echo 'LFAV''NPSKWM'
LFAVNPSKWM
root@arm:~# MARKER='VSPW''KQYSCA' run 'i2cget -y -f 1 0x4b 0x10'
VSPWKQYSCA0x04
VSPWKQYSCA 0
root@arm:~# echo 'MZHC''EVQBTH'
MZHCEVQBTH
root@arm:~# MARKER='YYVF''ENPFYJ' run 'echo 750000 750000 > /sys/kernel/mva_test//regulators/buck2_set'
YYVFENPFYJYYVFENPFYJ 0
root@arm:~# echo 'HYJK''KFMPKV'
HYJKKFMPKV
root@arm:~# MARKER='JLLB''ZSYJWP' run 'i2cget -y -f 1 0x4b 0x10'
JLLBZSYJWP0x05
JLLBZSYJWP 0
root@arm:~# echo 'BHUJ''GPZQQV'
BHUJGPZQQV
root@arm:~# MARKER='FVXT''QJVOXN' run 'echo 760000 760000 > /sys/kernel/mva_test//regulators/buck2_set'
FVXTQJVOXNFVXTQJVOXN 0
root@arm:~# echo 'ETBO''CGBEWW'
ETBOCGBEWW
root@arm:~# MARKER='HPSB''NKEVJL' run 'i2cget -y -f 1 0x4b 0x10'
HPSBNKEVJL0x06
HPSBNKEVJL 0
root@arm:~# echo 'BYWU''POEBNV'
BYWUPOEBNV
root@arm:~# MARKER='WPUK''GEWJVG' run 'echo 770000 770000 > /sys/kernel/mva_test//regulators/buck2_set'
WPUKGEWJVGWPUKGEWJVG 0
root@arm:~# echo 'UFBA''NTOWJB'
UFBANTOWJB
root@arm:~# MARKER='PBQN''QGZVZP' run 'i2cget -y -f 1 0x4b 0x10'
PBQNQGZVZP0x07
PBQNQGZVZP 0
root@arm:~# echo 'ZQEV''EBLZST'
ZQEVEBLZST
root@arm:~# MARKER='LHLA''QLPQOP' run 'echo 780000 780000 > /sys/kernel/mva_test//regulators/buck2_set'
LHLAQLPQOPLHLAQLPQOP 0
root@arm:~# echo 'SGOJ''UONMZW'
SGOJUONMZW
root@arm:~# MARKER='QJNU''GGJVME' run 'i2cget -y -f 1 0x4b 0x10'
QJNUGGJVME0x08
QJNUGGJVME 0
root@arm:~# echo 'TPCP''YKFYHE'
TPCPYKFYHE
root@arm:~# MARKER='VBHV''QTVMJC' run 'echo 790000 790000 > /sys/kernel/mva_test//regulators/buck2_set'
VBHVQTVMJCVBHVQTVMJC 0
root@arm:~# echo 'ZNEF''LOZSYS'
ZNEFLOZSYS
root@arm:~# MARKER='HVAV''NMHEVM' run 'i2cget -y -f 1 0x4b 0x10'
HVAVNMHEVM0x09
HVAVNMHEVM 0
root@arm:~# echo 'NQTG''PJGFBP'
NQTGPJGFBP
root@arm:~# MARKER='NGLY''MBYWEG' run 'echo 800000 800000 > /sys/kernel/mva_test//regulators/buck2_set'
NGLYMBYWEGNGLYMBYWEG 0
root@arm:~# echo 'UYPA''KXGSXM'
UYPAKXGSXM
root@arm:~# MARKER='LMNJ''NZMXUG' run 'i2cget -y -f 1 0x4b 0x10'
LMNJNZMXUG0x0a
LMNJNZMXUG 0
root@arm:~# echo 'BJTH''ZKPQTT'
BJTHZKPQTT
root@arm:~# MARKER='BGNP''UUNKMH' run 'echo 810000 810000 > /sys/kernel/mva_test//regulators/buck2_set'
BGNPUUNKMHBGNPUUNKMH 0
root@arm:~# echo 'UEGS''WPYKTO'
UEGSWPYKTO
root@arm:~# MARKER='THWC''UOPBQO' run 'i2cget -y -f 1 0x4b 0x10'
THWCUOPBQO0x0b
THWCUOPBQO 0
root@arm:~# echo 'MGTS''ZBKEWF'
MGTSZBKEWF
root@arm:~# MARKER='MGNW''QZVKOE' run 'echo 820000 820000 > /sys/kernel/mva_test//regulators/buck2_set'
MGNWQZVKOEMGNWQZVKOE 0
root@arm:~# echo 'EGJM''HKVMOY'
EGJMHKVMOY
root@arm:~# MARKER='PCTM''ECCZFP' run 'i2cget -y -f 1 0x4b 0x10'
PCTMECCZFP0x0c
PCTMECCZFP 0
root@arm:~# echo 'PZYA''NNZTEZ'
PZYANNZTEZ
root@arm:~# MARKER='UWKW''ETXABW' run 'echo 830000 830000 > /sys/kernel/mva_test//regulators/buck2_set'
UWKWETXABWUWKWETXABW 0
root@arm:~# echo 'NJTE''ONQAUY'
NJTEONQAUY
root@arm:~# MARKER='QATE''LMFHHY' run 'i2cget -y -f 1 0x4b 0x10'
QATELMFHHY0x0d
QATELMFHHY 0
root@arm:~# echo 'TSKU''BKNHQV'
TSKUBKNHQV
root@arm:~# MARKER='QAPV''GKNXSZ' run 'echo 840000 840000 > /sys/kernel/mva_test//regulators/buck2_set'
QAPVGKNXSZQAPVGKNXSZ 0
root@arm:~# echo 'BXBN''ZNTXZB'
BXBNZNTXZB
root@arm:~# MARKER='SOMK''WKGBWY' run 'i2cget -y -f 1 0x4b 0x10'
SOMKWKGBWY0x0e
SOMKWKGBWY 0
root@arm:~# echo 'BFPQ''QMKZWG'
BFPQQMKZWG
root@arm:~# MARKER='VFOZ''FZUBLS' run 'echo 850000 850000 > /sys/kernel/mva_test//regulators/buck2_set'
VFOZFZUBLSVFOZFZUBLS 0
root@arm:~# echo 'ALZL''NFGUJE'
ALZLNFGUJE
root@arm:~# MARKER='OASO''BGCVLC' run 'i2cget -y -f 1 0x4b 0x10'
OASOBGCVLC0x0f
OASOBGCVLC 0
root@arm:~# echo 'KJNV''WYHVFE'
KJNVWYHVFE
root@arm:~# MARKER='ANQZ''ZOTVPS' run 'echo 860000 860000 > /sys/kernel/mva_test//regulators/buck2_set'
ANQZZOTVPSANQZZOTVPS 0
root@arm:~# echo 'OAVT''GFCJQH'
OAVTGFCJQH
root@arm:~# MARKER='TTWJ''FVYTHX' run 'i2cget -y -f 1 0x4b 0x10'
TTWJFVYTHX0x10
TTWJFVYTHX 0
root@arm:~# echo 'LMCG''FWNCHG'
LMCGFWNCHG
root@arm:~# MARKER='QHYL''QUETGU' run 'echo 870000 870000 > /sys/kernel/mva_test//regulators/buck2_set'
QHYLQUETGUQHYLQUETGU 0
root@arm:~# echo 'EEAB''KNSKYE'
EEABKNSKYE
root@arm:~# MARKER='TVJG''CAAEKS' run 'i2cget -y -f 1 0x4b 0x10'
TVJGCAAEKS0x11
TVJGCAAEKS 0
root@arm:~# echo 'VEVJ''WCSEZB'
VEVJWCSEZB
root@arm:~# MARKER='GAKJ''MNCHWW' run 'echo 880000 880000 > /sys/kernel/mva_test//regulators/buck2_set'
GAKJMNCHWWGAKJMNCHWW 0
root@arm:~# echo 'NGWB''AUHOFK'
NGWBAUHOFK
root@arm:~# MARKER='MLPP''HBYEUY' run 'i2cget -y -f 1 0x4b 0x10'
MLPPHBYEUY0x12
MLPPHBYEUY 0
root@arm:~# echo 'HAXY''KEFQCK'
HAXYKEFQCK
root@arm:~# MARKER='THCJ''BWGQEY' run 'echo 890000 890000 > /sys/kernel/mva_test//regulators/buck2_set'
THCJBWGQEYTHCJBWGQEY 0
root@arm:~# echo 'QCSV''OMXPHB'
QCSVOMXPHB
root@arm:~# MARKER='FUSU''QGEEHQ' run 'i2cget -y -f 1 0x4b 0x10'
FUSUQGEEHQ0x13
FUSUQGEEHQ 0
root@arm:~# echo 'EWYB''KNXEGJ'
EWYBKNXEGJ
root@arm:~# MARKER='QQVK''QZSFSN' run 'echo 900000 900000 > /sys/kernel/mva_test//regulators/buck2_set'
QQVKQZSFSNQQVKQZSFSN 0
root@arm:~# echo 'MTVX''ATPXQM'
MTVXATPXQM
root@arm:~# MARKER='QWTN''KVNBMN' run 'i2cget -y -f 1 0x4b 0x10'
QWTNKVNBMN0x14
QWTNKVNBMN 0
root@arm:~# echo 'SQSY''YNCLEK'
SQSYYNCLEK
root@arm:~# MARKER='JFMU''YTXTVB' run 'echo 910000 910000 > /sys/kernel/mva_test//regulators/buck2_set'
JFMUYTXTVBJFMUYTXTVB 0
root@arm:~# echo 'OAGQ''QXEBYN'
OAGQQXEBYN
root@arm:~# MARKER='STVJ''ZNPFTH' run 'i2cget -y -f 1 0x4b 0x10'
STVJZNPFTH0x15
STVJZNPFTH 0
root@arm:~# echo 'AFYO''WGGYNA'
AFYOWGGYNA
root@arm:~# MARKER='CEEV''YTMLEA' run 'echo 920000 920000 > /sys/kernel/mva_test//regulators/buck2_set'
CEEVYTMLEACEEVYTMLEA 0
root@arm:~# echo 'MQCW''GPNZEV'
MQCWGPNZEV
root@arm:~# MARKER='TALP''PQSQWA' run 'i2cget -y -f 1 0x4b 0x10'
TALPPQSQWA0x16
TALPPQSQWA 0
root@arm:~# echo 'QPMC''TZNZEH'
QPMCTZNZEH
root@arm:~# MARKER='OXKK''KKJASQ' run 'echo 930000 930000 > /sys/kernel/mva_test//regulators/buck2_set'
OXKKKKJASQOXKKKKJASQ 0
root@arm:~# echo 'YSZP''SKZVKW'
YSZPSKZVKW
root@arm:~# MARKER='TSML''OQQSZV' run 'i2cget -y -f 1 0x4b 0x10'
TSMLOQQSZV0x17
TSMLOQQSZV 0
root@arm:~# echo 'LZTU''FYWTVJ'
LZTUFYWTVJ
root@arm:~# MARKER='VTBN''WQVHKT' run 'echo 940000 940000 > /sys/kernel/mva_test//regulators/buck2_set'
VTBNWQVHKTVTBNWQVHKT 0
root@arm:~# echo 'UWWV''VFYUCG'
UWWVVFYUCG
root@arm:~# MARKER='PLXV''HSMSFO' run 'i2cget -y -f 1 0x4b 0x10'
PLXVHSMSFO0x18
PLXVHSMSFO 0
root@arm:~# echo 'QLKQ''TAYOYG'
QLKQTAYOYG
root@arm:~# MARKER='QNZF''XTOKHA' run 'echo 950000 950000 > /sys/kernel/mva_test//regulators/buck2_set'
QNZFXTOKHAQNZFXTOKHA 0
root@arm:~# echo 'KYLL''EKMJBP'
KYLLEKMJBP
root@arm:~# MARKER='AXKY''OSAETU' run 'i2cget -y -f 1 0x4b 0x10'
AXKYOSAETU0x19
AXKYOSAETU 0
root@arm:~# echo 'BKFY''HJLMFL'
BKFYHJLMFL
root@arm:~# MARKER='WMKK''ABMPNU' run 'echo 960000 960000 > /sys/kernel/mva_test//regulators/buck2_set'
WMKKABMPNUWMKKABMPNU 0
root@arm:~# echo 'EKFB''OTOGSK'
EKFBOTOGSK
root@arm:~# MARKER='UJOC''GECVGC' run 'i2cget -y -f 1 0x4b 0x10'
UJOCGECVGC0x1a
UJOCGECVGC 0
root@arm:~# echo 'XSJT''BEMEAE'
XSJTBEMEAE
root@arm:~# MARKER='UQVT''XCBSTL' run 'echo 970000 970000 > /sys/kernel/mva_test//regulators/buck2_set'
UQVTXCBSTLUQVTXCBSTL 0
root@arm:~# echo 'OHSU''JFGKEV'
OHSUJFGKEV
root@arm:~# MARKER='XYNN''KZWATV' run 'i2cget -y -f 1 0x4b 0x10'
XYNNKZWATV0x1b
XYNNKZWATV 0
root@arm:~# echo 'SLPA''UWSTYV'
SLPAUWSTYV
root@arm:~# MARKER='NQSG''PMWQMH' run 'echo 980000 980000 > /sys/kernel/mva_test//regulators/buck2_set'
NQSGPMWQMHNQSGPMWQMH 0
root@arm:~# echo 'KXSL''KVABTX'
KXSLKVABTX
root@arm:~# MARKER='QNVZ''OQKZHO' run 'i2cget -y -f 1 0x4b 0x10'
QNVZOQKZHO0x1c
QNVZOQKZHO 0
root@arm:~# echo 'AGUS''OQQCKZ'
AGUSOQQCKZ
root@arm:~# MARKER='MTJH''NNVFBX' run 'echo 990000 990000 > /sys/kernel/mva_test//regulators/buck2_set'
MTJHNNVFBXMTJHNNVFBX 0
root@arm:~# echo 'PGTS''WJNMLY'
PGTSWJNMLY
root@arm:~# MARKER='CBJE''TZOWNU' run 'i2cget -y -f 1 0x4b 0x10'
CBJETZOWNU0x1d
CBJETZOWNU 0
root@arm:~# echo 'SSOW''EAHCNL'
SSOWEAHCNL
root@arm:~# MARKER='KXHB''SCJLAX' run 'echo 1000000 1000000 > /sys/kernel/mva_tesst/regulators/buck2_set'
KXHBSCJLAXKXHBSCJLAX 0
root@arm:~# echo 'VELG''LWYSMG'
VELGLWYSMG
root@arm:~# MARKER='OZPE''PVBCSF' run 'i2cget -y -f 1 0x4b 0x10'
OZPEPVBCSF0x1e
OZPEPVBCSF 0
root@arm:~# echo 'FFYU''PQUMZX'
FFYUPQUMZX
root@arm:~# MARKER='ESGC''GVWFHU' run 'echo 1010000 1010000 > /sys/kernel/mva_tesst/regulators/buck2_set'
ESGCGVWFHUESGCGVWFHU 0
root@arm:~# echo 'LFWT''WQMGOB'
LFWTWQMGOB
root@arm:~# MARKER='LVHV''MGTNWP' run 'i2cget -y -f 1 0x4b 0x10'
LVHVMGTNWP0x1f
LVHVMGTNWP 0
root@arm:~# echo 'TPOO''VSBEAH'
TPOOVSBEAH
root@arm:~# MARKER='YTMH''TGMNMT' run 'echo 1020000 1020000 > /sys/kernel/mva_tesst/regulators/buck2_set'
YTMHTGMNMTYTMHTGMNMT 0
root@arm:~# echo 'SSVA''TBMNNY'
SSVATBMNNY
root@arm:~# MARKER='QYFT''PEENHJ' run 'i2cget -y -f 1 0x4b 0x10'
QYFTPEENHJ0x20
QYFTPEENHJ 0
root@arm:~# echo 'AYUP''AETBNL'
AYUPAETBNL
root@arm:~# MARKER='PGTY''KECJON' run 'echo 1030000 1030000 > /sys/kernel/mva_tesst/regulators/buck2_set'
PGTYKECJONPGTYKECJON 0
root@arm:~# echo 'MJSM''SLQOUH'
MJSMSLQOUH
root@arm:~# MARKER='VBET''YNNHTW' run 'i2cget -y -f 1 0x4b 0x10'
VBETYNNHTW0x21
VBETYNNHTW 0
root@arm:~# echo 'CESK''OUANEY'
CESKOUANEY
root@arm:~# MARKER='MVHA''BEGMZJ' run 'echo 1040000 1040000 > /sys/kernel/mva_tesst/regulators/buck2_set'
MVHABEGMZJMVHABEGMZJ 0
root@arm:~# echo 'QPYG''NWSXGP'
QPYGNWSXGP
root@arm:~# MARKER='OZVP''BWWHKP' run 'i2cget -y -f 1 0x4b 0x10'
OZVPBWWHKP0x22
OZVPBWWHKP 0
root@arm:~# echo 'QNEE''JJKALB'
QNEEJJKALB
root@arm:~# MARKER='EPYE''THHNMV' run 'echo 1050000 1050000 > /sys/kernel/mva_tesst/regulators/buck2_set'
EPYETHHNMVEPYETHHNMV 0
root@arm:~# echo 'ZGXY''GVTGUM'
ZGXYGVTGUM
root@arm:~# MARKER='AVFZ''MTVWQS' run 'i2cget -y -f 1 0x4b 0x10'
AVFZMTVWQS0x23
AVFZMTVWQS 0
root@arm:~# echo 'EEFJ''CKJWVT'
EEFJCKJWVT
root@arm:~# MARKER='PVEK''UVJVOP' run 'echo 1060000 1060000 > /sys/kernel/mva_tesst/regulators/buck2_set'
PVEKUVJVOPPVEKUVJVOP 0
root@arm:~# echo 'BCYL''EOKGLV'
BCYLEOKGLV
root@arm:~# MARKER='NHZQ''JOJMVF' run 'i2cget -y -f 1 0x4b 0x10'
NHZQJOJMVF0x24
NHZQJOJMVF 0
root@arm:~# echo 'OAFN''GFGOAN'
OAFNGFGOAN
root@arm:~# MARKER='GZEE''MJHFCT' run 'echo 1070000 1070000 > /sys/kernel/mva_tesst/regulators/buck2_set'
GZEEMJHFCTGZEEMJHFCT 0
root@arm:~# echo 'OKGK''PZWGLC'
OKGKPZWGLC
root@arm:~# MARKER='LBUL''XTCFHH' run 'i2cget -y -f 1 0x4b 0x10'
LBULXTCFHH0x25
LBULXTCFHH 0
root@arm:~# echo 'PSMB''NXEZHE'
PSMBNXEZHE
root@arm:~# MARKER='XVQL''JGYPNL' run 'echo 1080000 1080000 > /sys/kernel/mva_tesst/regulators/buck2_set'
XVQLJGYPNLXVQLJGYPNL 0
root@arm:~# echo 'TOGV''JZCMMC'
TOGVJZCMMC
root@arm:~# MARKER='UNWQ''QKLWME' run 'i2cget -y -f 1 0x4b 0x10'
UNWQQKLWME0x26
UNWQQKLWME 0
root@arm:~# echo 'QZKQ''YCMTCM'
QZKQYCMTCM
root@arm:~# MARKER='ZNZL''ZPCNPH' run 'echo 1090000 1090000 > /sys/kernel/mva_tesst/regulators/buck2_set'
ZNZLZPCNPHZNZLZPCNPH 0
root@arm:~# echo 'ZKJJ''VUABSL'
ZKJJVUABSL
root@arm:~# MARKER='FTJU''ULOZZT' run 'i2cget -y -f 1 0x4b 0x10'
FTJUULOZZT0x27
FTJUULOZZT 0
root@arm:~# echo 'YTEE''KYWFMU'
YTEEKYWFMU
root@arm:~# MARKER='OXTQ''SYWSVQ' run 'echo 1100000 1100000 > /sys/kernel/mva_tesst/regulators/buck2_set'
OXTQSYWSVQOXTQSYWSVQ 0
root@arm:~# echo 'WWLU''OJTHHS'
WWLUOJTHHS
root@arm:~# MARKER='MVAW''BESNML' run 'i2cget -y -f 1 0x4b 0x10'
MVAWBESNML0x28
MVAWBESNML 0
root@arm:~# echo 'KTBM''ZVZTTM'
KTBMZVZTTM
root@arm:~# MARKER='OKEV''KFCLYS' run 'echo 1110000 1110000 > /sys/kernel/mva_tesst/regulators/buck2_set'
OKEVKFCLYSOKEVKFCLYS 0
root@arm:~# echo 'ZTHJ''ZQAOZY'
ZTHJZQAOZY
root@arm:~# MARKER='FNQH''NUYLSF' run 'i2cget -y -f 1 0x4b 0x10'
FNQHNUYLSF0x29
FNQHNUYLSF 0
root@arm:~# echo 'ANWC''CEKZNY'
ANWCCEKZNY
root@arm:~# MARKER='XJJO''VVBAJS' run 'echo 1120000 1120000 > /sys/kernel/mva_tesst/regulators/buck2_set'
XJJOVVBAJSXJJOVVBAJS 0
root@arm:~# echo 'LPZF''SSKZSZ'
LPZFSSKZSZ
root@arm:~# MARKER='OEET''COCGNS' run 'i2cget -y -f 1 0x4b 0x10'
OEETCOCGNS0x2a
OEETCOCGNS 0
root@arm:~# echo 'QFBY''JWMMQQ'
QFBYJWMMQQ
root@arm:~# MARKER='HNVX''KVLBLP' run 'echo 1130000 1130000 > /sys/kernel/mva_tesst/regulators/buck2_set'
HNVXKVLBLPHNVXKVLBLP 0
root@arm:~# echo 'BLLT''VCVESH'
BLLTVCVESH
root@arm:~# MARKER='EWNQ''FUQNYF' run 'i2cget -y -f 1 0x4b 0x10'
EWNQFUQNYF0x2b
EWNQFUQNYF 0
root@arm:~# echo 'VGHM''ACEZHM'
VGHMACEZHM
root@arm:~# MARKER='UCVG''CTSMWQ' run 'echo 1140000 1140000 > /sys/kernel/mva_tesst/regulators/buck2_set'
UCVGCTSMWQUCVGCTSMWQ 0
root@arm:~# echo 'BLUN''UJVHWX'
BLUNUJVHWX
root@arm:~# MARKER='FHCU''UKQYKH' run 'i2cget -y -f 1 0x4b 0x10'
FHCUUKQYKH0x2c
FHCUUKQYKH 0
root@arm:~# echo 'SVJU''MUOSOB'
SVJUMUOSOB
root@arm:~# MARKER='VOAE''VVXNOU' run 'echo 1150000 1150000 > /sys/kernel/mva_tesst/regulators/buck2_set'
VOAEVVXNOUVOAEVVXNOU 0
root@arm:~# echo 'OWLF''ZAHLCA'
OWLFZAHLCA
root@arm:~# MARKER='CVEV''PNONFJ' run 'i2cget -y -f 1 0x4b 0x10'
CVEVPNONFJ0x2d
CVEVPNONFJ 0
root@arm:~# echo 'ZVWG''GEWUMK'
ZVWGGEWUMK
root@arm:~# MARKER='VNAM''FXAQKL' run 'echo 1160000 1160000 > /sys/kernel/mva_tesst/regulators/buck2_set'
VNAMFXAQKLVNAMFXAQKL 0
root@arm:~# echo 'TVKZ''KMPLNN'
TVKZKMPLNN
root@arm:~# MARKER='MXCW''WJEBUT' run 'i2cget -y -f 1 0x4b 0x10'
MXCWWJEBUT0x2e
MXCWWJEBUT 0
root@arm:~# echo 'XAQJ''OOCBMN'
XAQJOOCBMN
root@arm:~# MARKER='WASK''PCBBLA' run 'echo 1170000 1170000 > /sys/kernel/mva_tesst/regulators/buck2_set'
WASKPCBBLAWASKPCBBLA 0
root@arm:~# echo 'WHLW''EKGVYY'
WHLWEKGVYY
root@arm:~# MARKER='KUFZ''VOLCCQ' run 'i2cget -y -f 1 0x4b 0x10'
KUFZVOLCCQ0x2f
KUFZVOLCCQ 0
root@arm:~# echo 'ZVFF''VUJUVM'
ZVFFVUJUVM
root@arm:~# MARKER='XNBK''GQEEFQ' run 'echo 1180000 1180000 > /sys/kernel/mva_tesst/regulators/buck2_set'
XNBKGQEEFQXNBKGQEEFQ 0
root@arm:~# echo 'EKCW''GWBOSY'
EKCWGWBOSY
root@arm:~# MARKER='PHJM''AVBYHX' run 'i2cget -y -f 1 0x4b 0x10'
PHJMAVBYHX0x30
PHJMAVBYHX 0
root@arm:~# echo 'UMPN''GFKGGK'
UMPNGFKGGK
root@arm:~# MARKER='CVHJ''HVBGEE' run 'echo 1190000 1190000 > /sys/kernel/mva_tesst/regulators/buck2_set'
CVHJHVBGEECVHJHVBGEE 0
root@arm:~# echo 'PVAH''XFLNLZ'
PVAHXFLNLZ
root@arm:~# MARKER='VFPQ''ZQLPPP' run 'i2cget -y -f 1 0x4b 0x10'
VFPQZQLPPP0x31
VFPQZQLPPP 0
root@arm:~# echo 'TJKE''VFKNPY'
TJKEVFKNPY
root@arm:~# MARKER='KNYA''ZULNWN' run 'echo 1200000 1200000 > /sys/kernel/mva_tesst/regulators/buck2_set'
KNYAZULNWNKNYAZULNWN 0
root@arm:~# echo 'UQFS''UOKVYW'
UQFSUOKVYW
root@arm:~# MARKER='ZBLY''ZQWUXS' run 'i2cget -y -f 1 0x4b 0x10'
ZBLYZQWUXS0x32
ZBLYZQWUXS 0
root@arm:~# echo 'QXGH''COPAGX'
QXGHCOPAGX
root@arm:~# MARKER='VFUM''PCUOOW' run 'echo 1210000 1210000 > /sys/kernel/mva_tesst/regulators/buck2_set'
VFUMPCUOOWVFUMPCUOOW 0
root@arm:~# echo 'EZUE''APFVQB'
EZUEAPFVQB
root@arm:~# MARKER='BWZZ''WOSJYJ' run 'i2cget -y -f 1 0x4b 0x10'
BWZZWOSJYJ0x33
BWZZWOSJYJ 0
root@arm:~# echo 'VAYV''TOYWPC'
VAYVTOYWPC
root@arm:~# MARKER='OWQE''ZCMNSL' run 'echo 1220000 1220000 > /sys/kernel/mva_tesst/regulators/buck2_set'
OWQEZCMNSLOWQEZCMNSL 0
root@arm:~# echo 'KHAM''PBACUG'
KHAMPBACUG
root@arm:~# MARKER='UKSS''FYTGMX' run 'i2cget -y -f 1 0x4b 0x10'
UKSSFYTGMX0x34
UKSSFYTGMX 0
root@arm:~# echo 'JCKS''JBZCUT'
JCKSJBZCUT
root@arm:~# MARKER='QCYK''VBQJXL' run 'echo 1230000 1230000 > /sys/kernel/mva_tesst/regulators/buck2_set'
QCYKVBQJXLQCYKVBQJXL 0
root@arm:~# echo 'QXKF''UGLJAA'
QXKFUGLJAA
root@arm:~# MARKER='PHUG''ZTQZWW' run 'i2cget -y -f 1 0x4b 0x10'
PHUGZTQZWW0x35
PHUGZTQZWW 0
root@arm:~# echo 'AXAN''GVPNAO'
AXANGVPNAO
root@arm:~# MARKER='MJLB''LQWMYN' run 'echo 1240000 1240000 > /sys/kernel/mva_tesst/regulators/buck2_set'
MJLBLQWMYNMJLBLQWMYN 0
root@arm:~# echo 'AOVY''SBKKSW'
AOVYSBKKSW
root@arm:~# MARKER='BTAU''BPKHYP' run 'i2cget -y -f 1 0x4b 0x10'
BTAUBPKHYP0x36
BTAUBPKHYP 0
root@arm:~# echo 'TQLB''BAJCYM'
TQLBBAJCYM
root@arm:~# MARKER='ZUMH''GKMPBG' run 'echo 1250000 1250000 > /sys/kernel/mva_tesst/regulators/buck2_set'
ZUMHGKMPBGZUMHGKMPBG 0
root@arm:~# echo 'ZMWO''NKOCHQ'
ZMWONKOCHQ
root@arm:~# MARKER='PJUM''FSXWAA' run 'i2cget -y -f 1 0x4b 0x10'
PJUMFSXWAA0x37
PJUMFSXWAA 0
root@arm:~# echo 'UKBW''BAVYAX'
UKBWBAVYAX
root@arm:~# MARKER='FVQP''JUAMNZ' run 'echo 1260000 1260000 > /sys/kernel/mva_tesst/regulators/buck2_set'
FVQPJUAMNZFVQPJUAMNZ 0
root@arm:~# echo 'VFEM''EQUSWG'
VFEMEQUSWG
root@arm:~# MARKER='UBJB''VVVZUW' run 'i2cget -y -f 1 0x4b 0x10'
UBJBVVVZUW0x38
UBJBVVVZUW 0
root@arm:~# echo 'MJUB''QVXKFU'
MJUBQVXKFU
root@arm:~# MARKER='XSBX''NUPLXU' run 'echo 1270000 1270000 > /sys/kernel/mva_tesst/regulators/buck2_set'
XSBXNUPLXUXSBXNUPLXU 0
root@arm:~# echo 'HXJO''OPXSKH'
HXJOOPXSKH
root@arm:~# MARKER='JSOH''JASNSP' run 'i2cget -y -f 1 0x4b 0x10'
JSOHJASNSP0x39
JSOHJASNSP 0
root@arm:~# echo 'CVWG''HKMAOQ'
CVWGHKMAOQ
root@arm:~# MARKER='YEWM''CJCPNW' run 'echo 1280000 1280000 > /sys/kernel/mva_tesst/regulators/buck2_set'
YEWMCJCPNWYEWMCJCPNW 0
root@arm:~# echo 'LJVT''MNOFSW'
LJVTMNOFSW
root@arm:~# MARKER='XHFP''YPTWMB' run 'i2cget -y -f 1 0x4b 0x10'
XHFPYPTWMB0x3a
XHFPYPTWMB 0
root@arm:~# echo 'TKTL''YUBVQN'
TKTLYUBVQN
root@arm:~# MARKER='VKFV''ZKFZES' run 'echo 1290000 1290000 > /sys/kernel/mva_tesst/regulators/buck2_set'
VKFVZKFZESVKFVZKFZES 0
root@arm:~# echo 'CSEZ''KGMYMP'
CSEZKGMYMP
root@arm:~# MARKER='JNKS''KTNHGN' run 'i2cget -y -f 1 0x4b 0x10'
JNKSKTNHGN0x3b
JNKSKTNHGN 0
root@arm:~# echo 'SUPW''OKQPGA'
SUPWOKQPGA
root@arm:~# MARKER='TKCJ''LAXNZG' run 'echo 1300000 1300000 > /sys/kernel/mva_tesst/regulators/buck2_set'
TKCJLAXNZGTKCJLAXNZG 0
root@arm:~# echo 'KAZK''OQYKYH'
KAZKOQYKYH
root@arm:~# MARKER='KWYM''ZJEZZZ' run 'i2cget -y -f 1 0x4b 0x10'
KWYMZJEZZZ0x3c
KWYMZJEZZZ 0
root@arm:~# echo 'TBOM''FUXHZO'
TBOMFUXHZO
root@arm:~# MARKER='KZJH''BEMPAM' run 'grep -r -l rohm,bd71847 /proc/device-tree  | sed '"'"'s![^/]*$!!'"'"''
KZJHBEMPAM/proc/device-tree/ocp/interconnect@48000000/segment@0/target-module@2a000/i2c@0/pmic@4b/
KZJHBEMPAM 0
root@arm:~# echo 'GEGM''UVBHKK'
GEGMUVBHKK
root@arm:~# MARKER='YEAT''FBUEWQ' run 'test -f /proc/device-tree/ocp/interconnectt\@48000000/segment\@0/target-module\@2a000/i2c\@0/pmic\@4b/regulators/BUCK3/rohmm,no-regulator-enable-control ;echo $?'
YEATFBUEWQ0
YEATFBUEWQ 0
root@arm:~# echo 'MALA''MJTMHO'
MALAMJTMHO
root@arm:~# MARKER='SMSH''UQQCQH' run 'echo 700000 700000 > /sys/kernel/mva_test//regulators/buck3_set'
SMSHUQQCQHSMSHUQQCQH 0
root@arm:~# echo 'QKGW''JTUVPP'
QKGWJTUVPP
root@arm:~# MARKER='TVPC''SAMTOT' run 'i2cget -y -f 1 0x4b 0x14'
TVPCSAMTOT0x00
TVPCSAMTOT 0
root@arm:~# echo 'SVHE''PPBYUB'
SVHEPPBYUB
root@arm:~# MARKER='UQMX''NWBEWB' run 'echo 800000 800000 > /sys/kernel/mva_test//regulators/buck3_set'
UQMXNWBEWBUQMXNWBEWB 0
root@arm:~# echo 'YBPP''JMFAHL'
YBPPJMFAHL
root@arm:~# MARKER='XNGL''BVXEFK' run 'i2cget -y -f 1 0x4b 0x14'
XNGLBVXEFK0x01
XNGLBVXEFK 0
root@arm:~# echo 'LQXT''BSOABW'
LQXTBSOABW
root@arm:~# MARKER='SVAE''ECBBUX' run 'echo 900000 900000 > /sys/kernel/mva_test//regulators/buck3_set'
SVAEECBBUXSVAEECBBUX 0
root@arm:~# echo 'BQEL''MNFAEP'
BQELMNFAEP
root@arm:~# MARKER='KNQT''UNBNHK' run 'i2cget -y -f 1 0x4b 0x14'
KNQTUNBNHK0x02
KNQTUNBNHK 0
root@arm:~# echo 'QNTV''EMVBNJ'
QNTVEMVBNJ
root@arm:~# MARKER='NSOZ''XMKGAG' run 'echo 1000000 1000000 > /sys/kernel/mva_tesst/regulators/buck3_set'
NSOZXMKGAGNSOZXMKGAG 0
root@arm:~# echo 'ANCV''LJKSBX'
ANCVLJKSBX
root@arm:~# MARKER='YLXB''NYNBPY' run 'i2cget -y -f 1 0x4b 0x14'
YLXBNYNBPY0x03
YLXBNYNBPY 0
root@arm:~# echo 'JFEM''NVFPWG'
JFEMNVFPWG
root@arm:~# MARKER='FUTW''UXTMXC' run 'echo 1050000 1050000 > /sys/kernel/mva_tesst/regulators/buck3_set'
FUTWUXTMXCFUTWUXTMXC 0
root@arm:~# echo 'OHBJ''VPNACQ'
OHBJVPNACQ
root@arm:~# MARKER='ZLEY''NZAVKZ' run 'i2cget -y -f 1 0x4b 0x14'
ZLEYNZAVKZ0x04
ZLEYNZAVKZ 0
root@arm:~# echo 'VYTN''SJSMQF'
VYTNSJSMQF
root@arm:~# MARKER='OLFF''THFPPJ' run 'echo 1100000 1100000 > /sys/kernel/mva_tesst/regulators/buck3_set'
OLFFTHFPPJOLFFTHFPPJ 0
root@arm:~# echo 'BAWH''NHZEUL'
BAWHNHZEUL
root@arm:~# MARKER='HSLS''NUPTKS' run 'i2cget -y -f 1 0x4b 0x14'
HSLSNUPTKS0x05
HSLSNUPTKS 0
root@arm:~# echo 'YFGH''FCEAMU'
YFGHFCEAMU
root@arm:~# MARKER='AWFO''VAHYJG' run 'echo 1200000 1200000 > /sys/kernel/mva_tesst/regulators/buck3_set'
AWFOVAHYJGAWFOVAHYJG 0
root@arm:~# echo 'SGBM''YBWZVG'
SGBMYBWZVG
root@arm:~# MARKER='KFFU''HZMLWE' run 'i2cget -y -f 1 0x4b 0x14'
KFFUHZMLWE0x06
KFFUHZMLWE 0
root@arm:~# echo 'VGJV''QBCOWZ'
VGJVQBCOWZ
root@arm:~# MARKER='ECQG''VAGKUP' run 'echo 1350000 1350000 > /sys/kernel/mva_tesst/regulators/buck3_set'
ECQGVAGKUPECQGVAGKUP 0
root@arm:~# echo 'OUWZ''SYZONH'
OUWZSYZONH
root@arm:~# MARKER='MAJX''UTVYVW' run 'i2cget -y -f 1 0x4b 0x14'
MAJXUTVYVW0x07
MAJXUTVYVW 0
root@arm:~# echo 'BMPV''LCQFSV'
BMPVLCQFSV
root@arm:~# MARKER='CUOZ''HLXPWJ' run 'echo 550000 550000 > /sys/kernel/mva_test//regulators/buck3_set'
CUOZHLXPWJCUOZHLXPWJ 0
root@arm:~# echo 'TGZO''YOQKYK'
TGZOYOQKYK
root@arm:~# MARKER='SQUU''QBQNTN' run 'i2cget -y -f 1 0x4b 0x14'
SQUUQBQNTN0x40
SQUUQBQNTN 0
root@arm:~# echo 'BTVA''PUJWHZ'
BTVAPUJWHZ
root@arm:~# MARKER='VTLB''VBZJAB' run 'echo 600000 600000 > /sys/kernel/mva_test//regulators/buck3_set'
VTLBVBZJABVTLBVBZJAB 0
root@arm:~# echo 'GVNV''USOELO'
GVNVUSOELO
root@arm:~# MARKER='EKQE''LJJSBH' run 'i2cget -y -f 1 0x4b 0x14'
EKQELJJSBH0x41
EKQELJJSBH 0
root@arm:~# echo 'QNEZ''VXSZEN'
QNEZVXSZEN
root@arm:~# MARKER='VUZH''YJVWWF' run 'echo 650000 650000 > /sys/kernel/mva_test//regulators/buck3_set'
VUZHYJVWWFVUZHYJVWWF 0
root@arm:~# echo 'FQVU''ZHVWLB'
FQVUZHVWLB
root@arm:~# MARKER='GLLS''WQTGJT' run 'i2cget -y -f 1 0x4b 0x14'
GLLSWQTGJT0x42
GLLSWQTGJT 0
root@arm:~# echo 'XZAZ''OKSZKF'
XZAZOKSZKF
root@arm:~# MARKER='GMFW''QEGGOL' run 'echo 700000 700000 > /sys/kernel/mva_test//regulators/buck3_set'
GMFWQEGGOLGMFWQEGGOL 0
root@arm:~# echo 'OZGF''FQBMMJ'
OZGFFQBMMJ
root@arm:~# MARKER='UEZA''MUKXOG' run 'i2cget -y -f 1 0x4b 0x14'
UEZAMUKXOG0x00
UEZAMUKXOG 0
root@arm:~# echo 'WTUJ''EWMXUO'
WTUJEWMXUO
root@arm:~# MARKER='ZYFW''YNWQQP' run 'echo 750000 750000 > /sys/kernel/mva_test//regulators/buck3_set'
ZYFWYNWQQPZYFWYNWQQP 0
root@arm:~# echo 'MKJL''GJTWSA'
MKJLGJTWSA
root@arm:~# MARKER='GYUZ''XTYHAT' run 'i2cget -y -f 1 0x4b 0x14'
GYUZXTYHAT0x44
GYUZXTYHAT 0
root@arm:~# echo 'QPAY''YCJOZK'
QPAYYCJOZK
root@arm:~# MARKER='MYPF''CYWBVM' run 'echo 800000 800000 > /sys/kernel/mva_test//regulators/buck3_set'
MYPFCYWBVMMYPFCYWBVM 0
root@arm:~# echo 'ZUBO''GKWXKK'
ZUBOGKWXKK
root@arm:~# MARKER='PCNY''VVXOOF' run 'i2cget -y -f 1 0x4b 0x14'
PCNYVVXOOF0x01
PCNYVVXOOF 0
root@arm:~# echo 'GMWB''FNHMSM'
GMWBFNHMSM
root@arm:~# MARKER='GGNB''USMOGY' run 'echo 850000 850000 > /sys/kernel/mva_test//regulators/buck3_set'
GGNBUSMOGYGGNBUSMOGY 0
root@arm:~# echo 'OSVK''UMZMYU'
OSVKUMZMYU
root@arm:~# MARKER='MXQF''EONTTS' run 'i2cget -y -f 1 0x4b 0x14'
MXQFEONTTS0x46
MXQFEONTTS 0
root@arm:~# echo 'CGTH''FQYZLC'
CGTHFQYZLC
root@arm:~# MARKER='XEEO''PUBTMJ' run 'echo 900000 900000 > /sys/kernel/mva_test//regulators/buck3_set'
XEEOPUBTMJXEEOPUBTMJ 0
root@arm:~# echo 'HVZP''MPHVEG'
HVZPMPHVEG
root@arm:~# MARKER='EWUX''MJWBHC' run 'i2cget -y -f 1 0x4b 0x14'
EWUXMJWBHC0x02
EWUXMJWBHC 0
root@arm:~# echo 'FBMW''YQAHCG'
FBMWYQAHCG
root@arm:~# MARKER='JLQU''TEXVGY' run 'echo 675000 675000 > /sys/kernel/mva_test//regulators/buck3_set'
JLQUTEXVGYJLQUTEXVGY 0
root@arm:~# echo 'PKOB''FVZLBL'
PKOBFVZLBL
root@arm:~# MARKER='XCXQ''LAZSUX' run 'i2cget -y -f 1 0x4b 0x14'
XCXQLAZSUX0x80
XCXQLAZSUX 0
root@arm:~# echo 'KYWQ''EPTWBZ'
KYWQEPTWBZ
root@arm:~# MARKER='JPKQ''UUGPUS' run 'echo 775000 775000 > /sys/kernel/mva_test//regulators/buck3_set'
JPKQUUGPUSJPKQUUGPUS 0
root@arm:~# echo 'CBYB''YEKANV'
CBYBYEKANV
root@arm:~# MARKER='AULF''MHBLEA' run 'i2cget -y -f 1 0x4b 0x14'
AULFMHBLEA0x81
AULFMHBLEA 0
root@arm:~# echo 'XLPG''TEMSSV'
XLPGTEMSSV
root@arm:~# MARKER='FGTS''QMSNWY' run 'echo 875000 875000 > /sys/kernel/mva_test//regulators/buck3_set'
FGTSQMSNWYFGTSQMSNWY 0
root@arm:~# echo 'HFXN''TCGYCS'
HFXNTCGYCS
root@arm:~# MARKER='AJHK''HMTMFM' run 'i2cget -y -f 1 0x4b 0x14'
AJHKHMTMFM0x82
AJHKHMTMFM 0
root@arm:~# echo 'KSHY''TSJKWN'
KSHYTSJKWN
root@arm:~# MARKER='QXVY''XVFGVA' run 'echo 975000 975000 > /sys/kernel/mva_test//regulators/buck3_set'
QXVYXVFGVAQXVYXVFGVA 0
root@arm:~# echo 'FUQC''QTNVMC'
FUQCQTNVMC
root@arm:~# MARKER='KKSN''OBAVLS' run 'i2cget -y -f 1 0x4b 0x14'
KKSNOBAVLS0x83
KKSNOBAVLS 0
root@arm:~# echo 'ZAKY''GGHOPP'
ZAKYGGHOPP
root@arm:~# MARKER='ZNKS''CANCBS' run 'echo 1025000 1025000 > /sys/kernel/mva_tesst/regulators/buck3_set'
ZNKSCANCBSZNKSCANCBS 0
root@arm:~# echo 'PXTQ''CUZUFN'
PXTQCUZUFN
root@arm:~# MARKER='SNCO''BJJYAQ' run 'i2cget -y -f 1 0x4b 0x14'
SNCOBJJYAQ0x84
SNCOBJJYAQ 0
root@arm:~# echo 'BYVM''HGZQYB'
BYVMHGZQYB
root@arm:~# MARKER='APJS''SCKWFC' run 'echo 1075000 1075000 > /sys/kernel/mva_tesst/regulators/buck3_set'
APJSSCKWFCAPJSSCKWFC 0
root@arm:~# echo 'NNFM''FQNGYA'
NNFMFQNGYA
root@arm:~# MARKER='GBTV''YLEZFH' run 'i2cget -y -f 1 0x4b 0x14'
GBTVYLEZFH0x85
GBTVYLEZFH 0
root@arm:~# echo 'VLOT''UKWFCX'
VLOTUKWFCX
root@arm:~# MARKER='XKEQ''KJMHMY' run 'echo 1175000 1175000 > /sys/kernel/mva_tesst/regulators/buck3_set'
XKEQKJMHMYXKEQKJMHMY 0
root@arm:~# echo 'NTUT''GTOBHG'
NTUTGTOBHG
root@arm:~# MARKER='MCNY''LLONQP' run 'i2cget -y -f 1 0x4b 0x14'
MCNYLLONQP0x86
MCNYLLONQP 0
root@arm:~# echo 'CFOG''UTEGSG'
CFOGUTEGSG
root@arm:~# MARKER='HJNM''XTMTXQ' run 'echo 1325000 1325000 > /sys/kernel/mva_tesst/regulators/buck3_set'
HJNMXTMTXQHJNMXTMTXQ 0
root@arm:~# echo 'YXUH''ESLJZN'
YXUHESLJZN
root@arm:~# MARKER='UHFB''NFVHAM' run 'i2cget -y -f 1 0x4b 0x14'
UHFBNFVHAM0x87
UHFBNFVHAM 0
root@arm:~# echo 'BVKZ''SYAGUH'
BVKZSYAGUH
root@arm:~# MARKER='KEUW''YHYOKH' run 'grep -r -l rohm,bd71847 /proc/device-tree  | sed '"'"'s![^/]*$!!'"'"''
KEUWYHYOKH/proc/device-tree/ocp/interconnect@48000000/segment@0/target-module@2a000/i2c@0/pmic@4b/
KEUWYHYOKH 0
root@arm:~# echo 'EVZM''TYLNFL'
EVZMTYLNFL
root@arm:~# MARKER='QGTN''KFOOKJ' run 'test -f /proc/device-tree/ocp/interconnectt\@48000000/segment\@0/target-module\@2a000/i2c\@0/pmic\@4b/regulators/BUCK4/rohmm,no-regulator-enable-control ;echo $?'
QGTNKFOOKJ1
QGTNKFOOKJ 0
root@arm:~# echo 'YMZT''FUFELJ'
YMZTFUFELJ
root@arm:~# MARKER='GJGX''GWWHTQ' run 'i2cget -y -f 1 0x4b 0xa'
GJGXGWWHTQ0x02
GJGXGWWHTQ 0
root@arm:~# echo 'JBVP''MEXBZQ'
JBVPMEXBZQ
root@arm:~# MARKER='GUYZ''UXBEPY' run 'echo 3000000 3000000 > /sys/kernel/mva_tesst/regulators/buck4_set'
GUYZUXBEPYGUYZUXBEPY 0
root@arm:~# echo 'GTNB''VKKHCB'
GTNBVKKHCB
root@arm:~# MARKER='ZZFL''OFCOZJ' run 'i2cget -y -f 1 0x4b 0x15'
ZZFLOFCOZJ0x00
ZZFLOFCOZJ 0
root@arm:~# echo 'MNPG''QNGYZJ'
MNPGQNGYZJ
root@arm:~# MARKER='JQUK''YMBTSB' run 'echo 3100000 3100000 > /sys/kernel/mva_tesst/regulators/buck4_set'
JQUKYMBTSBJQUKYMBTSB 0
root@arm:~# echo 'OTOE''TFOUJW'
OTOETFOUJW
root@arm:~# MARKER='FTBP''FXLVXU' run 'i2cget -y -f 1 0x4b 0x15'
FTBPFXLVXU0x01
FTBPFXLVXU 0
root@arm:~# echo 'TBWU''FLLZQP'
TBWUFLLZQP
root@arm:~# MARKER='SOZY''AYTGTM' run 'echo 3200000 3200000 > /sys/kernel/mva_tesst/regulators/buck4_set'
SOZYAYTGTMSOZYAYTGTM 0
root@arm:~# echo 'VVOG''UHWBLZ'
VVOGUHWBLZ
root@arm:~# MARKER='GQUX''MGKWOS' run 'i2cget -y -f 1 0x4b 0x15'
GQUXMGKWOS0x02
GQUXMGKWOS 0
root@arm:~# echo 'FAWX''BZMHWP'
FAWXBZMHWP
root@arm:~# MARKER='QYJT''YAAZFN' run 'echo 3300000 3300000 > /sys/kernel/mva_tesst/regulators/buck4_set'
QYJTYAAZFNQYJTYAAZFN 0
root@arm:~# echo 'QMVX''OEXVBL'
QMVXOEXVBL
root@arm:~# MARKER='QAZE''QYUWGB' run 'i2cget -y -f 1 0x4b 0x15'
QAZEQYUWGB0x03
QAZEQYUWGB 0
root@arm:~# echo 'WCAW''EBSGOW'
WCAWEBSGOW
root@arm:~# MARKER='MSWH''JQLVCT' run 'echo 2600000 2600000 > /sys/kernel/mva_tesst/regulators/buck4_set'
MSWHJQLVCTMSWHJQLVCT 0
root@arm:~# echo 'CEEY''MJOCQP'
CEEYMJOCQP
root@arm:~# MARKER='SQXV''VNLLJS' run 'i2cget -y -f 1 0x4b 0x15'
SQXVVNLLJS0x40
SQXVVNLLJS 0
root@arm:~# echo 'FUCO''GFGCYY'
FUCOGFGCYY
root@arm:~# MARKER='CBZB''TTGFBC' run 'echo 2700000 2700000 > /sys/kernel/mva_tesst/regulators/buck4_set'
CBZBTTGFBCCBZBTTGFBC 0
root@arm:~# echo 'FJHK''UGKCYQ'
FJHKUGKCYQ
root@arm:~# MARKER='CAMN''ZJPYUN' run 'i2cget -y -f 1 0x4b 0x15'
CAMNZJPYUN0x41
CAMNZJPYUN 0
root@arm:~# echo 'ZNAU''HCCQAK'
ZNAUHCCQAK
root@arm:~# MARKER='JFTC''GVVSWA' run 'echo 2800000 2800000 > /sys/kernel/mva_tesst/regulators/buck4_set'
JFTCGVVSWAJFTCGVVSWA 0
root@arm:~# echo 'OOOS''LHMNOW'
OOOSLHMNOW
root@arm:~# MARKER='NAYX''BHOGEH' run 'i2cget -y -f 1 0x4b 0x15'
NAYXBHOGEH0x42
NAYXBHOGEH 0
root@arm:~# echo 'NHWU''NEZVLO'
NHWUNEZVLO
root@arm:~# MARKER='VHJG''HYPESJ' run 'echo 2900000 2900000 > /sys/kernel/mva_tesst/regulators/buck4_set'
VHJGHYPESJVHJGHYPESJ 0
root@arm:~# echo 'FWMF''OAEGPZ'
FWMFOAEGPZ
root@arm:~# MARKER='VMMA''AGNJXC' run 'i2cget -y -f 1 0x4b 0x15'
VMMAAGNJXC0x43
VMMAAGNJXC 0
root@arm:~# echo 'EKGJ''ACENVN'
EKGJACENVN
root@arm:~# MARKER='KVNF''AYWQTH' run 'grep -r -l rohm,bd71847 /proc/device-tree  | sed '"'"'s![^/]*$!!'"'"''
KVNFAYWQTH/proc/device-tree/ocp/interconnect@48000000/segment@0/target-module@2a000/i2c@0/pmic@4b/
KVNFAYWQTH 0
root@arm:~# echo 'HTEJ''BGYQSY'
HTEJBGYQSY
root@arm:~# MARKER='OAKO''JTCWCF' run 'test -f /proc/device-tree/ocp/interconnectt\@48000000/segment\@0/target-module\@2a000/i2c\@0/pmic\@4b/regulators/BUCK5/rohmm,no-regulator-enable-control ;echo $?'
OAKOJTCWCF1
OAKOJTCWCF 0
root@arm:~# echo 'QMEK''AMNPAK'
QMEKAMNPAK
root@arm:~# MARKER='VXSZ''QKUEBE' run 'i2cget -y -f 1 0x4b 0xb'
VXSZQKUEBE0x02
VXSZQKUEBE 0
root@arm:~# echo 'MAFP''LCJSZH'
MAFPLCJSZH
root@arm:~# MARKER='OXCS''MZBHFA' run 'echo 1605000 1605000 > /sys/kernel/mva_tesst/regulators/buck5_set'
OXCSMZBHFAOXCSMZBHFA 0
root@arm:~# echo 'UCEH''PSGAKZ'
UCEHPSGAKZ
root@arm:~# MARKER='LXMU''EUAAKY' run 'i2cget -y -f 1 0x4b 0x16'
LXMUEUAAKY0x00
LXMUEUAAKY 0
root@arm:~# echo 'VTSN''PQEGLB'
VTSNPQEGLB
root@arm:~# MARKER='PZMZ''KXTVGQ' run 'echo 1695000 1695000 > /sys/kernel/mva_tesst/regulators/buck5_set'
PZMZKXTVGQPZMZKXTVGQ 0
root@arm:~# echo 'UTVG''YLNYZZ'
UTVGYLNYZZ
root@arm:~# MARKER='SBYV''UCJBCF' run 'i2cget -y -f 1 0x4b 0x16'
SBYVUCJBCF0x01
SBYVUCJBCF 0
root@arm:~# echo 'GXZL''UXXSMX'
GXZLUXXSMX
root@arm:~# MARKER='UEOJ''NOBBPC' run 'echo 1755000 1755000 > /sys/kernel/mva_tesst/regulators/buck5_set'
UEOJNOBBPCUEOJNOBBPC 0
root@arm:~# echo 'WFNJ''POZJFB'
WFNJPOZJFB
root@arm:~# MARKER='XFFA''OZNAAT' run 'i2cget -y -f 1 0x4b 0x16'
XFFAOZNAAT0x02
XFFAOZNAAT 0
root@arm:~# echo 'OFGJ''OCTUTY'
OFGJOCTUTY
root@arm:~# MARKER='PUYK''SYKOGQ' run 'echo 1800000 1800000 > /sys/kernel/mva_tesst/regulators/buck5_set'
PUYKSYKOGQPUYKSYKOGQ 0
root@arm:~# echo 'FOCO''WYZZFQ'
FOCOWYZZFQ
root@arm:~# MARKER='VYUB''KMLLGU' run 'i2cget -y -f 1 0x4b 0x16'
VYUBKMLLGU0x03
VYUBKMLLGU 0
root@arm:~# echo 'BUOO''VNJMMF'
BUOOVNJMMF
root@arm:~# MARKER='FSXM''KEYEWZ' run 'echo 1845000 1845000 > /sys/kernel/mva_tesst/regulators/buck5_set'
FSXMKEYEWZFSXMKEYEWZ 0
root@arm:~# echo 'NXWA''VNYLZX'
NXWAVNYLZX
root@arm:~# MARKER='KLPY''QCQLNO' run 'i2cget -y -f 1 0x4b 0x16'
KLPYQCQLNO0x04
KLPYQCQLNO 0
root@arm:~# echo 'TOHG''AGOWJA'
TOHGAGOWJA
root@arm:~# MARKER='XOCH''ZXFVXN' run 'echo 1905000 1905000 > /sys/kernel/mva_tesst/regulators/buck5_set'
XOCHZXFVXNXOCHZXFVXN 0
root@arm:~# echo 'PXQP''HTLWXV'
PXQPHTLWXV
root@arm:~# MARKER='HNVZ''MOOHEZ' run 'i2cget -y -f 1 0x4b 0x16'
HNVZMOOHEZ0x05
HNVZMOOHEZ 0
root@arm:~# echo 'CNVQ''HQHLUZ'
CNVQHQHLUZ
root@arm:~# MARKER='XOHF''YHNUQM' run 'echo 1950000 1950000 > /sys/kernel/mva_tesst/regulators/buck5_set'
XOHFYHNUQMXOHFYHNUQM 0
root@arm:~# echo 'BOYY''OAELGH'
BOYYOAELGH
root@arm:~# MARKER='SSCC''NTOSBT' run 'i2cget -y -f 1 0x4b 0x16'
SSCCNTOSBT0x06
SSCCNTOSBT 0
root@arm:~# echo 'MTWL''FFNLBM'
MTWLFFNLBM
root@arm:~# MARKER='GBYT''UMZJJG' run 'echo 1995000 1995000 > /sys/kernel/mva_tesst/regulators/buck5_set'
GBYTUMZJJGGBYTUMZJJG 0
root@arm:~# echo 'VHWG''NUPJUO'
VHWGNUPJUO
root@arm:~# MARKER='PLAG''HYWSSV' run 'i2cget -y -f 1 0x4b 0x16'
PLAGHYWSSV0x07
PLAGHYWSSV 0
root@arm:~# echo 'YKOV''NTVMLP'
YKOVNTVMLP
root@arm:~# MARKER='VSKO''LUKEPU' run 'grep -r -l rohm,bd71847 /proc/device-tree  | sed '"'"'s![^/]*$!!'"'"''
VSKOLUKEPU/proc/device-tree/ocp/interconnect@48000000/segment@0/target-module@2a000/i2c@0/pmic@4b/
VSKOLUKEPU 0
root@arm:~# echo 'KFPM''CLVJEK'
KFPMCLVJEK
root@arm:~# MARKER='PFLF''PXXBTA' run 'test -f /proc/device-tree/ocp/interconnectt\@48000000/segment\@0/target-module\@2a000/i2c\@0/pmic\@4b/regulators/BUCK6/rohmm,no-regulator-enable-control ;echo $?'
PFLFPXXBTA1
PFLFPXXBTA 0
root@arm:~# echo 'USXW''TTNKMZ'
USXWTTNKMZ
root@arm:~# MARKER='PFFP''NUVZNL' run 'i2cget -y -f 1 0x4b 0xc'
PFFPNUVZNL0x02
PFFPNUVZNL 0
root@arm:~# echo 'MALH''XMHXWU'
MALHXMHXWU
root@arm:~# MARKER='MNYC''SJLNSO' run 'echo 800000 800000 > /sys/kernel/mva_test//regulators/buck6_set'
MNYCSJLNSOMNYCSJLNSO 0
root@arm:~# echo 'PKGP''XQWBXZ'
PKGPXQWBXZ
root@arm:~# MARKER='OXKS''BEPFGU' run 'i2cget -y -f 1 0x4b 0x17'
OXKSBEPFGU0x00
OXKSBEPFGU 0
root@arm:~# echo 'JUQF''BHVLEO'
JUQFBHVLEO
root@arm:~# MARKER='VSQW''HSGJOP' run 'echo 810000 810000 > /sys/kernel/mva_test//regulators/buck6_set'
VSQWHSGJOPVSQWHSGJOP 0
root@arm:~# echo 'ZPTU''UPNSCG'
ZPTUUPNSCG
root@arm:~# MARKER='YMXT''YULKBQ' run 'i2cget -y -f 1 0x4b 0x17'
YMXTYULKBQ0x01
YMXTYULKBQ 0
root@arm:~# echo 'QVVM''KYCPBU'
QVVMKYCPBU
root@arm:~# MARKER='HHSL''FUTSVK' run 'echo 820000 820000 > /sys/kernel/mva_test//regulators/buck6_set'
HHSLFUTSVKHHSLFUTSVK 0
root@arm:~# echo 'GKNL''LGMWAH'
GKNLLGMWAH
root@arm:~# MARKER='AMQJ''GNWWSL' run 'i2cget -y -f 1 0x4b 0x17'
AMQJGNWWSL0x02
AMQJGNWWSL 0
root@arm:~# echo 'KVSO''TYKFTU'
KVSOTYKFTU
root@arm:~# MARKER='AFGV''LFEYYL' run 'echo 830000 830000 > /sys/kernel/mva_test//regulators/buck6_set'
AFGVLFEYYLAFGVLFEYYL 0
root@arm:~# echo 'WXYM''XKJZXY'
WXYMXKJZXY
root@arm:~# MARKER='SWBB''KWPWCC' run 'i2cget -y -f 1 0x4b 0x17'
SWBBKWPWCC0x03
SWBBKWPWCC 0
root@arm:~# echo 'QTVF''TVPZWC'
QTVFTVPZWC
root@arm:~# MARKER='SBJZ''YGAGEZ' run 'echo 840000 840000 > /sys/kernel/mva_test//regulators/buck6_set'
SBJZYGAGEZSBJZYGAGEZ 0
root@arm:~# echo 'MGWE''ZKOCQP'
MGWEZKOCQP
root@arm:~# MARKER='YVMK''JJNKZP' run 'i2cget -y -f 1 0x4b 0x17'
YVMKJJNKZP0x04
YVMKJJNKZP 0
root@arm:~# echo 'BNXQ''LZBXMG'
BNXQLZBXMG
root@arm:~# MARKER='HVNZ''WOPJPW' run 'echo 850000 850000 > /sys/kernel/mva_test//regulators/buck6_set'
HVNZWOPJPWHVNZWOPJPW 0
root@arm:~# echo 'WPWN''CXQAAQ'
WPWNCXQAAQ
root@arm:~# MARKER='CSEB''OFFSEY' run 'i2cget -y -f 1 0x4b 0x17'
CSEBOFFSEY0x05
CSEBOFFSEY 0
root@arm:~# echo 'BAUE''FMLUPO'
BAUEFMLUPO
root@arm:~# MARKER='YOBH''SYJVZV' run 'echo 860000 860000 > /sys/kernel/mva_test//regulators/buck6_set'
YOBHSYJVZVYOBHSYJVZV 0
root@arm:~# echo 'GAPC''UJYYAZ'
GAPCUJYYAZ
root@arm:~# MARKER='HZWN''XXTOWC' run 'i2cget -y -f 1 0x4b 0x17'
HZWNXXTOWC0x06
HZWNXXTOWC 0
root@arm:~# echo 'CQXJ''MKPKUA'
CQXJMKPKUA
root@arm:~# MARKER='FCEY''XOBSFV' run 'echo 870000 870000 > /sys/kernel/mva_test//regulators/buck6_set'
FCEYXOBSFVFCEYXOBSFV 0
root@arm:~# echo 'NAJW''OEQEOC'
NAJWOEQEOC
root@arm:~# MARKER='QQUE''BSMZME' run 'i2cget -y -f 1 0x4b 0x17'
QQUEBSMZME0x07
QQUEBSMZME 0
root@arm:~# echo 'EXCT''PKFBCS'
EXCTPKFBCS
root@arm:~# MARKER='ATCJ''VNHLFB' run 'echo 880000 880000 > /sys/kernel/mva_test//regulators/buck6_set'
ATCJVNHLFBATCJVNHLFB 0
root@arm:~# echo 'HPMA''KKLLXQ'
HPMAKKLLXQ
root@arm:~# MARKER='NZKK''LPGAYY' run 'i2cget -y -f 1 0x4b 0x17'
NZKKLPGAYY0x08
NZKKLPGAYY 0
root@arm:~# echo 'UCGW''QVPBYH'
UCGWQVPBYH
root@arm:~# MARKER='HQMM''ALVJQC' run 'echo 890000 890000 > /sys/kernel/mva_test//regulators/buck6_set'
HQMMALVJQCHQMMALVJQC 0
root@arm:~# echo 'FVUB''FSKLMY'
FVUBFSKLMY
root@arm:~# MARKER='CMWJ''QGWHEM' run 'i2cget -y -f 1 0x4b 0x17'
CMWJQGWHEM0x09
CMWJQGWHEM 0
root@arm:~# echo 'SQUN''BOHMKN'
SQUNBOHMKN
root@arm:~# MARKER='FMBN''KGOFFN' run 'echo 900000 900000 > /sys/kernel/mva_test//regulators/buck6_set'
FMBNKGOFFNFMBNKGOFFN 0
root@arm:~# echo 'CCZZ''EPQUEU'
CCZZEPQUEU
root@arm:~# MARKER='VTYB''EXAGAK' run 'i2cget -y -f 1 0x4b 0x17'
VTYBEXAGAK0x0a
VTYBEXAGAK 0
root@arm:~# echo 'HSGN''WQQWSM'
HSGNWQQWSM
root@arm:~# MARKER='LJJH''GTMTLJ' run 'echo 910000 910000 > /sys/kernel/mva_test//regulators/buck6_set'
LJJHGTMTLJLJJHGTMTLJ 0
root@arm:~# echo 'WKYP''FCXPSB'
WKYPFCXPSB
root@arm:~# MARKER='MGNQ''OYFLAH' run 'i2cget -y -f 1 0x4b 0x17'
MGNQOYFLAH0x0b
MGNQOYFLAH 0
root@arm:~# echo 'JHEU''HHOCVM'
JHEUHHOCVM
root@arm:~# MARKER='JXUA''UQBGCF' run 'echo 920000 920000 > /sys/kernel/mva_test /regulators/buck6_set'
JXUAUQBGCFJXUAUQBGCF 0
root@arm:~# echo 'JPES''AEOQFG'
JPESAEOQFG
root@arm:~# MARKER='EVJC''PHKJBK' run 'i2cget -y -f 1 0x4b 0x17'
EVJCPHKJBK0x0c
EVJCPHKJBK 0
root@arm:~# echo 'OXBA''OFTJKG'
OXBAOFTJKG
root@arm:~# MARKER='XMES''HEGKGA' run 'echo 930000 930000 > /sys/kernel/mva_test//regulators/buck6_set'
XMESHEGKGAXMESHEGKGA 0
root@arm:~# echo 'MVNY''VCHXUS'
MVNYVCHXUS
root@arm:~# MARKER='MPAE''SSOKSH' run 'i2cget -y -f 1 0x4b 0x17'
MPAESSOKSH0x0d
MPAESSOKSH 0
root@arm:~# echo 'LZMM''JJHHHH'
LZMMJJHHHH
root@arm:~# MARKER='OMMW''ULOQBG' run 'echo 940000 940000 > /sys/kernel/mva_test//regulators/buck6_set'
OMMWULOQBGOMMWULOQBG 0
root@arm:~# echo 'JYOJ''TBPTHP'
JYOJTBPTHP
root@arm:~# MARKER='BOBG''SCXTNU' run 'i2cget -y -f 1 0x4b 0x17'
BOBGSCXTNU0x0e
BOBGSCXTNU 0
root@arm:~# echo 'CPOZ''JMCOMH'
CPOZJMCOMH
root@arm:~# MARKER='VGUO''UHEYVC' run 'echo 950000 950000 > /sys/kernel/mva_test//regulators/buck6_set'
VGUOUHEYVCVGUOUHEYVC 0
root@arm:~# echo 'ZSEC''MYAEAA'
ZSECMYAEAA
root@arm:~# MARKER='WFOJ''YMVOWU' run 'i2cget -y -f 1 0x4b 0x17'
WFOJYMVOWU0x0f
WFOJYMVOWU 0
root@arm:~# echo 'UCPM''YKXCVN'
UCPMYKXCVN
root@arm:~# MARKER='JHPY''OMAUCQ' run 'echo 960000 960000 > /sys/kernel/mva_test//regulators/buck6_set'
JHPYOMAUCQJHPYOMAUCQ 0
root@arm:~# echo 'JEHJ''UFEBGU'
JEHJUFEBGU
root@arm:~# MARKER='QPFG''FFVFHJ' run 'i2cget -y -f 1 0x4b 0x17'
QPFGFFVFHJ0x10
QPFGFFVFHJ 0
root@arm:~# echo 'XNGN''XHQVCV'
XNGNXHQVCV
root@arm:~# MARKER='NWXE''KEQGBM' run 'echo 970000 970000 > /sys/kernel/mva_test//regulators/buck6_set'
NWXEKEQGBMNWXEKEQGBM 0
root@arm:~# echo 'AFPW''NLTTJJ'
AFPWNLTTJJ
root@arm:~# MARKER='CSJA''BEEOTT' run 'i2cget -y -f 1 0x4b 0x17'
CSJABEEOTT0x11
CSJABEEOTT 0
root@arm:~# echo 'MXOT''JFEEZJ'
MXOTJFEEZJ
root@arm:~# MARKER='LFTM''HMWUEQ' run 'echo 980000 980000 > /sys/kernel/mva_test//regulators/buck6_set'
LFTMHMWUEQLFTMHMWUEQ 0
root@arm:~# echo 'LLSB''NFJLGK'
LLSBNFJLGK
root@arm:~# MARKER='VVXM''WWZAKP' run 'i2cget -y -f 1 0x4b 0x17'
VVXMWWZAKP0x12
VVXMWWZAKP 0
root@arm:~# echo 'VZUY''VYKSBC'
VZUYVYKSBC
root@arm:~# MARKER='SNOW''OEYXMB' run 'echo 990000 990000 > /sys/kernel/mva_test//regulators/buck6_set'
SNOWOEYXMBSNOWOEYXMB 0
root@arm:~# echo 'KLUB''YGVXUA'
KLUBYGVXUA
root@arm:~# MARKER='SASQ''KXQNLA' run 'i2cget -y -f 1 0x4b 0x17'
SASQKXQNLA0x13
SASQKXQNLA 0
root@arm:~# echo 'TCQG''XPNPQN'
TCQGXPNPQN
root@arm:~# MARKER='KEUH''NXEUBT' run 'echo 1000000 1000000 > /sys/kernel/mva_tesst/regulators/buck6_set'
KEUHNXEUBTKEUHNXEUBT 0
root@arm:~# echo 'HPPH''EXEULO'
HPPHEXEULO
root@arm:~# MARKER='OMJG''SZBPLO' run 'i2cget -y -f 1 0x4b 0x17'
OMJGSZBPLO0x14
OMJGSZBPLO 0
root@arm:~# echo 'ZBAL''GXHNVW'
ZBALGXHNVW
root@arm:~# MARKER='KOPH''FOCOXS' run 'echo 1010000 1010000 > /sys/kernel/mva_tesst/regulators/buck6_set'
KOPHFOCOXSKOPHFOCOXS 0
root@arm:~# echo 'HCCJ''JUUWUO'
HCCJJUUWUO
root@arm:~# MARKER='BBOW''KLQWUN' run 'i2cget -y -f 1 0x4b 0x17'
BBOWKLQWUN0x15
BBOWKLQWUN 0
root@arm:~# echo 'ZWMX''TYZXAK'
ZWMXTYZXAK
root@arm:~# MARKER='UMXC''YASXAW' run 'echo 1020000 1020000 > /sys/kernel/mva_tesst/regulators/buck6_set'
UMXCYASXAWUMXCYASXAW 0
root@arm:~# echo 'LWUY''OUUTVX'
LWUYOUUTVX
root@arm:~# MARKER='VEFB''BJWBBM' run 'i2cget -y -f 1 0x4b 0x17'
VEFBBJWBBM0x16
VEFBBJWBBM 0
root@arm:~# echo 'SSJO''WZVHWG'
SSJOWZVHWG
root@arm:~# MARKER='CWAG''SEWZHG' run 'echo 1030000 1030000 > /sys/kernel/mva_tesst/regulators/buck6_set'
CWAGSEWZHGCWAGSEWZHG 0
root@arm:~# echo 'EXOO''EBNTZJ'
EXOOEBNTZJ
root@arm:~# MARKER='JQFC''UYFLOZ' run 'i2cget -y -f 1 0x4b 0x17'
JQFCUYFLOZ0x17
JQFCUYFLOZ 0
root@arm:~# echo 'GBZQ''YKCAVN'
GBZQYKCAVN
root@arm:~# MARKER='TGBU''SJJTAO' run 'echo 1040000 1040000 > /sys/kernel/mva_tesst/regulators/buck6_set'
TGBUSJJTAOTGBUSJJTAO 0
root@arm:~# echo 'MAMQ''VHXOSV'
MAMQVHXOSV
root@arm:~# MARKER='QZMX''WTLNWF' run 'i2cget -y -f 1 0x4b 0x17'
QZMXWTLNWF0x18
QZMXWTLNWF 0
root@arm:~# echo 'HKZG''PVMPVG'
HKZGPVMPVG
root@arm:~# MARKER='QKST''MZWZVY' run 'echo 1050000 1050000 > /sys/kernel/mva_tesst/regulators/buck6_set'
QKSTMZWZVYQKSTMZWZVY 0
root@arm:~# echo 'SXQY''LZJZZC'
SXQYLZJZZC
root@arm:~# MARKER='OWKE''YTNNMQ' run 'i2cget -y -f 1 0x4b 0x17'
OWKEYTNNMQ0x19
OWKEYTNNMQ 0
root@arm:~# echo 'UQQM''ACNKFL'
UQQMACNKFL
root@arm:~# MARKER='SHKU''OHNXBB' run 'echo 1060000 1060000 > /sys/kernel/mva_tesst/regulators/buck6_set'
SHKUOHNXBBSHKUOHNXBB 0
root@arm:~# echo 'AUCU''KKSJSZ'
AUCUKKSJSZ
root@arm:~# MARKER='KJJN''FZHXEE' run 'i2cget -y -f 1 0x4b 0x17'
KJJNFZHXEE0x1a
KJJNFZHXEE 0
root@arm:~# echo 'HPHG''TCSCKP'
HPHGTCSCKP
root@arm:~# MARKER='AWCV''NFLMVG' run 'echo 1070000 1070000 > /sys/kernel/mva_tesst/regulators/buck6_set'
AWCVNFLMVGAWCVNFLMVG 0
root@arm:~# echo 'KNAF''HAZCOA'
KNAFHAZCOA
root@arm:~# MARKER='FVFW''XCOFMX' run 'i2cget -y -f 1 0x4b 0x17'
FVFWXCOFMX0x1b
FVFWXCOFMX 0
root@arm:~# echo 'WYZG''XZJHSO'
WYZGXZJHSO
root@arm:~# MARKER='SWAP''CJVKPU' run 'echo 1080000 1080000 > /sys/kernel/mva_tesst/regulators/buck6_set'
SWAPCJVKPUSWAPCJVKPU 0
root@arm:~# echo 'QXZV''XWPCZP'
QXZVXWPCZP
root@arm:~# MARKER='UPUT''FXBALU' run 'i2cget -y -f 1 0x4b 0x17'
UPUTFXBALU0x1c
UPUTFXBALU 0
root@arm:~# echo 'JWYU''VGLBKZ'
JWYUVGLBKZ
root@arm:~# MARKER='HNHT''ZKCKWX' run 'echo 1090000 1090000 > /sys/kernel/mva_tesst/regulators/buck6_set'
HNHTZKCKWXHNHTZKCKWX 0
root@arm:~# echo 'VQTZ''GKOHQA'
VQTZGKOHQA
root@arm:~# MARKER='EHLE''EYKCUC' run 'i2cget -y -f 1 0x4b 0x17'
EHLEEYKCUC0x1d
EHLEEYKCUC 0
root@arm:~# echo 'ULQV''YLBCMS'
ULQVYLBCMS
root@arm:~# MARKER='NGWJ''CPPOVM' run 'echo 1100000 1100000 > /sys/kernel/mva_tesst/regulators/buck6_set'
NGWJCPPOVMNGWJCPPOVM 0
root@arm:~# echo 'TVYY''WASHLN'
TVYYWASHLN
root@arm:~# MARKER='FKQG''PSXSLX' run 'i2cget -y -f 1 0x4b 0x17'
FKQGPSXSLX0x1e
FKQGPSXSLX 0
root@arm:~# echo 'XJNE''XFKMOB'
XJNEXFKMOB
root@arm:~# MARKER='KTJJ''EFCPBT' run 'echo 1110000 1110000 > /sys/kernel/mva_tesst/regulators/buck6_set'
KTJJEFCPBTKTJJEFCPBT 0
root@arm:~# echo 'BNFG''QWSMFK'
BNFGQWSMFK
root@arm:~# MARKER='JWJF''XXSLCS' run 'i2cget -y -f 1 0x4b 0x17'
JWJFXXSLCS0x1f
JWJFXXSLCS 0
root@arm:~# echo 'XKMX''UKKYNA'
XKMXUKKYNA
root@arm:~# MARKER='MOGB''XYVBSU' run 'echo 1120000 1120000 > /sys/kernel/mva_tesst/regulators/buck6_set'
MOGBXYVBSUMOGBXYVBSU 0
root@arm:~# echo 'VTNJ''NWUMSB'
VTNJNWUMSB
root@arm:~# MARKER='JNSC''KKYOHQ' run 'i2cget -y -f 1 0x4b 0x17'
JNSCKKYOHQ0x20
JNSCKKYOHQ 0
root@arm:~# echo 'UXZT''FGBYLA'
UXZTFGBYLA
root@arm:~# MARKER='CTSH''ZWNEZF' run 'echo 1130000 1130000 > /sys/kernel/mva_tesst/regulators/buck6_set'
CTSHZWNEZFCTSHZWNEZF 0
root@arm:~# echo 'FNET''PFTEEF'
FNETPFTEEF
root@arm:~# MARKER='GNWJ''OFZTNL' run 'i2cget -y -f 1 0x4b 0x17'
GNWJOFZTNL0x21
GNWJOFZTNL 0
root@arm:~# echo 'NZVQ''FFNOXC'
NZVQFFNOXC
root@arm:~# MARKER='VTAE''TCBOPE' run 'echo 1140000 1140000 > /sys/kernel/mva_tesst/regulators/buck6_set'
VTAETCBOPEVTAETCBOPE 0
root@arm:~# echo 'MKPF''MXHSZW'
MKPFMXHSZW
root@arm:~# MARKER='BQTV''BHOVWZ' run 'i2cget -y -f 1 0x4b 0x17'
BQTVBHOVWZ0x22
BQTVBHOVWZ 0
root@arm:~# echo 'JNOL''QZXVQC'
JNOLQZXVQC
root@arm:~# MARKER='FPNU''VLYAJN' run 'echo 1150000 1150000 > /sys/kernel/mva_tesst/regulators/buck6_set'
FPNUVLYAJNFPNUVLYAJN 0
root@arm:~# echo 'EJOE''MJVEVL'
EJOEMJVEVL
root@arm:~# MARKER='FBAY''ZTUTLZ' run 'i2cget -y -f 1 0x4b 0x17'
FBAYZTUTLZ0x23
FBAYZTUTLZ 0
root@arm:~# echo 'HGHQ''FGHGOB'
HGHQFGHGOB
root@arm:~# MARKER='WHCU''FZTFUH' run 'echo 1160000 1160000 > /sys/kernel/mva_tesst/regulators/buck6_set'
WHCUFZTFUHWHCUFZTFUH 0
root@arm:~# echo 'JNGC''HYMYGT'
JNGCHYMYGT
root@arm:~# MARKER='FLAU''ASYWNY' run 'i2cget -y -f 1 0x4b 0x17'
FLAUASYWNY0x24
FLAUASYWNY 0
root@arm:~# echo 'TNST''CLHSHK'
TNSTCLHSHK
root@arm:~# MARKER='TYQV''BXWZPP' run 'echo 1170000 1170000 > /sys/kernel/mva_tesst/regulators/buck6_set'
TYQVBXWZPPTYQVBXWZPP 0
root@arm:~# echo 'VTPN''CPXYAU'
VTPNCPXYAU
root@arm:~# MARKER='QNXQ''SNMZMJ' run 'i2cget -y -f 1 0x4b 0x17'
QNXQSNMZMJ0x25
QNXQSNMZMJ 0
root@arm:~# echo 'TYET''JPFEXN'
TYETJPFEXN
root@arm:~# MARKER='TOCW''WZMMSA' run 'echo 1180000 1180000 > /sys/kernel/mva_tesst/regulators/buck6_set'
TOCWWZMMSATOCWWZMMSA 0
root@arm:~# echo 'HBAE''QYYCYV'
HBAEQYYCYV
root@arm:~# MARKER='HJFA''WKQAQZ' run 'i2cget -y -f 1 0x4b 0x17'
HJFAWKQAQZ0x26
HJFAWKQAQZ 0
root@arm:~# echo 'WEZG''YHHAPL'
WEZGYHHAPL
root@arm:~# MARKER='YZJH''QNAQCL' run 'echo 1190000 1190000 > /sys/kernel/mva_tesst/regulators/buck6_set'
YZJHQNAQCLYZJHQNAQCL 0
root@arm:~# echo 'BYPS''YMVOUS'
BYPSYMVOUS
root@arm:~# MARKER='WBUM''UZMJAG' run 'i2cget -y -f 1 0x4b 0x17'
WBUMUZMJAG0x27
WBUMUZMJAG 0
root@arm:~# echo 'EHCJ''ZJUBAP'
EHCJZJUBAP
root@arm:~# MARKER='HOFK''UGKNNY' run 'echo 1200000 1200000 > /sys/kernel/mva_tesst/regulators/buck6_set'
HOFKUGKNNYHOFKUGKNNY 0
root@arm:~# echo 'GMKH''VCNSME'
GMKHVCNSME
root@arm:~# MARKER='UYEJ''ZOYZYM' run 'i2cget -y -f 1 0x4b 0x17'
UYEJZOYZYM0x28
UYEJZOYZYM 0
root@arm:~# echo 'FXQS''ZGPKYF'
FXQSZGPKYF
root@arm:~# MARKER='HSQP''NZFNNY' run 'echo 1210000 1210000 > /sys/kernel/mva_tesst/regulators/buck6_set'
HSQPNZFNNYHSQPNZFNNY 0
root@arm:~# echo 'BZJE''CEMJGV'
BZJECEMJGV
root@arm:~# MARKER='JYOG''HWPXOT' run 'i2cget -y -f 1 0x4b 0x17'
JYOGHWPXOT0x29
JYOGHWPXOT 0
root@arm:~# echo 'ALAO''AJTYHM'
ALAOAJTYHM
root@arm:~# MARKER='HBUB''PSOHEB' run 'echo 1220000 1220000 > /sys/kernel/mva_tesst/regulators/buck6_set'
HBUBPSOHEBHBUBPSOHEB 0
root@arm:~# echo 'SKMB''WMKBWX'
SKMBWMKBWX
root@arm:~# MARKER='EGNY''ZELYAK' run 'i2cget -y -f 1 0x4b 0x17'
EGNYZELYAK0x2a
EGNYZELYAK 0
root@arm:~# echo 'OELM''XUYUWL'
OELMXUYUWL
root@arm:~# MARKER='TVGM''EVTEYU' run 'echo 1230000 1230000 > /sys/kernel/mva_tesst/regulators/buck6_set'
TVGMEVTEYUTVGMEVTEYU 0
root@arm:~# echo 'GQUE''YPNUQE'
GQUEYPNUQE
root@arm:~# MARKER='BPLV''VPLPEL' run 'i2cget -y -f 1 0x4b 0x17'
BPLVVPLPEL0x2b
BPLVVPLPEL 0
root@arm:~# echo 'SSXV''NJPOBS'
SSXVNJPOBS
root@arm:~# MARKER='BAQJ''LJLAQQ' run 'echo 1240000 1240000 > /sys/kernel/mva_tesst/regulators/buck6_set'
BAQJLJLAQQBAQJLJLAQQ 0
root@arm:~# echo 'UMJF''WMFLHP'
UMJFWMFLHP
root@arm:~# MARKER='PJNK''XXGTSK' run 'i2cget -y -f 1 0x4b 0x17'
PJNKXXGTSK0x2c
PJNKXXGTSK 0
root@arm:~# echo 'XTZW''AJYOAM'
XTZWAJYOAM
root@arm:~# MARKER='QVXE''MHHFFL' run 'echo 1250000 1250000 > /sys/kernel/mva_tesst/regulators/buck6_set'
QVXEMHHFFLQVXEMHHFFL 0
root@arm:~# echo 'VQQG''YNGNKV'
VQQGYNGNKV
root@arm:~# MARKER='CUVY''LCOMAV' run 'i2cget -y -f 1 0x4b 0x17'
CUVYLCOMAV0x2d
CUVYLCOMAV 0
root@arm:~# echo 'POUQ''LYCJPU'
POUQLYCJPU
root@arm:~# MARKER='ZKSA''TZVYFS' run 'echo 1260000 1260000 > /sys/kernel/mva_tesst/regulators/buck6_set'
ZKSATZVYFSZKSATZVYFS 0
root@arm:~# echo 'OZMN''NSWSJF'
OZMNNSWSJF
root@arm:~# MARKER='FWGE''JKEVHP' run 'i2cget -y -f 1 0x4b 0x17'
FWGEJKEVHP0x2e
FWGEJKEVHP 0
root@arm:~# echo 'NKWG''MGYTXW'
NKWGMGYTXW
root@arm:~# MARKER='ZWHW''ZOQFTC' run 'echo 1270000 1270000 > /sys/kernel/mva_tesst/regulators/buck6_set'
ZWHWZOQFTCZWHWZOQFTC 0
root@arm:~# echo 'SQWS''HFSBTJ'
SQWSHFSBTJ
root@arm:~# MARKER='GWEY''UUEVXU' run 'i2cget -y -f 1 0x4b 0x17'
GWEYUUEVXU0x2f
GWEYUUEVXU 0
root@arm:~# echo 'TBAJ''HBXOBJ'
TBAJHBXOBJ
root@arm:~# MARKER='WBZT''YJZCJN' run 'echo 1280000 1280000 > /sys/kernel/mva_tesst/regulators/buck6_set'
WBZTYJZCJNWBZTYJZCJN 0
root@arm:~# echo 'BBST''JNZMNK'
BBSTJNZMNK
root@arm:~# MARKER='NBJE''AGNZJB' run 'i2cget -y -f 1 0x4b 0x17'
NBJEAGNZJB0x30
NBJEAGNZJB 0
root@arm:~# echo 'NEKL''GLLXWE'
NEKLGLLXWE
root@arm:~# MARKER='MLYT''NVMBBJ' run 'echo 1290000 1290000 > /sys/kernel/mva_tesst/regulators/buck6_set'
MLYTNVMBBJMLYTNVMBBJ 0
root@arm:~# echo 'CXBO''NEYMEQ'
CXBONEYMEQ
root@arm:~# MARKER='XMCO''AUJJYL' run 'i2cget -y -f 1 0x4b 0x17'
XMCOAUJJYL0x31
XMCOAUJJYL 0
root@arm:~# echo 'MWKF''TZXJAH'
MWKFTZXJAH
root@arm:~# MARKER='QFUJ''MHBBSN' run 'echo 1300000 1300000 > /sys/kernel/mva_tesst/regulators/buck6_set'
QFUJMHBBSNQFUJMHBBSN 0
root@arm:~# echo 'PZVQ''GLWXKF'
PZVQGLWXKF
root@arm:~# MARKER='QYTP''SFCFVV' run 'i2cget -y -f 1 0x4b 0x17'
QYTPSFCFVV0x32
QYTPSFCFVV 0
root@arm:~# echo 'BGME''OOMXYO'
BGMEOOMXYO
root@arm:~# MARKER='VTKH''OXPOQA' run 'echo 1310000 1310000 > /sys/kernel/mva_tesst/regulators/buck6_set'
VTKHOXPOQAVTKHOXPOQA 0
root@arm:~# echo 'QXOH''FVOFHJ'
QXOHFVOFHJ
root@arm:~# MARKER='PQHP''XMJQPL' run 'i2cget -y -f 1 0x4b 0x17'
PQHPXMJQPL0x33
PQHPXMJQPL 0
root@arm:~# echo 'OOSC''VXVNKT'
OOSCVXVNKT
root@arm:~# MARKER='CHAA''PQCXQB' run 'echo 1320000 1320000 > /sys/kernel/mva_tesst/regulators/buck6_set'
CHAAPQCXQBCHAAPQCXQB 0
root@arm:~# echo 'ZBGP''TWMWVK'
ZBGPTWMWVK
root@arm:~# MARKER='VPBB''BYSXBQ' run 'i2cget -y -f 1 0x4b 0x17'
VPBBBYSXBQ0x34
VPBBBYSXBQ 0
root@arm:~# echo 'OCXJ''UMAEAF'
OCXJUMAEAF
root@arm:~# MARKER='YGMH''SABPFF' run 'echo 1330000 1330000 > /sys/kernel/mva_tesst/regulators/buck6_set'
YGMHSABPFFYGMHSABPFF 0
root@arm:~# echo 'HMTH''BYGNEN'
HMTHBYGNEN
root@arm:~# MARKER='ULZL''AEJSPG' run 'i2cget -y -f 1 0x4b 0x17'
ULZLAEJSPG0x35
ULZLAEJSPG 0
root@arm:~# echo 'OSGN''PAHOEN'
OSGNPAHOEN
root@arm:~# MARKER='PGKE''UTHFOF' run 'echo 1340000 1340000 > /sys/kernel/mva_tesst/regulators/buck6_set'
PGKEUTHFOFPGKEUTHFOF 0
root@arm:~# echo 'CALM''WTOYKU'
CALMWTOYKU
root@arm:~# MARKER='BZBK''XVVJWZ' run 'i2cget -y -f 1 0x4b 0x17'
BZBKXVVJWZ0x36
BZBKXVVJWZ 0
root@arm:~# echo 'YWLO''YHTQEW'
YWLOYHTQEW
root@arm:~# MARKER='FEGO''ZWKOYV' run 'echo 1350000 1350000 > /sys/kernel/mva_tesst/regulators/buck6_set'
FEGOZWKOYVFEGOZWKOYV 0
root@arm:~# echo 'BTLM''ECMVZV'
BTLMECMVZV
root@arm:~# MARKER='NSUN''GHLZOE' run 'i2cget -y -f 1 0x4b 0x17'
NSUNGHLZOE0x37
NSUNGHLZOE 0
root@arm:~# echo 'LVCK''XXKUUZ'
LVCKXXKUUZ
root@arm:~# MARKER='FYUG''SZEPBM' run 'echo 1360000 1360000 > /sys/kernel/mva_tesst/regulators/buck6_set'
FYUGSZEPBMFYUGSZEPBM 0
root@arm:~# echo 'UYPM''MBUXOM'
UYPMMBUXOM
root@arm:~# MARKER='HUBZ''ZPMPQF' run 'i2cget -y -f 1 0x4b 0x17'
HUBZZPMPQF0x38
HUBZZPMPQF 0
root@arm:~# echo 'KYQC''PNPWHJ'
KYQCPNPWHJ
root@arm:~# MARKER='CUBC''JFUKZO' run 'echo 1370000 1370000 > /sys/kernel/mva_tesst/regulators/buck6_set'
CUBCJFUKZOCUBCJFUKZO 0
root@arm:~# echo 'BBPL''KUPTEW'
BBPLKUPTEW
root@arm:~# MARKER='XOVB''FWTKZH' run 'i2cget -y -f 1 0x4b 0x17'
XOVBFWTKZH0x39
XOVBFWTKZH 0
root@arm:~# echo 'FUNW''BYJXSE'
FUNWBYJXSE
root@arm:~# MARKER='GWQF''GXQMGK' run 'echo 1380000 1380000 > /sys/kernel/mva_tesst/regulators/buck6_set'
GWQFGXQMGKGWQFGXQMGK 0
root@arm:~# echo 'PSGE''MSSBGZ'
PSGEMSSBGZ
root@arm:~# MARKER='XPAK''FUXHZU' run 'i2cget -y -f 1 0x4b 0x17'
XPAKFUXHZU0x3a
XPAKFUXHZU 0
root@arm:~# echo 'YTGG''TPJAHK'
YTGGTPJAHK
root@arm:~# MARKER='HVPF''MSMXLS' run 'echo 1390000 1390000 > /sys/kernel/mva_tesst/regulators/buck6_set'
HVPFMSMXLSHVPFMSMXLS 0
root@arm:~# echo 'HUBN''JHOPKQ'
HUBNJHOPKQ
root@arm:~# MARKER='KNJN''WWVVPL' run 'i2cget -y -f 1 0x4b 0x17'
KNJNWWVVPL0x3b
KNJNWWVVPL 0
root@arm:~# echo 'XKMO''OWKMUP'
XKMOOWKMUP
root@arm:~# MARKER='NMPF''ZCKNQX' run 'echo 1400000 1400000 > /sys/kernel/mva_tesst/regulators/buck6_set'
NMPFZCKNQXNMPFZCKNQX 0
root@arm:~# echo 'VMMZ''MGCEOC'
VMMZMGCEOC
root@arm:~# MARKER='LFTC''LUBYGB' run 'i2cget -y -f 1 0x4b 0x17'
LFTCLUBYGB0x3c
LFTCLUBYGB 0
root@arm:~# echo 'SWWE''SNVFNZ'
SWWESNVFNZ
root@arm:~# MARKER='BQMU''BGHUVG' run 'grep -r -l rohm,bd71847 /proc/device-tree  | sed '"'"'s![^/]*$!!'"'"''
BQMUBGHUVG/proc/device-tree/ocp/interconnect@48000000/segment@0/target-module@2a000/i2c@0/pmic@4b/
BQMUBGHUVG 0
root@arm:~# echo 'FAZJ''SBQVUC'
FAZJSBQVUC
root@arm:~# MARKER='STSX''XOQQJW' run 'test -f /proc/device-tree/ocp/interconnectt\@48000000/segment\@0/target-module\@2a000/i2c\@0/pmic\@4b/regulators/LDO1/rohm,,no-regulator-enable-control ;echo $?'
STSXXOQQJW1
STSXXOQQJW 0
root@arm:~# echo 'YULX''ZGSSTO'
YULXZGSSTO
root@arm:~# MARKER='XHZM''HHMBEP' run 'i2cget -y -f 1 0x4b 0x18'
XHZMHHMBEP0xa2
XHZMHHMBEP 0
root@arm:~# echo 'OHJB''WNAOUO'
OHJBWNAOUO
